# vsim -c -coverage -sv_seed 51436180 "+UVM_TESTNAME=ahb_single_transfer_test" "+UVM_VERBOSITY=UVM_HIGH" "+DUMP_VCD" -l ./report/logs/ahb_single_transfer_test_run_3_seed_51436180.log -do "coverage save -onexit ./report/coverage/ahb_single_transfer_test_run_3_seed_51436180.ucdb; run -all; quit -f" opt_tb_top 
# Start time: 10:22:30 on Aug 03,2026
# //  Questa Sim-64
# //  Version 10.6b linux_x86_64 May 25 2017
# //
# //  Copyright 1991-2017 Mentor Graphics Corporation
# //  All Rights Reserved.
# //
# //  QuestaSim and its associated documentation contain trade
# //  secrets and commercial or financial information that are the property of
# //  Mentor Graphics Corporation and are privileged, confidential,
# //  and exempt from disclosure under the Freedom of Information Act,
# //  5 U.S.C. Section 552. Furthermore, this information
# //  is prohibited from disclosure under the Trade Secrets Act,
# //  18 U.S.C. Section 1905.
# //
# Loading sv_std.std
# Loading work.ahb_if(fast)
# Loading mtiUvm.uvm_pkg
# Loading work.ahb_pkg(fast)
# Loading work.ahb_seq_pkg(fast)
# Loading work.ahb_test_pkg(fast)
# Loading work.tb_top(fast)
# Loading work.ahb_if(fast)
# Loading work.ahb_sva(fast)
# Loading mtiUvm.questa_uvm_pkg(fast)
# Loading /cadtools/mentor/Questa_10.6b/questasim/uvm-1.1d/linux_x86_64/uvm_dpi.so
# coverage save -onexit ./report/coverage/ahb_single_transfer_test_run_3_seed_51436180.ucdb
#  run -all
# ----------------------------------------------------------------
# UVM-1.1d
# (C) 2007-2013 Mentor Graphics Corporation
# (C) 2007-2013 Cadence Design Systems, Inc.
# (C) 2006-2013 Synopsys, Inc.
# (C) 2011-2013 Cypress Semiconductor Corp.
# ----------------------------------------------------------------
# 
#   ***********       IMPORTANT RELEASE NOTES         ************
# 
#   You are using a version of the UVM library that has been compiled
#   with `UVM_NO_DEPRECATED undefined.
#   See http://www.eda.org/svdb/view.php?id=3313 for more details.
# 
#   You are using a version of the UVM library that has been compiled
#   with `UVM_OBJECT_MUST_HAVE_CONSTRUCTOR undefined.
#   See http://www.eda.org/svdb/view.php?id=3770 for more details.
# 
#       (Specify +UVM_NO_RELNOTES to turn off this notice)
# 
# UVM_INFO verilog_src/questa_uvm_pkg-1.2/src/questa_uvm_pkg.sv(215) @ 0: reporter [Questa UVM] QUESTA_UVM-1.2.3
# UVM_INFO verilog_src/questa_uvm_pkg-1.2/src/questa_uvm_pkg.sv(217) @ 0: reporter [Questa UVM]  questa_uvm::init(+struct)
# UVM_INFO ../src/tb_top.sv(126) @ 0: reporter [TB_TOP] Virtual interface set in config_db
# UVM_INFO @ 0: reporter [RNTST] Running test ahb_single_transfer_test...
# UVM_INFO ../src/tb_top.sv(140) @ 0: reporter [TB_TOP] Waveform VCD dumping enabled (ahb_lite_vip.vcd)
# UVM_INFO ../src/env/ahb_vip_env.sv(64) @ 0: uvm_test_top.env [ahb_vip_env] slave_vif not set - reusing master_vif (passthrough mode)
# UVM_INFO ../src/env/ahb_vip_env.sv(72) @ 0: uvm_test_top.env [ahb_vip_env] Scoreboard created
# UVM_INFO ../src/env/ahb_vip_env.sv(78) @ 0: uvm_test_top.env [ahb_vip_env] Coverage collectors created
# UVM_INFO ../src/mst/ahb_master_agent.sv(61) @ 0: uvm_test_top.env.master_agent [ahb_master_agent] ACTIVE mode - driver + sequencer created
# UVM_INFO ../src/slv/ahb_slave_agent.sv(64) @ 0: uvm_test_top.env.slave_agent [ahb_slave_agent] ACTIVE mode - driver + sequencer created (    auto responses)
# UVM_INFO ../src/env/ahb_vip_env.sv(92) @ 0: uvm_test_top.env [ahb_vip_env] Scoreboard connected: master_mon.ap -> scb, slave_mon.ap -> scb
# UVM_INFO ../src/env/ahb_vip_env.sv(99) @ 0: uvm_test_top.env [ahb_vip_env] Coverage connected: master_mon.ap -> master_cov, slave_mon.ap -> slave_cov
# UVM_INFO @ 0: reporter [UVMTOP] UVM testbench topology:
# ----------------------------------------------------------------
# Name                       Type                      Size  Value
# ----------------------------------------------------------------
# uvm_test_top               ahb_single_transfer_test  -     @475 
#   env                      ahb_vip_env               -     @490 
#     master_agent           ahb_master_agent          -     @505 
#       drv                  ahb_master_driver         -     @570 
#         rsp_port           uvm_analysis_port         -     @585 
#         seq_item_port      uvm_seq_item_pull_port    -     @577 
#       mon                  ahb_master_monitor        -     @563 
#         ap                 uvm_analysis_port         -     @704 
#       sqr                  ahb_master_sequencer      -     @593 
#         rsp_export         uvm_analysis_export       -     @600 
#         seq_item_export    uvm_seq_item_pull_imp     -     @694 
#         arbitration_queue  array                     0     -    
#         lock_queue         array                     0     -    
#         num_last_reqs      integral                  32    'd1  
#         num_last_rsps      integral                  32    'd1  
#     master_cov             ahb_coverage              -     @526 
#       analysis_imp         uvm_analysis_imp          -     @533 
#     scb                    ahb_scoreboard            -     @519 
#       master_export        uvm_analysis_imp_master   -     @718 
#       slave_export         uvm_analysis_imp_slave    -     @726 
#     slave_agent            ahb_slave_agent           -     @512 
#       drv                  ahb_slave_driver          -     @748 
#         rsp_port           uvm_analysis_port         -     @763 
#         seq_item_port      uvm_seq_item_pull_port    -     @755 
#       mon                  ahb_slave_monitor         -     @741 
#         ap                 uvm_analysis_port         -     @882 
#       sqr                  ahb_slave_sequencer       -     @771 
#         rsp_export         uvm_analysis_export       -     @778 
#         seq_item_export    uvm_seq_item_pull_imp     -     @872 
#         arbitration_queue  array                     0     -    
#         lock_queue         array                     0     -    
#         num_last_reqs      integral                  32    'd1  
#         num_last_rsps      integral                  32    'd1  
#     slave_cov              ahb_coverage              -     @541 
#       analysis_imp         uvm_analysis_imp          -     @548 
# ----------------------------------------------------------------
# 
# UVM_INFO verilog_src/questa_uvm_pkg-1.2/src/questa_uvm_pkg.sv(277) @ 0: reporter [Questa UVM] End Of Elaboration
# UVM_INFO ../src/mst_seq/ahb_single_seq.sv(48) @ 0: uvm_test_top.env.master_agent.sqr@@seq [ahb_single_seq] Starting SINGLE transfers: 20 iterations from 0x00002000
# UVM_INFO ../src/mst/ahb_master_driver.sv(181) @ 5000: uvm_test_top.env.master_agent.drv [ahb_master_driver] Flushed pending transactions (reset)
# UVM_INFO ../src/tb_top.sv(48) @ 95000: reporter [TB_TOP] Reset de-asserted
# UVM_INFO ../src/slv/ahb_slave_driver.sv(63) @ 95000: uvm_test_top.env.slave_agent.drv [ahb_slave_driver] Reset deasserted - slave driver active (    auto mode)
# UVM_INFO ../src/mst/ahb_master_driver.sv(68) @ 95000: uvm_test_top.env.master_agent.drv [ahb_master_driver] Reset deasserted - master driver active
# UVM_INFO ../src/mst/ahb_master_monitor.sv(75) @ 95000: uvm_test_top.env.master_agent.mon [ahb_master_monitor] Reset deasserted - master monitor active
# UVM_INFO ../src/slv/ahb_slave_monitor.sv(69) @ 95000: uvm_test_top.env.slave_agent.mon [ahb_slave_monitor] Reset deasserted - slave monitor active
# UVM_INFO ../src/mst/ahb_master_driver.sv(82) @ 95000: uvm_test_top.env.master_agent.drv [ahb_master_driver] Queueing [AHB_WRITE]: HADDR=0x00002001, HBURST=AHB_BURST_SINGLE, HSIZE=AHB_SIZE_8B, 1 beats
# UVM_INFO ../src/mst/ahb_master_driver.sv(124) @ 95000: uvm_test_top.env.master_agent.drv [ahb_master_driver] Driving [AHB_WRITE]: HADDR=0x00002001, HBURST=AHB_BURST_SINGLE, HSIZE=AHB_SIZE_8B, 1 beats               
# UVM_INFO ../src/mst/ahb_master_driver.sv(317) @ 115000: uvm_test_top.env.master_agent.drv [ahb_master_driver] Beat[0/1] addr=0x00002001 trans=AHB_TRANS_NONSEQ resp=AHB_RESP_OKAY wdata=0x81c415bb
# UVM_INFO ../src/mst/ahb_master_driver.sv(361) @ 115000: uvm_test_top.env.master_agent.drv [ahb_master_driver] Transaction complete: AHB_WRITE 0x00002001, 1 beats, burst=AHB_BURST_SINGLE
# UVM_INFO ../src/slv/ahb_slave_driver.sv(184) @ 115000: uvm_test_top.env.slave_agent.drv [ahb_slave_driver] Beat AHB_WRITE addr=0x00002001 resp=AHB_RESP_OKAY waits=0 wdata=0x81c415bb
# UVM_INFO ../src/slv/ahb_slave_monitor.sv(197) @ 115000: uvm_test_top.env.slave_agent.mon [ahb_slave_monitor] Observed [AHB_WRITE]: HADDR=0x00002001, HBURST=AHB_BURST_SINGLE, HSIZE=AHB_SIZE_8B, 1 beats
# UVM_INFO ../src/env/ahb_coverage.sv(127) @ 115000: uvm_test_top.env.slave_cov [ahb_coverage] Sampled [AHB_WRITE]: burst=AHB_BURST_SINGLE size=AHB_SIZE_8B beats=1 error=0
# UVM_INFO ../src/mst/ahb_master_monitor.sv(117) @ 115000: uvm_test_top.env.master_agent.mon [ahb_master_monitor] Beat[0] addr=0x00002001 wdata=0x81c415bb resp=AHB_RESP_OKAY
# UVM_INFO ../src/mst/ahb_master_monitor.sv(222) @ 115000: uvm_test_top.env.master_agent.mon [ahb_master_monitor] Observed [AHB_WRITE]: HADDR=0x00002001, HBURST=AHB_BURST_SINGLE, HSIZE=AHB_SIZE_8B, 1 beats
# UVM_INFO ../src/env/ahb_coverage.sv(127) @ 115000: uvm_test_top.env.master_cov [ahb_coverage] Sampled [AHB_WRITE]: burst=AHB_BURST_SINGLE size=AHB_SIZE_8B beats=1 error=0
# UVM_INFO ../src/env/ahb_scoreboard.sv(104) @ 115000: uvm_test_top.env.scb [ahb_scoreboard] MATCH #1: [AHB_WRITE] HADDR=0x00002001 AHB_BURST_SINGLE 1 beats
# UVM_INFO ../src/mst/ahb_master_driver.sv(82) @ 115000: uvm_test_top.env.master_agent.drv [ahb_master_driver] Queueing [AHB_READ]: HADDR=0x00002001, HBURST=AHB_BURST_SINGLE, HSIZE=AHB_SIZE_8B, 1 beats
# UVM_INFO ../src/mst/ahb_master_driver.sv(124) @ 115000: uvm_test_top.env.master_agent.drv [ahb_master_driver] Driving [AHB_READ]: HADDR=0x00002001, HBURST=AHB_BURST_SINGLE, HSIZE=AHB_SIZE_8B, 1 beats               
# UVM_INFO ../src/mst/ahb_master_driver.sv(317) @ 145000: uvm_test_top.env.master_agent.drv [ahb_master_driver] Beat[0/1] addr=0x00002001 trans=AHB_TRANS_NONSEQ resp=AHB_RESP_OKAY rdata=0x81c415bb
# UVM_INFO ../src/mst/ahb_master_driver.sv(361) @ 145000: uvm_test_top.env.master_agent.drv [ahb_master_driver] Transaction complete: AHB_READ 0x00002001, 1 beats, burst=AHB_BURST_SINGLE
# UVM_INFO ../src/slv/ahb_slave_driver.sv(184) @ 145000: uvm_test_top.env.slave_agent.drv [ahb_slave_driver] Beat AHB_READ addr=0x00002001 resp=AHB_RESP_OKAY waits=0 rdata=0x81c415bb
# UVM_INFO ../src/mst/ahb_master_monitor.sv(117) @ 145000: uvm_test_top.env.master_agent.mon [ahb_master_monitor] Beat[0] addr=0x00002001 rdata=0x81c415bb resp=AHB_RESP_OKAY
# UVM_INFO ../src/mst/ahb_master_monitor.sv(222) @ 145000: uvm_test_top.env.master_agent.mon [ahb_master_monitor] Observed [AHB_READ]: HADDR=0x00002001, HBURST=AHB_BURST_SINGLE, HSIZE=AHB_SIZE_8B, 1 beats
# UVM_INFO ../src/env/ahb_coverage.sv(127) @ 145000: uvm_test_top.env.master_cov [ahb_coverage] Sampled [AHB_READ]: burst=AHB_BURST_SINGLE size=AHB_SIZE_8B beats=1 error=0
# UVM_INFO ../src/slv/ahb_slave_monitor.sv(197) @ 145000: uvm_test_top.env.slave_agent.mon [ahb_slave_monitor] Observed [AHB_READ]: HADDR=0x00002001, HBURST=AHB_BURST_SINGLE, HSIZE=AHB_SIZE_8B, 1 beats
# UVM_INFO ../src/env/ahb_scoreboard.sv(104) @ 145000: uvm_test_top.env.scb [ahb_scoreboard] MATCH #2: [AHB_READ] HADDR=0x00002001 AHB_BURST_SINGLE 1 beats
# UVM_INFO ../src/env/ahb_coverage.sv(127) @ 145000: uvm_test_top.env.slave_cov [ahb_coverage] Sampled [AHB_READ]: burst=AHB_BURST_SINGLE size=AHB_SIZE_8B beats=1 error=0
# UVM_INFO ../src/mst_seq/ahb_base_seq.sv(164) @ 145000: uvm_test_top.env.master_agent.sqr@@seq [ahb_single_seq] AHB_BURST_SINGLE AHB_SIZE_8B beat 0 @0x00002001 ok
# UVM_INFO ../src/mst/ahb_master_driver.sv(82) @ 145000: uvm_test_top.env.master_agent.drv [ahb_master_driver] Queueing [AHB_WRITE]: HADDR=0x00002005, HBURST=AHB_BURST_SINGLE, HSIZE=AHB_SIZE_8B, 1 beats
# UVM_INFO ../src/mst/ahb_master_driver.sv(124) @ 145000: uvm_test_top.env.master_agent.drv [ahb_master_driver] Driving [AHB_WRITE]: HADDR=0x00002005, HBURST=AHB_BURST_SINGLE, HSIZE=AHB_SIZE_8B, 1 beats               
# UVM_INFO ../src/mst/ahb_master_driver.sv(317) @ 185000: uvm_test_top.env.master_agent.drv [ahb_master_driver] Beat[0/1] addr=0x00002005 trans=AHB_TRANS_NONSEQ resp=AHB_RESP_OKAY wdata=0x0be4b891
# UVM_INFO ../src/mst/ahb_master_driver.sv(361) @ 185000: uvm_test_top.env.master_agent.drv [ahb_master_driver] Transaction complete: AHB_WRITE 0x00002005, 1 beats, burst=AHB_BURST_SINGLE
# UVM_INFO ../src/slv/ahb_slave_driver.sv(184) @ 185000: uvm_test_top.env.slave_agent.drv [ahb_slave_driver] Beat AHB_WRITE addr=0x00002005 resp=AHB_RESP_OKAY waits=1 wdata=0x0be4b891
# UVM_INFO ../src/mst/ahb_master_monitor.sv(117) @ 185000: uvm_test_top.env.master_agent.mon [ahb_master_monitor] Beat[0] addr=0x00002005 wdata=0x0be4b891 resp=AHB_RESP_OKAY
# UVM_INFO ../src/mst/ahb_master_monitor.sv(222) @ 185000: uvm_test_top.env.master_agent.mon [ahb_master_monitor] Observed [AHB_WRITE]: HADDR=0x00002005, HBURST=AHB_BURST_SINGLE, HSIZE=AHB_SIZE_8B, 1 beats
# UVM_INFO ../src/env/ahb_coverage.sv(127) @ 185000: uvm_test_top.env.master_cov [ahb_coverage] Sampled [AHB_WRITE]: burst=AHB_BURST_SINGLE size=AHB_SIZE_8B beats=1 error=0
# UVM_INFO ../src/slv/ahb_slave_monitor.sv(197) @ 185000: uvm_test_top.env.slave_agent.mon [ahb_slave_monitor] Observed [AHB_WRITE]: HADDR=0x00002005, HBURST=AHB_BURST_SINGLE, HSIZE=AHB_SIZE_8B, 1 beats
# UVM_INFO ../src/env/ahb_scoreboard.sv(104) @ 185000: uvm_test_top.env.scb [ahb_scoreboard] MATCH #3: [AHB_WRITE] HADDR=0x00002005 AHB_BURST_SINGLE 1 beats
# UVM_INFO ../src/env/ahb_coverage.sv(127) @ 185000: uvm_test_top.env.slave_cov [ahb_coverage] Sampled [AHB_WRITE]: burst=AHB_BURST_SINGLE size=AHB_SIZE_8B beats=1 error=0
# UVM_INFO ../src/mst/ahb_master_driver.sv(82) @ 185000: uvm_test_top.env.master_agent.drv [ahb_master_driver] Queueing [AHB_READ]: HADDR=0x00002005, HBURST=AHB_BURST_SINGLE, HSIZE=AHB_SIZE_8B, 1 beats
# UVM_INFO ../src/mst/ahb_master_driver.sv(124) @ 185000: uvm_test_top.env.master_agent.drv [ahb_master_driver] Driving [AHB_READ]: HADDR=0x00002005, HBURST=AHB_BURST_SINGLE, HSIZE=AHB_SIZE_8B, 1 beats               
# UVM_INFO ../src/mst/ahb_master_driver.sv(317) @ 235000: uvm_test_top.env.master_agent.drv [ahb_master_driver] Beat[0/1] addr=0x00002005 trans=AHB_TRANS_NONSEQ resp=AHB_RESP_OKAY rdata=0x0be4b891
# UVM_INFO ../src/mst/ahb_master_driver.sv(361) @ 235000: uvm_test_top.env.master_agent.drv [ahb_master_driver] Transaction complete: AHB_READ 0x00002005, 1 beats, burst=AHB_BURST_SINGLE
# UVM_INFO ../src/slv/ahb_slave_driver.sv(184) @ 235000: uvm_test_top.env.slave_agent.drv [ahb_slave_driver] Beat AHB_READ addr=0x00002005 resp=AHB_RESP_OKAY waits=2 rdata=0x0be4b891
# UVM_INFO ../src/slv/ahb_slave_monitor.sv(197) @ 235000: uvm_test_top.env.slave_agent.mon [ahb_slave_monitor] Observed [AHB_READ]: HADDR=0x00002005, HBURST=AHB_BURST_SINGLE, HSIZE=AHB_SIZE_8B, 1 beats
# UVM_INFO ../src/env/ahb_coverage.sv(127) @ 235000: uvm_test_top.env.slave_cov [ahb_coverage] Sampled [AHB_READ]: burst=AHB_BURST_SINGLE size=AHB_SIZE_8B beats=1 error=0
# UVM_INFO ../src/mst/ahb_master_monitor.sv(117) @ 235000: uvm_test_top.env.master_agent.mon [ahb_master_monitor] Beat[0] addr=0x00002005 rdata=0x0be4b891 resp=AHB_RESP_OKAY
# UVM_INFO ../src/mst/ahb_master_monitor.sv(222) @ 235000: uvm_test_top.env.master_agent.mon [ahb_master_monitor] Observed [AHB_READ]: HADDR=0x00002005, HBURST=AHB_BURST_SINGLE, HSIZE=AHB_SIZE_8B, 1 beats
# UVM_INFO ../src/env/ahb_coverage.sv(127) @ 235000: uvm_test_top.env.master_cov [ahb_coverage] Sampled [AHB_READ]: burst=AHB_BURST_SINGLE size=AHB_SIZE_8B beats=1 error=0
# UVM_INFO ../src/env/ahb_scoreboard.sv(104) @ 235000: uvm_test_top.env.scb [ahb_scoreboard] MATCH #4: [AHB_READ] HADDR=0x00002005 AHB_BURST_SINGLE 1 beats
# UVM_INFO ../src/mst_seq/ahb_base_seq.sv(164) @ 235000: uvm_test_top.env.master_agent.sqr@@seq [ahb_single_seq] AHB_BURST_SINGLE AHB_SIZE_8B beat 0 @0x00002005 ok
# UVM_INFO ../src/mst/ahb_master_driver.sv(82) @ 235000: uvm_test_top.env.master_agent.drv [ahb_master_driver] Queueing [AHB_WRITE]: HADDR=0x0000200a, HBURST=AHB_BURST_SINGLE, HSIZE=AHB_SIZE_16B, 1 beats
# UVM_INFO ../src/mst/ahb_master_driver.sv(124) @ 235000: uvm_test_top.env.master_agent.drv [ahb_master_driver] Driving [AHB_WRITE]: HADDR=0x0000200a, HBURST=AHB_BURST_SINGLE, HSIZE=AHB_SIZE_16B, 1 beats               
# UVM_INFO ../src/mst/ahb_master_driver.sv(317) @ 285000: uvm_test_top.env.master_agent.drv [ahb_master_driver] Beat[0/1] addr=0x0000200a trans=AHB_TRANS_NONSEQ resp=AHB_RESP_OKAY wdata=0x1e2856ad
# UVM_INFO ../src/mst/ahb_master_driver.sv(361) @ 285000: uvm_test_top.env.master_agent.drv [ahb_master_driver] Transaction complete: AHB_WRITE 0x0000200a, 1 beats, burst=AHB_BURST_SINGLE
# UVM_INFO ../src/slv/ahb_slave_driver.sv(184) @ 285000: uvm_test_top.env.slave_agent.drv [ahb_slave_driver] Beat AHB_WRITE addr=0x0000200a resp=AHB_RESP_OKAY waits=2 wdata=0x1e2856ad
# UVM_INFO ../src/mst/ahb_master_monitor.sv(117) @ 285000: uvm_test_top.env.master_agent.mon [ahb_master_monitor] Beat[0] addr=0x0000200a wdata=0x1e2856ad resp=AHB_RESP_OKAY
# UVM_INFO ../src/mst/ahb_master_monitor.sv(222) @ 285000: uvm_test_top.env.master_agent.mon [ahb_master_monitor] Observed [AHB_WRITE]: HADDR=0x0000200a, HBURST=AHB_BURST_SINGLE, HSIZE=AHB_SIZE_16B, 1 beats
# UVM_INFO ../src/env/ahb_coverage.sv(127) @ 285000: uvm_test_top.env.master_cov [ahb_coverage] Sampled [AHB_WRITE]: burst=AHB_BURST_SINGLE size=AHB_SIZE_16B beats=1 error=0
# UVM_INFO ../src/slv/ahb_slave_monitor.sv(197) @ 285000: uvm_test_top.env.slave_agent.mon [ahb_slave_monitor] Observed [AHB_WRITE]: HADDR=0x0000200a, HBURST=AHB_BURST_SINGLE, HSIZE=AHB_SIZE_16B, 1 beats
# UVM_INFO ../src/env/ahb_scoreboard.sv(104) @ 285000: uvm_test_top.env.scb [ahb_scoreboard] MATCH #5: [AHB_WRITE] HADDR=0x0000200a AHB_BURST_SINGLE 1 beats
# UVM_INFO ../src/env/ahb_coverage.sv(127) @ 285000: uvm_test_top.env.slave_cov [ahb_coverage] Sampled [AHB_WRITE]: burst=AHB_BURST_SINGLE size=AHB_SIZE_16B beats=1 error=0
# UVM_INFO ../src/mst/ahb_master_driver.sv(82) @ 285000: uvm_test_top.env.master_agent.drv [ahb_master_driver] Queueing [AHB_READ]: HADDR=0x0000200a, HBURST=AHB_BURST_SINGLE, HSIZE=AHB_SIZE_16B, 1 beats
# UVM_INFO ../src/mst/ahb_master_driver.sv(124) @ 285000: uvm_test_top.env.master_agent.drv [ahb_master_driver] Driving [AHB_READ]: HADDR=0x0000200a, HBURST=AHB_BURST_SINGLE, HSIZE=AHB_SIZE_16B, 1 beats               
# UVM_INFO ../src/mst/ahb_master_driver.sv(317) @ 315000: uvm_test_top.env.master_agent.drv [ahb_master_driver] Beat[0/1] addr=0x0000200a trans=AHB_TRANS_NONSEQ resp=AHB_RESP_OKAY rdata=0x1e2856ad
# UVM_INFO ../src/mst/ahb_master_driver.sv(361) @ 315000: uvm_test_top.env.master_agent.drv [ahb_master_driver] Transaction complete: AHB_READ 0x0000200a, 1 beats, burst=AHB_BURST_SINGLE
# UVM_INFO ../src/slv/ahb_slave_driver.sv(184) @ 315000: uvm_test_top.env.slave_agent.drv [ahb_slave_driver] Beat AHB_READ addr=0x0000200a resp=AHB_RESP_OKAY waits=0 rdata=0x1e2856ad
# UVM_INFO ../src/slv/ahb_slave_monitor.sv(197) @ 315000: uvm_test_top.env.slave_agent.mon [ahb_slave_monitor] Observed [AHB_READ]: HADDR=0x0000200a, HBURST=AHB_BURST_SINGLE, HSIZE=AHB_SIZE_16B, 1 beats
# UVM_INFO ../src/env/ahb_coverage.sv(127) @ 315000: uvm_test_top.env.slave_cov [ahb_coverage] Sampled [AHB_READ]: burst=AHB_BURST_SINGLE size=AHB_SIZE_16B beats=1 error=0
# UVM_INFO ../src/mst/ahb_master_monitor.sv(117) @ 315000: uvm_test_top.env.master_agent.mon [ahb_master_monitor] Beat[0] addr=0x0000200a rdata=0x1e2856ad resp=AHB_RESP_OKAY
# UVM_INFO ../src/mst/ahb_master_monitor.sv(222) @ 315000: uvm_test_top.env.master_agent.mon [ahb_master_monitor] Observed [AHB_READ]: HADDR=0x0000200a, HBURST=AHB_BURST_SINGLE, HSIZE=AHB_SIZE_16B, 1 beats
# UVM_INFO ../src/env/ahb_coverage.sv(127) @ 315000: uvm_test_top.env.master_cov [ahb_coverage] Sampled [AHB_READ]: burst=AHB_BURST_SINGLE size=AHB_SIZE_16B beats=1 error=0
# UVM_INFO ../src/env/ahb_scoreboard.sv(104) @ 315000: uvm_test_top.env.scb [ahb_scoreboard] MATCH #6: [AHB_READ] HADDR=0x0000200a AHB_BURST_SINGLE 1 beats
# UVM_INFO ../src/mst_seq/ahb_base_seq.sv(164) @ 315000: uvm_test_top.env.master_agent.sqr@@seq [ahb_single_seq] AHB_BURST_SINGLE AHB_SIZE_16B beat 0 @0x0000200a ok
# UVM_INFO ../src/mst/ahb_master_driver.sv(82) @ 315000: uvm_test_top.env.master_agent.drv [ahb_master_driver] Queueing [AHB_WRITE]: HADDR=0x0000200c, HBURST=AHB_BURST_SINGLE, HSIZE=AHB_SIZE_8B, 1 beats
# UVM_INFO ../src/mst/ahb_master_driver.sv(124) @ 315000: uvm_test_top.env.master_agent.drv [ahb_master_driver] Driving [AHB_WRITE]: HADDR=0x0000200c, HBURST=AHB_BURST_SINGLE, HSIZE=AHB_SIZE_8B, 1 beats               
# UVM_INFO ../src/mst/ahb_master_driver.sv(317) @ 345000: uvm_test_top.env.master_agent.drv [ahb_master_driver] Beat[0/1] addr=0x0000200c trans=AHB_TRANS_NONSEQ resp=AHB_RESP_OKAY wdata=0x6d9915cc
# UVM_INFO ../src/mst/ahb_master_driver.sv(361) @ 345000: uvm_test_top.env.master_agent.drv [ahb_master_driver] Transaction complete: AHB_WRITE 0x0000200c, 1 beats, burst=AHB_BURST_SINGLE
# UVM_INFO ../src/slv/ahb_slave_driver.sv(184) @ 345000: uvm_test_top.env.slave_agent.drv [ahb_slave_driver] Beat AHB_WRITE addr=0x0000200c resp=AHB_RESP_OKAY waits=0 wdata=0x6d9915cc
# UVM_INFO ../src/mst/ahb_master_monitor.sv(117) @ 345000: uvm_test_top.env.master_agent.mon [ahb_master_monitor] Beat[0] addr=0x0000200c wdata=0x6d9915cc resp=AHB_RESP_OKAY
# UVM_INFO ../src/mst/ahb_master_monitor.sv(222) @ 345000: uvm_test_top.env.master_agent.mon [ahb_master_monitor] Observed [AHB_WRITE]: HADDR=0x0000200c, HBURST=AHB_BURST_SINGLE, HSIZE=AHB_SIZE_8B, 1 beats
# UVM_INFO ../src/env/ahb_coverage.sv(127) @ 345000: uvm_test_top.env.master_cov [ahb_coverage] Sampled [AHB_WRITE]: burst=AHB_BURST_SINGLE size=AHB_SIZE_8B beats=1 error=0
# UVM_INFO ../src/slv/ahb_slave_monitor.sv(197) @ 345000: uvm_test_top.env.slave_agent.mon [ahb_slave_monitor] Observed [AHB_WRITE]: HADDR=0x0000200c, HBURST=AHB_BURST_SINGLE, HSIZE=AHB_SIZE_8B, 1 beats
# UVM_INFO ../src/env/ahb_scoreboard.sv(104) @ 345000: uvm_test_top.env.scb [ahb_scoreboard] MATCH #7: [AHB_WRITE] HADDR=0x0000200c AHB_BURST_SINGLE 1 beats
# UVM_INFO ../src/env/ahb_coverage.sv(127) @ 345000: uvm_test_top.env.slave_cov [ahb_coverage] Sampled [AHB_WRITE]: burst=AHB_BURST_SINGLE size=AHB_SIZE_8B beats=1 error=0
# UVM_INFO ../src/mst/ahb_master_driver.sv(82) @ 345000: uvm_test_top.env.master_agent.drv [ahb_master_driver] Queueing [AHB_READ]: HADDR=0x0000200c, HBURST=AHB_BURST_SINGLE, HSIZE=AHB_SIZE_8B, 1 beats
# UVM_INFO ../src/mst/ahb_master_driver.sv(124) @ 345000: uvm_test_top.env.master_agent.drv [ahb_master_driver] Driving [AHB_READ]: HADDR=0x0000200c, HBURST=AHB_BURST_SINGLE, HSIZE=AHB_SIZE_8B, 1 beats               
# UVM_INFO ../src/mst/ahb_master_driver.sv(317) @ 375000: uvm_test_top.env.master_agent.drv [ahb_master_driver] Beat[0/1] addr=0x0000200c trans=AHB_TRANS_NONSEQ resp=AHB_RESP_OKAY rdata=0x6d9915cc
# UVM_INFO ../src/mst/ahb_master_driver.sv(361) @ 375000: uvm_test_top.env.master_agent.drv [ahb_master_driver] Transaction complete: AHB_READ 0x0000200c, 1 beats, burst=AHB_BURST_SINGLE
# UVM_INFO ../src/slv/ahb_slave_driver.sv(184) @ 375000: uvm_test_top.env.slave_agent.drv [ahb_slave_driver] Beat AHB_READ addr=0x0000200c resp=AHB_RESP_OKAY waits=0 rdata=0x6d9915cc
# UVM_INFO ../src/slv/ahb_slave_monitor.sv(197) @ 375000: uvm_test_top.env.slave_agent.mon [ahb_slave_monitor] Observed [AHB_READ]: HADDR=0x0000200c, HBURST=AHB_BURST_SINGLE, HSIZE=AHB_SIZE_8B, 1 beats
# UVM_INFO ../src/env/ahb_coverage.sv(127) @ 375000: uvm_test_top.env.slave_cov [ahb_coverage] Sampled [AHB_READ]: burst=AHB_BURST_SINGLE size=AHB_SIZE_8B beats=1 error=0
# UVM_INFO ../src/mst/ahb_master_monitor.sv(117) @ 375000: uvm_test_top.env.master_agent.mon [ahb_master_monitor] Beat[0] addr=0x0000200c rdata=0x6d9915cc resp=AHB_RESP_OKAY
# UVM_INFO ../src/mst/ahb_master_monitor.sv(222) @ 375000: uvm_test_top.env.master_agent.mon [ahb_master_monitor] Observed [AHB_READ]: HADDR=0x0000200c, HBURST=AHB_BURST_SINGLE, HSIZE=AHB_SIZE_8B, 1 beats
# UVM_INFO ../src/env/ahb_coverage.sv(127) @ 375000: uvm_test_top.env.master_cov [ahb_coverage] Sampled [AHB_READ]: burst=AHB_BURST_SINGLE size=AHB_SIZE_8B beats=1 error=0
# UVM_INFO ../src/env/ahb_scoreboard.sv(104) @ 375000: uvm_test_top.env.scb [ahb_scoreboard] MATCH #8: [AHB_READ] HADDR=0x0000200c AHB_BURST_SINGLE 1 beats
# UVM_INFO ../src/mst_seq/ahb_base_seq.sv(164) @ 375000: uvm_test_top.env.master_agent.sqr@@seq [ahb_single_seq] AHB_BURST_SINGLE AHB_SIZE_8B beat 0 @0x0000200c ok
# UVM_INFO ../src/mst/ahb_master_driver.sv(82) @ 375000: uvm_test_top.env.master_agent.drv [ahb_master_driver] Queueing [AHB_WRITE]: HADDR=0x00002013, HBURST=AHB_BURST_SINGLE, HSIZE=AHB_SIZE_8B, 1 beats
# UVM_INFO ../src/mst/ahb_master_driver.sv(124) @ 375000: uvm_test_top.env.master_agent.drv [ahb_master_driver] Driving [AHB_WRITE]: HADDR=0x00002013, HBURST=AHB_BURST_SINGLE, HSIZE=AHB_SIZE_8B, 1 beats               
# UVM_INFO ../src/mst/ahb_master_driver.sv(317) @ 415000: uvm_test_top.env.master_agent.drv [ahb_master_driver] Beat[0/1] addr=0x00002013 trans=AHB_TRANS_NONSEQ resp=AHB_RESP_OKAY wdata=0x28a80c17
# UVM_INFO ../src/mst/ahb_master_driver.sv(361) @ 415000: uvm_test_top.env.master_agent.drv [ahb_master_driver] Transaction complete: AHB_WRITE 0x00002013, 1 beats, burst=AHB_BURST_SINGLE
# UVM_INFO ../src/slv/ahb_slave_driver.sv(184) @ 415000: uvm_test_top.env.slave_agent.drv [ahb_slave_driver] Beat AHB_WRITE addr=0x00002013 resp=AHB_RESP_OKAY waits=1 wdata=0x28a80c17
# UVM_INFO ../src/slv/ahb_slave_monitor.sv(197) @ 415000: uvm_test_top.env.slave_agent.mon [ahb_slave_monitor] Observed [AHB_WRITE]: HADDR=0x00002013, HBURST=AHB_BURST_SINGLE, HSIZE=AHB_SIZE_8B, 1 beats
# UVM_INFO ../src/env/ahb_coverage.sv(127) @ 415000: uvm_test_top.env.slave_cov [ahb_coverage] Sampled [AHB_WRITE]: burst=AHB_BURST_SINGLE size=AHB_SIZE_8B beats=1 error=0
# UVM_INFO ../src/mst/ahb_master_monitor.sv(117) @ 415000: uvm_test_top.env.master_agent.mon [ahb_master_monitor] Beat[0] addr=0x00002013 wdata=0x28a80c17 resp=AHB_RESP_OKAY
# UVM_INFO ../src/mst/ahb_master_monitor.sv(222) @ 415000: uvm_test_top.env.master_agent.mon [ahb_master_monitor] Observed [AHB_WRITE]: HADDR=0x00002013, HBURST=AHB_BURST_SINGLE, HSIZE=AHB_SIZE_8B, 1 beats
# UVM_INFO ../src/env/ahb_coverage.sv(127) @ 415000: uvm_test_top.env.master_cov [ahb_coverage] Sampled [AHB_WRITE]: burst=AHB_BURST_SINGLE size=AHB_SIZE_8B beats=1 error=0
# UVM_INFO ../src/env/ahb_scoreboard.sv(104) @ 415000: uvm_test_top.env.scb [ahb_scoreboard] MATCH #9: [AHB_WRITE] HADDR=0x00002013 AHB_BURST_SINGLE 1 beats
# UVM_INFO ../src/mst/ahb_master_driver.sv(82) @ 415000: uvm_test_top.env.master_agent.drv [ahb_master_driver] Queueing [AHB_READ]: HADDR=0x00002013, HBURST=AHB_BURST_SINGLE, HSIZE=AHB_SIZE_8B, 1 beats
# UVM_INFO ../src/mst/ahb_master_driver.sv(124) @ 415000: uvm_test_top.env.master_agent.drv [ahb_master_driver] Driving [AHB_READ]: HADDR=0x00002013, HBURST=AHB_BURST_SINGLE, HSIZE=AHB_SIZE_8B, 1 beats               
# UVM_INFO ../src/mst/ahb_master_driver.sv(317) @ 455000: uvm_test_top.env.master_agent.drv [ahb_master_driver] Beat[0/1] addr=0x00002013 trans=AHB_TRANS_NONSEQ resp=AHB_RESP_OKAY rdata=0x28a80c17
# UVM_INFO ../src/mst/ahb_master_driver.sv(361) @ 455000: uvm_test_top.env.master_agent.drv [ahb_master_driver] Transaction complete: AHB_READ 0x00002013, 1 beats, burst=AHB_BURST_SINGLE
# UVM_INFO ../src/slv/ahb_slave_driver.sv(184) @ 455000: uvm_test_top.env.slave_agent.drv [ahb_slave_driver] Beat AHB_READ addr=0x00002013 resp=AHB_RESP_OKAY waits=1 rdata=0x28a80c17
# UVM_INFO ../src/slv/ahb_slave_monitor.sv(197) @ 455000: uvm_test_top.env.slave_agent.mon [ahb_slave_monitor] Observed [AHB_READ]: HADDR=0x00002013, HBURST=AHB_BURST_SINGLE, HSIZE=AHB_SIZE_8B, 1 beats
# UVM_INFO ../src/env/ahb_coverage.sv(127) @ 455000: uvm_test_top.env.slave_cov [ahb_coverage] Sampled [AHB_READ]: burst=AHB_BURST_SINGLE size=AHB_SIZE_8B beats=1 error=0
# UVM_INFO ../src/mst/ahb_master_monitor.sv(117) @ 455000: uvm_test_top.env.master_agent.mon [ahb_master_monitor] Beat[0] addr=0x00002013 rdata=0x28a80c17 resp=AHB_RESP_OKAY
# UVM_INFO ../src/mst/ahb_master_monitor.sv(222) @ 455000: uvm_test_top.env.master_agent.mon [ahb_master_monitor] Observed [AHB_READ]: HADDR=0x00002013, HBURST=AHB_BURST_SINGLE, HSIZE=AHB_SIZE_8B, 1 beats
# UVM_INFO ../src/env/ahb_coverage.sv(127) @ 455000: uvm_test_top.env.master_cov [ahb_coverage] Sampled [AHB_READ]: burst=AHB_BURST_SINGLE size=AHB_SIZE_8B beats=1 error=0
# UVM_INFO ../src/env/ahb_scoreboard.sv(104) @ 455000: uvm_test_top.env.scb [ahb_scoreboard] MATCH #10: [AHB_READ] HADDR=0x00002013 AHB_BURST_SINGLE 1 beats
# UVM_INFO ../src/mst_seq/ahb_base_seq.sv(164) @ 455000: uvm_test_top.env.master_agent.sqr@@seq [ahb_single_seq] AHB_BURST_SINGLE AHB_SIZE_8B beat 0 @0x00002013 ok
# UVM_INFO ../src/mst/ahb_master_driver.sv(82) @ 455000: uvm_test_top.env.master_agent.drv [ahb_master_driver] Queueing [AHB_WRITE]: HADDR=0x00002014, HBURST=AHB_BURST_SINGLE, HSIZE=AHB_SIZE_16B, 1 beats
# UVM_INFO ../src/mst/ahb_master_driver.sv(124) @ 455000: uvm_test_top.env.master_agent.drv [ahb_master_driver] Driving [AHB_WRITE]: HADDR=0x00002014, HBURST=AHB_BURST_SINGLE, HSIZE=AHB_SIZE_16B, 1 beats               
# UVM_INFO ../src/mst/ahb_master_driver.sv(317) @ 495000: uvm_test_top.env.master_agent.drv [ahb_master_driver] Beat[0/1] addr=0x00002014 trans=AHB_TRANS_NONSEQ resp=AHB_RESP_OKAY wdata=0x3a51a14a
# UVM_INFO ../src/mst/ahb_master_driver.sv(361) @ 495000: uvm_test_top.env.master_agent.drv [ahb_master_driver] Transaction complete: AHB_WRITE 0x00002014, 1 beats, burst=AHB_BURST_SINGLE
# UVM_INFO ../src/slv/ahb_slave_driver.sv(184) @ 495000: uvm_test_top.env.slave_agent.drv [ahb_slave_driver] Beat AHB_WRITE addr=0x00002014 resp=AHB_RESP_OKAY waits=1 wdata=0x3a51a14a
# UVM_INFO ../src/slv/ahb_slave_monitor.sv(197) @ 495000: uvm_test_top.env.slave_agent.mon [ahb_slave_monitor] Observed [AHB_WRITE]: HADDR=0x00002014, HBURST=AHB_BURST_SINGLE, HSIZE=AHB_SIZE_16B, 1 beats
# UVM_INFO ../src/env/ahb_coverage.sv(127) @ 495000: uvm_test_top.env.slave_cov [ahb_coverage] Sampled [AHB_WRITE]: burst=AHB_BURST_SINGLE size=AHB_SIZE_16B beats=1 error=0
# UVM_INFO ../src/mst/ahb_master_monitor.sv(117) @ 495000: uvm_test_top.env.master_agent.mon [ahb_master_monitor] Beat[0] addr=0x00002014 wdata=0x3a51a14a resp=AHB_RESP_OKAY
# UVM_INFO ../src/mst/ahb_master_monitor.sv(222) @ 495000: uvm_test_top.env.master_agent.mon [ahb_master_monitor] Observed [AHB_WRITE]: HADDR=0x00002014, HBURST=AHB_BURST_SINGLE, HSIZE=AHB_SIZE_16B, 1 beats
# UVM_INFO ../src/env/ahb_coverage.sv(127) @ 495000: uvm_test_top.env.master_cov [ahb_coverage] Sampled [AHB_WRITE]: burst=AHB_BURST_SINGLE size=AHB_SIZE_16B beats=1 error=0
# UVM_INFO ../src/env/ahb_scoreboard.sv(104) @ 495000: uvm_test_top.env.scb [ahb_scoreboard] MATCH #11: [AHB_WRITE] HADDR=0x00002014 AHB_BURST_SINGLE 1 beats
# UVM_INFO ../src/mst/ahb_master_driver.sv(82) @ 495000: uvm_test_top.env.master_agent.drv [ahb_master_driver] Queueing [AHB_READ]: HADDR=0x00002014, HBURST=AHB_BURST_SINGLE, HSIZE=AHB_SIZE_16B, 1 beats
# UVM_INFO ../src/mst/ahb_master_driver.sv(124) @ 495000: uvm_test_top.env.master_agent.drv [ahb_master_driver] Driving [AHB_READ]: HADDR=0x00002014, HBURST=AHB_BURST_SINGLE, HSIZE=AHB_SIZE_16B, 1 beats               
# UVM_INFO ../src/mst/ahb_master_driver.sv(317) @ 535000: uvm_test_top.env.master_agent.drv [ahb_master_driver] Beat[0/1] addr=0x00002014 trans=AHB_TRANS_NONSEQ resp=AHB_RESP_OKAY rdata=0x3a51a14a
# UVM_INFO ../src/mst/ahb_master_driver.sv(361) @ 535000: uvm_test_top.env.master_agent.drv [ahb_master_driver] Transaction complete: AHB_READ 0x00002014, 1 beats, burst=AHB_BURST_SINGLE
# UVM_INFO ../src/slv/ahb_slave_driver.sv(184) @ 535000: uvm_test_top.env.slave_agent.drv [ahb_slave_driver] Beat AHB_READ addr=0x00002014 resp=AHB_RESP_OKAY waits=1 rdata=0x3a51a14a
# UVM_INFO ../src/slv/ahb_slave_monitor.sv(197) @ 535000: uvm_test_top.env.slave_agent.mon [ahb_slave_monitor] Observed [AHB_READ]: HADDR=0x00002014, HBURST=AHB_BURST_SINGLE, HSIZE=AHB_SIZE_16B, 1 beats
# UVM_INFO ../src/env/ahb_coverage.sv(127) @ 535000: uvm_test_top.env.slave_cov [ahb_coverage] Sampled [AHB_READ]: burst=AHB_BURST_SINGLE size=AHB_SIZE_16B beats=1 error=0
# UVM_INFO ../src/mst/ahb_master_monitor.sv(117) @ 535000: uvm_test_top.env.master_agent.mon [ahb_master_monitor] Beat[0] addr=0x00002014 rdata=0x3a51a14a resp=AHB_RESP_OKAY
# UVM_INFO ../src/mst/ahb_master_monitor.sv(222) @ 535000: uvm_test_top.env.master_agent.mon [ahb_master_monitor] Observed [AHB_READ]: HADDR=0x00002014, HBURST=AHB_BURST_SINGLE, HSIZE=AHB_SIZE_16B, 1 beats
# UVM_INFO ../src/env/ahb_coverage.sv(127) @ 535000: uvm_test_top.env.master_cov [ahb_coverage] Sampled [AHB_READ]: burst=AHB_BURST_SINGLE size=AHB_SIZE_16B beats=1 error=0
# UVM_INFO ../src/env/ahb_scoreboard.sv(104) @ 535000: uvm_test_top.env.scb [ahb_scoreboard] MATCH #12: [AHB_READ] HADDR=0x00002014 AHB_BURST_SINGLE 1 beats
# UVM_INFO ../src/mst_seq/ahb_base_seq.sv(164) @ 535000: uvm_test_top.env.master_agent.sqr@@seq [ahb_single_seq] AHB_BURST_SINGLE AHB_SIZE_16B beat 0 @0x00002014 ok
# UVM_INFO ../src/mst/ahb_master_driver.sv(82) @ 535000: uvm_test_top.env.master_agent.drv [ahb_master_driver] Queueing [AHB_WRITE]: HADDR=0x0000201b, HBURST=AHB_BURST_SINGLE, HSIZE=AHB_SIZE_8B, 1 beats
# UVM_INFO ../src/mst/ahb_master_driver.sv(124) @ 535000: uvm_test_top.env.master_agent.drv [ahb_master_driver] Driving [AHB_WRITE]: HADDR=0x0000201b, HBURST=AHB_BURST_SINGLE, HSIZE=AHB_SIZE_8B, 1 beats               
# UVM_INFO ../src/mst/ahb_master_driver.sv(317) @ 585000: uvm_test_top.env.master_agent.drv [ahb_master_driver] Beat[0/1] addr=0x0000201b trans=AHB_TRANS_NONSEQ resp=AHB_RESP_OKAY wdata=0xf4d948cb
# UVM_INFO ../src/mst/ahb_master_driver.sv(361) @ 585000: uvm_test_top.env.master_agent.drv [ahb_master_driver] Transaction complete: AHB_WRITE 0x0000201b, 1 beats, burst=AHB_BURST_SINGLE
# UVM_INFO ../src/slv/ahb_slave_driver.sv(184) @ 585000: uvm_test_top.env.slave_agent.drv [ahb_slave_driver] Beat AHB_WRITE addr=0x0000201b resp=AHB_RESP_OKAY waits=2 wdata=0xf4d948cb
# UVM_INFO ../src/mst/ahb_master_monitor.sv(117) @ 585000: uvm_test_top.env.master_agent.mon [ahb_master_monitor] Beat[0] addr=0x0000201b wdata=0xf4d948cb resp=AHB_RESP_OKAY
# UVM_INFO ../src/mst/ahb_master_monitor.sv(222) @ 585000: uvm_test_top.env.master_agent.mon [ahb_master_monitor] Observed [AHB_WRITE]: HADDR=0x0000201b, HBURST=AHB_BURST_SINGLE, HSIZE=AHB_SIZE_8B, 1 beats
# UVM_INFO ../src/env/ahb_coverage.sv(127) @ 585000: uvm_test_top.env.master_cov [ahb_coverage] Sampled [AHB_WRITE]: burst=AHB_BURST_SINGLE size=AHB_SIZE_8B beats=1 error=0
# UVM_INFO ../src/slv/ahb_slave_monitor.sv(197) @ 585000: uvm_test_top.env.slave_agent.mon [ahb_slave_monitor] Observed [AHB_WRITE]: HADDR=0x0000201b, HBURST=AHB_BURST_SINGLE, HSIZE=AHB_SIZE_8B, 1 beats
# UVM_INFO ../src/env/ahb_scoreboard.sv(104) @ 585000: uvm_test_top.env.scb [ahb_scoreboard] MATCH #13: [AHB_WRITE] HADDR=0x0000201b AHB_BURST_SINGLE 1 beats
# UVM_INFO ../src/env/ahb_coverage.sv(127) @ 585000: uvm_test_top.env.slave_cov [ahb_coverage] Sampled [AHB_WRITE]: burst=AHB_BURST_SINGLE size=AHB_SIZE_8B beats=1 error=0
# UVM_INFO ../src/mst/ahb_master_driver.sv(82) @ 585000: uvm_test_top.env.master_agent.drv [ahb_master_driver] Queueing [AHB_READ]: HADDR=0x0000201b, HBURST=AHB_BURST_SINGLE, HSIZE=AHB_SIZE_8B, 1 beats
# UVM_INFO ../src/mst/ahb_master_driver.sv(124) @ 585000: uvm_test_top.env.master_agent.drv [ahb_master_driver] Driving [AHB_READ]: HADDR=0x0000201b, HBURST=AHB_BURST_SINGLE, HSIZE=AHB_SIZE_8B, 1 beats               
# UVM_INFO ../src/mst/ahb_master_driver.sv(317) @ 625000: uvm_test_top.env.master_agent.drv [ahb_master_driver] Beat[0/1] addr=0x0000201b trans=AHB_TRANS_NONSEQ resp=AHB_RESP_OKAY rdata=0xf4d948cb
# UVM_INFO ../src/mst/ahb_master_driver.sv(361) @ 625000: uvm_test_top.env.master_agent.drv [ahb_master_driver] Transaction complete: AHB_READ 0x0000201b, 1 beats, burst=AHB_BURST_SINGLE
# UVM_INFO ../src/slv/ahb_slave_driver.sv(184) @ 625000: uvm_test_top.env.slave_agent.drv [ahb_slave_driver] Beat AHB_READ addr=0x0000201b resp=AHB_RESP_OKAY waits=1 rdata=0xf4d948cb
# UVM_INFO ../src/mst/ahb_master_monitor.sv(117) @ 625000: uvm_test_top.env.master_agent.mon [ahb_master_monitor] Beat[0] addr=0x0000201b rdata=0xf4d948cb resp=AHB_RESP_OKAY
# UVM_INFO ../src/mst/ahb_master_monitor.sv(222) @ 625000: uvm_test_top.env.master_agent.mon [ahb_master_monitor] Observed [AHB_READ]: HADDR=0x0000201b, HBURST=AHB_BURST_SINGLE, HSIZE=AHB_SIZE_8B, 1 beats
# UVM_INFO ../src/env/ahb_coverage.sv(127) @ 625000: uvm_test_top.env.master_cov [ahb_coverage] Sampled [AHB_READ]: burst=AHB_BURST_SINGLE size=AHB_SIZE_8B beats=1 error=0
# UVM_INFO ../src/slv/ahb_slave_monitor.sv(197) @ 625000: uvm_test_top.env.slave_agent.mon [ahb_slave_monitor] Observed [AHB_READ]: HADDR=0x0000201b, HBURST=AHB_BURST_SINGLE, HSIZE=AHB_SIZE_8B, 1 beats
# UVM_INFO ../src/env/ahb_scoreboard.sv(104) @ 625000: uvm_test_top.env.scb [ahb_scoreboard] MATCH #14: [AHB_READ] HADDR=0x0000201b AHB_BURST_SINGLE 1 beats
# UVM_INFO ../src/env/ahb_coverage.sv(127) @ 625000: uvm_test_top.env.slave_cov [ahb_coverage] Sampled [AHB_READ]: burst=AHB_BURST_SINGLE size=AHB_SIZE_8B beats=1 error=0
# UVM_INFO ../src/mst_seq/ahb_base_seq.sv(164) @ 625000: uvm_test_top.env.master_agent.sqr@@seq [ahb_single_seq] AHB_BURST_SINGLE AHB_SIZE_8B beat 0 @0x0000201b ok
# UVM_INFO ../src/mst/ahb_master_driver.sv(82) @ 625000: uvm_test_top.env.master_agent.drv [ahb_master_driver] Queueing [AHB_WRITE]: HADDR=0x0000201e, HBURST=AHB_BURST_SINGLE, HSIZE=AHB_SIZE_8B, 1 beats
# UVM_INFO ../src/mst/ahb_master_driver.sv(124) @ 625000: uvm_test_top.env.master_agent.drv [ahb_master_driver] Driving [AHB_WRITE]: HADDR=0x0000201e, HBURST=AHB_BURST_SINGLE, HSIZE=AHB_SIZE_8B, 1 beats               
# UVM_INFO ../src/mst/ahb_master_driver.sv(317) @ 655000: uvm_test_top.env.master_agent.drv [ahb_master_driver] Beat[0/1] addr=0x0000201e trans=AHB_TRANS_NONSEQ resp=AHB_RESP_OKAY wdata=0x2d9be1c8
# UVM_INFO ../src/mst/ahb_master_driver.sv(361) @ 655000: uvm_test_top.env.master_agent.drv [ahb_master_driver] Transaction complete: AHB_WRITE 0x0000201e, 1 beats, burst=AHB_BURST_SINGLE
# UVM_INFO ../src/slv/ahb_slave_driver.sv(184) @ 655000: uvm_test_top.env.slave_agent.drv [ahb_slave_driver] Beat AHB_WRITE addr=0x0000201e resp=AHB_RESP_OKAY waits=0 wdata=0x2d9be1c8
# UVM_INFO ../src/slv/ahb_slave_monitor.sv(197) @ 655000: uvm_test_top.env.slave_agent.mon [ahb_slave_monitor] Observed [AHB_WRITE]: HADDR=0x0000201e, HBURST=AHB_BURST_SINGLE, HSIZE=AHB_SIZE_8B, 1 beats
# UVM_INFO ../src/env/ahb_coverage.sv(127) @ 655000: uvm_test_top.env.slave_cov [ahb_coverage] Sampled [AHB_WRITE]: burst=AHB_BURST_SINGLE size=AHB_SIZE_8B beats=1 error=0
# UVM_INFO ../src/mst/ahb_master_monitor.sv(117) @ 655000: uvm_test_top.env.master_agent.mon [ahb_master_monitor] Beat[0] addr=0x0000201e wdata=0x2d9be1c8 resp=AHB_RESP_OKAY
# UVM_INFO ../src/mst/ahb_master_monitor.sv(222) @ 655000: uvm_test_top.env.master_agent.mon [ahb_master_monitor] Observed [AHB_WRITE]: HADDR=0x0000201e, HBURST=AHB_BURST_SINGLE, HSIZE=AHB_SIZE_8B, 1 beats
# UVM_INFO ../src/env/ahb_coverage.sv(127) @ 655000: uvm_test_top.env.master_cov [ahb_coverage] Sampled [AHB_WRITE]: burst=AHB_BURST_SINGLE size=AHB_SIZE_8B beats=1 error=0
# UVM_INFO ../src/env/ahb_scoreboard.sv(104) @ 655000: uvm_test_top.env.scb [ahb_scoreboard] MATCH #15: [AHB_WRITE] HADDR=0x0000201e AHB_BURST_SINGLE 1 beats
# UVM_INFO ../src/mst/ahb_master_driver.sv(82) @ 655000: uvm_test_top.env.master_agent.drv [ahb_master_driver] Queueing [AHB_READ]: HADDR=0x0000201e, HBURST=AHB_BURST_SINGLE, HSIZE=AHB_SIZE_8B, 1 beats
# UVM_INFO ../src/mst/ahb_master_driver.sv(124) @ 655000: uvm_test_top.env.master_agent.drv [ahb_master_driver] Driving [AHB_READ]: HADDR=0x0000201e, HBURST=AHB_BURST_SINGLE, HSIZE=AHB_SIZE_8B, 1 beats               
# UVM_INFO ../src/mst/ahb_master_driver.sv(317) @ 705000: uvm_test_top.env.master_agent.drv [ahb_master_driver] Beat[0/1] addr=0x0000201e trans=AHB_TRANS_NONSEQ resp=AHB_RESP_OKAY rdata=0x2d9be1c8
# UVM_INFO ../src/mst/ahb_master_driver.sv(361) @ 705000: uvm_test_top.env.master_agent.drv [ahb_master_driver] Transaction complete: AHB_READ 0x0000201e, 1 beats, burst=AHB_BURST_SINGLE
# UVM_INFO ../src/slv/ahb_slave_driver.sv(184) @ 705000: uvm_test_top.env.slave_agent.drv [ahb_slave_driver] Beat AHB_READ addr=0x0000201e resp=AHB_RESP_OKAY waits=2 rdata=0x2d9be1c8
# UVM_INFO ../src/mst/ahb_master_monitor.sv(117) @ 705000: uvm_test_top.env.master_agent.mon [ahb_master_monitor] Beat[0] addr=0x0000201e rdata=0x2d9be1c8 resp=AHB_RESP_OKAY
# UVM_INFO ../src/mst/ahb_master_monitor.sv(222) @ 705000: uvm_test_top.env.master_agent.mon [ahb_master_monitor] Observed [AHB_READ]: HADDR=0x0000201e, HBURST=AHB_BURST_SINGLE, HSIZE=AHB_SIZE_8B, 1 beats
# UVM_INFO ../src/env/ahb_coverage.sv(127) @ 705000: uvm_test_top.env.master_cov [ahb_coverage] Sampled [AHB_READ]: burst=AHB_BURST_SINGLE size=AHB_SIZE_8B beats=1 error=0
# UVM_INFO ../src/slv/ahb_slave_monitor.sv(197) @ 705000: uvm_test_top.env.slave_agent.mon [ahb_slave_monitor] Observed [AHB_READ]: HADDR=0x0000201e, HBURST=AHB_BURST_SINGLE, HSIZE=AHB_SIZE_8B, 1 beats
# UVM_INFO ../src/env/ahb_scoreboard.sv(104) @ 705000: uvm_test_top.env.scb [ahb_scoreboard] MATCH #16: [AHB_READ] HADDR=0x0000201e AHB_BURST_SINGLE 1 beats
# UVM_INFO ../src/env/ahb_coverage.sv(127) @ 705000: uvm_test_top.env.slave_cov [ahb_coverage] Sampled [AHB_READ]: burst=AHB_BURST_SINGLE size=AHB_SIZE_8B beats=1 error=0
# UVM_INFO ../src/mst_seq/ahb_base_seq.sv(164) @ 705000: uvm_test_top.env.master_agent.sqr@@seq [ahb_single_seq] AHB_BURST_SINGLE AHB_SIZE_8B beat 0 @0x0000201e ok
# UVM_INFO ../src/mst/ahb_master_driver.sv(82) @ 705000: uvm_test_top.env.master_agent.drv [ahb_master_driver] Queueing [AHB_WRITE]: HADDR=0x00002020, HBURST=AHB_BURST_SINGLE, HSIZE=AHB_SIZE_8B, 1 beats
# UVM_INFO ../src/mst/ahb_master_driver.sv(124) @ 705000: uvm_test_top.env.master_agent.drv [ahb_master_driver] Driving [AHB_WRITE]: HADDR=0x00002020, HBURST=AHB_BURST_SINGLE, HSIZE=AHB_SIZE_8B, 1 beats               
# UVM_INFO ../src/mst/ahb_master_driver.sv(317) @ 745000: uvm_test_top.env.master_agent.drv [ahb_master_driver] Beat[0/1] addr=0x00002020 trans=AHB_TRANS_NONSEQ resp=AHB_RESP_OKAY wdata=0x0317016f
# UVM_INFO ../src/mst/ahb_master_driver.sv(361) @ 745000: uvm_test_top.env.master_agent.drv [ahb_master_driver] Transaction complete: AHB_WRITE 0x00002020, 1 beats, burst=AHB_BURST_SINGLE
# UVM_INFO ../src/slv/ahb_slave_driver.sv(184) @ 745000: uvm_test_top.env.slave_agent.drv [ahb_slave_driver] Beat AHB_WRITE addr=0x00002020 resp=AHB_RESP_OKAY waits=1 wdata=0x0317016f
# UVM_INFO ../src/mst/ahb_master_monitor.sv(117) @ 745000: uvm_test_top.env.master_agent.mon [ahb_master_monitor] Beat[0] addr=0x00002020 wdata=0x0317016f resp=AHB_RESP_OKAY
# UVM_INFO ../src/mst/ahb_master_monitor.sv(222) @ 745000: uvm_test_top.env.master_agent.mon [ahb_master_monitor] Observed [AHB_WRITE]: HADDR=0x00002020, HBURST=AHB_BURST_SINGLE, HSIZE=AHB_SIZE_8B, 1 beats
# UVM_INFO ../src/env/ahb_coverage.sv(127) @ 745000: uvm_test_top.env.master_cov [ahb_coverage] Sampled [AHB_WRITE]: burst=AHB_BURST_SINGLE size=AHB_SIZE_8B beats=1 error=0
# UVM_INFO ../src/slv/ahb_slave_monitor.sv(197) @ 745000: uvm_test_top.env.slave_agent.mon [ahb_slave_monitor] Observed [AHB_WRITE]: HADDR=0x00002020, HBURST=AHB_BURST_SINGLE, HSIZE=AHB_SIZE_8B, 1 beats
# UVM_INFO ../src/env/ahb_scoreboard.sv(104) @ 745000: uvm_test_top.env.scb [ahb_scoreboard] MATCH #17: [AHB_WRITE] HADDR=0x00002020 AHB_BURST_SINGLE 1 beats
# UVM_INFO ../src/env/ahb_coverage.sv(127) @ 745000: uvm_test_top.env.slave_cov [ahb_coverage] Sampled [AHB_WRITE]: burst=AHB_BURST_SINGLE size=AHB_SIZE_8B beats=1 error=0
# UVM_INFO ../src/mst/ahb_master_driver.sv(82) @ 745000: uvm_test_top.env.master_agent.drv [ahb_master_driver] Queueing [AHB_READ]: HADDR=0x00002020, HBURST=AHB_BURST_SINGLE, HSIZE=AHB_SIZE_8B, 1 beats
# UVM_INFO ../src/mst/ahb_master_driver.sv(124) @ 745000: uvm_test_top.env.master_agent.drv [ahb_master_driver] Driving [AHB_READ]: HADDR=0x00002020, HBURST=AHB_BURST_SINGLE, HSIZE=AHB_SIZE_8B, 1 beats               
# UVM_INFO ../src/mst/ahb_master_driver.sv(317) @ 775000: uvm_test_top.env.master_agent.drv [ahb_master_driver] Beat[0/1] addr=0x00002020 trans=AHB_TRANS_NONSEQ resp=AHB_RESP_OKAY rdata=0x0317016f
# UVM_INFO ../src/mst/ahb_master_driver.sv(361) @ 775000: uvm_test_top.env.master_agent.drv [ahb_master_driver] Transaction complete: AHB_READ 0x00002020, 1 beats, burst=AHB_BURST_SINGLE
# UVM_INFO ../src/slv/ahb_slave_driver.sv(184) @ 775000: uvm_test_top.env.slave_agent.drv [ahb_slave_driver] Beat AHB_READ addr=0x00002020 resp=AHB_RESP_OKAY waits=0 rdata=0x0317016f
# UVM_INFO ../src/slv/ahb_slave_monitor.sv(197) @ 775000: uvm_test_top.env.slave_agent.mon [ahb_slave_monitor] Observed [AHB_READ]: HADDR=0x00002020, HBURST=AHB_BURST_SINGLE, HSIZE=AHB_SIZE_8B, 1 beats
# UVM_INFO ../src/env/ahb_coverage.sv(127) @ 775000: uvm_test_top.env.slave_cov [ahb_coverage] Sampled [AHB_READ]: burst=AHB_BURST_SINGLE size=AHB_SIZE_8B beats=1 error=0
# UVM_INFO ../src/mst/ahb_master_monitor.sv(117) @ 775000: uvm_test_top.env.master_agent.mon [ahb_master_monitor] Beat[0] addr=0x00002020 rdata=0x0317016f resp=AHB_RESP_OKAY
# UVM_INFO ../src/mst/ahb_master_monitor.sv(222) @ 775000: uvm_test_top.env.master_agent.mon [ahb_master_monitor] Observed [AHB_READ]: HADDR=0x00002020, HBURST=AHB_BURST_SINGLE, HSIZE=AHB_SIZE_8B, 1 beats
# UVM_INFO ../src/env/ahb_coverage.sv(127) @ 775000: uvm_test_top.env.master_cov [ahb_coverage] Sampled [AHB_READ]: burst=AHB_BURST_SINGLE size=AHB_SIZE_8B beats=1 error=0
# UVM_INFO ../src/env/ahb_scoreboard.sv(104) @ 775000: uvm_test_top.env.scb [ahb_scoreboard] MATCH #18: [AHB_READ] HADDR=0x00002020 AHB_BURST_SINGLE 1 beats
# UVM_INFO ../src/mst_seq/ahb_base_seq.sv(164) @ 775000: uvm_test_top.env.master_agent.sqr@@seq [ahb_single_seq] AHB_BURST_SINGLE AHB_SIZE_8B beat 0 @0x00002020 ok
# UVM_INFO ../src/mst/ahb_master_driver.sv(82) @ 775000: uvm_test_top.env.master_agent.drv [ahb_master_driver] Queueing [AHB_WRITE]: HADDR=0x00002024, HBURST=AHB_BURST_SINGLE, HSIZE=AHB_SIZE_32B, 1 beats
# UVM_INFO ../src/mst/ahb_master_driver.sv(124) @ 775000: uvm_test_top.env.master_agent.drv [ahb_master_driver] Driving [AHB_WRITE]: HADDR=0x00002024, HBURST=AHB_BURST_SINGLE, HSIZE=AHB_SIZE_32B, 1 beats               
# UVM_INFO ../src/mst/ahb_master_driver.sv(317) @ 815000: uvm_test_top.env.master_agent.drv [ahb_master_driver] Beat[0/1] addr=0x00002024 trans=AHB_TRANS_NONSEQ resp=AHB_RESP_OKAY wdata=0x40039a34
# UVM_INFO ../src/mst/ahb_master_driver.sv(361) @ 815000: uvm_test_top.env.master_agent.drv [ahb_master_driver] Transaction complete: AHB_WRITE 0x00002024, 1 beats, burst=AHB_BURST_SINGLE
# UVM_INFO ../src/slv/ahb_slave_driver.sv(184) @ 815000: uvm_test_top.env.slave_agent.drv [ahb_slave_driver] Beat AHB_WRITE addr=0x00002024 resp=AHB_RESP_OKAY waits=1 wdata=0x40039a34
# UVM_INFO ../src/slv/ahb_slave_monitor.sv(197) @ 815000: uvm_test_top.env.slave_agent.mon [ahb_slave_monitor] Observed [AHB_WRITE]: HADDR=0x00002024, HBURST=AHB_BURST_SINGLE, HSIZE=AHB_SIZE_32B, 1 beats
# UVM_INFO ../src/env/ahb_coverage.sv(127) @ 815000: uvm_test_top.env.slave_cov [ahb_coverage] Sampled [AHB_WRITE]: burst=AHB_BURST_SINGLE size=AHB_SIZE_32B beats=1 error=0
# UVM_INFO ../src/mst/ahb_master_monitor.sv(117) @ 815000: uvm_test_top.env.master_agent.mon [ahb_master_monitor] Beat[0] addr=0x00002024 wdata=0x40039a34 resp=AHB_RESP_OKAY
# UVM_INFO ../src/mst/ahb_master_monitor.sv(222) @ 815000: uvm_test_top.env.master_agent.mon [ahb_master_monitor] Observed [AHB_WRITE]: HADDR=0x00002024, HBURST=AHB_BURST_SINGLE, HSIZE=AHB_SIZE_32B, 1 beats
# UVM_INFO ../src/env/ahb_coverage.sv(127) @ 815000: uvm_test_top.env.master_cov [ahb_coverage] Sampled [AHB_WRITE]: burst=AHB_BURST_SINGLE size=AHB_SIZE_32B beats=1 error=0
# UVM_INFO ../src/env/ahb_scoreboard.sv(104) @ 815000: uvm_test_top.env.scb [ahb_scoreboard] MATCH #19: [AHB_WRITE] HADDR=0x00002024 AHB_BURST_SINGLE 1 beats
# UVM_INFO ../src/mst/ahb_master_driver.sv(82) @ 815000: uvm_test_top.env.master_agent.drv [ahb_master_driver] Queueing [AHB_READ]: HADDR=0x00002024, HBURST=AHB_BURST_SINGLE, HSIZE=AHB_SIZE_32B, 1 beats
# UVM_INFO ../src/mst/ahb_master_driver.sv(124) @ 815000: uvm_test_top.env.master_agent.drv [ahb_master_driver] Driving [AHB_READ]: HADDR=0x00002024, HBURST=AHB_BURST_SINGLE, HSIZE=AHB_SIZE_32B, 1 beats               
# UVM_INFO ../src/mst/ahb_master_driver.sv(317) @ 855000: uvm_test_top.env.master_agent.drv [ahb_master_driver] Beat[0/1] addr=0x00002024 trans=AHB_TRANS_NONSEQ resp=AHB_RESP_OKAY rdata=0x40039a34
# UVM_INFO ../src/mst/ahb_master_driver.sv(361) @ 855000: uvm_test_top.env.master_agent.drv [ahb_master_driver] Transaction complete: AHB_READ 0x00002024, 1 beats, burst=AHB_BURST_SINGLE
# UVM_INFO ../src/slv/ahb_slave_driver.sv(184) @ 855000: uvm_test_top.env.slave_agent.drv [ahb_slave_driver] Beat AHB_READ addr=0x00002024 resp=AHB_RESP_OKAY waits=1 rdata=0x40039a34
# UVM_INFO ../src/slv/ahb_slave_monitor.sv(197) @ 855000: uvm_test_top.env.slave_agent.mon [ahb_slave_monitor] Observed [AHB_READ]: HADDR=0x00002024, HBURST=AHB_BURST_SINGLE, HSIZE=AHB_SIZE_32B, 1 beats
# UVM_INFO ../src/env/ahb_coverage.sv(127) @ 855000: uvm_test_top.env.slave_cov [ahb_coverage] Sampled [AHB_READ]: burst=AHB_BURST_SINGLE size=AHB_SIZE_32B beats=1 error=0
# UVM_INFO ../src/mst/ahb_master_monitor.sv(117) @ 855000: uvm_test_top.env.master_agent.mon [ahb_master_monitor] Beat[0] addr=0x00002024 rdata=0x40039a34 resp=AHB_RESP_OKAY
# UVM_INFO ../src/mst/ahb_master_monitor.sv(222) @ 855000: uvm_test_top.env.master_agent.mon [ahb_master_monitor] Observed [AHB_READ]: HADDR=0x00002024, HBURST=AHB_BURST_SINGLE, HSIZE=AHB_SIZE_32B, 1 beats
# UVM_INFO ../src/env/ahb_coverage.sv(127) @ 855000: uvm_test_top.env.master_cov [ahb_coverage] Sampled [AHB_READ]: burst=AHB_BURST_SINGLE size=AHB_SIZE_32B beats=1 error=0
# UVM_INFO ../src/env/ahb_scoreboard.sv(104) @ 855000: uvm_test_top.env.scb [ahb_scoreboard] MATCH #20: [AHB_READ] HADDR=0x00002024 AHB_BURST_SINGLE 1 beats
# UVM_INFO ../src/mst_seq/ahb_base_seq.sv(164) @ 855000: uvm_test_top.env.master_agent.sqr@@seq [ahb_single_seq] AHB_BURST_SINGLE AHB_SIZE_32B beat 0 @0x00002024 ok
# UVM_INFO ../src/mst/ahb_master_driver.sv(82) @ 855000: uvm_test_top.env.master_agent.drv [ahb_master_driver] Queueing [AHB_WRITE]: HADDR=0x0000202b, HBURST=AHB_BURST_SINGLE, HSIZE=AHB_SIZE_8B, 1 beats
# UVM_INFO ../src/mst/ahb_master_driver.sv(124) @ 855000: uvm_test_top.env.master_agent.drv [ahb_master_driver] Driving [AHB_WRITE]: HADDR=0x0000202b, HBURST=AHB_BURST_SINGLE, HSIZE=AHB_SIZE_8B, 1 beats               
# UVM_INFO ../src/mst/ahb_master_driver.sv(317) @ 885000: uvm_test_top.env.master_agent.drv [ahb_master_driver] Beat[0/1] addr=0x0000202b trans=AHB_TRANS_NONSEQ resp=AHB_RESP_OKAY wdata=0xb1ddf90e
# UVM_INFO ../src/mst/ahb_master_driver.sv(361) @ 885000: uvm_test_top.env.master_agent.drv [ahb_master_driver] Transaction complete: AHB_WRITE 0x0000202b, 1 beats, burst=AHB_BURST_SINGLE
# UVM_INFO ../src/slv/ahb_slave_driver.sv(184) @ 885000: uvm_test_top.env.slave_agent.drv [ahb_slave_driver] Beat AHB_WRITE addr=0x0000202b resp=AHB_RESP_OKAY waits=0 wdata=0xb1ddf90e
# UVM_INFO ../src/mst/ahb_master_monitor.sv(117) @ 885000: uvm_test_top.env.master_agent.mon [ahb_master_monitor] Beat[0] addr=0x0000202b wdata=0xb1ddf90e resp=AHB_RESP_OKAY
# UVM_INFO ../src/mst/ahb_master_monitor.sv(222) @ 885000: uvm_test_top.env.master_agent.mon [ahb_master_monitor] Observed [AHB_WRITE]: HADDR=0x0000202b, HBURST=AHB_BURST_SINGLE, HSIZE=AHB_SIZE_8B, 1 beats
# UVM_INFO ../src/env/ahb_coverage.sv(127) @ 885000: uvm_test_top.env.master_cov [ahb_coverage] Sampled [AHB_WRITE]: burst=AHB_BURST_SINGLE size=AHB_SIZE_8B beats=1 error=0
# UVM_INFO ../src/slv/ahb_slave_monitor.sv(197) @ 885000: uvm_test_top.env.slave_agent.mon [ahb_slave_monitor] Observed [AHB_WRITE]: HADDR=0x0000202b, HBURST=AHB_BURST_SINGLE, HSIZE=AHB_SIZE_8B, 1 beats
# UVM_INFO ../src/env/ahb_scoreboard.sv(104) @ 885000: uvm_test_top.env.scb [ahb_scoreboard] MATCH #21: [AHB_WRITE] HADDR=0x0000202b AHB_BURST_SINGLE 1 beats
# UVM_INFO ../src/env/ahb_coverage.sv(127) @ 885000: uvm_test_top.env.slave_cov [ahb_coverage] Sampled [AHB_WRITE]: burst=AHB_BURST_SINGLE size=AHB_SIZE_8B beats=1 error=0
# UVM_INFO ../src/mst/ahb_master_driver.sv(82) @ 885000: uvm_test_top.env.master_agent.drv [ahb_master_driver] Queueing [AHB_READ]: HADDR=0x0000202b, HBURST=AHB_BURST_SINGLE, HSIZE=AHB_SIZE_8B, 1 beats
# UVM_INFO ../src/mst/ahb_master_driver.sv(124) @ 885000: uvm_test_top.env.master_agent.drv [ahb_master_driver] Driving [AHB_READ]: HADDR=0x0000202b, HBURST=AHB_BURST_SINGLE, HSIZE=AHB_SIZE_8B, 1 beats               
# UVM_INFO ../src/mst/ahb_master_driver.sv(317) @ 915000: uvm_test_top.env.master_agent.drv [ahb_master_driver] Beat[0/1] addr=0x0000202b trans=AHB_TRANS_NONSEQ resp=AHB_RESP_OKAY rdata=0xb1ddf90e
# UVM_INFO ../src/mst/ahb_master_driver.sv(361) @ 915000: uvm_test_top.env.master_agent.drv [ahb_master_driver] Transaction complete: AHB_READ 0x0000202b, 1 beats, burst=AHB_BURST_SINGLE
# UVM_INFO ../src/slv/ahb_slave_driver.sv(184) @ 915000: uvm_test_top.env.slave_agent.drv [ahb_slave_driver] Beat AHB_READ addr=0x0000202b resp=AHB_RESP_OKAY waits=0 rdata=0xb1ddf90e
# UVM_INFO ../src/slv/ahb_slave_monitor.sv(197) @ 915000: uvm_test_top.env.slave_agent.mon [ahb_slave_monitor] Observed [AHB_READ]: HADDR=0x0000202b, HBURST=AHB_BURST_SINGLE, HSIZE=AHB_SIZE_8B, 1 beats
# UVM_INFO ../src/env/ahb_coverage.sv(127) @ 915000: uvm_test_top.env.slave_cov [ahb_coverage] Sampled [AHB_READ]: burst=AHB_BURST_SINGLE size=AHB_SIZE_8B beats=1 error=0
# UVM_INFO ../src/mst/ahb_master_monitor.sv(117) @ 915000: uvm_test_top.env.master_agent.mon [ahb_master_monitor] Beat[0] addr=0x0000202b rdata=0xb1ddf90e resp=AHB_RESP_OKAY
# UVM_INFO ../src/mst/ahb_master_monitor.sv(222) @ 915000: uvm_test_top.env.master_agent.mon [ahb_master_monitor] Observed [AHB_READ]: HADDR=0x0000202b, HBURST=AHB_BURST_SINGLE, HSIZE=AHB_SIZE_8B, 1 beats
# UVM_INFO ../src/env/ahb_coverage.sv(127) @ 915000: uvm_test_top.env.master_cov [ahb_coverage] Sampled [AHB_READ]: burst=AHB_BURST_SINGLE size=AHB_SIZE_8B beats=1 error=0
# UVM_INFO ../src/env/ahb_scoreboard.sv(104) @ 915000: uvm_test_top.env.scb [ahb_scoreboard] MATCH #22: [AHB_READ] HADDR=0x0000202b AHB_BURST_SINGLE 1 beats
# UVM_INFO ../src/mst_seq/ahb_base_seq.sv(164) @ 915000: uvm_test_top.env.master_agent.sqr@@seq [ahb_single_seq] AHB_BURST_SINGLE AHB_SIZE_8B beat 0 @0x0000202b ok
# UVM_INFO ../src/mst/ahb_master_driver.sv(82) @ 915000: uvm_test_top.env.master_agent.drv [ahb_master_driver] Queueing [AHB_WRITE]: HADDR=0x0000202d, HBURST=AHB_BURST_SINGLE, HSIZE=AHB_SIZE_8B, 1 beats
# UVM_INFO ../src/mst/ahb_master_driver.sv(124) @ 915000: uvm_test_top.env.master_agent.drv [ahb_master_driver] Driving [AHB_WRITE]: HADDR=0x0000202d, HBURST=AHB_BURST_SINGLE, HSIZE=AHB_SIZE_8B, 1 beats               
# UVM_INFO ../src/mst/ahb_master_driver.sv(317) @ 965000: uvm_test_top.env.master_agent.drv [ahb_master_driver] Beat[0/1] addr=0x0000202d trans=AHB_TRANS_NONSEQ resp=AHB_RESP_OKAY wdata=0x2152dd85
# UVM_INFO ../src/mst/ahb_master_driver.sv(361) @ 965000: uvm_test_top.env.master_agent.drv [ahb_master_driver] Transaction complete: AHB_WRITE 0x0000202d, 1 beats, burst=AHB_BURST_SINGLE
# UVM_INFO ../src/slv/ahb_slave_driver.sv(184) @ 965000: uvm_test_top.env.slave_agent.drv [ahb_slave_driver] Beat AHB_WRITE addr=0x0000202d resp=AHB_RESP_OKAY waits=2 wdata=0x2152dd85
# UVM_INFO ../src/mst/ahb_master_monitor.sv(117) @ 965000: uvm_test_top.env.master_agent.mon [ahb_master_monitor] Beat[0] addr=0x0000202d wdata=0x2152dd85 resp=AHB_RESP_OKAY
# UVM_INFO ../src/mst/ahb_master_monitor.sv(222) @ 965000: uvm_test_top.env.master_agent.mon [ahb_master_monitor] Observed [AHB_WRITE]: HADDR=0x0000202d, HBURST=AHB_BURST_SINGLE, HSIZE=AHB_SIZE_8B, 1 beats
# UVM_INFO ../src/env/ahb_coverage.sv(127) @ 965000: uvm_test_top.env.master_cov [ahb_coverage] Sampled [AHB_WRITE]: burst=AHB_BURST_SINGLE size=AHB_SIZE_8B beats=1 error=0
# UVM_INFO ../src/slv/ahb_slave_monitor.sv(197) @ 965000: uvm_test_top.env.slave_agent.mon [ahb_slave_monitor] Observed [AHB_WRITE]: HADDR=0x0000202d, HBURST=AHB_BURST_SINGLE, HSIZE=AHB_SIZE_8B, 1 beats
# UVM_INFO ../src/env/ahb_scoreboard.sv(104) @ 965000: uvm_test_top.env.scb [ahb_scoreboard] MATCH #23: [AHB_WRITE] HADDR=0x0000202d AHB_BURST_SINGLE 1 beats
# UVM_INFO ../src/env/ahb_coverage.sv(127) @ 965000: uvm_test_top.env.slave_cov [ahb_coverage] Sampled [AHB_WRITE]: burst=AHB_BURST_SINGLE size=AHB_SIZE_8B beats=1 error=0
# UVM_INFO ../src/mst/ahb_master_driver.sv(82) @ 965000: uvm_test_top.env.master_agent.drv [ahb_master_driver] Queueing [AHB_READ]: HADDR=0x0000202d, HBURST=AHB_BURST_SINGLE, HSIZE=AHB_SIZE_8B, 1 beats
# UVM_INFO ../src/mst/ahb_master_driver.sv(124) @ 965000: uvm_test_top.env.master_agent.drv [ahb_master_driver] Driving [AHB_READ]: HADDR=0x0000202d, HBURST=AHB_BURST_SINGLE, HSIZE=AHB_SIZE_8B, 1 beats               
# UVM_INFO ../src/mst/ahb_master_driver.sv(317) @ 995000: uvm_test_top.env.master_agent.drv [ahb_master_driver] Beat[0/1] addr=0x0000202d trans=AHB_TRANS_NONSEQ resp=AHB_RESP_OKAY rdata=0x2152dd85
# UVM_INFO ../src/mst/ahb_master_driver.sv(361) @ 995000: uvm_test_top.env.master_agent.drv [ahb_master_driver] Transaction complete: AHB_READ 0x0000202d, 1 beats, burst=AHB_BURST_SINGLE
# UVM_INFO ../src/slv/ahb_slave_driver.sv(184) @ 995000: uvm_test_top.env.slave_agent.drv [ahb_slave_driver] Beat AHB_READ addr=0x0000202d resp=AHB_RESP_OKAY waits=0 rdata=0x2152dd85
# UVM_INFO ../src/slv/ahb_slave_monitor.sv(197) @ 995000: uvm_test_top.env.slave_agent.mon [ahb_slave_monitor] Observed [AHB_READ]: HADDR=0x0000202d, HBURST=AHB_BURST_SINGLE, HSIZE=AHB_SIZE_8B, 1 beats
# UVM_INFO ../src/env/ahb_coverage.sv(127) @ 995000: uvm_test_top.env.slave_cov [ahb_coverage] Sampled [AHB_READ]: burst=AHB_BURST_SINGLE size=AHB_SIZE_8B beats=1 error=0
# UVM_INFO ../src/mst/ahb_master_monitor.sv(117) @ 995000: uvm_test_top.env.master_agent.mon [ahb_master_monitor] Beat[0] addr=0x0000202d rdata=0x2152dd85 resp=AHB_RESP_OKAY
# UVM_INFO ../src/mst/ahb_master_monitor.sv(222) @ 995000: uvm_test_top.env.master_agent.mon [ahb_master_monitor] Observed [AHB_READ]: HADDR=0x0000202d, HBURST=AHB_BURST_SINGLE, HSIZE=AHB_SIZE_8B, 1 beats
# UVM_INFO ../src/env/ahb_coverage.sv(127) @ 995000: uvm_test_top.env.master_cov [ahb_coverage] Sampled [AHB_READ]: burst=AHB_BURST_SINGLE size=AHB_SIZE_8B beats=1 error=0
# UVM_INFO ../src/env/ahb_scoreboard.sv(104) @ 995000: uvm_test_top.env.scb [ahb_scoreboard] MATCH #24: [AHB_READ] HADDR=0x0000202d AHB_BURST_SINGLE 1 beats
# UVM_INFO ../src/mst_seq/ahb_base_seq.sv(164) @ 995000: uvm_test_top.env.master_agent.sqr@@seq [ahb_single_seq] AHB_BURST_SINGLE AHB_SIZE_8B beat 0 @0x0000202d ok
# UVM_INFO ../src/mst/ahb_master_driver.sv(82) @ 995000: uvm_test_top.env.master_agent.drv [ahb_master_driver] Queueing [AHB_WRITE]: HADDR=0x00002030, HBURST=AHB_BURST_SINGLE, HSIZE=AHB_SIZE_32B, 1 beats
# UVM_INFO ../src/mst/ahb_master_driver.sv(124) @ 995000: uvm_test_top.env.master_agent.drv [ahb_master_driver] Driving [AHB_WRITE]: HADDR=0x00002030, HBURST=AHB_BURST_SINGLE, HSIZE=AHB_SIZE_32B, 1 beats               
# UVM_INFO ../src/mst/ahb_master_driver.sv(317) @ 1045000: uvm_test_top.env.master_agent.drv [ahb_master_driver] Beat[0/1] addr=0x00002030 trans=AHB_TRANS_NONSEQ resp=AHB_RESP_OKAY wdata=0x5e1848d7
# UVM_INFO ../src/mst/ahb_master_driver.sv(361) @ 1045000: uvm_test_top.env.master_agent.drv [ahb_master_driver] Transaction complete: AHB_WRITE 0x00002030, 1 beats, burst=AHB_BURST_SINGLE
# UVM_INFO ../src/slv/ahb_slave_driver.sv(184) @ 1045000: uvm_test_top.env.slave_agent.drv [ahb_slave_driver] Beat AHB_WRITE addr=0x00002030 resp=AHB_RESP_OKAY waits=2 wdata=0x5e1848d7
# UVM_INFO ../src/mst/ahb_master_monitor.sv(117) @ 1045000: uvm_test_top.env.master_agent.mon [ahb_master_monitor] Beat[0] addr=0x00002030 wdata=0x5e1848d7 resp=AHB_RESP_OKAY
# UVM_INFO ../src/mst/ahb_master_monitor.sv(222) @ 1045000: uvm_test_top.env.master_agent.mon [ahb_master_monitor] Observed [AHB_WRITE]: HADDR=0x00002030, HBURST=AHB_BURST_SINGLE, HSIZE=AHB_SIZE_32B, 1 beats
# UVM_INFO ../src/env/ahb_coverage.sv(127) @ 1045000: uvm_test_top.env.master_cov [ahb_coverage] Sampled [AHB_WRITE]: burst=AHB_BURST_SINGLE size=AHB_SIZE_32B beats=1 error=0
# UVM_INFO ../src/slv/ahb_slave_monitor.sv(197) @ 1045000: uvm_test_top.env.slave_agent.mon [ahb_slave_monitor] Observed [AHB_WRITE]: HADDR=0x00002030, HBURST=AHB_BURST_SINGLE, HSIZE=AHB_SIZE_32B, 1 beats
# UVM_INFO ../src/env/ahb_scoreboard.sv(104) @ 1045000: uvm_test_top.env.scb [ahb_scoreboard] MATCH #25: [AHB_WRITE] HADDR=0x00002030 AHB_BURST_SINGLE 1 beats
# UVM_INFO ../src/env/ahb_coverage.sv(127) @ 1045000: uvm_test_top.env.slave_cov [ahb_coverage] Sampled [AHB_WRITE]: burst=AHB_BURST_SINGLE size=AHB_SIZE_32B beats=1 error=0
# UVM_INFO ../src/mst/ahb_master_driver.sv(82) @ 1045000: uvm_test_top.env.master_agent.drv [ahb_master_driver] Queueing [AHB_READ]: HADDR=0x00002030, HBURST=AHB_BURST_SINGLE, HSIZE=AHB_SIZE_32B, 1 beats
# UVM_INFO ../src/mst/ahb_master_driver.sv(124) @ 1045000: uvm_test_top.env.master_agent.drv [ahb_master_driver] Driving [AHB_READ]: HADDR=0x00002030, HBURST=AHB_BURST_SINGLE, HSIZE=AHB_SIZE_32B, 1 beats               
# UVM_INFO ../src/mst/ahb_master_driver.sv(317) @ 1085000: uvm_test_top.env.master_agent.drv [ahb_master_driver] Beat[0/1] addr=0x00002030 trans=AHB_TRANS_NONSEQ resp=AHB_RESP_OKAY rdata=0x5e1848d7
# UVM_INFO ../src/mst/ahb_master_driver.sv(361) @ 1085000: uvm_test_top.env.master_agent.drv [ahb_master_driver] Transaction complete: AHB_READ 0x00002030, 1 beats, burst=AHB_BURST_SINGLE
# UVM_INFO ../src/slv/ahb_slave_driver.sv(184) @ 1085000: uvm_test_top.env.slave_agent.drv [ahb_slave_driver] Beat AHB_READ addr=0x00002030 resp=AHB_RESP_OKAY waits=1 rdata=0x5e1848d7
# UVM_INFO ../src/mst/ahb_master_monitor.sv(117) @ 1085000: uvm_test_top.env.master_agent.mon [ahb_master_monitor] Beat[0] addr=0x00002030 rdata=0x5e1848d7 resp=AHB_RESP_OKAY
# UVM_INFO ../src/mst/ahb_master_monitor.sv(222) @ 1085000: uvm_test_top.env.master_agent.mon [ahb_master_monitor] Observed [AHB_READ]: HADDR=0x00002030, HBURST=AHB_BURST_SINGLE, HSIZE=AHB_SIZE_32B, 1 beats
# UVM_INFO ../src/env/ahb_coverage.sv(127) @ 1085000: uvm_test_top.env.master_cov [ahb_coverage] Sampled [AHB_READ]: burst=AHB_BURST_SINGLE size=AHB_SIZE_32B beats=1 error=0
# UVM_INFO ../src/slv/ahb_slave_monitor.sv(197) @ 1085000: uvm_test_top.env.slave_agent.mon [ahb_slave_monitor] Observed [AHB_READ]: HADDR=0x00002030, HBURST=AHB_BURST_SINGLE, HSIZE=AHB_SIZE_32B, 1 beats
# UVM_INFO ../src/env/ahb_scoreboard.sv(104) @ 1085000: uvm_test_top.env.scb [ahb_scoreboard] MATCH #26: [AHB_READ] HADDR=0x00002030 AHB_BURST_SINGLE 1 beats
# UVM_INFO ../src/env/ahb_coverage.sv(127) @ 1085000: uvm_test_top.env.slave_cov [ahb_coverage] Sampled [AHB_READ]: burst=AHB_BURST_SINGLE size=AHB_SIZE_32B beats=1 error=0
# UVM_INFO ../src/mst_seq/ahb_base_seq.sv(164) @ 1085000: uvm_test_top.env.master_agent.sqr@@seq [ahb_single_seq] AHB_BURST_SINGLE AHB_SIZE_32B beat 0 @0x00002030 ok
# UVM_INFO ../src/mst/ahb_master_driver.sv(82) @ 1085000: uvm_test_top.env.master_agent.drv [ahb_master_driver] Queueing [AHB_WRITE]: HADDR=0x00002037, HBURST=AHB_BURST_SINGLE, HSIZE=AHB_SIZE_8B, 1 beats
# UVM_INFO ../src/mst/ahb_master_driver.sv(124) @ 1085000: uvm_test_top.env.master_agent.drv [ahb_master_driver] Driving [AHB_WRITE]: HADDR=0x00002037, HBURST=AHB_BURST_SINGLE, HSIZE=AHB_SIZE_8B, 1 beats               
# UVM_INFO ../src/mst/ahb_master_driver.sv(317) @ 1115000: uvm_test_top.env.master_agent.drv [ahb_master_driver] Beat[0/1] addr=0x00002037 trans=AHB_TRANS_NONSEQ resp=AHB_RESP_OKAY wdata=0x7b49db84
# UVM_INFO ../src/mst/ahb_master_driver.sv(361) @ 1115000: uvm_test_top.env.master_agent.drv [ahb_master_driver] Transaction complete: AHB_WRITE 0x00002037, 1 beats, burst=AHB_BURST_SINGLE
# UVM_INFO ../src/slv/ahb_slave_driver.sv(184) @ 1115000: uvm_test_top.env.slave_agent.drv [ahb_slave_driver] Beat AHB_WRITE addr=0x00002037 resp=AHB_RESP_OKAY waits=0 wdata=0x7b49db84
# UVM_INFO ../src/slv/ahb_slave_monitor.sv(197) @ 1115000: uvm_test_top.env.slave_agent.mon [ahb_slave_monitor] Observed [AHB_WRITE]: HADDR=0x00002037, HBURST=AHB_BURST_SINGLE, HSIZE=AHB_SIZE_8B, 1 beats
# UVM_INFO ../src/env/ahb_coverage.sv(127) @ 1115000: uvm_test_top.env.slave_cov [ahb_coverage] Sampled [AHB_WRITE]: burst=AHB_BURST_SINGLE size=AHB_SIZE_8B beats=1 error=0
# UVM_INFO ../src/mst/ahb_master_monitor.sv(117) @ 1115000: uvm_test_top.env.master_agent.mon [ahb_master_monitor] Beat[0] addr=0x00002037 wdata=0x7b49db84 resp=AHB_RESP_OKAY
# UVM_INFO ../src/mst/ahb_master_monitor.sv(222) @ 1115000: uvm_test_top.env.master_agent.mon [ahb_master_monitor] Observed [AHB_WRITE]: HADDR=0x00002037, HBURST=AHB_BURST_SINGLE, HSIZE=AHB_SIZE_8B, 1 beats
# UVM_INFO ../src/env/ahb_coverage.sv(127) @ 1115000: uvm_test_top.env.master_cov [ahb_coverage] Sampled [AHB_WRITE]: burst=AHB_BURST_SINGLE size=AHB_SIZE_8B beats=1 error=0
# UVM_INFO ../src/env/ahb_scoreboard.sv(104) @ 1115000: uvm_test_top.env.scb [ahb_scoreboard] MATCH #27: [AHB_WRITE] HADDR=0x00002037 AHB_BURST_SINGLE 1 beats
# UVM_INFO ../src/mst/ahb_master_driver.sv(82) @ 1115000: uvm_test_top.env.master_agent.drv [ahb_master_driver] Queueing [AHB_READ]: HADDR=0x00002037, HBURST=AHB_BURST_SINGLE, HSIZE=AHB_SIZE_8B, 1 beats
# UVM_INFO ../src/mst/ahb_master_driver.sv(124) @ 1115000: uvm_test_top.env.master_agent.drv [ahb_master_driver] Driving [AHB_READ]: HADDR=0x00002037, HBURST=AHB_BURST_SINGLE, HSIZE=AHB_SIZE_8B, 1 beats               
# UVM_INFO ../src/mst/ahb_master_driver.sv(317) @ 1145000: uvm_test_top.env.master_agent.drv [ahb_master_driver] Beat[0/1] addr=0x00002037 trans=AHB_TRANS_NONSEQ resp=AHB_RESP_OKAY rdata=0x7b49db84
# UVM_INFO ../src/mst/ahb_master_driver.sv(361) @ 1145000: uvm_test_top.env.master_agent.drv [ahb_master_driver] Transaction complete: AHB_READ 0x00002037, 1 beats, burst=AHB_BURST_SINGLE
# UVM_INFO ../src/slv/ahb_slave_driver.sv(184) @ 1145000: uvm_test_top.env.slave_agent.drv [ahb_slave_driver] Beat AHB_READ addr=0x00002037 resp=AHB_RESP_OKAY waits=0 rdata=0x7b49db84
# UVM_INFO ../src/mst/ahb_master_monitor.sv(117) @ 1145000: uvm_test_top.env.master_agent.mon [ahb_master_monitor] Beat[0] addr=0x00002037 rdata=0x7b49db84 resp=AHB_RESP_OKAY
# UVM_INFO ../src/mst/ahb_master_monitor.sv(222) @ 1145000: uvm_test_top.env.master_agent.mon [ahb_master_monitor] Observed [AHB_READ]: HADDR=0x00002037, HBURST=AHB_BURST_SINGLE, HSIZE=AHB_SIZE_8B, 1 beats
# UVM_INFO ../src/env/ahb_coverage.sv(127) @ 1145000: uvm_test_top.env.master_cov [ahb_coverage] Sampled [AHB_READ]: burst=AHB_BURST_SINGLE size=AHB_SIZE_8B beats=1 error=0
# UVM_INFO ../src/slv/ahb_slave_monitor.sv(197) @ 1145000: uvm_test_top.env.slave_agent.mon [ahb_slave_monitor] Observed [AHB_READ]: HADDR=0x00002037, HBURST=AHB_BURST_SINGLE, HSIZE=AHB_SIZE_8B, 1 beats
# UVM_INFO ../src/env/ahb_scoreboard.sv(104) @ 1145000: uvm_test_top.env.scb [ahb_scoreboard] MATCH #28: [AHB_READ] HADDR=0x00002037 AHB_BURST_SINGLE 1 beats
# UVM_INFO ../src/env/ahb_coverage.sv(127) @ 1145000: uvm_test_top.env.slave_cov [ahb_coverage] Sampled [AHB_READ]: burst=AHB_BURST_SINGLE size=AHB_SIZE_8B beats=1 error=0
# UVM_INFO ../src/mst_seq/ahb_base_seq.sv(164) @ 1145000: uvm_test_top.env.master_agent.sqr@@seq [ahb_single_seq] AHB_BURST_SINGLE AHB_SIZE_8B beat 0 @0x00002037 ok
# UVM_INFO ../src/mst/ahb_master_driver.sv(82) @ 1145000: uvm_test_top.env.master_agent.drv [ahb_master_driver] Queueing [AHB_WRITE]: HADDR=0x0000203a, HBURST=AHB_BURST_SINGLE, HSIZE=AHB_SIZE_16B, 1 beats
# UVM_INFO ../src/mst/ahb_master_driver.sv(124) @ 1145000: uvm_test_top.env.master_agent.drv [ahb_master_driver] Driving [AHB_WRITE]: HADDR=0x0000203a, HBURST=AHB_BURST_SINGLE, HSIZE=AHB_SIZE_16B, 1 beats               
# UVM_INFO ../src/mst/ahb_master_driver.sv(317) @ 1175000: uvm_test_top.env.master_agent.drv [ahb_master_driver] Beat[0/1] addr=0x0000203a trans=AHB_TRANS_NONSEQ resp=AHB_RESP_OKAY wdata=0x68bd3941
# UVM_INFO ../src/mst/ahb_master_driver.sv(361) @ 1175000: uvm_test_top.env.master_agent.drv [ahb_master_driver] Transaction complete: AHB_WRITE 0x0000203a, 1 beats, burst=AHB_BURST_SINGLE
# UVM_INFO ../src/slv/ahb_slave_driver.sv(184) @ 1175000: uvm_test_top.env.slave_agent.drv [ahb_slave_driver] Beat AHB_WRITE addr=0x0000203a resp=AHB_RESP_OKAY waits=0 wdata=0x68bd3941
# UVM_INFO ../src/slv/ahb_slave_monitor.sv(197) @ 1175000: uvm_test_top.env.slave_agent.mon [ahb_slave_monitor] Observed [AHB_WRITE]: HADDR=0x0000203a, HBURST=AHB_BURST_SINGLE, HSIZE=AHB_SIZE_16B, 1 beats
# UVM_INFO ../src/env/ahb_coverage.sv(127) @ 1175000: uvm_test_top.env.slave_cov [ahb_coverage] Sampled [AHB_WRITE]: burst=AHB_BURST_SINGLE size=AHB_SIZE_16B beats=1 error=0
# UVM_INFO ../src/mst/ahb_master_monitor.sv(117) @ 1175000: uvm_test_top.env.master_agent.mon [ahb_master_monitor] Beat[0] addr=0x0000203a wdata=0x68bd3941 resp=AHB_RESP_OKAY
# UVM_INFO ../src/mst/ahb_master_monitor.sv(222) @ 1175000: uvm_test_top.env.master_agent.mon [ahb_master_monitor] Observed [AHB_WRITE]: HADDR=0x0000203a, HBURST=AHB_BURST_SINGLE, HSIZE=AHB_SIZE_16B, 1 beats
# UVM_INFO ../src/env/ahb_coverage.sv(127) @ 1175000: uvm_test_top.env.master_cov [ahb_coverage] Sampled [AHB_WRITE]: burst=AHB_BURST_SINGLE size=AHB_SIZE_16B beats=1 error=0
# UVM_INFO ../src/env/ahb_scoreboard.sv(104) @ 1175000: uvm_test_top.env.scb [ahb_scoreboard] MATCH #29: [AHB_WRITE] HADDR=0x0000203a AHB_BURST_SINGLE 1 beats
# UVM_INFO ../src/mst/ahb_master_driver.sv(82) @ 1175000: uvm_test_top.env.master_agent.drv [ahb_master_driver] Queueing [AHB_READ]: HADDR=0x0000203a, HBURST=AHB_BURST_SINGLE, HSIZE=AHB_SIZE_16B, 1 beats
# UVM_INFO ../src/mst/ahb_master_driver.sv(124) @ 1175000: uvm_test_top.env.master_agent.drv [ahb_master_driver] Driving [AHB_READ]: HADDR=0x0000203a, HBURST=AHB_BURST_SINGLE, HSIZE=AHB_SIZE_16B, 1 beats               
# UVM_INFO ../src/mst/ahb_master_driver.sv(317) @ 1215000: uvm_test_top.env.master_agent.drv [ahb_master_driver] Beat[0/1] addr=0x0000203a trans=AHB_TRANS_NONSEQ resp=AHB_RESP_OKAY rdata=0x68bd3941
# UVM_INFO ../src/mst/ahb_master_driver.sv(361) @ 1215000: uvm_test_top.env.master_agent.drv [ahb_master_driver] Transaction complete: AHB_READ 0x0000203a, 1 beats, burst=AHB_BURST_SINGLE
# UVM_INFO ../src/slv/ahb_slave_driver.sv(184) @ 1215000: uvm_test_top.env.slave_agent.drv [ahb_slave_driver] Beat AHB_READ addr=0x0000203a resp=AHB_RESP_OKAY waits=1 rdata=0x68bd3941
# UVM_INFO ../src/slv/ahb_slave_monitor.sv(197) @ 1215000: uvm_test_top.env.slave_agent.mon [ahb_slave_monitor] Observed [AHB_READ]: HADDR=0x0000203a, HBURST=AHB_BURST_SINGLE, HSIZE=AHB_SIZE_16B, 1 beats
# UVM_INFO ../src/env/ahb_coverage.sv(127) @ 1215000: uvm_test_top.env.slave_cov [ahb_coverage] Sampled [AHB_READ]: burst=AHB_BURST_SINGLE size=AHB_SIZE_16B beats=1 error=0
# UVM_INFO ../src/mst/ahb_master_monitor.sv(117) @ 1215000: uvm_test_top.env.master_agent.mon [ahb_master_monitor] Beat[0] addr=0x0000203a rdata=0x68bd3941 resp=AHB_RESP_OKAY
# UVM_INFO ../src/mst/ahb_master_monitor.sv(222) @ 1215000: uvm_test_top.env.master_agent.mon [ahb_master_monitor] Observed [AHB_READ]: HADDR=0x0000203a, HBURST=AHB_BURST_SINGLE, HSIZE=AHB_SIZE_16B, 1 beats
# UVM_INFO ../src/env/ahb_coverage.sv(127) @ 1215000: uvm_test_top.env.master_cov [ahb_coverage] Sampled [AHB_READ]: burst=AHB_BURST_SINGLE size=AHB_SIZE_16B beats=1 error=0
# UVM_INFO ../src/env/ahb_scoreboard.sv(104) @ 1215000: uvm_test_top.env.scb [ahb_scoreboard] MATCH #30: [AHB_READ] HADDR=0x0000203a AHB_BURST_SINGLE 1 beats
# UVM_INFO ../src/mst_seq/ahb_base_seq.sv(164) @ 1215000: uvm_test_top.env.master_agent.sqr@@seq [ahb_single_seq] AHB_BURST_SINGLE AHB_SIZE_16B beat 0 @0x0000203a ok
# UVM_INFO ../src/mst/ahb_master_driver.sv(82) @ 1215000: uvm_test_top.env.master_agent.drv [ahb_master_driver] Queueing [AHB_WRITE]: HADDR=0x0000203c, HBURST=AHB_BURST_SINGLE, HSIZE=AHB_SIZE_16B, 1 beats
# UVM_INFO ../src/mst/ahb_master_driver.sv(124) @ 1215000: uvm_test_top.env.master_agent.drv [ahb_master_driver] Driving [AHB_WRITE]: HADDR=0x0000203c, HBURST=AHB_BURST_SINGLE, HSIZE=AHB_SIZE_16B, 1 beats               
# UVM_INFO ../src/mst/ahb_master_driver.sv(317) @ 1245000: uvm_test_top.env.master_agent.drv [ahb_master_driver] Beat[0/1] addr=0x0000203c trans=AHB_TRANS_NONSEQ resp=AHB_RESP_OKAY wdata=0xd5a1a474
# UVM_INFO ../src/mst/ahb_master_driver.sv(361) @ 1245000: uvm_test_top.env.master_agent.drv [ahb_master_driver] Transaction complete: AHB_WRITE 0x0000203c, 1 beats, burst=AHB_BURST_SINGLE
# UVM_INFO ../src/slv/ahb_slave_driver.sv(184) @ 1245000: uvm_test_top.env.slave_agent.drv [ahb_slave_driver] Beat AHB_WRITE addr=0x0000203c resp=AHB_RESP_OKAY waits=0 wdata=0xd5a1a474
# UVM_INFO ../src/mst/ahb_master_monitor.sv(117) @ 1245000: uvm_test_top.env.master_agent.mon [ahb_master_monitor] Beat[0] addr=0x0000203c wdata=0xd5a1a474 resp=AHB_RESP_OKAY
# UVM_INFO ../src/mst/ahb_master_monitor.sv(222) @ 1245000: uvm_test_top.env.master_agent.mon [ahb_master_monitor] Observed [AHB_WRITE]: HADDR=0x0000203c, HBURST=AHB_BURST_SINGLE, HSIZE=AHB_SIZE_16B, 1 beats
# UVM_INFO ../src/env/ahb_coverage.sv(127) @ 1245000: uvm_test_top.env.master_cov [ahb_coverage] Sampled [AHB_WRITE]: burst=AHB_BURST_SINGLE size=AHB_SIZE_16B beats=1 error=0
# UVM_INFO ../src/slv/ahb_slave_monitor.sv(197) @ 1245000: uvm_test_top.env.slave_agent.mon [ahb_slave_monitor] Observed [AHB_WRITE]: HADDR=0x0000203c, HBURST=AHB_BURST_SINGLE, HSIZE=AHB_SIZE_16B, 1 beats
# UVM_INFO ../src/env/ahb_scoreboard.sv(104) @ 1245000: uvm_test_top.env.scb [ahb_scoreboard] MATCH #31: [AHB_WRITE] HADDR=0x0000203c AHB_BURST_SINGLE 1 beats
# UVM_INFO ../src/env/ahb_coverage.sv(127) @ 1245000: uvm_test_top.env.slave_cov [ahb_coverage] Sampled [AHB_WRITE]: burst=AHB_BURST_SINGLE size=AHB_SIZE_16B beats=1 error=0
# UVM_INFO ../src/mst/ahb_master_driver.sv(82) @ 1245000: uvm_test_top.env.master_agent.drv [ahb_master_driver] Queueing [AHB_READ]: HADDR=0x0000203c, HBURST=AHB_BURST_SINGLE, HSIZE=AHB_SIZE_16B, 1 beats
# UVM_INFO ../src/mst/ahb_master_driver.sv(124) @ 1245000: uvm_test_top.env.master_agent.drv [ahb_master_driver] Driving [AHB_READ]: HADDR=0x0000203c, HBURST=AHB_BURST_SINGLE, HSIZE=AHB_SIZE_16B, 1 beats               
# UVM_INFO ../src/mst/ahb_master_driver.sv(317) @ 1295000: uvm_test_top.env.master_agent.drv [ahb_master_driver] Beat[0/1] addr=0x0000203c trans=AHB_TRANS_NONSEQ resp=AHB_RESP_OKAY rdata=0xd5a1a474
# UVM_INFO ../src/mst/ahb_master_driver.sv(361) @ 1295000: uvm_test_top.env.master_agent.drv [ahb_master_driver] Transaction complete: AHB_READ 0x0000203c, 1 beats, burst=AHB_BURST_SINGLE
# UVM_INFO ../src/slv/ahb_slave_driver.sv(184) @ 1295000: uvm_test_top.env.slave_agent.drv [ahb_slave_driver] Beat AHB_READ addr=0x0000203c resp=AHB_RESP_OKAY waits=2 rdata=0xd5a1a474
# UVM_INFO ../src/slv/ahb_slave_monitor.sv(197) @ 1295000: uvm_test_top.env.slave_agent.mon [ahb_slave_monitor] Observed [AHB_READ]: HADDR=0x0000203c, HBURST=AHB_BURST_SINGLE, HSIZE=AHB_SIZE_16B, 1 beats
# UVM_INFO ../src/env/ahb_coverage.sv(127) @ 1295000: uvm_test_top.env.slave_cov [ahb_coverage] Sampled [AHB_READ]: burst=AHB_BURST_SINGLE size=AHB_SIZE_16B beats=1 error=0
# UVM_INFO ../src/mst/ahb_master_monitor.sv(117) @ 1295000: uvm_test_top.env.master_agent.mon [ahb_master_monitor] Beat[0] addr=0x0000203c rdata=0xd5a1a474 resp=AHB_RESP_OKAY
# UVM_INFO ../src/mst/ahb_master_monitor.sv(222) @ 1295000: uvm_test_top.env.master_agent.mon [ahb_master_monitor] Observed [AHB_READ]: HADDR=0x0000203c, HBURST=AHB_BURST_SINGLE, HSIZE=AHB_SIZE_16B, 1 beats
# UVM_INFO ../src/env/ahb_coverage.sv(127) @ 1295000: uvm_test_top.env.master_cov [ahb_coverage] Sampled [AHB_READ]: burst=AHB_BURST_SINGLE size=AHB_SIZE_16B beats=1 error=0
# UVM_INFO ../src/env/ahb_scoreboard.sv(104) @ 1295000: uvm_test_top.env.scb [ahb_scoreboard] MATCH #32: [AHB_READ] HADDR=0x0000203c AHB_BURST_SINGLE 1 beats
# UVM_INFO ../src/mst_seq/ahb_base_seq.sv(164) @ 1295000: uvm_test_top.env.master_agent.sqr@@seq [ahb_single_seq] AHB_BURST_SINGLE AHB_SIZE_16B beat 0 @0x0000203c ok
# UVM_INFO ../src/mst/ahb_master_driver.sv(82) @ 1295000: uvm_test_top.env.master_agent.drv [ahb_master_driver] Queueing [AHB_WRITE]: HADDR=0x00002042, HBURST=AHB_BURST_SINGLE, HSIZE=AHB_SIZE_16B, 1 beats
# UVM_INFO ../src/mst/ahb_master_driver.sv(124) @ 1295000: uvm_test_top.env.master_agent.drv [ahb_master_driver] Driving [AHB_WRITE]: HADDR=0x00002042, HBURST=AHB_BURST_SINGLE, HSIZE=AHB_SIZE_16B, 1 beats               
# UVM_INFO ../src/mst/ahb_master_driver.sv(317) @ 1345000: uvm_test_top.env.master_agent.drv [ahb_master_driver] Beat[0/1] addr=0x00002042 trans=AHB_TRANS_NONSEQ resp=AHB_RESP_OKAY wdata=0xcda65668
# UVM_INFO ../src/mst/ahb_master_driver.sv(361) @ 1345000: uvm_test_top.env.master_agent.drv [ahb_master_driver] Transaction complete: AHB_WRITE 0x00002042, 1 beats, burst=AHB_BURST_SINGLE
# UVM_INFO ../src/slv/ahb_slave_driver.sv(184) @ 1345000: uvm_test_top.env.slave_agent.drv [ahb_slave_driver] Beat AHB_WRITE addr=0x00002042 resp=AHB_RESP_OKAY waits=2 wdata=0xcda65668
# UVM_INFO ../src/mst/ahb_master_monitor.sv(117) @ 1345000: uvm_test_top.env.master_agent.mon [ahb_master_monitor] Beat[0] addr=0x00002042 wdata=0xcda65668 resp=AHB_RESP_OKAY
# UVM_INFO ../src/mst/ahb_master_monitor.sv(222) @ 1345000: uvm_test_top.env.master_agent.mon [ahb_master_monitor] Observed [AHB_WRITE]: HADDR=0x00002042, HBURST=AHB_BURST_SINGLE, HSIZE=AHB_SIZE_16B, 1 beats
# UVM_INFO ../src/env/ahb_coverage.sv(127) @ 1345000: uvm_test_top.env.master_cov [ahb_coverage] Sampled [AHB_WRITE]: burst=AHB_BURST_SINGLE size=AHB_SIZE_16B beats=1 error=0
# UVM_INFO ../src/slv/ahb_slave_monitor.sv(197) @ 1345000: uvm_test_top.env.slave_agent.mon [ahb_slave_monitor] Observed [AHB_WRITE]: HADDR=0x00002042, HBURST=AHB_BURST_SINGLE, HSIZE=AHB_SIZE_16B, 1 beats
# UVM_INFO ../src/env/ahb_scoreboard.sv(104) @ 1345000: uvm_test_top.env.scb [ahb_scoreboard] MATCH #33: [AHB_WRITE] HADDR=0x00002042 AHB_BURST_SINGLE 1 beats
# UVM_INFO ../src/env/ahb_coverage.sv(127) @ 1345000: uvm_test_top.env.slave_cov [ahb_coverage] Sampled [AHB_WRITE]: burst=AHB_BURST_SINGLE size=AHB_SIZE_16B beats=1 error=0
# UVM_INFO ../src/mst/ahb_master_driver.sv(82) @ 1345000: uvm_test_top.env.master_agent.drv [ahb_master_driver] Queueing [AHB_READ]: HADDR=0x00002042, HBURST=AHB_BURST_SINGLE, HSIZE=AHB_SIZE_16B, 1 beats
# UVM_INFO ../src/mst/ahb_master_driver.sv(124) @ 1345000: uvm_test_top.env.master_agent.drv [ahb_master_driver] Driving [AHB_READ]: HADDR=0x00002042, HBURST=AHB_BURST_SINGLE, HSIZE=AHB_SIZE_16B, 1 beats               
# UVM_INFO ../src/mst/ahb_master_driver.sv(317) @ 1395000: uvm_test_top.env.master_agent.drv [ahb_master_driver] Beat[0/1] addr=0x00002042 trans=AHB_TRANS_NONSEQ resp=AHB_RESP_OKAY rdata=0xcda65668
# UVM_INFO ../src/mst/ahb_master_driver.sv(361) @ 1395000: uvm_test_top.env.master_agent.drv [ahb_master_driver] Transaction complete: AHB_READ 0x00002042, 1 beats, burst=AHB_BURST_SINGLE
# UVM_INFO ../src/slv/ahb_slave_driver.sv(184) @ 1395000: uvm_test_top.env.slave_agent.drv [ahb_slave_driver] Beat AHB_READ addr=0x00002042 resp=AHB_RESP_OKAY waits=2 rdata=0xcda65668
# UVM_INFO ../src/slv/ahb_slave_monitor.sv(197) @ 1395000: uvm_test_top.env.slave_agent.mon [ahb_slave_monitor] Observed [AHB_READ]: HADDR=0x00002042, HBURST=AHB_BURST_SINGLE, HSIZE=AHB_SIZE_16B, 1 beats
# UVM_INFO ../src/env/ahb_coverage.sv(127) @ 1395000: uvm_test_top.env.slave_cov [ahb_coverage] Sampled [AHB_READ]: burst=AHB_BURST_SINGLE size=AHB_SIZE_16B beats=1 error=0
# UVM_INFO ../src/mst/ahb_master_monitor.sv(117) @ 1395000: uvm_test_top.env.master_agent.mon [ahb_master_monitor] Beat[0] addr=0x00002042 rdata=0xcda65668 resp=AHB_RESP_OKAY
# UVM_INFO ../src/mst/ahb_master_monitor.sv(222) @ 1395000: uvm_test_top.env.master_agent.mon [ahb_master_monitor] Observed [AHB_READ]: HADDR=0x00002042, HBURST=AHB_BURST_SINGLE, HSIZE=AHB_SIZE_16B, 1 beats
# UVM_INFO ../src/env/ahb_coverage.sv(127) @ 1395000: uvm_test_top.env.master_cov [ahb_coverage] Sampled [AHB_READ]: burst=AHB_BURST_SINGLE size=AHB_SIZE_16B beats=1 error=0
# UVM_INFO ../src/env/ahb_scoreboard.sv(104) @ 1395000: uvm_test_top.env.scb [ahb_scoreboard] MATCH #34: [AHB_READ] HADDR=0x00002042 AHB_BURST_SINGLE 1 beats
# UVM_INFO ../src/mst_seq/ahb_base_seq.sv(164) @ 1395000: uvm_test_top.env.master_agent.sqr@@seq [ahb_single_seq] AHB_BURST_SINGLE AHB_SIZE_16B beat 0 @0x00002042 ok
# UVM_INFO ../src/mst/ahb_master_driver.sv(82) @ 1395000: uvm_test_top.env.master_agent.drv [ahb_master_driver] Queueing [AHB_WRITE]: HADDR=0x00002044, HBURST=AHB_BURST_SINGLE, HSIZE=AHB_SIZE_32B, 1 beats
# UVM_INFO ../src/mst/ahb_master_driver.sv(124) @ 1395000: uvm_test_top.env.master_agent.drv [ahb_master_driver] Driving [AHB_WRITE]: HADDR=0x00002044, HBURST=AHB_BURST_SINGLE, HSIZE=AHB_SIZE_32B, 1 beats               
# UVM_INFO ../src/mst/ahb_master_driver.sv(317) @ 1435000: uvm_test_top.env.master_agent.drv [ahb_master_driver] Beat[0/1] addr=0x00002044 trans=AHB_TRANS_NONSEQ resp=AHB_RESP_OKAY wdata=0x74a1e835
# UVM_INFO ../src/mst/ahb_master_driver.sv(361) @ 1435000: uvm_test_top.env.master_agent.drv [ahb_master_driver] Transaction complete: AHB_WRITE 0x00002044, 1 beats, burst=AHB_BURST_SINGLE
# UVM_INFO ../src/slv/ahb_slave_driver.sv(184) @ 1435000: uvm_test_top.env.slave_agent.drv [ahb_slave_driver] Beat AHB_WRITE addr=0x00002044 resp=AHB_RESP_OKAY waits=1 wdata=0x74a1e835
# UVM_INFO ../src/slv/ahb_slave_monitor.sv(197) @ 1435000: uvm_test_top.env.slave_agent.mon [ahb_slave_monitor] Observed [AHB_WRITE]: HADDR=0x00002044, HBURST=AHB_BURST_SINGLE, HSIZE=AHB_SIZE_32B, 1 beats
# UVM_INFO ../src/env/ahb_coverage.sv(127) @ 1435000: uvm_test_top.env.slave_cov [ahb_coverage] Sampled [AHB_WRITE]: burst=AHB_BURST_SINGLE size=AHB_SIZE_32B beats=1 error=0
# UVM_INFO ../src/mst/ahb_master_monitor.sv(117) @ 1435000: uvm_test_top.env.master_agent.mon [ahb_master_monitor] Beat[0] addr=0x00002044 wdata=0x74a1e835 resp=AHB_RESP_OKAY
# UVM_INFO ../src/mst/ahb_master_monitor.sv(222) @ 1435000: uvm_test_top.env.master_agent.mon [ahb_master_monitor] Observed [AHB_WRITE]: HADDR=0x00002044, HBURST=AHB_BURST_SINGLE, HSIZE=AHB_SIZE_32B, 1 beats
# UVM_INFO ../src/env/ahb_coverage.sv(127) @ 1435000: uvm_test_top.env.master_cov [ahb_coverage] Sampled [AHB_WRITE]: burst=AHB_BURST_SINGLE size=AHB_SIZE_32B beats=1 error=0
# UVM_INFO ../src/env/ahb_scoreboard.sv(104) @ 1435000: uvm_test_top.env.scb [ahb_scoreboard] MATCH #35: [AHB_WRITE] HADDR=0x00002044 AHB_BURST_SINGLE 1 beats
# UVM_INFO ../src/mst/ahb_master_driver.sv(82) @ 1435000: uvm_test_top.env.master_agent.drv [ahb_master_driver] Queueing [AHB_READ]: HADDR=0x00002044, HBURST=AHB_BURST_SINGLE, HSIZE=AHB_SIZE_32B, 1 beats
# UVM_INFO ../src/mst/ahb_master_driver.sv(124) @ 1435000: uvm_test_top.env.master_agent.drv [ahb_master_driver] Driving [AHB_READ]: HADDR=0x00002044, HBURST=AHB_BURST_SINGLE, HSIZE=AHB_SIZE_32B, 1 beats               
# UVM_INFO ../src/mst/ahb_master_driver.sv(317) @ 1485000: uvm_test_top.env.master_agent.drv [ahb_master_driver] Beat[0/1] addr=0x00002044 trans=AHB_TRANS_NONSEQ resp=AHB_RESP_OKAY rdata=0x74a1e835
# UVM_INFO ../src/mst/ahb_master_driver.sv(361) @ 1485000: uvm_test_top.env.master_agent.drv [ahb_master_driver] Transaction complete: AHB_READ 0x00002044, 1 beats, burst=AHB_BURST_SINGLE
# UVM_INFO ../src/slv/ahb_slave_driver.sv(184) @ 1485000: uvm_test_top.env.slave_agent.drv [ahb_slave_driver] Beat AHB_READ addr=0x00002044 resp=AHB_RESP_OKAY waits=2 rdata=0x74a1e835
# UVM_INFO ../src/mst/ahb_master_monitor.sv(117) @ 1485000: uvm_test_top.env.master_agent.mon [ahb_master_monitor] Beat[0] addr=0x00002044 rdata=0x74a1e835 resp=AHB_RESP_OKAY
# UVM_INFO ../src/mst/ahb_master_monitor.sv(222) @ 1485000: uvm_test_top.env.master_agent.mon [ahb_master_monitor] Observed [AHB_READ]: HADDR=0x00002044, HBURST=AHB_BURST_SINGLE, HSIZE=AHB_SIZE_32B, 1 beats
# UVM_INFO ../src/env/ahb_coverage.sv(127) @ 1485000: uvm_test_top.env.master_cov [ahb_coverage] Sampled [AHB_READ]: burst=AHB_BURST_SINGLE size=AHB_SIZE_32B beats=1 error=0
# UVM_INFO ../src/slv/ahb_slave_monitor.sv(197) @ 1485000: uvm_test_top.env.slave_agent.mon [ahb_slave_monitor] Observed [AHB_READ]: HADDR=0x00002044, HBURST=AHB_BURST_SINGLE, HSIZE=AHB_SIZE_32B, 1 beats
# UVM_INFO ../src/env/ahb_scoreboard.sv(104) @ 1485000: uvm_test_top.env.scb [ahb_scoreboard] MATCH #36: [AHB_READ] HADDR=0x00002044 AHB_BURST_SINGLE 1 beats
# UVM_INFO ../src/env/ahb_coverage.sv(127) @ 1485000: uvm_test_top.env.slave_cov [ahb_coverage] Sampled [AHB_READ]: burst=AHB_BURST_SINGLE size=AHB_SIZE_32B beats=1 error=0
# UVM_INFO ../src/mst_seq/ahb_base_seq.sv(164) @ 1485000: uvm_test_top.env.master_agent.sqr@@seq [ahb_single_seq] AHB_BURST_SINGLE AHB_SIZE_32B beat 0 @0x00002044 ok
# UVM_INFO ../src/mst/ahb_master_driver.sv(82) @ 1485000: uvm_test_top.env.master_agent.drv [ahb_master_driver] Queueing [AHB_WRITE]: HADDR=0x00002049, HBURST=AHB_BURST_SINGLE, HSIZE=AHB_SIZE_8B, 1 beats
# UVM_INFO ../src/mst/ahb_master_driver.sv(124) @ 1485000: uvm_test_top.env.master_agent.drv [ahb_master_driver] Driving [AHB_WRITE]: HADDR=0x00002049, HBURST=AHB_BURST_SINGLE, HSIZE=AHB_SIZE_8B, 1 beats               
# UVM_INFO ../src/mst/ahb_master_driver.sv(317) @ 1515000: uvm_test_top.env.master_agent.drv [ahb_master_driver] Beat[0/1] addr=0x00002049 trans=AHB_TRANS_NONSEQ resp=AHB_RESP_OKAY wdata=0x46c559d0
# UVM_INFO ../src/mst/ahb_master_driver.sv(361) @ 1515000: uvm_test_top.env.master_agent.drv [ahb_master_driver] Transaction complete: AHB_WRITE 0x00002049, 1 beats, burst=AHB_BURST_SINGLE
# UVM_INFO ../src/slv/ahb_slave_driver.sv(184) @ 1515000: uvm_test_top.env.slave_agent.drv [ahb_slave_driver] Beat AHB_WRITE addr=0x00002049 resp=AHB_RESP_OKAY waits=0 wdata=0x46c559d0
# UVM_INFO ../src/slv/ahb_slave_monitor.sv(197) @ 1515000: uvm_test_top.env.slave_agent.mon [ahb_slave_monitor] Observed [AHB_WRITE]: HADDR=0x00002049, HBURST=AHB_BURST_SINGLE, HSIZE=AHB_SIZE_8B, 1 beats
# UVM_INFO ../src/env/ahb_coverage.sv(127) @ 1515000: uvm_test_top.env.slave_cov [ahb_coverage] Sampled [AHB_WRITE]: burst=AHB_BURST_SINGLE size=AHB_SIZE_8B beats=1 error=0
# UVM_INFO ../src/mst/ahb_master_monitor.sv(117) @ 1515000: uvm_test_top.env.master_agent.mon [ahb_master_monitor] Beat[0] addr=0x00002049 wdata=0x46c559d0 resp=AHB_RESP_OKAY
# UVM_INFO ../src/mst/ahb_master_monitor.sv(222) @ 1515000: uvm_test_top.env.master_agent.mon [ahb_master_monitor] Observed [AHB_WRITE]: HADDR=0x00002049, HBURST=AHB_BURST_SINGLE, HSIZE=AHB_SIZE_8B, 1 beats
# UVM_INFO ../src/env/ahb_coverage.sv(127) @ 1515000: uvm_test_top.env.master_cov [ahb_coverage] Sampled [AHB_WRITE]: burst=AHB_BURST_SINGLE size=AHB_SIZE_8B beats=1 error=0
# UVM_INFO ../src/env/ahb_scoreboard.sv(104) @ 1515000: uvm_test_top.env.scb [ahb_scoreboard] MATCH #37: [AHB_WRITE] HADDR=0x00002049 AHB_BURST_SINGLE 1 beats
# UVM_INFO ../src/mst/ahb_master_driver.sv(82) @ 1515000: uvm_test_top.env.master_agent.drv [ahb_master_driver] Queueing [AHB_READ]: HADDR=0x00002049, HBURST=AHB_BURST_SINGLE, HSIZE=AHB_SIZE_8B, 1 beats
# UVM_INFO ../src/mst/ahb_master_driver.sv(124) @ 1515000: uvm_test_top.env.master_agent.drv [ahb_master_driver] Driving [AHB_READ]: HADDR=0x00002049, HBURST=AHB_BURST_SINGLE, HSIZE=AHB_SIZE_8B, 1 beats               
# UVM_INFO ../src/mst/ahb_master_driver.sv(317) @ 1565000: uvm_test_top.env.master_agent.drv [ahb_master_driver] Beat[0/1] addr=0x00002049 trans=AHB_TRANS_NONSEQ resp=AHB_RESP_OKAY rdata=0x46c559d0
# UVM_INFO ../src/mst/ahb_master_driver.sv(361) @ 1565000: uvm_test_top.env.master_agent.drv [ahb_master_driver] Transaction complete: AHB_READ 0x00002049, 1 beats, burst=AHB_BURST_SINGLE
# UVM_INFO ../src/slv/ahb_slave_driver.sv(184) @ 1565000: uvm_test_top.env.slave_agent.drv [ahb_slave_driver] Beat AHB_READ addr=0x00002049 resp=AHB_RESP_OKAY waits=2 rdata=0x46c559d0
# UVM_INFO ../src/mst/ahb_master_monitor.sv(117) @ 1565000: uvm_test_top.env.master_agent.mon [ahb_master_monitor] Beat[0] addr=0x00002049 rdata=0x46c559d0 resp=AHB_RESP_OKAY
# UVM_INFO ../src/mst/ahb_master_monitor.sv(222) @ 1565000: uvm_test_top.env.master_agent.mon [ahb_master_monitor] Observed [AHB_READ]: HADDR=0x00002049, HBURST=AHB_BURST_SINGLE, HSIZE=AHB_SIZE_8B, 1 beats
# UVM_INFO ../src/env/ahb_coverage.sv(127) @ 1565000: uvm_test_top.env.master_cov [ahb_coverage] Sampled [AHB_READ]: burst=AHB_BURST_SINGLE size=AHB_SIZE_8B beats=1 error=0
# UVM_INFO ../src/slv/ahb_slave_monitor.sv(197) @ 1565000: uvm_test_top.env.slave_agent.mon [ahb_slave_monitor] Observed [AHB_READ]: HADDR=0x00002049, HBURST=AHB_BURST_SINGLE, HSIZE=AHB_SIZE_8B, 1 beats
# UVM_INFO ../src/env/ahb_scoreboard.sv(104) @ 1565000: uvm_test_top.env.scb [ahb_scoreboard] MATCH #38: [AHB_READ] HADDR=0x00002049 AHB_BURST_SINGLE 1 beats
# UVM_INFO ../src/env/ahb_coverage.sv(127) @ 1565000: uvm_test_top.env.slave_cov [ahb_coverage] Sampled [AHB_READ]: burst=AHB_BURST_SINGLE size=AHB_SIZE_8B beats=1 error=0
# UVM_INFO ../src/mst_seq/ahb_base_seq.sv(164) @ 1565000: uvm_test_top.env.master_agent.sqr@@seq [ahb_single_seq] AHB_BURST_SINGLE AHB_SIZE_8B beat 0 @0x00002049 ok
# UVM_INFO ../src/mst/ahb_master_driver.sv(82) @ 1565000: uvm_test_top.env.master_agent.drv [ahb_master_driver] Queueing [AHB_WRITE]: HADDR=0x0000204e, HBURST=AHB_BURST_SINGLE, HSIZE=AHB_SIZE_16B, 1 beats
# UVM_INFO ../src/mst/ahb_master_driver.sv(124) @ 1565000: uvm_test_top.env.master_agent.drv [ahb_master_driver] Driving [AHB_WRITE]: HADDR=0x0000204e, HBURST=AHB_BURST_SINGLE, HSIZE=AHB_SIZE_16B, 1 beats               
# UVM_INFO ../src/mst/ahb_master_driver.sv(317) @ 1605000: uvm_test_top.env.master_agent.drv [ahb_master_driver] Beat[0/1] addr=0x0000204e trans=AHB_TRANS_NONSEQ resp=AHB_RESP_OKAY wdata=0x31af681b
# UVM_INFO ../src/mst/ahb_master_driver.sv(361) @ 1605000: uvm_test_top.env.master_agent.drv [ahb_master_driver] Transaction complete: AHB_WRITE 0x0000204e, 1 beats, burst=AHB_BURST_SINGLE
# UVM_INFO ../src/slv/ahb_slave_driver.sv(184) @ 1605000: uvm_test_top.env.slave_agent.drv [ahb_slave_driver] Beat AHB_WRITE addr=0x0000204e resp=AHB_RESP_OKAY waits=1 wdata=0x31af681b
# UVM_INFO ../src/mst/ahb_master_monitor.sv(117) @ 1605000: uvm_test_top.env.master_agent.mon [ahb_master_monitor] Beat[0] addr=0x0000204e wdata=0x31af681b resp=AHB_RESP_OKAY
# UVM_INFO ../src/mst/ahb_master_monitor.sv(222) @ 1605000: uvm_test_top.env.master_agent.mon [ahb_master_monitor] Observed [AHB_WRITE]: HADDR=0x0000204e, HBURST=AHB_BURST_SINGLE, HSIZE=AHB_SIZE_16B, 1 beats
# UVM_INFO ../src/env/ahb_coverage.sv(127) @ 1605000: uvm_test_top.env.master_cov [ahb_coverage] Sampled [AHB_WRITE]: burst=AHB_BURST_SINGLE size=AHB_SIZE_16B beats=1 error=0
# UVM_INFO ../src/slv/ahb_slave_monitor.sv(197) @ 1605000: uvm_test_top.env.slave_agent.mon [ahb_slave_monitor] Observed [AHB_WRITE]: HADDR=0x0000204e, HBURST=AHB_BURST_SINGLE, HSIZE=AHB_SIZE_16B, 1 beats
# UVM_INFO ../src/env/ahb_scoreboard.sv(104) @ 1605000: uvm_test_top.env.scb [ahb_scoreboard] MATCH #39: [AHB_WRITE] HADDR=0x0000204e AHB_BURST_SINGLE 1 beats
# UVM_INFO ../src/env/ahb_coverage.sv(127) @ 1605000: uvm_test_top.env.slave_cov [ahb_coverage] Sampled [AHB_WRITE]: burst=AHB_BURST_SINGLE size=AHB_SIZE_16B beats=1 error=0
# UVM_INFO ../src/mst/ahb_master_driver.sv(82) @ 1605000: uvm_test_top.env.master_agent.drv [ahb_master_driver] Queueing [AHB_READ]: HADDR=0x0000204e, HBURST=AHB_BURST_SINGLE, HSIZE=AHB_SIZE_16B, 1 beats
# UVM_INFO ../src/mst/ahb_master_driver.sv(124) @ 1605000: uvm_test_top.env.master_agent.drv [ahb_master_driver] Driving [AHB_READ]: HADDR=0x0000204e, HBURST=AHB_BURST_SINGLE, HSIZE=AHB_SIZE_16B, 1 beats               
# UVM_INFO ../src/mst/ahb_master_driver.sv(317) @ 1635000: uvm_test_top.env.master_agent.drv [ahb_master_driver] Beat[0/1] addr=0x0000204e trans=AHB_TRANS_NONSEQ resp=AHB_RESP_OKAY rdata=0x31af681b
# UVM_INFO ../src/mst/ahb_master_driver.sv(361) @ 1635000: uvm_test_top.env.master_agent.drv [ahb_master_driver] Transaction complete: AHB_READ 0x0000204e, 1 beats, burst=AHB_BURST_SINGLE
# UVM_INFO ../src/slv/ahb_slave_driver.sv(184) @ 1635000: uvm_test_top.env.slave_agent.drv [ahb_slave_driver] Beat AHB_READ addr=0x0000204e resp=AHB_RESP_OKAY waits=0 rdata=0x31af681b
# UVM_INFO ../src/slv/ahb_slave_monitor.sv(197) @ 1635000: uvm_test_top.env.slave_agent.mon [ahb_slave_monitor] Observed [AHB_READ]: HADDR=0x0000204e, HBURST=AHB_BURST_SINGLE, HSIZE=AHB_SIZE_16B, 1 beats
# UVM_INFO ../src/env/ahb_coverage.sv(127) @ 1635000: uvm_test_top.env.slave_cov [ahb_coverage] Sampled [AHB_READ]: burst=AHB_BURST_SINGLE size=AHB_SIZE_16B beats=1 error=0
# UVM_INFO ../src/mst/ahb_master_monitor.sv(117) @ 1635000: uvm_test_top.env.master_agent.mon [ahb_master_monitor] Beat[0] addr=0x0000204e rdata=0x31af681b resp=AHB_RESP_OKAY
# UVM_INFO ../src/mst/ahb_master_monitor.sv(222) @ 1635000: uvm_test_top.env.master_agent.mon [ahb_master_monitor] Observed [AHB_READ]: HADDR=0x0000204e, HBURST=AHB_BURST_SINGLE, HSIZE=AHB_SIZE_16B, 1 beats
# UVM_INFO ../src/env/ahb_coverage.sv(127) @ 1635000: uvm_test_top.env.master_cov [ahb_coverage] Sampled [AHB_READ]: burst=AHB_BURST_SINGLE size=AHB_SIZE_16B beats=1 error=0
# UVM_INFO ../src/env/ahb_scoreboard.sv(104) @ 1635000: uvm_test_top.env.scb [ahb_scoreboard] MATCH #40: [AHB_READ] HADDR=0x0000204e AHB_BURST_SINGLE 1 beats
# UVM_INFO ../src/mst_seq/ahb_base_seq.sv(164) @ 1635000: uvm_test_top.env.master_agent.sqr@@seq [ahb_single_seq] AHB_BURST_SINGLE AHB_SIZE_16B beat 0 @0x0000204e ok
# UVM_INFO ../src/mst_seq/ahb_single_seq.sv(70) @ 1635000: uvm_test_top.env.master_agent.sqr@@seq [ahb_single_seq] SINGLE transfers done: beats=20 mismatch=0
# UVM_INFO verilog_src/uvm-1.1d/src/base/uvm_objection.svh(1268) @ 1635200: reporter [TEST_DONE] 'run' phase is ready to proceed to the 'extract' phase
# UVM_INFO ../src/env/ahb_coverage.sv(137) @ 1635200: uvm_test_top.env.master_cov [ahb_coverage] [master_cov] functional coverage = 55.12%
# UVM_INFO ../src/env/ahb_scoreboard.sv(209) @ 1635200: uvm_test_top.env.scb [ahb_scoreboard] Passthrough : compared=40 matched=40 mismatched=0
# UVM_INFO ../src/env/ahb_scoreboard.sv(213) @ 1635200: uvm_test_top.env.scb [ahb_scoreboard] Ref-memory  : wr_bytes=35 rd_checked=35 rd_uninit=0 rd_mismatch=0
# UVM_INFO ../src/env/ahb_coverage.sv(137) @ 1635200: uvm_test_top.env.slave_cov [ahb_coverage] [slave_cov] functional coverage = 55.12%
# UVM_INFO ../src/test/ahb_base_test.sv(74) @ 1635200: uvm_test_top [ahb_single_transfer_test] 
# === TEST PASSED ===
# 
# 
# --- UVM Report Summary ---
# 
# ** Report counts by severity
# UVM_INFO :  488
# UVM_WARNING :    0
# UVM_ERROR :    0
# UVM_FATAL :    0
# ** Report counts by id
# [Questa UVM]     3
# [RNTST]     1
# [TB_TOP]     3
# [TEST_DONE]     1
# [UVMTOP]     1
# [ahb_coverage]    82
# [ahb_master_agent]     1
# [ahb_master_driver]   162
# [ahb_master_monitor]    81
# [ahb_scoreboard]    42
# [ahb_single_seq]    22
# [ahb_single_transfer_test]     1
# [ahb_slave_agent]     1
# [ahb_slave_driver]    41
# [ahb_slave_monitor]    41
# [ahb_vip_env]     5
# ** Note: $finish    : /cadtools/mentor/Questa_10.6b/questasim/linux_x86_64/../verilog_src/uvm-1.1d/src/base/uvm_root.svh(430)
#    Time: 1635200 ps  Iteration: 53  Instance: /tb_top
# Saving coverage database on exit...
# End time: 10:22:31 on Aug 03,2026, Elapsed time: 0:00:01
# Errors: 0, Warnings: 0
