# vsim -c -coverage -sv_seed 35060129 "+UVM_TESTNAME=ahb_undefined_burst_test" "+UVM_VERBOSITY=UVM_HIGH" "+DUMP_VCD" -l ./report/logs/ahb_undefined_burst_test_run_4_seed_35060129.log -do "coverage save -onexit ./report/coverage/ahb_undefined_burst_test_run_4_seed_35060129.ucdb; run -all; quit -f" opt_tb_top 
# Start time: 12:29:33 on Aug 03,2026
# //  Questa Sim-64
# //  Version 10.6b linux_x86_64 May 25 2017
# //
# //  Copyright 1991-2017 Mentor Graphics Corporation
# //  All Rights Reserved.
# //
# //  QuestaSim and its associated documentation contain trade
# //  secrets and commercial or financial information that are the property of
# //  Mentor Graphics Corporation and are privileged, confidential,
# //  and exempt from disclosure under the Freedom of Information Act,
# //  5 U.S.C. Section 552. Furthermore, this information
# //  is prohibited from disclosure under the Trade Secrets Act,
# //  18 U.S.C. Section 1905.
# //
# Loading sv_std.std
# Loading work.ahb_if(fast)
# Loading mtiUvm.uvm_pkg
# Loading work.ahb_pkg(fast)
# Loading work.ahb_seq_pkg(fast)
# Loading work.ahb_test_pkg(fast)
# Loading work.tb_top(fast)
# Loading work.ahb_if(fast)
# Loading work.ahb_sva(fast)
# Loading mtiUvm.questa_uvm_pkg(fast)
# Loading /cadtools/mentor/Questa_10.6b/questasim/uvm-1.1d/linux_x86_64/uvm_dpi.so
# coverage save -onexit ./report/coverage/ahb_undefined_burst_test_run_4_seed_35060129.ucdb
#  run -all
# ----------------------------------------------------------------
# UVM-1.1d
# (C) 2007-2013 Mentor Graphics Corporation
# (C) 2007-2013 Cadence Design Systems, Inc.
# (C) 2006-2013 Synopsys, Inc.
# (C) 2011-2013 Cypress Semiconductor Corp.
# ----------------------------------------------------------------
# 
#   ***********       IMPORTANT RELEASE NOTES         ************
# 
#   You are using a version of the UVM library that has been compiled
#   with `UVM_NO_DEPRECATED undefined.
#   See http://www.eda.org/svdb/view.php?id=3313 for more details.
# 
#   You are using a version of the UVM library that has been compiled
#   with `UVM_OBJECT_MUST_HAVE_CONSTRUCTOR undefined.
#   See http://www.eda.org/svdb/view.php?id=3770 for more details.
# 
#       (Specify +UVM_NO_RELNOTES to turn off this notice)
# 
# UVM_INFO verilog_src/questa_uvm_pkg-1.2/src/questa_uvm_pkg.sv(215) @ 0: reporter [Questa UVM] QUESTA_UVM-1.2.3
# UVM_INFO verilog_src/questa_uvm_pkg-1.2/src/questa_uvm_pkg.sv(217) @ 0: reporter [Questa UVM]  questa_uvm::init(+struct)
# UVM_INFO ../src/tb_top.sv(126) @ 0: reporter [TB_TOP] Virtual interface set in config_db
# UVM_INFO @ 0: reporter [RNTST] Running test ahb_undefined_burst_test...
# UVM_INFO ../src/tb_top.sv(140) @ 0: reporter [TB_TOP] Waveform VCD dumping enabled (ahb_lite_vip.vcd)
# UVM_INFO ../src/env/ahb_vip_env.sv(64) @ 0: uvm_test_top.env [ahb_vip_env] slave_vif not set - reusing master_vif (passthrough mode)
# UVM_INFO ../src/env/ahb_vip_env.sv(72) @ 0: uvm_test_top.env [ahb_vip_env] Scoreboard created
# UVM_INFO ../src/env/ahb_vip_env.sv(78) @ 0: uvm_test_top.env [ahb_vip_env] Coverage collectors created
# UVM_INFO ../src/mst/ahb_master_agent.sv(61) @ 0: uvm_test_top.env.master_agent [ahb_master_agent] ACTIVE mode - driver + sequencer created
# UVM_INFO ../src/slv/ahb_slave_agent.sv(64) @ 0: uvm_test_top.env.slave_agent [ahb_slave_agent] ACTIVE mode - driver + sequencer created (    auto responses)
# UVM_INFO ../src/env/ahb_vip_env.sv(92) @ 0: uvm_test_top.env [ahb_vip_env] Scoreboard connected: master_mon.ap -> scb, slave_mon.ap -> scb
# UVM_INFO ../src/env/ahb_vip_env.sv(99) @ 0: uvm_test_top.env [ahb_vip_env] Coverage connected: master_mon.ap -> master_cov, slave_mon.ap -> slave_cov
# UVM_INFO @ 0: reporter [UVMTOP] UVM testbench topology:
# ----------------------------------------------------------------
# Name                       Type                      Size  Value
# ----------------------------------------------------------------
# uvm_test_top               ahb_undefined_burst_test  -     @475 
#   env                      ahb_vip_env               -     @490 
#     master_agent           ahb_master_agent          -     @505 
#       drv                  ahb_master_driver         -     @570 
#         rsp_port           uvm_analysis_port         -     @585 
#         seq_item_port      uvm_seq_item_pull_port    -     @577 
#       mon                  ahb_master_monitor        -     @563 
#         ap                 uvm_analysis_port         -     @704 
#       sqr                  ahb_master_sequencer      -     @593 
#         rsp_export         uvm_analysis_export       -     @600 
#         seq_item_export    uvm_seq_item_pull_imp     -     @694 
#         arbitration_queue  array                     0     -    
#         lock_queue         array                     0     -    
#         num_last_reqs      integral                  32    'd1  
#         num_last_rsps      integral                  32    'd1  
#     master_cov             ahb_coverage              -     @526 
#       analysis_imp         uvm_analysis_imp          -     @533 
#     scb                    ahb_scoreboard            -     @519 
#       master_export        uvm_analysis_imp_master   -     @718 
#       slave_export         uvm_analysis_imp_slave    -     @726 
#     slave_agent            ahb_slave_agent           -     @512 
#       drv                  ahb_slave_driver          -     @748 
#         rsp_port           uvm_analysis_port         -     @763 
#         seq_item_port      uvm_seq_item_pull_port    -     @755 
#       mon                  ahb_slave_monitor         -     @741 
#         ap                 uvm_analysis_port         -     @882 
#       sqr                  ahb_slave_sequencer       -     @771 
#         rsp_export         uvm_analysis_export       -     @778 
#         seq_item_export    uvm_seq_item_pull_imp     -     @872 
#         arbitration_queue  array                     0     -    
#         lock_queue         array                     0     -    
#         num_last_reqs      integral                  32    'd1  
#         num_last_rsps      integral                  32    'd1  
#     slave_cov              ahb_coverage              -     @541 
#       analysis_imp         uvm_analysis_imp          -     @548 
# ----------------------------------------------------------------
# 
# UVM_INFO verilog_src/questa_uvm_pkg-1.2/src/questa_uvm_pkg.sv(277) @ 0: reporter [Questa UVM] End Of Elaboration
# UVM_INFO ../src/mst_seq/ahb_undefined_burst_seq.sv(55) @ 0: uvm_test_top.env.master_agent.sqr@@seq [ahb_undefined_burst_seq] Starting undefined-length INCR bursts: 8 iterations from 0x00005000
# UVM_INFO ../src/mst_seq/ahb_undefined_burst_seq.sv(122) @ 0: uvm_test_top.env.master_agent.sqr@@seq [ahb_undefined_burst_seq] INCR 1 beats, AHB_SIZE_8B @0x000051d2, trailing_busy=0, retract=0, pipelined=0
# UVM_INFO ../src/mst/ahb_master_driver.sv(181) @ 5000: uvm_test_top.env.master_agent.drv [ahb_master_driver] Flushed pending transactions (reset)
# UVM_INFO ../src/tb_top.sv(48) @ 95000: reporter [TB_TOP] Reset de-asserted
# UVM_INFO ../src/slv/ahb_slave_driver.sv(63) @ 95000: uvm_test_top.env.slave_agent.drv [ahb_slave_driver] Reset deasserted - slave driver active (    auto mode)
# UVM_INFO ../src/mst/ahb_master_driver.sv(68) @ 95000: uvm_test_top.env.master_agent.drv [ahb_master_driver] Reset deasserted - master driver active
# UVM_INFO ../src/mst/ahb_master_monitor.sv(75) @ 95000: uvm_test_top.env.master_agent.mon [ahb_master_monitor] Reset deasserted - master monitor active
# UVM_INFO ../src/slv/ahb_slave_monitor.sv(69) @ 95000: uvm_test_top.env.slave_agent.mon [ahb_slave_monitor] Reset deasserted - slave monitor active
# UVM_INFO ../src/mst/ahb_master_driver.sv(82) @ 95000: uvm_test_top.env.master_agent.drv [ahb_master_driver] Queueing [AHB_WRITE]: HADDR=0x000051d2, HBURST=AHB_BURST_INCR, HSIZE=AHB_SIZE_8B, 1 beats
# UVM_INFO ../src/mst/ahb_master_driver.sv(124) @ 95000: uvm_test_top.env.master_agent.drv [ahb_master_driver] Driving [AHB_WRITE]: HADDR=0x000051d2, HBURST=AHB_BURST_INCR, HSIZE=AHB_SIZE_8B, 1 beats               
# UVM_INFO ../src/mst/ahb_master_driver.sv(317) @ 115000: uvm_test_top.env.master_agent.drv [ahb_master_driver] Beat[0/1] addr=0x000051d2 trans=AHB_TRANS_NONSEQ resp=AHB_RESP_OKAY wdata=0xfd56b7a4
# UVM_INFO ../src/mst/ahb_master_driver.sv(362) @ 115000: uvm_test_top.env.master_agent.drv [ahb_master_driver] Transaction complete: AHB_WRITE 0x000051d2, 1 beats, burst=AHB_BURST_INCR
# UVM_INFO ../src/slv/ahb_slave_driver.sv(184) @ 115000: uvm_test_top.env.slave_agent.drv [ahb_slave_driver] Beat AHB_WRITE addr=0x000051d2 resp=AHB_RESP_OKAY waits=0 wdata=0xfd56b7a4
# UVM_INFO ../src/slv/ahb_slave_monitor.sv(197) @ 115000: uvm_test_top.env.slave_agent.mon [ahb_slave_monitor] Observed [AHB_WRITE]: HADDR=0x000051d2, HBURST=AHB_BURST_INCR, HSIZE=AHB_SIZE_8B, 1 beats
# UVM_INFO ../src/env/ahb_coverage.sv(127) @ 115000: uvm_test_top.env.slave_cov [ahb_coverage] Sampled [AHB_WRITE]: burst=AHB_BURST_INCR size=AHB_SIZE_8B beats=1 error=0
# UVM_INFO ../src/mst/ahb_master_monitor.sv(117) @ 115000: uvm_test_top.env.master_agent.mon [ahb_master_monitor] Beat[0] addr=0x000051d2 wdata=0xfd56b7a4 resp=AHB_RESP_OKAY
# UVM_INFO ../src/mst/ahb_master_monitor.sv(222) @ 115000: uvm_test_top.env.master_agent.mon [ahb_master_monitor] Observed [AHB_WRITE]: HADDR=0x000051d2, HBURST=AHB_BURST_INCR, HSIZE=AHB_SIZE_8B, 1 beats
# UVM_INFO ../src/env/ahb_coverage.sv(127) @ 115000: uvm_test_top.env.master_cov [ahb_coverage] Sampled [AHB_WRITE]: burst=AHB_BURST_INCR size=AHB_SIZE_8B beats=1 error=0
# UVM_INFO ../src/env/ahb_scoreboard.sv(104) @ 115000: uvm_test_top.env.scb [ahb_scoreboard] MATCH #1: [AHB_WRITE] HADDR=0x000051d2 AHB_BURST_INCR 1 beats
# UVM_INFO ../src/mst/ahb_master_driver.sv(82) @ 115000: uvm_test_top.env.master_agent.drv [ahb_master_driver] Queueing [AHB_READ]: HADDR=0x000051d2, HBURST=AHB_BURST_INCR, HSIZE=AHB_SIZE_8B, 1 beats
# UVM_INFO ../src/mst/ahb_master_driver.sv(124) @ 115000: uvm_test_top.env.master_agent.drv [ahb_master_driver] Driving [AHB_READ]: HADDR=0x000051d2, HBURST=AHB_BURST_INCR, HSIZE=AHB_SIZE_8B, 1 beats               
# UVM_INFO ../src/mst/ahb_master_driver.sv(317) @ 145000: uvm_test_top.env.master_agent.drv [ahb_master_driver] Beat[0/1] addr=0x000051d2 trans=AHB_TRANS_NONSEQ resp=AHB_RESP_OKAY rdata=0xfd56b7a4
# UVM_INFO ../src/mst/ahb_master_driver.sv(362) @ 145000: uvm_test_top.env.master_agent.drv [ahb_master_driver] Transaction complete: AHB_READ 0x000051d2, 1 beats, burst=AHB_BURST_INCR
# UVM_INFO ../src/slv/ahb_slave_driver.sv(184) @ 145000: uvm_test_top.env.slave_agent.drv [ahb_slave_driver] Beat AHB_READ addr=0x000051d2 resp=AHB_RESP_OKAY waits=0 rdata=0xfd56b7a4
# UVM_INFO ../src/mst/ahb_master_monitor.sv(117) @ 145000: uvm_test_top.env.master_agent.mon [ahb_master_monitor] Beat[0] addr=0x000051d2 rdata=0xfd56b7a4 resp=AHB_RESP_OKAY
# UVM_INFO ../src/mst/ahb_master_monitor.sv(222) @ 145000: uvm_test_top.env.master_agent.mon [ahb_master_monitor] Observed [AHB_READ]: HADDR=0x000051d2, HBURST=AHB_BURST_INCR, HSIZE=AHB_SIZE_8B, 1 beats
# UVM_INFO ../src/env/ahb_coverage.sv(127) @ 145000: uvm_test_top.env.master_cov [ahb_coverage] Sampled [AHB_READ]: burst=AHB_BURST_INCR size=AHB_SIZE_8B beats=1 error=0
# UVM_INFO ../src/slv/ahb_slave_monitor.sv(197) @ 145000: uvm_test_top.env.slave_agent.mon [ahb_slave_monitor] Observed [AHB_READ]: HADDR=0x000051d2, HBURST=AHB_BURST_INCR, HSIZE=AHB_SIZE_8B, 1 beats
# UVM_INFO ../src/env/ahb_scoreboard.sv(104) @ 145000: uvm_test_top.env.scb [ahb_scoreboard] MATCH #2: [AHB_READ] HADDR=0x000051d2 AHB_BURST_INCR 1 beats
# UVM_INFO ../src/env/ahb_coverage.sv(127) @ 145000: uvm_test_top.env.slave_cov [ahb_coverage] Sampled [AHB_READ]: burst=AHB_BURST_INCR size=AHB_SIZE_8B beats=1 error=0
# UVM_INFO ../src/mst_seq/ahb_base_seq.sv(164) @ 145000: uvm_test_top.env.master_agent.sqr@@seq [ahb_undefined_burst_seq] AHB_BURST_INCR AHB_SIZE_8B beat 0 @0x000051d2 ok
# UVM_INFO ../src/mst_seq/ahb_undefined_burst_seq.sv(122) @ 145000: uvm_test_top.env.master_agent.sqr@@seq [ahb_undefined_burst_seq] INCR 256 beats, AHB_SIZE_16B @0x000054d2, trailing_busy=3, retract=0, pipelined=0
# UVM_INFO ../src/mst/ahb_master_driver.sv(82) @ 145000: uvm_test_top.env.master_agent.drv [ahb_master_driver] Queueing [AHB_WRITE]: HADDR=0x000054d2, HBURST=AHB_BURST_INCR, HSIZE=AHB_SIZE_16B, 256 beats
# UVM_INFO ../src/mst/ahb_master_driver.sv(124) @ 145000: uvm_test_top.env.master_agent.drv [ahb_master_driver] Driving [AHB_WRITE]: HADDR=0x000054d2, HBURST=AHB_BURST_INCR, HSIZE=AHB_SIZE_16B, 256 beats               
# UVM_INFO ../src/mst/ahb_master_driver.sv(317) @ 175000: uvm_test_top.env.master_agent.drv [ahb_master_driver] Beat[0/256] addr=0x000054d2 trans=AHB_TRANS_NONSEQ resp=AHB_RESP_OKAY wdata=0x26b2f4fa
# UVM_INFO ../src/slv/ahb_slave_driver.sv(184) @ 175000: uvm_test_top.env.slave_agent.drv [ahb_slave_driver] Beat AHB_WRITE addr=0x000054d2 resp=AHB_RESP_OKAY waits=0 wdata=0x26b2f4fa
# UVM_INFO ../src/mst/ahb_master_monitor.sv(117) @ 175000: uvm_test_top.env.master_agent.mon [ahb_master_monitor] Beat[0] addr=0x000054d2 wdata=0x26b2f4fa resp=AHB_RESP_OKAY
# UVM_INFO ../src/mst/ahb_master_driver.sv(317) @ 185000: uvm_test_top.env.master_agent.drv [ahb_master_driver] Beat[1/256] addr=0x000054d4 trans=AHB_TRANS_SEQ resp=AHB_RESP_OKAY wdata=0xbe378f24
# UVM_INFO ../src/slv/ahb_slave_driver.sv(184) @ 185000: uvm_test_top.env.slave_agent.drv [ahb_slave_driver] Beat AHB_WRITE addr=0x000054d4 resp=AHB_RESP_OKAY waits=0 wdata=0xbe378f24
# UVM_INFO ../src/mst/ahb_master_monitor.sv(117) @ 185000: uvm_test_top.env.master_agent.mon [ahb_master_monitor] Beat[1] addr=0x000054d4 wdata=0xbe378f24 resp=AHB_RESP_OKAY
# UVM_INFO ../src/mst/ahb_master_driver.sv(317) @ 195000: uvm_test_top.env.master_agent.drv [ahb_master_driver] Beat[2/256] addr=0x000054d6 trans=AHB_TRANS_SEQ resp=AHB_RESP_OKAY wdata=0xb31a4f16
# UVM_INFO ../src/slv/ahb_slave_driver.sv(184) @ 195000: uvm_test_top.env.slave_agent.drv [ahb_slave_driver] Beat AHB_WRITE addr=0x000054d6 resp=AHB_RESP_OKAY waits=0 wdata=0xb31a4f16
# UVM_INFO ../src/mst/ahb_master_monitor.sv(117) @ 195000: uvm_test_top.env.master_agent.mon [ahb_master_monitor] Beat[2] addr=0x000054d6 wdata=0xb31a4f16 resp=AHB_RESP_OKAY
# UVM_INFO ../src/mst/ahb_master_driver.sv(317) @ 225000: uvm_test_top.env.master_agent.drv [ahb_master_driver] Beat[3/256] addr=0x000054d8 trans=AHB_TRANS_SEQ resp=AHB_RESP_OKAY wdata=0x9e174168
# UVM_INFO ../src/slv/ahb_slave_driver.sv(184) @ 225000: uvm_test_top.env.slave_agent.drv [ahb_slave_driver] Beat AHB_WRITE addr=0x000054d8 resp=AHB_RESP_OKAY waits=2 wdata=0x9e174168
# UVM_INFO ../src/mst/ahb_master_monitor.sv(117) @ 225000: uvm_test_top.env.master_agent.mon [ahb_master_monitor] Beat[3] addr=0x000054d8 wdata=0x9e174168 resp=AHB_RESP_OKAY
# UVM_INFO ../src/mst/ahb_master_driver.sv(317) @ 235000: uvm_test_top.env.master_agent.drv [ahb_master_driver] Beat[4/256] addr=0x000054da trans=AHB_TRANS_SEQ resp=AHB_RESP_OKAY wdata=0xbb511a09
# UVM_INFO ../src/slv/ahb_slave_driver.sv(184) @ 235000: uvm_test_top.env.slave_agent.drv [ahb_slave_driver] Beat AHB_WRITE addr=0x000054da resp=AHB_RESP_OKAY waits=0 wdata=0xbb511a09
# UVM_INFO ../src/mst/ahb_master_monitor.sv(117) @ 235000: uvm_test_top.env.master_agent.mon [ahb_master_monitor] Beat[4] addr=0x000054da wdata=0xbb511a09 resp=AHB_RESP_OKAY
# UVM_INFO ../src/mst/ahb_master_driver.sv(317) @ 245000: uvm_test_top.env.master_agent.drv [ahb_master_driver] Beat[5/256] addr=0x000054dc trans=AHB_TRANS_SEQ resp=AHB_RESP_OKAY wdata=0x2406970a
# UVM_INFO ../src/slv/ahb_slave_driver.sv(184) @ 245000: uvm_test_top.env.slave_agent.drv [ahb_slave_driver] Beat AHB_WRITE addr=0x000054dc resp=AHB_RESP_OKAY waits=0 wdata=0x2406970a
# UVM_INFO ../src/mst/ahb_master_monitor.sv(117) @ 245000: uvm_test_top.env.master_agent.mon [ahb_master_monitor] Beat[5] addr=0x000054dc wdata=0x2406970a resp=AHB_RESP_OKAY
# UVM_INFO ../src/mst/ahb_master_driver.sv(317) @ 265000: uvm_test_top.env.master_agent.drv [ahb_master_driver] Beat[6/256] addr=0x000054de trans=AHB_TRANS_SEQ resp=AHB_RESP_OKAY wdata=0x0a493e15
# UVM_INFO ../src/slv/ahb_slave_driver.sv(184) @ 265000: uvm_test_top.env.slave_agent.drv [ahb_slave_driver] Beat AHB_WRITE addr=0x000054de resp=AHB_RESP_OKAY waits=1 wdata=0x0a493e15
# UVM_INFO ../src/mst/ahb_master_monitor.sv(117) @ 265000: uvm_test_top.env.master_agent.mon [ahb_master_monitor] Beat[6] addr=0x000054de wdata=0x0a493e15 resp=AHB_RESP_OKAY
# UVM_INFO ../src/mst/ahb_master_driver.sv(317) @ 275000: uvm_test_top.env.master_agent.drv [ahb_master_driver] Beat[7/256] addr=0x000054e0 trans=AHB_TRANS_SEQ resp=AHB_RESP_OKAY wdata=0x31816bf3
# UVM_INFO ../src/slv/ahb_slave_driver.sv(184) @ 275000: uvm_test_top.env.slave_agent.drv [ahb_slave_driver] Beat AHB_WRITE addr=0x000054e0 resp=AHB_RESP_OKAY waits=0 wdata=0x31816bf3
# UVM_INFO ../src/mst/ahb_master_monitor.sv(117) @ 275000: uvm_test_top.env.master_agent.mon [ahb_master_monitor] Beat[7] addr=0x000054e0 wdata=0x31816bf3 resp=AHB_RESP_OKAY
# UVM_INFO ../src/mst/ahb_master_driver.sv(317) @ 315000: uvm_test_top.env.master_agent.drv [ahb_master_driver] Beat[8/256] addr=0x000054e2 trans=AHB_TRANS_SEQ resp=AHB_RESP_OKAY wdata=0xb93071ad
# UVM_INFO ../src/slv/ahb_slave_driver.sv(184) @ 315000: uvm_test_top.env.slave_agent.drv [ahb_slave_driver] Beat AHB_WRITE addr=0x000054e2 resp=AHB_RESP_OKAY waits=1 wdata=0xb93071ad
# UVM_INFO ../src/mst/ahb_master_monitor.sv(117) @ 315000: uvm_test_top.env.master_agent.mon [ahb_master_monitor] Beat[8] addr=0x000054e2 wdata=0xb93071ad resp=AHB_RESP_OKAY
# UVM_INFO ../src/mst/ahb_master_driver.sv(317) @ 325000: uvm_test_top.env.master_agent.drv [ahb_master_driver] Beat[9/256] addr=0x000054e4 trans=AHB_TRANS_SEQ resp=AHB_RESP_OKAY wdata=0xc1d8a750
# UVM_INFO ../src/slv/ahb_slave_driver.sv(184) @ 325000: uvm_test_top.env.slave_agent.drv [ahb_slave_driver] Beat AHB_WRITE addr=0x000054e4 resp=AHB_RESP_OKAY waits=0 wdata=0xc1d8a750
# UVM_INFO ../src/mst/ahb_master_monitor.sv(117) @ 325000: uvm_test_top.env.master_agent.mon [ahb_master_monitor] Beat[9] addr=0x000054e4 wdata=0xc1d8a750 resp=AHB_RESP_OKAY
# UVM_INFO ../src/mst/ahb_master_driver.sv(317) @ 345000: uvm_test_top.env.master_agent.drv [ahb_master_driver] Beat[10/256] addr=0x000054e6 trans=AHB_TRANS_SEQ resp=AHB_RESP_OKAY wdata=0xa0d358a7
# UVM_INFO ../src/slv/ahb_slave_driver.sv(184) @ 345000: uvm_test_top.env.slave_agent.drv [ahb_slave_driver] Beat AHB_WRITE addr=0x000054e6 resp=AHB_RESP_OKAY waits=1 wdata=0xa0d358a7
# UVM_INFO ../src/mst/ahb_master_monitor.sv(117) @ 345000: uvm_test_top.env.master_agent.mon [ahb_master_monitor] Beat[10] addr=0x000054e6 wdata=0xa0d358a7 resp=AHB_RESP_OKAY
# UVM_INFO ../src/mst/ahb_master_driver.sv(317) @ 355000: uvm_test_top.env.master_agent.drv [ahb_master_driver] Beat[11/256] addr=0x000054e8 trans=AHB_TRANS_SEQ resp=AHB_RESP_OKAY wdata=0xe30f1b6d
# UVM_INFO ../src/slv/ahb_slave_driver.sv(184) @ 355000: uvm_test_top.env.slave_agent.drv [ahb_slave_driver] Beat AHB_WRITE addr=0x000054e8 resp=AHB_RESP_OKAY waits=0 wdata=0xe30f1b6d
# UVM_INFO ../src/mst/ahb_master_monitor.sv(117) @ 355000: uvm_test_top.env.master_agent.mon [ahb_master_monitor] Beat[11] addr=0x000054e8 wdata=0xe30f1b6d resp=AHB_RESP_OKAY
# UVM_INFO ../src/mst/ahb_master_driver.sv(317) @ 365000: uvm_test_top.env.master_agent.drv [ahb_master_driver] Beat[12/256] addr=0x000054ea trans=AHB_TRANS_SEQ resp=AHB_RESP_OKAY wdata=0xbe5ffc30
# UVM_INFO ../src/slv/ahb_slave_driver.sv(184) @ 365000: uvm_test_top.env.slave_agent.drv [ahb_slave_driver] Beat AHB_WRITE addr=0x000054ea resp=AHB_RESP_OKAY waits=0 wdata=0xbe5ffc30
# UVM_INFO ../src/mst/ahb_master_monitor.sv(117) @ 365000: uvm_test_top.env.master_agent.mon [ahb_master_monitor] Beat[12] addr=0x000054ea wdata=0xbe5ffc30 resp=AHB_RESP_OKAY
# UVM_INFO ../src/mst/ahb_master_driver.sv(317) @ 385000: uvm_test_top.env.master_agent.drv [ahb_master_driver] Beat[13/256] addr=0x000054ec trans=AHB_TRANS_SEQ resp=AHB_RESP_OKAY wdata=0xed207984
# UVM_INFO ../src/slv/ahb_slave_driver.sv(184) @ 385000: uvm_test_top.env.slave_agent.drv [ahb_slave_driver] Beat AHB_WRITE addr=0x000054ec resp=AHB_RESP_OKAY waits=1 wdata=0xed207984
# UVM_INFO ../src/mst/ahb_master_monitor.sv(117) @ 385000: uvm_test_top.env.master_agent.mon [ahb_master_monitor] Beat[13] addr=0x000054ec wdata=0xed207984 resp=AHB_RESP_OKAY
# UVM_INFO ../src/mst/ahb_master_driver.sv(317) @ 405000: uvm_test_top.env.master_agent.drv [ahb_master_driver] Beat[14/256] addr=0x000054ee trans=AHB_TRANS_SEQ resp=AHB_RESP_OKAY wdata=0x879ac1df
# UVM_INFO ../src/slv/ahb_slave_driver.sv(184) @ 405000: uvm_test_top.env.slave_agent.drv [ahb_slave_driver] Beat AHB_WRITE addr=0x000054ee resp=AHB_RESP_OKAY waits=1 wdata=0x879ac1df
# UVM_INFO ../src/mst/ahb_master_monitor.sv(117) @ 405000: uvm_test_top.env.master_agent.mon [ahb_master_monitor] Beat[14] addr=0x000054ee wdata=0x879ac1df resp=AHB_RESP_OKAY
# UVM_INFO ../src/mst/ahb_master_driver.sv(317) @ 425000: uvm_test_top.env.master_agent.drv [ahb_master_driver] Beat[15/256] addr=0x000054f0 trans=AHB_TRANS_SEQ resp=AHB_RESP_OKAY wdata=0x40245b61
# UVM_INFO ../src/slv/ahb_slave_driver.sv(184) @ 425000: uvm_test_top.env.slave_agent.drv [ahb_slave_driver] Beat AHB_WRITE addr=0x000054f0 resp=AHB_RESP_OKAY waits=1 wdata=0x40245b61
# UVM_INFO ../src/mst/ahb_master_monitor.sv(117) @ 425000: uvm_test_top.env.master_agent.mon [ahb_master_monitor] Beat[15] addr=0x000054f0 wdata=0x40245b61 resp=AHB_RESP_OKAY
# UVM_INFO ../src/mst/ahb_master_driver.sv(317) @ 445000: uvm_test_top.env.master_agent.drv [ahb_master_driver] Beat[16/256] addr=0x000054f2 trans=AHB_TRANS_SEQ resp=AHB_RESP_OKAY wdata=0xdfb59049
# UVM_INFO ../src/slv/ahb_slave_driver.sv(184) @ 445000: uvm_test_top.env.slave_agent.drv [ahb_slave_driver] Beat AHB_WRITE addr=0x000054f2 resp=AHB_RESP_OKAY waits=0 wdata=0xdfb59049
# UVM_INFO ../src/mst/ahb_master_monitor.sv(117) @ 445000: uvm_test_top.env.master_agent.mon [ahb_master_monitor] Beat[16] addr=0x000054f2 wdata=0xdfb59049 resp=AHB_RESP_OKAY
# UVM_INFO ../src/mst/ahb_master_driver.sv(317) @ 455000: uvm_test_top.env.master_agent.drv [ahb_master_driver] Beat[17/256] addr=0x000054f4 trans=AHB_TRANS_SEQ resp=AHB_RESP_OKAY wdata=0x5cb59541
# UVM_INFO ../src/slv/ahb_slave_driver.sv(184) @ 455000: uvm_test_top.env.slave_agent.drv [ahb_slave_driver] Beat AHB_WRITE addr=0x000054f4 resp=AHB_RESP_OKAY waits=0 wdata=0x5cb59541
# UVM_INFO ../src/mst/ahb_master_monitor.sv(117) @ 455000: uvm_test_top.env.master_agent.mon [ahb_master_monitor] Beat[17] addr=0x000054f4 wdata=0x5cb59541 resp=AHB_RESP_OKAY
# UVM_INFO ../src/mst/ahb_master_driver.sv(317) @ 475000: uvm_test_top.env.master_agent.drv [ahb_master_driver] Beat[18/256] addr=0x000054f6 trans=AHB_TRANS_SEQ resp=AHB_RESP_OKAY wdata=0x7e0ba181
# UVM_INFO ../src/slv/ahb_slave_driver.sv(184) @ 475000: uvm_test_top.env.slave_agent.drv [ahb_slave_driver] Beat AHB_WRITE addr=0x000054f6 resp=AHB_RESP_OKAY waits=1 wdata=0x7e0ba181
# UVM_INFO ../src/mst/ahb_master_monitor.sv(117) @ 475000: uvm_test_top.env.master_agent.mon [ahb_master_monitor] Beat[18] addr=0x000054f6 wdata=0x7e0ba181 resp=AHB_RESP_OKAY
# UVM_INFO ../src/mst/ahb_master_driver.sv(317) @ 485000: uvm_test_top.env.master_agent.drv [ahb_master_driver] Beat[19/256] addr=0x000054f8 trans=AHB_TRANS_SEQ resp=AHB_RESP_OKAY wdata=0xc5a3f798
# UVM_INFO ../src/slv/ahb_slave_driver.sv(184) @ 485000: uvm_test_top.env.slave_agent.drv [ahb_slave_driver] Beat AHB_WRITE addr=0x000054f8 resp=AHB_RESP_OKAY waits=0 wdata=0xc5a3f798
# UVM_INFO ../src/mst/ahb_master_monitor.sv(117) @ 485000: uvm_test_top.env.master_agent.mon [ahb_master_monitor] Beat[19] addr=0x000054f8 wdata=0xc5a3f798 resp=AHB_RESP_OKAY
# UVM_INFO ../src/mst/ahb_master_driver.sv(317) @ 515000: uvm_test_top.env.master_agent.drv [ahb_master_driver] Beat[20/256] addr=0x000054fa trans=AHB_TRANS_SEQ resp=AHB_RESP_OKAY wdata=0x963bcde3
# UVM_INFO ../src/slv/ahb_slave_driver.sv(184) @ 515000: uvm_test_top.env.slave_agent.drv [ahb_slave_driver] Beat AHB_WRITE addr=0x000054fa resp=AHB_RESP_OKAY waits=2 wdata=0x963bcde3
# UVM_INFO ../src/mst/ahb_master_monitor.sv(117) @ 515000: uvm_test_top.env.master_agent.mon [ahb_master_monitor] Beat[20] addr=0x000054fa wdata=0x963bcde3 resp=AHB_RESP_OKAY
# UVM_INFO ../src/mst/ahb_master_driver.sv(317) @ 545000: uvm_test_top.env.master_agent.drv [ahb_master_driver] Beat[21/256] addr=0x000054fc trans=AHB_TRANS_SEQ resp=AHB_RESP_OKAY wdata=0xcc917dbc
# UVM_INFO ../src/slv/ahb_slave_driver.sv(184) @ 545000: uvm_test_top.env.slave_agent.drv [ahb_slave_driver] Beat AHB_WRITE addr=0x000054fc resp=AHB_RESP_OKAY waits=2 wdata=0xcc917dbc
# UVM_INFO ../src/mst/ahb_master_monitor.sv(117) @ 545000: uvm_test_top.env.master_agent.mon [ahb_master_monitor] Beat[21] addr=0x000054fc wdata=0xcc917dbc resp=AHB_RESP_OKAY
# UVM_INFO ../src/mst/ahb_master_driver.sv(317) @ 575000: uvm_test_top.env.master_agent.drv [ahb_master_driver] Beat[22/256] addr=0x000054fe trans=AHB_TRANS_SEQ resp=AHB_RESP_OKAY wdata=0x1c2f9810
# UVM_INFO ../src/slv/ahb_slave_driver.sv(184) @ 575000: uvm_test_top.env.slave_agent.drv [ahb_slave_driver] Beat AHB_WRITE addr=0x000054fe resp=AHB_RESP_OKAY waits=2 wdata=0x1c2f9810
# UVM_INFO ../src/mst/ahb_master_monitor.sv(117) @ 575000: uvm_test_top.env.master_agent.mon [ahb_master_monitor] Beat[22] addr=0x000054fe wdata=0x1c2f9810 resp=AHB_RESP_OKAY
# UVM_INFO ../src/mst/ahb_master_driver.sv(317) @ 605000: uvm_test_top.env.master_agent.drv [ahb_master_driver] Beat[23/256] addr=0x00005500 trans=AHB_TRANS_SEQ resp=AHB_RESP_OKAY wdata=0x1d18abd0
# UVM_INFO ../src/slv/ahb_slave_driver.sv(184) @ 605000: uvm_test_top.env.slave_agent.drv [ahb_slave_driver] Beat AHB_WRITE addr=0x00005500 resp=AHB_RESP_OKAY waits=2 wdata=0x1d18abd0
# UVM_INFO ../src/mst/ahb_master_monitor.sv(117) @ 605000: uvm_test_top.env.master_agent.mon [ahb_master_monitor] Beat[23] addr=0x00005500 wdata=0x1d18abd0 resp=AHB_RESP_OKAY
# UVM_INFO ../src/mst/ahb_master_driver.sv(317) @ 645000: uvm_test_top.env.master_agent.drv [ahb_master_driver] Beat[24/256] addr=0x00005502 trans=AHB_TRANS_SEQ resp=AHB_RESP_OKAY wdata=0xd7fa6d1b
# UVM_INFO ../src/slv/ahb_slave_driver.sv(184) @ 645000: uvm_test_top.env.slave_agent.drv [ahb_slave_driver] Beat AHB_WRITE addr=0x00005502 resp=AHB_RESP_OKAY waits=1 wdata=0xd7fa6d1b
# UVM_INFO ../src/mst/ahb_master_monitor.sv(117) @ 645000: uvm_test_top.env.master_agent.mon [ahb_master_monitor] Beat[24] addr=0x00005502 wdata=0xd7fa6d1b resp=AHB_RESP_OKAY
# UVM_INFO ../src/mst/ahb_master_driver.sv(317) @ 655000: uvm_test_top.env.master_agent.drv [ahb_master_driver] Beat[25/256] addr=0x00005504 trans=AHB_TRANS_SEQ resp=AHB_RESP_OKAY wdata=0x025d7c5c
# UVM_INFO ../src/slv/ahb_slave_driver.sv(184) @ 655000: uvm_test_top.env.slave_agent.drv [ahb_slave_driver] Beat AHB_WRITE addr=0x00005504 resp=AHB_RESP_OKAY waits=0 wdata=0x025d7c5c
# UVM_INFO ../src/mst/ahb_master_monitor.sv(117) @ 655000: uvm_test_top.env.master_agent.mon [ahb_master_monitor] Beat[25] addr=0x00005504 wdata=0x025d7c5c resp=AHB_RESP_OKAY
# UVM_INFO ../src/mst/ahb_master_driver.sv(317) @ 665000: uvm_test_top.env.master_agent.drv [ahb_master_driver] Beat[26/256] addr=0x00005506 trans=AHB_TRANS_SEQ resp=AHB_RESP_OKAY wdata=0xdc870962
# UVM_INFO ../src/slv/ahb_slave_driver.sv(184) @ 665000: uvm_test_top.env.slave_agent.drv [ahb_slave_driver] Beat AHB_WRITE addr=0x00005506 resp=AHB_RESP_OKAY waits=0 wdata=0xdc870962
# UVM_INFO ../src/mst/ahb_master_monitor.sv(117) @ 665000: uvm_test_top.env.master_agent.mon [ahb_master_monitor] Beat[26] addr=0x00005506 wdata=0xdc870962 resp=AHB_RESP_OKAY
# UVM_INFO ../src/mst/ahb_master_driver.sv(317) @ 685000: uvm_test_top.env.master_agent.drv [ahb_master_driver] Beat[27/256] addr=0x00005508 trans=AHB_TRANS_SEQ resp=AHB_RESP_OKAY wdata=0x1280e4a2
# UVM_INFO ../src/slv/ahb_slave_driver.sv(184) @ 685000: uvm_test_top.env.slave_agent.drv [ahb_slave_driver] Beat AHB_WRITE addr=0x00005508 resp=AHB_RESP_OKAY waits=1 wdata=0x1280e4a2
# UVM_INFO ../src/mst/ahb_master_monitor.sv(117) @ 685000: uvm_test_top.env.master_agent.mon [ahb_master_monitor] Beat[27] addr=0x00005508 wdata=0x1280e4a2 resp=AHB_RESP_OKAY
# UVM_INFO ../src/mst/ahb_master_driver.sv(317) @ 705000: uvm_test_top.env.master_agent.drv [ahb_master_driver] Beat[28/256] addr=0x0000550a trans=AHB_TRANS_SEQ resp=AHB_RESP_OKAY wdata=0xadef785f
# UVM_INFO ../src/slv/ahb_slave_driver.sv(184) @ 705000: uvm_test_top.env.slave_agent.drv [ahb_slave_driver] Beat AHB_WRITE addr=0x0000550a resp=AHB_RESP_OKAY waits=1 wdata=0xadef785f
# UVM_INFO ../src/mst/ahb_master_monitor.sv(117) @ 705000: uvm_test_top.env.master_agent.mon [ahb_master_monitor] Beat[28] addr=0x0000550a wdata=0xadef785f resp=AHB_RESP_OKAY
# UVM_INFO ../src/mst/ahb_master_driver.sv(317) @ 735000: uvm_test_top.env.master_agent.drv [ahb_master_driver] Beat[29/256] addr=0x0000550c trans=AHB_TRANS_SEQ resp=AHB_RESP_OKAY wdata=0xc5da0093
# UVM_INFO ../src/slv/ahb_slave_driver.sv(184) @ 735000: uvm_test_top.env.slave_agent.drv [ahb_slave_driver] Beat AHB_WRITE addr=0x0000550c resp=AHB_RESP_OKAY waits=2 wdata=0xc5da0093
# UVM_INFO ../src/mst/ahb_master_monitor.sv(117) @ 735000: uvm_test_top.env.master_agent.mon [ahb_master_monitor] Beat[29] addr=0x0000550c wdata=0xc5da0093 resp=AHB_RESP_OKAY
# UVM_INFO ../src/mst/ahb_master_driver.sv(317) @ 765000: uvm_test_top.env.master_agent.drv [ahb_master_driver] Beat[30/256] addr=0x0000550e trans=AHB_TRANS_SEQ resp=AHB_RESP_OKAY wdata=0x2ea7e2ae
# UVM_INFO ../src/slv/ahb_slave_driver.sv(184) @ 765000: uvm_test_top.env.slave_agent.drv [ahb_slave_driver] Beat AHB_WRITE addr=0x0000550e resp=AHB_RESP_OKAY waits=2 wdata=0x2ea7e2ae
# UVM_INFO ../src/mst/ahb_master_monitor.sv(117) @ 765000: uvm_test_top.env.master_agent.mon [ahb_master_monitor] Beat[30] addr=0x0000550e wdata=0x2ea7e2ae resp=AHB_RESP_OKAY
# UVM_INFO ../src/mst/ahb_master_driver.sv(317) @ 775000: uvm_test_top.env.master_agent.drv [ahb_master_driver] Beat[31/256] addr=0x00005510 trans=AHB_TRANS_SEQ resp=AHB_RESP_OKAY wdata=0xfe02b78c
# UVM_INFO ../src/slv/ahb_slave_driver.sv(184) @ 775000: uvm_test_top.env.slave_agent.drv [ahb_slave_driver] Beat AHB_WRITE addr=0x00005510 resp=AHB_RESP_OKAY waits=0 wdata=0xfe02b78c
# UVM_INFO ../src/mst/ahb_master_monitor.sv(117) @ 775000: uvm_test_top.env.master_agent.mon [ahb_master_monitor] Beat[31] addr=0x00005510 wdata=0xfe02b78c resp=AHB_RESP_OKAY
# UVM_INFO ../src/mst/ahb_master_driver.sv(317) @ 805000: uvm_test_top.env.master_agent.drv [ahb_master_driver] Beat[32/256] addr=0x00005512 trans=AHB_TRANS_SEQ resp=AHB_RESP_OKAY wdata=0x82e1032b
# UVM_INFO ../src/slv/ahb_slave_driver.sv(184) @ 805000: uvm_test_top.env.slave_agent.drv [ahb_slave_driver] Beat AHB_WRITE addr=0x00005512 resp=AHB_RESP_OKAY waits=0 wdata=0x82e1032b
# UVM_INFO ../src/mst/ahb_master_monitor.sv(117) @ 805000: uvm_test_top.env.master_agent.mon [ahb_master_monitor] Beat[32] addr=0x00005512 wdata=0x82e1032b resp=AHB_RESP_OKAY
# UVM_INFO ../src/mst/ahb_master_driver.sv(317) @ 825000: uvm_test_top.env.master_agent.drv [ahb_master_driver] Beat[33/256] addr=0x00005514 trans=AHB_TRANS_SEQ resp=AHB_RESP_OKAY wdata=0xb6e63418
# UVM_INFO ../src/slv/ahb_slave_driver.sv(184) @ 825000: uvm_test_top.env.slave_agent.drv [ahb_slave_driver] Beat AHB_WRITE addr=0x00005514 resp=AHB_RESP_OKAY waits=1 wdata=0xb6e63418
# UVM_INFO ../src/mst/ahb_master_monitor.sv(117) @ 825000: uvm_test_top.env.master_agent.mon [ahb_master_monitor] Beat[33] addr=0x00005514 wdata=0xb6e63418 resp=AHB_RESP_OKAY
# UVM_INFO ../src/mst/ahb_master_driver.sv(317) @ 835000: uvm_test_top.env.master_agent.drv [ahb_master_driver] Beat[34/256] addr=0x00005516 trans=AHB_TRANS_SEQ resp=AHB_RESP_OKAY wdata=0x40609602
# UVM_INFO ../src/slv/ahb_slave_driver.sv(184) @ 835000: uvm_test_top.env.slave_agent.drv [ahb_slave_driver] Beat AHB_WRITE addr=0x00005516 resp=AHB_RESP_OKAY waits=0 wdata=0x40609602
# UVM_INFO ../src/mst/ahb_master_monitor.sv(117) @ 835000: uvm_test_top.env.master_agent.mon [ahb_master_monitor] Beat[34] addr=0x00005516 wdata=0x40609602 resp=AHB_RESP_OKAY
# UVM_INFO ../src/mst/ahb_master_driver.sv(317) @ 865000: uvm_test_top.env.master_agent.drv [ahb_master_driver] Beat[35/256] addr=0x00005518 trans=AHB_TRANS_SEQ resp=AHB_RESP_OKAY wdata=0xb535a699
# UVM_INFO ../src/slv/ahb_slave_driver.sv(184) @ 865000: uvm_test_top.env.slave_agent.drv [ahb_slave_driver] Beat AHB_WRITE addr=0x00005518 resp=AHB_RESP_OKAY waits=2 wdata=0xb535a699
# UVM_INFO ../src/mst/ahb_master_monitor.sv(117) @ 865000: uvm_test_top.env.master_agent.mon [ahb_master_monitor] Beat[35] addr=0x00005518 wdata=0xb535a699 resp=AHB_RESP_OKAY
# UVM_INFO ../src/mst/ahb_master_driver.sv(317) @ 875000: uvm_test_top.env.master_agent.drv [ahb_master_driver] Beat[36/256] addr=0x0000551a trans=AHB_TRANS_SEQ resp=AHB_RESP_OKAY wdata=0xdf8b94f0
# UVM_INFO ../src/slv/ahb_slave_driver.sv(184) @ 875000: uvm_test_top.env.slave_agent.drv [ahb_slave_driver] Beat AHB_WRITE addr=0x0000551a resp=AHB_RESP_OKAY waits=0 wdata=0xdf8b94f0
# UVM_INFO ../src/mst/ahb_master_monitor.sv(117) @ 875000: uvm_test_top.env.master_agent.mon [ahb_master_monitor] Beat[36] addr=0x0000551a wdata=0xdf8b94f0 resp=AHB_RESP_OKAY
# UVM_INFO ../src/mst/ahb_master_driver.sv(317) @ 905000: uvm_test_top.env.master_agent.drv [ahb_master_driver] Beat[37/256] addr=0x0000551c trans=AHB_TRANS_SEQ resp=AHB_RESP_OKAY wdata=0x09910a77
# UVM_INFO ../src/slv/ahb_slave_driver.sv(184) @ 905000: uvm_test_top.env.slave_agent.drv [ahb_slave_driver] Beat AHB_WRITE addr=0x0000551c resp=AHB_RESP_OKAY waits=2 wdata=0x09910a77
# UVM_INFO ../src/mst/ahb_master_monitor.sv(117) @ 905000: uvm_test_top.env.master_agent.mon [ahb_master_monitor] Beat[37] addr=0x0000551c wdata=0x09910a77 resp=AHB_RESP_OKAY
# UVM_INFO ../src/mst/ahb_master_driver.sv(317) @ 915000: uvm_test_top.env.master_agent.drv [ahb_master_driver] Beat[38/256] addr=0x0000551e trans=AHB_TRANS_SEQ resp=AHB_RESP_OKAY wdata=0xbada5464
# UVM_INFO ../src/slv/ahb_slave_driver.sv(184) @ 915000: uvm_test_top.env.slave_agent.drv [ahb_slave_driver] Beat AHB_WRITE addr=0x0000551e resp=AHB_RESP_OKAY waits=0 wdata=0xbada5464
# UVM_INFO ../src/mst/ahb_master_monitor.sv(117) @ 915000: uvm_test_top.env.master_agent.mon [ahb_master_monitor] Beat[38] addr=0x0000551e wdata=0xbada5464 resp=AHB_RESP_OKAY
# UVM_INFO ../src/mst/ahb_master_driver.sv(317) @ 935000: uvm_test_top.env.master_agent.drv [ahb_master_driver] Beat[39/256] addr=0x00005520 trans=AHB_TRANS_SEQ resp=AHB_RESP_OKAY wdata=0x8051a360
# UVM_INFO ../src/slv/ahb_slave_driver.sv(184) @ 935000: uvm_test_top.env.slave_agent.drv [ahb_slave_driver] Beat AHB_WRITE addr=0x00005520 resp=AHB_RESP_OKAY waits=1 wdata=0x8051a360
# UVM_INFO ../src/mst/ahb_master_monitor.sv(117) @ 935000: uvm_test_top.env.master_agent.mon [ahb_master_monitor] Beat[39] addr=0x00005520 wdata=0x8051a360 resp=AHB_RESP_OKAY
# UVM_INFO ../src/mst/ahb_master_driver.sv(317) @ 955000: uvm_test_top.env.master_agent.drv [ahb_master_driver] Beat[40/256] addr=0x00005522 trans=AHB_TRANS_SEQ resp=AHB_RESP_OKAY wdata=0x63715091
# UVM_INFO ../src/slv/ahb_slave_driver.sv(184) @ 955000: uvm_test_top.env.slave_agent.drv [ahb_slave_driver] Beat AHB_WRITE addr=0x00005522 resp=AHB_RESP_OKAY waits=0 wdata=0x63715091
# UVM_INFO ../src/mst/ahb_master_monitor.sv(117) @ 955000: uvm_test_top.env.master_agent.mon [ahb_master_monitor] Beat[40] addr=0x00005522 wdata=0x63715091 resp=AHB_RESP_OKAY
# UVM_INFO ../src/mst/ahb_master_driver.sv(317) @ 975000: uvm_test_top.env.master_agent.drv [ahb_master_driver] Beat[41/256] addr=0x00005524 trans=AHB_TRANS_SEQ resp=AHB_RESP_OKAY wdata=0x1f86f956
# UVM_INFO ../src/slv/ahb_slave_driver.sv(184) @ 975000: uvm_test_top.env.slave_agent.drv [ahb_slave_driver] Beat AHB_WRITE addr=0x00005524 resp=AHB_RESP_OKAY waits=1 wdata=0x1f86f956
# UVM_INFO ../src/mst/ahb_master_monitor.sv(117) @ 975000: uvm_test_top.env.master_agent.mon [ahb_master_monitor] Beat[41] addr=0x00005524 wdata=0x1f86f956 resp=AHB_RESP_OKAY
# UVM_INFO ../src/mst/ahb_master_driver.sv(317) @ 995000: uvm_test_top.env.master_agent.drv [ahb_master_driver] Beat[42/256] addr=0x00005526 trans=AHB_TRANS_SEQ resp=AHB_RESP_OKAY wdata=0xe7d44699
# UVM_INFO ../src/slv/ahb_slave_driver.sv(184) @ 995000: uvm_test_top.env.slave_agent.drv [ahb_slave_driver] Beat AHB_WRITE addr=0x00005526 resp=AHB_RESP_OKAY waits=1 wdata=0xe7d44699
# UVM_INFO ../src/mst/ahb_master_monitor.sv(117) @ 995000: uvm_test_top.env.master_agent.mon [ahb_master_monitor] Beat[42] addr=0x00005526 wdata=0xe7d44699 resp=AHB_RESP_OKAY
# UVM_INFO ../src/mst/ahb_master_driver.sv(317) @ 1015000: uvm_test_top.env.master_agent.drv [ahb_master_driver] Beat[43/256] addr=0x00005528 trans=AHB_TRANS_SEQ resp=AHB_RESP_OKAY wdata=0xeb582e69
# UVM_INFO ../src/slv/ahb_slave_driver.sv(184) @ 1015000: uvm_test_top.env.slave_agent.drv [ahb_slave_driver] Beat AHB_WRITE addr=0x00005528 resp=AHB_RESP_OKAY waits=1 wdata=0xeb582e69
# UVM_INFO ../src/mst/ahb_master_monitor.sv(117) @ 1015000: uvm_test_top.env.master_agent.mon [ahb_master_monitor] Beat[43] addr=0x00005528 wdata=0xeb582e69 resp=AHB_RESP_OKAY
# UVM_INFO ../src/mst/ahb_master_driver.sv(317) @ 1035000: uvm_test_top.env.master_agent.drv [ahb_master_driver] Beat[44/256] addr=0x0000552a trans=AHB_TRANS_SEQ resp=AHB_RESP_OKAY wdata=0x953a64a5
# UVM_INFO ../src/slv/ahb_slave_driver.sv(184) @ 1035000: uvm_test_top.env.slave_agent.drv [ahb_slave_driver] Beat AHB_WRITE addr=0x0000552a resp=AHB_RESP_OKAY waits=1 wdata=0x953a64a5
# UVM_INFO ../src/mst/ahb_master_monitor.sv(117) @ 1035000: uvm_test_top.env.master_agent.mon [ahb_master_monitor] Beat[44] addr=0x0000552a wdata=0x953a64a5 resp=AHB_RESP_OKAY
# UVM_INFO ../src/mst/ahb_master_driver.sv(317) @ 1055000: uvm_test_top.env.master_agent.drv [ahb_master_driver] Beat[45/256] addr=0x0000552c trans=AHB_TRANS_SEQ resp=AHB_RESP_OKAY wdata=0x6529e4e9
# UVM_INFO ../src/slv/ahb_slave_driver.sv(184) @ 1055000: uvm_test_top.env.slave_agent.drv [ahb_slave_driver] Beat AHB_WRITE addr=0x0000552c resp=AHB_RESP_OKAY waits=1 wdata=0x6529e4e9
# UVM_INFO ../src/mst/ahb_master_monitor.sv(117) @ 1055000: uvm_test_top.env.master_agent.mon [ahb_master_monitor] Beat[45] addr=0x0000552c wdata=0x6529e4e9 resp=AHB_RESP_OKAY
# UVM_INFO ../src/mst/ahb_master_driver.sv(317) @ 1085000: uvm_test_top.env.master_agent.drv [ahb_master_driver] Beat[46/256] addr=0x0000552e trans=AHB_TRANS_SEQ resp=AHB_RESP_OKAY wdata=0xf87a9372
# UVM_INFO ../src/slv/ahb_slave_driver.sv(184) @ 1085000: uvm_test_top.env.slave_agent.drv [ahb_slave_driver] Beat AHB_WRITE addr=0x0000552e resp=AHB_RESP_OKAY waits=2 wdata=0xf87a9372
# UVM_INFO ../src/mst/ahb_master_monitor.sv(117) @ 1085000: uvm_test_top.env.master_agent.mon [ahb_master_monitor] Beat[46] addr=0x0000552e wdata=0xf87a9372 resp=AHB_RESP_OKAY
# UVM_INFO ../src/mst/ahb_master_driver.sv(317) @ 1105000: uvm_test_top.env.master_agent.drv [ahb_master_driver] Beat[47/256] addr=0x00005530 trans=AHB_TRANS_SEQ resp=AHB_RESP_OKAY wdata=0x754ca06b
# UVM_INFO ../src/slv/ahb_slave_driver.sv(184) @ 1105000: uvm_test_top.env.slave_agent.drv [ahb_slave_driver] Beat AHB_WRITE addr=0x00005530 resp=AHB_RESP_OKAY waits=1 wdata=0x754ca06b
# UVM_INFO ../src/mst/ahb_master_monitor.sv(117) @ 1105000: uvm_test_top.env.master_agent.mon [ahb_master_monitor] Beat[47] addr=0x00005530 wdata=0x754ca06b resp=AHB_RESP_OKAY
# UVM_INFO ../src/mst/ahb_master_driver.sv(317) @ 1155000: uvm_test_top.env.master_agent.drv [ahb_master_driver] Beat[48/256] addr=0x00005532 trans=AHB_TRANS_SEQ resp=AHB_RESP_OKAY wdata=0x2770bfbb
# UVM_INFO ../src/slv/ahb_slave_driver.sv(184) @ 1155000: uvm_test_top.env.slave_agent.drv [ahb_slave_driver] Beat AHB_WRITE addr=0x00005532 resp=AHB_RESP_OKAY waits=2 wdata=0x2770bfbb
# UVM_INFO ../src/mst/ahb_master_monitor.sv(117) @ 1155000: uvm_test_top.env.master_agent.mon [ahb_master_monitor] Beat[48] addr=0x00005532 wdata=0x2770bfbb resp=AHB_RESP_OKAY
# UVM_INFO ../src/mst/ahb_master_driver.sv(317) @ 1175000: uvm_test_top.env.master_agent.drv [ahb_master_driver] Beat[49/256] addr=0x00005534 trans=AHB_TRANS_SEQ resp=AHB_RESP_OKAY wdata=0xa76d02b8
# UVM_INFO ../src/slv/ahb_slave_driver.sv(184) @ 1175000: uvm_test_top.env.slave_agent.drv [ahb_slave_driver] Beat AHB_WRITE addr=0x00005534 resp=AHB_RESP_OKAY waits=1 wdata=0xa76d02b8
# UVM_INFO ../src/mst/ahb_master_monitor.sv(117) @ 1175000: uvm_test_top.env.master_agent.mon [ahb_master_monitor] Beat[49] addr=0x00005534 wdata=0xa76d02b8 resp=AHB_RESP_OKAY
# UVM_INFO ../src/mst/ahb_master_driver.sv(317) @ 1205000: uvm_test_top.env.master_agent.drv [ahb_master_driver] Beat[50/256] addr=0x00005536 trans=AHB_TRANS_SEQ resp=AHB_RESP_OKAY wdata=0xb0d10f08
# UVM_INFO ../src/slv/ahb_slave_driver.sv(184) @ 1205000: uvm_test_top.env.slave_agent.drv [ahb_slave_driver] Beat AHB_WRITE addr=0x00005536 resp=AHB_RESP_OKAY waits=2 wdata=0xb0d10f08
# UVM_INFO ../src/mst/ahb_master_monitor.sv(117) @ 1205000: uvm_test_top.env.master_agent.mon [ahb_master_monitor] Beat[50] addr=0x00005536 wdata=0xb0d10f08 resp=AHB_RESP_OKAY
# UVM_INFO ../src/mst/ahb_master_driver.sv(317) @ 1215000: uvm_test_top.env.master_agent.drv [ahb_master_driver] Beat[51/256] addr=0x00005538 trans=AHB_TRANS_SEQ resp=AHB_RESP_OKAY wdata=0x01145876
# UVM_INFO ../src/slv/ahb_slave_driver.sv(184) @ 1215000: uvm_test_top.env.slave_agent.drv [ahb_slave_driver] Beat AHB_WRITE addr=0x00005538 resp=AHB_RESP_OKAY waits=0 wdata=0x01145876
# UVM_INFO ../src/mst/ahb_master_monitor.sv(117) @ 1215000: uvm_test_top.env.master_agent.mon [ahb_master_monitor] Beat[51] addr=0x00005538 wdata=0x01145876 resp=AHB_RESP_OKAY
# UVM_INFO ../src/mst/ahb_master_driver.sv(317) @ 1245000: uvm_test_top.env.master_agent.drv [ahb_master_driver] Beat[52/256] addr=0x0000553a trans=AHB_TRANS_SEQ resp=AHB_RESP_OKAY wdata=0x7b627493
# UVM_INFO ../src/slv/ahb_slave_driver.sv(184) @ 1245000: uvm_test_top.env.slave_agent.drv [ahb_slave_driver] Beat AHB_WRITE addr=0x0000553a resp=AHB_RESP_OKAY waits=2 wdata=0x7b627493
# UVM_INFO ../src/mst/ahb_master_monitor.sv(117) @ 1245000: uvm_test_top.env.master_agent.mon [ahb_master_monitor] Beat[52] addr=0x0000553a wdata=0x7b627493 resp=AHB_RESP_OKAY
# UVM_INFO ../src/mst/ahb_master_driver.sv(317) @ 1265000: uvm_test_top.env.master_agent.drv [ahb_master_driver] Beat[53/256] addr=0x0000553c trans=AHB_TRANS_SEQ resp=AHB_RESP_OKAY wdata=0x5758928a
# UVM_INFO ../src/slv/ahb_slave_driver.sv(184) @ 1265000: uvm_test_top.env.slave_agent.drv [ahb_slave_driver] Beat AHB_WRITE addr=0x0000553c resp=AHB_RESP_OKAY waits=1 wdata=0x5758928a
# UVM_INFO ../src/mst/ahb_master_monitor.sv(117) @ 1265000: uvm_test_top.env.master_agent.mon [ahb_master_monitor] Beat[53] addr=0x0000553c wdata=0x5758928a resp=AHB_RESP_OKAY
# UVM_INFO ../src/mst/ahb_master_driver.sv(317) @ 1275000: uvm_test_top.env.master_agent.drv [ahb_master_driver] Beat[54/256] addr=0x0000553e trans=AHB_TRANS_SEQ resp=AHB_RESP_OKAY wdata=0xd9465c68
# UVM_INFO ../src/slv/ahb_slave_driver.sv(184) @ 1275000: uvm_test_top.env.slave_agent.drv [ahb_slave_driver] Beat AHB_WRITE addr=0x0000553e resp=AHB_RESP_OKAY waits=0 wdata=0xd9465c68
# UVM_INFO ../src/mst/ahb_master_monitor.sv(117) @ 1275000: uvm_test_top.env.master_agent.mon [ahb_master_monitor] Beat[54] addr=0x0000553e wdata=0xd9465c68 resp=AHB_RESP_OKAY
# UVM_INFO ../src/mst/ahb_master_driver.sv(317) @ 1305000: uvm_test_top.env.master_agent.drv [ahb_master_driver] Beat[55/256] addr=0x00005540 trans=AHB_TRANS_SEQ resp=AHB_RESP_OKAY wdata=0xe4e9f3dc
# UVM_INFO ../src/slv/ahb_slave_driver.sv(184) @ 1305000: uvm_test_top.env.slave_agent.drv [ahb_slave_driver] Beat AHB_WRITE addr=0x00005540 resp=AHB_RESP_OKAY waits=2 wdata=0xe4e9f3dc
# UVM_INFO ../src/mst/ahb_master_monitor.sv(117) @ 1305000: uvm_test_top.env.master_agent.mon [ahb_master_monitor] Beat[55] addr=0x00005540 wdata=0xe4e9f3dc resp=AHB_RESP_OKAY
# UVM_INFO ../src/mst/ahb_master_driver.sv(317) @ 1345000: uvm_test_top.env.master_agent.drv [ahb_master_driver] Beat[56/256] addr=0x00005542 trans=AHB_TRANS_SEQ resp=AHB_RESP_OKAY wdata=0x5f101530
# UVM_INFO ../src/slv/ahb_slave_driver.sv(184) @ 1345000: uvm_test_top.env.slave_agent.drv [ahb_slave_driver] Beat AHB_WRITE addr=0x00005542 resp=AHB_RESP_OKAY waits=2 wdata=0x5f101530
# UVM_INFO ../src/mst/ahb_master_monitor.sv(117) @ 1345000: uvm_test_top.env.master_agent.mon [ahb_master_monitor] Beat[56] addr=0x00005542 wdata=0x5f101530 resp=AHB_RESP_OKAY
# UVM_INFO ../src/mst/ahb_master_driver.sv(317) @ 1355000: uvm_test_top.env.master_agent.drv [ahb_master_driver] Beat[57/256] addr=0x00005544 trans=AHB_TRANS_SEQ resp=AHB_RESP_OKAY wdata=0x3f5e6aec
# UVM_INFO ../src/slv/ahb_slave_driver.sv(184) @ 1355000: uvm_test_top.env.slave_agent.drv [ahb_slave_driver] Beat AHB_WRITE addr=0x00005544 resp=AHB_RESP_OKAY waits=0 wdata=0x3f5e6aec
# UVM_INFO ../src/mst/ahb_master_monitor.sv(117) @ 1355000: uvm_test_top.env.master_agent.mon [ahb_master_monitor] Beat[57] addr=0x00005544 wdata=0x3f5e6aec resp=AHB_RESP_OKAY
# UVM_INFO ../src/mst/ahb_master_driver.sv(317) @ 1365000: uvm_test_top.env.master_agent.drv [ahb_master_driver] Beat[58/256] addr=0x00005546 trans=AHB_TRANS_SEQ resp=AHB_RESP_OKAY wdata=0x59713ce7
# UVM_INFO ../src/slv/ahb_slave_driver.sv(184) @ 1365000: uvm_test_top.env.slave_agent.drv [ahb_slave_driver] Beat AHB_WRITE addr=0x00005546 resp=AHB_RESP_OKAY waits=0 wdata=0x59713ce7
# UVM_INFO ../src/mst/ahb_master_monitor.sv(117) @ 1365000: uvm_test_top.env.master_agent.mon [ahb_master_monitor] Beat[58] addr=0x00005546 wdata=0x59713ce7 resp=AHB_RESP_OKAY
# UVM_INFO ../src/mst/ahb_master_driver.sv(317) @ 1385000: uvm_test_top.env.master_agent.drv [ahb_master_driver] Beat[59/256] addr=0x00005548 trans=AHB_TRANS_SEQ resp=AHB_RESP_OKAY wdata=0x3f564b14
# UVM_INFO ../src/slv/ahb_slave_driver.sv(184) @ 1385000: uvm_test_top.env.slave_agent.drv [ahb_slave_driver] Beat AHB_WRITE addr=0x00005548 resp=AHB_RESP_OKAY waits=1 wdata=0x3f564b14
# UVM_INFO ../src/mst/ahb_master_monitor.sv(117) @ 1385000: uvm_test_top.env.master_agent.mon [ahb_master_monitor] Beat[59] addr=0x00005548 wdata=0x3f564b14 resp=AHB_RESP_OKAY
# UVM_INFO ../src/mst/ahb_master_driver.sv(317) @ 1415000: uvm_test_top.env.master_agent.drv [ahb_master_driver] Beat[60/256] addr=0x0000554a trans=AHB_TRANS_SEQ resp=AHB_RESP_OKAY wdata=0x18a44b3b
# UVM_INFO ../src/slv/ahb_slave_driver.sv(184) @ 1415000: uvm_test_top.env.slave_agent.drv [ahb_slave_driver] Beat AHB_WRITE addr=0x0000554a resp=AHB_RESP_OKAY waits=2 wdata=0x18a44b3b
# UVM_INFO ../src/mst/ahb_master_monitor.sv(117) @ 1415000: uvm_test_top.env.master_agent.mon [ahb_master_monitor] Beat[60] addr=0x0000554a wdata=0x18a44b3b resp=AHB_RESP_OKAY
# UVM_INFO ../src/mst/ahb_master_driver.sv(317) @ 1445000: uvm_test_top.env.master_agent.drv [ahb_master_driver] Beat[61/256] addr=0x0000554c trans=AHB_TRANS_SEQ resp=AHB_RESP_OKAY wdata=0xb78ab53b
# UVM_INFO ../src/slv/ahb_slave_driver.sv(184) @ 1445000: uvm_test_top.env.slave_agent.drv [ahb_slave_driver] Beat AHB_WRITE addr=0x0000554c resp=AHB_RESP_OKAY waits=2 wdata=0xb78ab53b
# UVM_INFO ../src/mst/ahb_master_monitor.sv(117) @ 1445000: uvm_test_top.env.master_agent.mon [ahb_master_monitor] Beat[61] addr=0x0000554c wdata=0xb78ab53b resp=AHB_RESP_OKAY
# UVM_INFO ../src/mst/ahb_master_driver.sv(317) @ 1465000: uvm_test_top.env.master_agent.drv [ahb_master_driver] Beat[62/256] addr=0x0000554e trans=AHB_TRANS_SEQ resp=AHB_RESP_OKAY wdata=0xbb5f83f4
# UVM_INFO ../src/slv/ahb_slave_driver.sv(184) @ 1465000: uvm_test_top.env.slave_agent.drv [ahb_slave_driver] Beat AHB_WRITE addr=0x0000554e resp=AHB_RESP_OKAY waits=1 wdata=0xbb5f83f4
# UVM_INFO ../src/mst/ahb_master_monitor.sv(117) @ 1465000: uvm_test_top.env.master_agent.mon [ahb_master_monitor] Beat[62] addr=0x0000554e wdata=0xbb5f83f4 resp=AHB_RESP_OKAY
# UVM_INFO ../src/mst/ahb_master_driver.sv(317) @ 1475000: uvm_test_top.env.master_agent.drv [ahb_master_driver] Beat[63/256] addr=0x00005550 trans=AHB_TRANS_SEQ resp=AHB_RESP_OKAY wdata=0x53dfd603
# UVM_INFO ../src/slv/ahb_slave_driver.sv(184) @ 1475000: uvm_test_top.env.slave_agent.drv [ahb_slave_driver] Beat AHB_WRITE addr=0x00005550 resp=AHB_RESP_OKAY waits=0 wdata=0x53dfd603
# UVM_INFO ../src/mst/ahb_master_monitor.sv(117) @ 1475000: uvm_test_top.env.master_agent.mon [ahb_master_monitor] Beat[63] addr=0x00005550 wdata=0x53dfd603 resp=AHB_RESP_OKAY
# UVM_INFO ../src/mst/ahb_master_driver.sv(317) @ 1505000: uvm_test_top.env.master_agent.drv [ahb_master_driver] Beat[64/256] addr=0x00005552 trans=AHB_TRANS_SEQ resp=AHB_RESP_OKAY wdata=0x828853a9
# UVM_INFO ../src/slv/ahb_slave_driver.sv(184) @ 1505000: uvm_test_top.env.slave_agent.drv [ahb_slave_driver] Beat AHB_WRITE addr=0x00005552 resp=AHB_RESP_OKAY waits=0 wdata=0x828853a9
# UVM_INFO ../src/mst/ahb_master_monitor.sv(117) @ 1505000: uvm_test_top.env.master_agent.mon [ahb_master_monitor] Beat[64] addr=0x00005552 wdata=0x828853a9 resp=AHB_RESP_OKAY
# UVM_INFO ../src/mst/ahb_master_driver.sv(317) @ 1515000: uvm_test_top.env.master_agent.drv [ahb_master_driver] Beat[65/256] addr=0x00005554 trans=AHB_TRANS_SEQ resp=AHB_RESP_OKAY wdata=0x81e00add
# UVM_INFO ../src/slv/ahb_slave_driver.sv(184) @ 1515000: uvm_test_top.env.slave_agent.drv [ahb_slave_driver] Beat AHB_WRITE addr=0x00005554 resp=AHB_RESP_OKAY waits=0 wdata=0x81e00add
# UVM_INFO ../src/mst/ahb_master_monitor.sv(117) @ 1515000: uvm_test_top.env.master_agent.mon [ahb_master_monitor] Beat[65] addr=0x00005554 wdata=0x81e00add resp=AHB_RESP_OKAY
# UVM_INFO ../src/mst/ahb_master_driver.sv(317) @ 1545000: uvm_test_top.env.master_agent.drv [ahb_master_driver] Beat[66/256] addr=0x00005556 trans=AHB_TRANS_SEQ resp=AHB_RESP_OKAY wdata=0xcb20f0e1
# UVM_INFO ../src/slv/ahb_slave_driver.sv(184) @ 1545000: uvm_test_top.env.slave_agent.drv [ahb_slave_driver] Beat AHB_WRITE addr=0x00005556 resp=AHB_RESP_OKAY waits=2 wdata=0xcb20f0e1
# UVM_INFO ../src/mst/ahb_master_monitor.sv(117) @ 1545000: uvm_test_top.env.master_agent.mon [ahb_master_monitor] Beat[66] addr=0x00005556 wdata=0xcb20f0e1 resp=AHB_RESP_OKAY
# UVM_INFO ../src/mst/ahb_master_driver.sv(317) @ 1565000: uvm_test_top.env.master_agent.drv [ahb_master_driver] Beat[67/256] addr=0x00005558 trans=AHB_TRANS_SEQ resp=AHB_RESP_OKAY wdata=0x7dd38518
# UVM_INFO ../src/slv/ahb_slave_driver.sv(184) @ 1565000: uvm_test_top.env.slave_agent.drv [ahb_slave_driver] Beat AHB_WRITE addr=0x00005558 resp=AHB_RESP_OKAY waits=1 wdata=0x7dd38518
# UVM_INFO ../src/mst/ahb_master_monitor.sv(117) @ 1565000: uvm_test_top.env.master_agent.mon [ahb_master_monitor] Beat[67] addr=0x00005558 wdata=0x7dd38518 resp=AHB_RESP_OKAY
# UVM_INFO ../src/mst/ahb_master_driver.sv(317) @ 1575000: uvm_test_top.env.master_agent.drv [ahb_master_driver] Beat[68/256] addr=0x0000555a trans=AHB_TRANS_SEQ resp=AHB_RESP_OKAY wdata=0x5e1816a5
# UVM_INFO ../src/slv/ahb_slave_driver.sv(184) @ 1575000: uvm_test_top.env.slave_agent.drv [ahb_slave_driver] Beat AHB_WRITE addr=0x0000555a resp=AHB_RESP_OKAY waits=0 wdata=0x5e1816a5
# UVM_INFO ../src/mst/ahb_master_monitor.sv(117) @ 1575000: uvm_test_top.env.master_agent.mon [ahb_master_monitor] Beat[68] addr=0x0000555a wdata=0x5e1816a5 resp=AHB_RESP_OKAY
# UVM_INFO ../src/mst/ahb_master_driver.sv(317) @ 1605000: uvm_test_top.env.master_agent.drv [ahb_master_driver] Beat[69/256] addr=0x0000555c trans=AHB_TRANS_SEQ resp=AHB_RESP_OKAY wdata=0xe3a79165
# UVM_INFO ../src/slv/ahb_slave_driver.sv(184) @ 1605000: uvm_test_top.env.slave_agent.drv [ahb_slave_driver] Beat AHB_WRITE addr=0x0000555c resp=AHB_RESP_OKAY waits=2 wdata=0xe3a79165
# UVM_INFO ../src/mst/ahb_master_monitor.sv(117) @ 1605000: uvm_test_top.env.master_agent.mon [ahb_master_monitor] Beat[69] addr=0x0000555c wdata=0xe3a79165 resp=AHB_RESP_OKAY
# UVM_INFO ../src/mst/ahb_master_driver.sv(317) @ 1625000: uvm_test_top.env.master_agent.drv [ahb_master_driver] Beat[70/256] addr=0x0000555e trans=AHB_TRANS_SEQ resp=AHB_RESP_OKAY wdata=0x2ff1f958
# UVM_INFO ../src/slv/ahb_slave_driver.sv(184) @ 1625000: uvm_test_top.env.slave_agent.drv [ahb_slave_driver] Beat AHB_WRITE addr=0x0000555e resp=AHB_RESP_OKAY waits=1 wdata=0x2ff1f958
# UVM_INFO ../src/mst/ahb_master_monitor.sv(117) @ 1625000: uvm_test_top.env.master_agent.mon [ahb_master_monitor] Beat[70] addr=0x0000555e wdata=0x2ff1f958 resp=AHB_RESP_OKAY
# UVM_INFO ../src/mst/ahb_master_driver.sv(317) @ 1655000: uvm_test_top.env.master_agent.drv [ahb_master_driver] Beat[71/256] addr=0x00005560 trans=AHB_TRANS_SEQ resp=AHB_RESP_OKAY wdata=0x90f9d021
# UVM_INFO ../src/slv/ahb_slave_driver.sv(184) @ 1655000: uvm_test_top.env.slave_agent.drv [ahb_slave_driver] Beat AHB_WRITE addr=0x00005560 resp=AHB_RESP_OKAY waits=2 wdata=0x90f9d021
# UVM_INFO ../src/mst/ahb_master_monitor.sv(117) @ 1655000: uvm_test_top.env.master_agent.mon [ahb_master_monitor] Beat[71] addr=0x00005560 wdata=0x90f9d021 resp=AHB_RESP_OKAY
# UVM_INFO ../src/mst/ahb_master_driver.sv(317) @ 1675000: uvm_test_top.env.master_agent.drv [ahb_master_driver] Beat[72/256] addr=0x00005562 trans=AHB_TRANS_SEQ resp=AHB_RESP_OKAY wdata=0xe5caad9c
# UVM_INFO ../src/slv/ahb_slave_driver.sv(184) @ 1675000: uvm_test_top.env.slave_agent.drv [ahb_slave_driver] Beat AHB_WRITE addr=0x00005562 resp=AHB_RESP_OKAY waits=0 wdata=0xe5caad9c
# UVM_INFO ../src/mst/ahb_master_monitor.sv(117) @ 1675000: uvm_test_top.env.master_agent.mon [ahb_master_monitor] Beat[72] addr=0x00005562 wdata=0xe5caad9c resp=AHB_RESP_OKAY
# UVM_INFO ../src/mst/ahb_master_driver.sv(317) @ 1705000: uvm_test_top.env.master_agent.drv [ahb_master_driver] Beat[73/256] addr=0x00005564 trans=AHB_TRANS_SEQ resp=AHB_RESP_OKAY wdata=0xeedaffac
# UVM_INFO ../src/slv/ahb_slave_driver.sv(184) @ 1705000: uvm_test_top.env.slave_agent.drv [ahb_slave_driver] Beat AHB_WRITE addr=0x00005564 resp=AHB_RESP_OKAY waits=2 wdata=0xeedaffac
# UVM_INFO ../src/mst/ahb_master_monitor.sv(117) @ 1705000: uvm_test_top.env.master_agent.mon [ahb_master_monitor] Beat[73] addr=0x00005564 wdata=0xeedaffac resp=AHB_RESP_OKAY
# UVM_INFO ../src/mst/ahb_master_driver.sv(317) @ 1725000: uvm_test_top.env.master_agent.drv [ahb_master_driver] Beat[74/256] addr=0x00005566 trans=AHB_TRANS_SEQ resp=AHB_RESP_OKAY wdata=0x4b2fc2ac
# UVM_INFO ../src/slv/ahb_slave_driver.sv(184) @ 1725000: uvm_test_top.env.slave_agent.drv [ahb_slave_driver] Beat AHB_WRITE addr=0x00005566 resp=AHB_RESP_OKAY waits=1 wdata=0x4b2fc2ac
# UVM_INFO ../src/mst/ahb_master_monitor.sv(117) @ 1725000: uvm_test_top.env.master_agent.mon [ahb_master_monitor] Beat[74] addr=0x00005566 wdata=0x4b2fc2ac resp=AHB_RESP_OKAY
# UVM_INFO ../src/mst/ahb_master_driver.sv(317) @ 1745000: uvm_test_top.env.master_agent.drv [ahb_master_driver] Beat[75/256] addr=0x00005568 trans=AHB_TRANS_SEQ resp=AHB_RESP_OKAY wdata=0x695db6a0
# UVM_INFO ../src/slv/ahb_slave_driver.sv(184) @ 1745000: uvm_test_top.env.slave_agent.drv [ahb_slave_driver] Beat AHB_WRITE addr=0x00005568 resp=AHB_RESP_OKAY waits=1 wdata=0x695db6a0
# UVM_INFO ../src/mst/ahb_master_monitor.sv(117) @ 1745000: uvm_test_top.env.master_agent.mon [ahb_master_monitor] Beat[75] addr=0x00005568 wdata=0x695db6a0 resp=AHB_RESP_OKAY
# UVM_INFO ../src/mst/ahb_master_driver.sv(317) @ 1765000: uvm_test_top.env.master_agent.drv [ahb_master_driver] Beat[76/256] addr=0x0000556a trans=AHB_TRANS_SEQ resp=AHB_RESP_OKAY wdata=0xe2cd3a6e
# UVM_INFO ../src/slv/ahb_slave_driver.sv(184) @ 1765000: uvm_test_top.env.slave_agent.drv [ahb_slave_driver] Beat AHB_WRITE addr=0x0000556a resp=AHB_RESP_OKAY waits=1 wdata=0xe2cd3a6e
# UVM_INFO ../src/mst/ahb_master_monitor.sv(117) @ 1765000: uvm_test_top.env.master_agent.mon [ahb_master_monitor] Beat[76] addr=0x0000556a wdata=0xe2cd3a6e resp=AHB_RESP_OKAY
# UVM_INFO ../src/mst/ahb_master_driver.sv(317) @ 1785000: uvm_test_top.env.master_agent.drv [ahb_master_driver] Beat[77/256] addr=0x0000556c trans=AHB_TRANS_SEQ resp=AHB_RESP_OKAY wdata=0xa77362e9
# UVM_INFO ../src/slv/ahb_slave_driver.sv(184) @ 1785000: uvm_test_top.env.slave_agent.drv [ahb_slave_driver] Beat AHB_WRITE addr=0x0000556c resp=AHB_RESP_OKAY waits=1 wdata=0xa77362e9
# UVM_INFO ../src/mst/ahb_master_monitor.sv(117) @ 1785000: uvm_test_top.env.master_agent.mon [ahb_master_monitor] Beat[77] addr=0x0000556c wdata=0xa77362e9 resp=AHB_RESP_OKAY
# UVM_INFO ../src/mst/ahb_master_driver.sv(317) @ 1815000: uvm_test_top.env.master_agent.drv [ahb_master_driver] Beat[78/256] addr=0x0000556e trans=AHB_TRANS_SEQ resp=AHB_RESP_OKAY wdata=0x182da5e5
# UVM_INFO ../src/slv/ahb_slave_driver.sv(184) @ 1815000: uvm_test_top.env.slave_agent.drv [ahb_slave_driver] Beat AHB_WRITE addr=0x0000556e resp=AHB_RESP_OKAY waits=2 wdata=0x182da5e5
# UVM_INFO ../src/mst/ahb_master_monitor.sv(117) @ 1815000: uvm_test_top.env.master_agent.mon [ahb_master_monitor] Beat[78] addr=0x0000556e wdata=0x182da5e5 resp=AHB_RESP_OKAY
# UVM_INFO ../src/mst/ahb_master_driver.sv(317) @ 1825000: uvm_test_top.env.master_agent.drv [ahb_master_driver] Beat[79/256] addr=0x00005570 trans=AHB_TRANS_SEQ resp=AHB_RESP_OKAY wdata=0x74fc4a56
# UVM_INFO ../src/slv/ahb_slave_driver.sv(184) @ 1825000: uvm_test_top.env.slave_agent.drv [ahb_slave_driver] Beat AHB_WRITE addr=0x00005570 resp=AHB_RESP_OKAY waits=0 wdata=0x74fc4a56
# UVM_INFO ../src/mst/ahb_master_monitor.sv(117) @ 1825000: uvm_test_top.env.master_agent.mon [ahb_master_monitor] Beat[79] addr=0x00005570 wdata=0x74fc4a56 resp=AHB_RESP_OKAY
# UVM_INFO ../src/mst/ahb_master_driver.sv(317) @ 1855000: uvm_test_top.env.master_agent.drv [ahb_master_driver] Beat[80/256] addr=0x00005572 trans=AHB_TRANS_SEQ resp=AHB_RESP_OKAY wdata=0xd101f0f7
# UVM_INFO ../src/slv/ahb_slave_driver.sv(184) @ 1855000: uvm_test_top.env.slave_agent.drv [ahb_slave_driver] Beat AHB_WRITE addr=0x00005572 resp=AHB_RESP_OKAY waits=0 wdata=0xd101f0f7
# UVM_INFO ../src/mst/ahb_master_monitor.sv(117) @ 1855000: uvm_test_top.env.master_agent.mon [ahb_master_monitor] Beat[80] addr=0x00005572 wdata=0xd101f0f7 resp=AHB_RESP_OKAY
# UVM_INFO ../src/mst/ahb_master_driver.sv(317) @ 1875000: uvm_test_top.env.master_agent.drv [ahb_master_driver] Beat[81/256] addr=0x00005574 trans=AHB_TRANS_SEQ resp=AHB_RESP_OKAY wdata=0x427ad1eb
# UVM_INFO ../src/slv/ahb_slave_driver.sv(184) @ 1875000: uvm_test_top.env.slave_agent.drv [ahb_slave_driver] Beat AHB_WRITE addr=0x00005574 resp=AHB_RESP_OKAY waits=1 wdata=0x427ad1eb
# UVM_INFO ../src/mst/ahb_master_monitor.sv(117) @ 1875000: uvm_test_top.env.master_agent.mon [ahb_master_monitor] Beat[81] addr=0x00005574 wdata=0x427ad1eb resp=AHB_RESP_OKAY
# UVM_INFO ../src/mst/ahb_master_driver.sv(317) @ 1885000: uvm_test_top.env.master_agent.drv [ahb_master_driver] Beat[82/256] addr=0x00005576 trans=AHB_TRANS_SEQ resp=AHB_RESP_OKAY wdata=0xabcc2cc7
# UVM_INFO ../src/slv/ahb_slave_driver.sv(184) @ 1885000: uvm_test_top.env.slave_agent.drv [ahb_slave_driver] Beat AHB_WRITE addr=0x00005576 resp=AHB_RESP_OKAY waits=0 wdata=0xabcc2cc7
# UVM_INFO ../src/mst/ahb_master_monitor.sv(117) @ 1885000: uvm_test_top.env.master_agent.mon [ahb_master_monitor] Beat[82] addr=0x00005576 wdata=0xabcc2cc7 resp=AHB_RESP_OKAY
# UVM_INFO ../src/mst/ahb_master_driver.sv(317) @ 1905000: uvm_test_top.env.master_agent.drv [ahb_master_driver] Beat[83/256] addr=0x00005578 trans=AHB_TRANS_SEQ resp=AHB_RESP_OKAY wdata=0xcacfbf02
# UVM_INFO ../src/slv/ahb_slave_driver.sv(184) @ 1905000: uvm_test_top.env.slave_agent.drv [ahb_slave_driver] Beat AHB_WRITE addr=0x00005578 resp=AHB_RESP_OKAY waits=1 wdata=0xcacfbf02
# UVM_INFO ../src/mst/ahb_master_monitor.sv(117) @ 1905000: uvm_test_top.env.master_agent.mon [ahb_master_monitor] Beat[83] addr=0x00005578 wdata=0xcacfbf02 resp=AHB_RESP_OKAY
# UVM_INFO ../src/mst/ahb_master_driver.sv(317) @ 1915000: uvm_test_top.env.master_agent.drv [ahb_master_driver] Beat[84/256] addr=0x0000557a trans=AHB_TRANS_SEQ resp=AHB_RESP_OKAY wdata=0x1909d9ab
# UVM_INFO ../src/slv/ahb_slave_driver.sv(184) @ 1915000: uvm_test_top.env.slave_agent.drv [ahb_slave_driver] Beat AHB_WRITE addr=0x0000557a resp=AHB_RESP_OKAY waits=0 wdata=0x1909d9ab
# UVM_INFO ../src/mst/ahb_master_monitor.sv(117) @ 1915000: uvm_test_top.env.master_agent.mon [ahb_master_monitor] Beat[84] addr=0x0000557a wdata=0x1909d9ab resp=AHB_RESP_OKAY
# UVM_INFO ../src/mst/ahb_master_driver.sv(317) @ 1935000: uvm_test_top.env.master_agent.drv [ahb_master_driver] Beat[85/256] addr=0x0000557c trans=AHB_TRANS_SEQ resp=AHB_RESP_OKAY wdata=0xca9ee058
# UVM_INFO ../src/slv/ahb_slave_driver.sv(184) @ 1935000: uvm_test_top.env.slave_agent.drv [ahb_slave_driver] Beat AHB_WRITE addr=0x0000557c resp=AHB_RESP_OKAY waits=1 wdata=0xca9ee058
# UVM_INFO ../src/mst/ahb_master_monitor.sv(117) @ 1935000: uvm_test_top.env.master_agent.mon [ahb_master_monitor] Beat[85] addr=0x0000557c wdata=0xca9ee058 resp=AHB_RESP_OKAY
# UVM_INFO ../src/mst/ahb_master_driver.sv(317) @ 1965000: uvm_test_top.env.master_agent.drv [ahb_master_driver] Beat[86/256] addr=0x0000557e trans=AHB_TRANS_SEQ resp=AHB_RESP_OKAY wdata=0x131ad5b9
# UVM_INFO ../src/slv/ahb_slave_driver.sv(184) @ 1965000: uvm_test_top.env.slave_agent.drv [ahb_slave_driver] Beat AHB_WRITE addr=0x0000557e resp=AHB_RESP_OKAY waits=2 wdata=0x131ad5b9
# UVM_INFO ../src/mst/ahb_master_monitor.sv(117) @ 1965000: uvm_test_top.env.master_agent.mon [ahb_master_monitor] Beat[86] addr=0x0000557e wdata=0x131ad5b9 resp=AHB_RESP_OKAY
# UVM_INFO ../src/mst/ahb_master_driver.sv(317) @ 1995000: uvm_test_top.env.master_agent.drv [ahb_master_driver] Beat[87/256] addr=0x00005580 trans=AHB_TRANS_SEQ resp=AHB_RESP_OKAY wdata=0x9c7131cf
# UVM_INFO ../src/slv/ahb_slave_driver.sv(184) @ 1995000: uvm_test_top.env.slave_agent.drv [ahb_slave_driver] Beat AHB_WRITE addr=0x00005580 resp=AHB_RESP_OKAY waits=2 wdata=0x9c7131cf
# UVM_INFO ../src/mst/ahb_master_monitor.sv(117) @ 1995000: uvm_test_top.env.master_agent.mon [ahb_master_monitor] Beat[87] addr=0x00005580 wdata=0x9c7131cf resp=AHB_RESP_OKAY
# UVM_INFO ../src/mst/ahb_master_driver.sv(317) @ 2035000: uvm_test_top.env.master_agent.drv [ahb_master_driver] Beat[88/256] addr=0x00005582 trans=AHB_TRANS_SEQ resp=AHB_RESP_OKAY wdata=0x9e597e3a
# UVM_INFO ../src/slv/ahb_slave_driver.sv(184) @ 2035000: uvm_test_top.env.slave_agent.drv [ahb_slave_driver] Beat AHB_WRITE addr=0x00005582 resp=AHB_RESP_OKAY waits=2 wdata=0x9e597e3a
# UVM_INFO ../src/mst/ahb_master_monitor.sv(117) @ 2035000: uvm_test_top.env.master_agent.mon [ahb_master_monitor] Beat[88] addr=0x00005582 wdata=0x9e597e3a resp=AHB_RESP_OKAY
# UVM_INFO ../src/mst/ahb_master_driver.sv(317) @ 2065000: uvm_test_top.env.master_agent.drv [ahb_master_driver] Beat[89/256] addr=0x00005584 trans=AHB_TRANS_SEQ resp=AHB_RESP_OKAY wdata=0x5d633325
# UVM_INFO ../src/slv/ahb_slave_driver.sv(184) @ 2065000: uvm_test_top.env.slave_agent.drv [ahb_slave_driver] Beat AHB_WRITE addr=0x00005584 resp=AHB_RESP_OKAY waits=2 wdata=0x5d633325
# UVM_INFO ../src/mst/ahb_master_monitor.sv(117) @ 2065000: uvm_test_top.env.master_agent.mon [ahb_master_monitor] Beat[89] addr=0x00005584 wdata=0x5d633325 resp=AHB_RESP_OKAY
# UVM_INFO ../src/mst/ahb_master_driver.sv(317) @ 2095000: uvm_test_top.env.master_agent.drv [ahb_master_driver] Beat[90/256] addr=0x00005586 trans=AHB_TRANS_SEQ resp=AHB_RESP_OKAY wdata=0xc66d3756
# UVM_INFO ../src/slv/ahb_slave_driver.sv(184) @ 2095000: uvm_test_top.env.slave_agent.drv [ahb_slave_driver] Beat AHB_WRITE addr=0x00005586 resp=AHB_RESP_OKAY waits=2 wdata=0xc66d3756
# UVM_INFO ../src/mst/ahb_master_monitor.sv(117) @ 2095000: uvm_test_top.env.master_agent.mon [ahb_master_monitor] Beat[90] addr=0x00005586 wdata=0xc66d3756 resp=AHB_RESP_OKAY
# UVM_INFO ../src/mst/ahb_master_driver.sv(317) @ 2125000: uvm_test_top.env.master_agent.drv [ahb_master_driver] Beat[91/256] addr=0x00005588 trans=AHB_TRANS_SEQ resp=AHB_RESP_OKAY wdata=0x8575cb97
# UVM_INFO ../src/slv/ahb_slave_driver.sv(184) @ 2125000: uvm_test_top.env.slave_agent.drv [ahb_slave_driver] Beat AHB_WRITE addr=0x00005588 resp=AHB_RESP_OKAY waits=2 wdata=0x8575cb97
# UVM_INFO ../src/mst/ahb_master_monitor.sv(117) @ 2125000: uvm_test_top.env.master_agent.mon [ahb_master_monitor] Beat[91] addr=0x00005588 wdata=0x8575cb97 resp=AHB_RESP_OKAY
# UVM_INFO ../src/mst/ahb_master_driver.sv(317) @ 2135000: uvm_test_top.env.master_agent.drv [ahb_master_driver] Beat[92/256] addr=0x0000558a trans=AHB_TRANS_SEQ resp=AHB_RESP_OKAY wdata=0x18eccce4
# UVM_INFO ../src/slv/ahb_slave_driver.sv(184) @ 2135000: uvm_test_top.env.slave_agent.drv [ahb_slave_driver] Beat AHB_WRITE addr=0x0000558a resp=AHB_RESP_OKAY waits=0 wdata=0x18eccce4
# UVM_INFO ../src/mst/ahb_master_monitor.sv(117) @ 2135000: uvm_test_top.env.master_agent.mon [ahb_master_monitor] Beat[92] addr=0x0000558a wdata=0x18eccce4 resp=AHB_RESP_OKAY
# UVM_INFO ../src/mst/ahb_master_driver.sv(317) @ 2155000: uvm_test_top.env.master_agent.drv [ahb_master_driver] Beat[93/256] addr=0x0000558c trans=AHB_TRANS_SEQ resp=AHB_RESP_OKAY wdata=0x15c645ea
# UVM_INFO ../src/slv/ahb_slave_driver.sv(184) @ 2155000: uvm_test_top.env.slave_agent.drv [ahb_slave_driver] Beat AHB_WRITE addr=0x0000558c resp=AHB_RESP_OKAY waits=1 wdata=0x15c645ea
# UVM_INFO ../src/mst/ahb_master_monitor.sv(117) @ 2155000: uvm_test_top.env.master_agent.mon [ahb_master_monitor] Beat[93] addr=0x0000558c wdata=0x15c645ea resp=AHB_RESP_OKAY
# UVM_INFO ../src/mst/ahb_master_driver.sv(317) @ 2175000: uvm_test_top.env.master_agent.drv [ahb_master_driver] Beat[94/256] addr=0x0000558e trans=AHB_TRANS_SEQ resp=AHB_RESP_OKAY wdata=0x1ed0911f
# UVM_INFO ../src/slv/ahb_slave_driver.sv(184) @ 2175000: uvm_test_top.env.slave_agent.drv [ahb_slave_driver] Beat AHB_WRITE addr=0x0000558e resp=AHB_RESP_OKAY waits=1 wdata=0x1ed0911f
# UVM_INFO ../src/mst/ahb_master_monitor.sv(117) @ 2175000: uvm_test_top.env.master_agent.mon [ahb_master_monitor] Beat[94] addr=0x0000558e wdata=0x1ed0911f resp=AHB_RESP_OKAY
# UVM_INFO ../src/mst/ahb_master_driver.sv(317) @ 2185000: uvm_test_top.env.master_agent.drv [ahb_master_driver] Beat[95/256] addr=0x00005590 trans=AHB_TRANS_SEQ resp=AHB_RESP_OKAY wdata=0xe1008a4f
# UVM_INFO ../src/slv/ahb_slave_driver.sv(184) @ 2185000: uvm_test_top.env.slave_agent.drv [ahb_slave_driver] Beat AHB_WRITE addr=0x00005590 resp=AHB_RESP_OKAY waits=0 wdata=0xe1008a4f
# UVM_INFO ../src/mst/ahb_master_monitor.sv(117) @ 2185000: uvm_test_top.env.master_agent.mon [ahb_master_monitor] Beat[95] addr=0x00005590 wdata=0xe1008a4f resp=AHB_RESP_OKAY
# UVM_INFO ../src/mst/ahb_master_driver.sv(317) @ 2235000: uvm_test_top.env.master_agent.drv [ahb_master_driver] Beat[96/256] addr=0x00005592 trans=AHB_TRANS_SEQ resp=AHB_RESP_OKAY wdata=0x2119b607
# UVM_INFO ../src/slv/ahb_slave_driver.sv(184) @ 2235000: uvm_test_top.env.slave_agent.drv [ahb_slave_driver] Beat AHB_WRITE addr=0x00005592 resp=AHB_RESP_OKAY waits=2 wdata=0x2119b607
# UVM_INFO ../src/mst/ahb_master_monitor.sv(117) @ 2235000: uvm_test_top.env.master_agent.mon [ahb_master_monitor] Beat[96] addr=0x00005592 wdata=0x2119b607 resp=AHB_RESP_OKAY
# UVM_INFO ../src/mst/ahb_master_driver.sv(317) @ 2265000: uvm_test_top.env.master_agent.drv [ahb_master_driver] Beat[97/256] addr=0x00005594 trans=AHB_TRANS_SEQ resp=AHB_RESP_OKAY wdata=0x250e3035
# UVM_INFO ../src/slv/ahb_slave_driver.sv(184) @ 2265000: uvm_test_top.env.slave_agent.drv [ahb_slave_driver] Beat AHB_WRITE addr=0x00005594 resp=AHB_RESP_OKAY waits=2 wdata=0x250e3035
# UVM_INFO ../src/mst/ahb_master_monitor.sv(117) @ 2265000: uvm_test_top.env.master_agent.mon [ahb_master_monitor] Beat[97] addr=0x00005594 wdata=0x250e3035 resp=AHB_RESP_OKAY
# UVM_INFO ../src/mst/ahb_master_driver.sv(317) @ 2295000: uvm_test_top.env.master_agent.drv [ahb_master_driver] Beat[98/256] addr=0x00005596 trans=AHB_TRANS_SEQ resp=AHB_RESP_OKAY wdata=0x9cf395a7
# UVM_INFO ../src/slv/ahb_slave_driver.sv(184) @ 2295000: uvm_test_top.env.slave_agent.drv [ahb_slave_driver] Beat AHB_WRITE addr=0x00005596 resp=AHB_RESP_OKAY waits=2 wdata=0x9cf395a7
# UVM_INFO ../src/mst/ahb_master_monitor.sv(117) @ 2295000: uvm_test_top.env.master_agent.mon [ahb_master_monitor] Beat[98] addr=0x00005596 wdata=0x9cf395a7 resp=AHB_RESP_OKAY
# UVM_INFO ../src/mst/ahb_master_driver.sv(317) @ 2325000: uvm_test_top.env.master_agent.drv [ahb_master_driver] Beat[99/256] addr=0x00005598 trans=AHB_TRANS_SEQ resp=AHB_RESP_OKAY wdata=0x974a2096
# UVM_INFO ../src/slv/ahb_slave_driver.sv(184) @ 2325000: uvm_test_top.env.slave_agent.drv [ahb_slave_driver] Beat AHB_WRITE addr=0x00005598 resp=AHB_RESP_OKAY waits=2 wdata=0x974a2096
# UVM_INFO ../src/mst/ahb_master_monitor.sv(117) @ 2325000: uvm_test_top.env.master_agent.mon [ahb_master_monitor] Beat[99] addr=0x00005598 wdata=0x974a2096 resp=AHB_RESP_OKAY
# UVM_INFO ../src/mst/ahb_master_driver.sv(317) @ 2355000: uvm_test_top.env.master_agent.drv [ahb_master_driver] Beat[100/256] addr=0x0000559a trans=AHB_TRANS_SEQ resp=AHB_RESP_OKAY wdata=0x20395c3c
# UVM_INFO ../src/slv/ahb_slave_driver.sv(184) @ 2355000: uvm_test_top.env.slave_agent.drv [ahb_slave_driver] Beat AHB_WRITE addr=0x0000559a resp=AHB_RESP_OKAY waits=2 wdata=0x20395c3c
# UVM_INFO ../src/mst/ahb_master_monitor.sv(117) @ 2355000: uvm_test_top.env.master_agent.mon [ahb_master_monitor] Beat[100] addr=0x0000559a wdata=0x20395c3c resp=AHB_RESP_OKAY
# UVM_INFO ../src/mst/ahb_master_driver.sv(317) @ 2365000: uvm_test_top.env.master_agent.drv [ahb_master_driver] Beat[101/256] addr=0x0000559c trans=AHB_TRANS_SEQ resp=AHB_RESP_OKAY wdata=0x1958537b
# UVM_INFO ../src/slv/ahb_slave_driver.sv(184) @ 2365000: uvm_test_top.env.slave_agent.drv [ahb_slave_driver] Beat AHB_WRITE addr=0x0000559c resp=AHB_RESP_OKAY waits=0 wdata=0x1958537b
# UVM_INFO ../src/mst/ahb_master_monitor.sv(117) @ 2365000: uvm_test_top.env.master_agent.mon [ahb_master_monitor] Beat[101] addr=0x0000559c wdata=0x1958537b resp=AHB_RESP_OKAY
# UVM_INFO ../src/mst/ahb_master_driver.sv(317) @ 2395000: uvm_test_top.env.master_agent.drv [ahb_master_driver] Beat[102/256] addr=0x0000559e trans=AHB_TRANS_SEQ resp=AHB_RESP_OKAY wdata=0x65b6677c
# UVM_INFO ../src/slv/ahb_slave_driver.sv(184) @ 2395000: uvm_test_top.env.slave_agent.drv [ahb_slave_driver] Beat AHB_WRITE addr=0x0000559e resp=AHB_RESP_OKAY waits=2 wdata=0x65b6677c
# UVM_INFO ../src/mst/ahb_master_monitor.sv(117) @ 2395000: uvm_test_top.env.master_agent.mon [ahb_master_monitor] Beat[102] addr=0x0000559e wdata=0x65b6677c resp=AHB_RESP_OKAY
# UVM_INFO ../src/mst/ahb_master_driver.sv(317) @ 2425000: uvm_test_top.env.master_agent.drv [ahb_master_driver] Beat[103/256] addr=0x000055a0 trans=AHB_TRANS_SEQ resp=AHB_RESP_OKAY wdata=0xa2e18fe2
# UVM_INFO ../src/slv/ahb_slave_driver.sv(184) @ 2425000: uvm_test_top.env.slave_agent.drv [ahb_slave_driver] Beat AHB_WRITE addr=0x000055a0 resp=AHB_RESP_OKAY waits=2 wdata=0xa2e18fe2
# UVM_INFO ../src/mst/ahb_master_monitor.sv(117) @ 2425000: uvm_test_top.env.master_agent.mon [ahb_master_monitor] Beat[103] addr=0x000055a0 wdata=0xa2e18fe2 resp=AHB_RESP_OKAY
# UVM_INFO ../src/mst/ahb_master_driver.sv(317) @ 2475000: uvm_test_top.env.master_agent.drv [ahb_master_driver] Beat[104/256] addr=0x000055a2 trans=AHB_TRANS_SEQ resp=AHB_RESP_OKAY wdata=0xeedf9a49
# UVM_INFO ../src/slv/ahb_slave_driver.sv(184) @ 2475000: uvm_test_top.env.slave_agent.drv [ahb_slave_driver] Beat AHB_WRITE addr=0x000055a2 resp=AHB_RESP_OKAY waits=2 wdata=0xeedf9a49
# UVM_INFO ../src/mst/ahb_master_monitor.sv(117) @ 2475000: uvm_test_top.env.master_agent.mon [ahb_master_monitor] Beat[104] addr=0x000055a2 wdata=0xeedf9a49 resp=AHB_RESP_OKAY
# UVM_INFO ../src/mst/ahb_master_driver.sv(317) @ 2495000: uvm_test_top.env.master_agent.drv [ahb_master_driver] Beat[105/256] addr=0x000055a4 trans=AHB_TRANS_SEQ resp=AHB_RESP_OKAY wdata=0xb511cc8f
# UVM_INFO ../src/slv/ahb_slave_driver.sv(184) @ 2495000: uvm_test_top.env.slave_agent.drv [ahb_slave_driver] Beat AHB_WRITE addr=0x000055a4 resp=AHB_RESP_OKAY waits=1 wdata=0xb511cc8f
# UVM_INFO ../src/mst/ahb_master_monitor.sv(117) @ 2495000: uvm_test_top.env.master_agent.mon [ahb_master_monitor] Beat[105] addr=0x000055a4 wdata=0xb511cc8f resp=AHB_RESP_OKAY
# UVM_INFO ../src/mst/ahb_master_driver.sv(317) @ 2525000: uvm_test_top.env.master_agent.drv [ahb_master_driver] Beat[106/256] addr=0x000055a6 trans=AHB_TRANS_SEQ resp=AHB_RESP_OKAY wdata=0xb080162e
# UVM_INFO ../src/slv/ahb_slave_driver.sv(184) @ 2525000: uvm_test_top.env.slave_agent.drv [ahb_slave_driver] Beat AHB_WRITE addr=0x000055a6 resp=AHB_RESP_OKAY waits=2 wdata=0xb080162e
# UVM_INFO ../src/mst/ahb_master_monitor.sv(117) @ 2525000: uvm_test_top.env.master_agent.mon [ahb_master_monitor] Beat[106] addr=0x000055a6 wdata=0xb080162e resp=AHB_RESP_OKAY
# UVM_INFO ../src/mst/ahb_master_driver.sv(317) @ 2545000: uvm_test_top.env.master_agent.drv [ahb_master_driver] Beat[107/256] addr=0x000055a8 trans=AHB_TRANS_SEQ resp=AHB_RESP_OKAY wdata=0x0a45dd11
# UVM_INFO ../src/slv/ahb_slave_driver.sv(184) @ 2545000: uvm_test_top.env.slave_agent.drv [ahb_slave_driver] Beat AHB_WRITE addr=0x000055a8 resp=AHB_RESP_OKAY waits=1 wdata=0x0a45dd11
# UVM_INFO ../src/mst/ahb_master_monitor.sv(117) @ 2545000: uvm_test_top.env.master_agent.mon [ahb_master_monitor] Beat[107] addr=0x000055a8 wdata=0x0a45dd11 resp=AHB_RESP_OKAY
# UVM_INFO ../src/mst/ahb_master_driver.sv(317) @ 2575000: uvm_test_top.env.master_agent.drv [ahb_master_driver] Beat[108/256] addr=0x000055aa trans=AHB_TRANS_SEQ resp=AHB_RESP_OKAY wdata=0x1f89e32a
# UVM_INFO ../src/slv/ahb_slave_driver.sv(184) @ 2575000: uvm_test_top.env.slave_agent.drv [ahb_slave_driver] Beat AHB_WRITE addr=0x000055aa resp=AHB_RESP_OKAY waits=2 wdata=0x1f89e32a
# UVM_INFO ../src/mst/ahb_master_monitor.sv(117) @ 2575000: uvm_test_top.env.master_agent.mon [ahb_master_monitor] Beat[108] addr=0x000055aa wdata=0x1f89e32a resp=AHB_RESP_OKAY
# UVM_INFO ../src/mst/ahb_master_driver.sv(317) @ 2595000: uvm_test_top.env.master_agent.drv [ahb_master_driver] Beat[109/256] addr=0x000055ac trans=AHB_TRANS_SEQ resp=AHB_RESP_OKAY wdata=0xd18f28ec
# UVM_INFO ../src/slv/ahb_slave_driver.sv(184) @ 2595000: uvm_test_top.env.slave_agent.drv [ahb_slave_driver] Beat AHB_WRITE addr=0x000055ac resp=AHB_RESP_OKAY waits=1 wdata=0xd18f28ec
# UVM_INFO ../src/mst/ahb_master_monitor.sv(117) @ 2595000: uvm_test_top.env.master_agent.mon [ahb_master_monitor] Beat[109] addr=0x000055ac wdata=0xd18f28ec resp=AHB_RESP_OKAY
# UVM_INFO ../src/mst/ahb_master_driver.sv(317) @ 2605000: uvm_test_top.env.master_agent.drv [ahb_master_driver] Beat[110/256] addr=0x000055ae trans=AHB_TRANS_SEQ resp=AHB_RESP_OKAY wdata=0xbf22c1c1
# UVM_INFO ../src/slv/ahb_slave_driver.sv(184) @ 2605000: uvm_test_top.env.slave_agent.drv [ahb_slave_driver] Beat AHB_WRITE addr=0x000055ae resp=AHB_RESP_OKAY waits=0 wdata=0xbf22c1c1
# UVM_INFO ../src/mst/ahb_master_monitor.sv(117) @ 2605000: uvm_test_top.env.master_agent.mon [ahb_master_monitor] Beat[110] addr=0x000055ae wdata=0xbf22c1c1 resp=AHB_RESP_OKAY
# UVM_INFO ../src/mst/ahb_master_driver.sv(317) @ 2635000: uvm_test_top.env.master_agent.drv [ahb_master_driver] Beat[111/256] addr=0x000055b0 trans=AHB_TRANS_SEQ resp=AHB_RESP_OKAY wdata=0xaa8902e9
# UVM_INFO ../src/slv/ahb_slave_driver.sv(184) @ 2635000: uvm_test_top.env.slave_agent.drv [ahb_slave_driver] Beat AHB_WRITE addr=0x000055b0 resp=AHB_RESP_OKAY waits=2 wdata=0xaa8902e9
# UVM_INFO ../src/mst/ahb_master_monitor.sv(117) @ 2635000: uvm_test_top.env.master_agent.mon [ahb_master_monitor] Beat[111] addr=0x000055b0 wdata=0xaa8902e9 resp=AHB_RESP_OKAY
# UVM_INFO ../src/mst/ahb_master_driver.sv(317) @ 2685000: uvm_test_top.env.master_agent.drv [ahb_master_driver] Beat[112/256] addr=0x000055b2 trans=AHB_TRANS_SEQ resp=AHB_RESP_OKAY wdata=0x0e916e90
# UVM_INFO ../src/slv/ahb_slave_driver.sv(184) @ 2685000: uvm_test_top.env.slave_agent.drv [ahb_slave_driver] Beat AHB_WRITE addr=0x000055b2 resp=AHB_RESP_OKAY waits=2 wdata=0x0e916e90
# UVM_INFO ../src/mst/ahb_master_monitor.sv(117) @ 2685000: uvm_test_top.env.master_agent.mon [ahb_master_monitor] Beat[112] addr=0x000055b2 wdata=0x0e916e90 resp=AHB_RESP_OKAY
# UVM_INFO ../src/mst/ahb_master_driver.sv(317) @ 2705000: uvm_test_top.env.master_agent.drv [ahb_master_driver] Beat[113/256] addr=0x000055b4 trans=AHB_TRANS_SEQ resp=AHB_RESP_OKAY wdata=0x60ce4d42
# UVM_INFO ../src/slv/ahb_slave_driver.sv(184) @ 2705000: uvm_test_top.env.slave_agent.drv [ahb_slave_driver] Beat AHB_WRITE addr=0x000055b4 resp=AHB_RESP_OKAY waits=1 wdata=0x60ce4d42
# UVM_INFO ../src/mst/ahb_master_monitor.sv(117) @ 2705000: uvm_test_top.env.master_agent.mon [ahb_master_monitor] Beat[113] addr=0x000055b4 wdata=0x60ce4d42 resp=AHB_RESP_OKAY
# UVM_INFO ../src/mst/ahb_master_driver.sv(317) @ 2715000: uvm_test_top.env.master_agent.drv [ahb_master_driver] Beat[114/256] addr=0x000055b6 trans=AHB_TRANS_SEQ resp=AHB_RESP_OKAY wdata=0x9c440b4e
# UVM_INFO ../src/slv/ahb_slave_driver.sv(184) @ 2715000: uvm_test_top.env.slave_agent.drv [ahb_slave_driver] Beat AHB_WRITE addr=0x000055b6 resp=AHB_RESP_OKAY waits=0 wdata=0x9c440b4e
# UVM_INFO ../src/mst/ahb_master_monitor.sv(117) @ 2715000: uvm_test_top.env.master_agent.mon [ahb_master_monitor] Beat[114] addr=0x000055b6 wdata=0x9c440b4e resp=AHB_RESP_OKAY
# UVM_INFO ../src/mst/ahb_master_driver.sv(317) @ 2725000: uvm_test_top.env.master_agent.drv [ahb_master_driver] Beat[115/256] addr=0x000055b8 trans=AHB_TRANS_SEQ resp=AHB_RESP_OKAY wdata=0x8c74c9e0
# UVM_INFO ../src/slv/ahb_slave_driver.sv(184) @ 2725000: uvm_test_top.env.slave_agent.drv [ahb_slave_driver] Beat AHB_WRITE addr=0x000055b8 resp=AHB_RESP_OKAY waits=0 wdata=0x8c74c9e0
# UVM_INFO ../src/mst/ahb_master_monitor.sv(117) @ 2725000: uvm_test_top.env.master_agent.mon [ahb_master_monitor] Beat[115] addr=0x000055b8 wdata=0x8c74c9e0 resp=AHB_RESP_OKAY
# UVM_INFO ../src/mst/ahb_master_driver.sv(317) @ 2755000: uvm_test_top.env.master_agent.drv [ahb_master_driver] Beat[116/256] addr=0x000055ba trans=AHB_TRANS_SEQ resp=AHB_RESP_OKAY wdata=0x937a6f8c
# UVM_INFO ../src/slv/ahb_slave_driver.sv(184) @ 2755000: uvm_test_top.env.slave_agent.drv [ahb_slave_driver] Beat AHB_WRITE addr=0x000055ba resp=AHB_RESP_OKAY waits=2 wdata=0x937a6f8c
# UVM_INFO ../src/mst/ahb_master_monitor.sv(117) @ 2755000: uvm_test_top.env.master_agent.mon [ahb_master_monitor] Beat[116] addr=0x000055ba wdata=0x937a6f8c resp=AHB_RESP_OKAY
# UVM_INFO ../src/mst/ahb_master_driver.sv(317) @ 2775000: uvm_test_top.env.master_agent.drv [ahb_master_driver] Beat[117/256] addr=0x000055bc trans=AHB_TRANS_SEQ resp=AHB_RESP_OKAY wdata=0xc4b4402b
# UVM_INFO ../src/slv/ahb_slave_driver.sv(184) @ 2775000: uvm_test_top.env.slave_agent.drv [ahb_slave_driver] Beat AHB_WRITE addr=0x000055bc resp=AHB_RESP_OKAY waits=1 wdata=0xc4b4402b
# UVM_INFO ../src/mst/ahb_master_monitor.sv(117) @ 2775000: uvm_test_top.env.master_agent.mon [ahb_master_monitor] Beat[117] addr=0x000055bc wdata=0xc4b4402b resp=AHB_RESP_OKAY
# UVM_INFO ../src/mst/ahb_master_driver.sv(317) @ 2795000: uvm_test_top.env.master_agent.drv [ahb_master_driver] Beat[118/256] addr=0x000055be trans=AHB_TRANS_SEQ resp=AHB_RESP_OKAY wdata=0xeb0750f8
# UVM_INFO ../src/slv/ahb_slave_driver.sv(184) @ 2795000: uvm_test_top.env.slave_agent.drv [ahb_slave_driver] Beat AHB_WRITE addr=0x000055be resp=AHB_RESP_OKAY waits=1 wdata=0xeb0750f8
# UVM_INFO ../src/mst/ahb_master_monitor.sv(117) @ 2795000: uvm_test_top.env.master_agent.mon [ahb_master_monitor] Beat[118] addr=0x000055be wdata=0xeb0750f8 resp=AHB_RESP_OKAY
# UVM_INFO ../src/mst/ahb_master_driver.sv(317) @ 2825000: uvm_test_top.env.master_agent.drv [ahb_master_driver] Beat[119/256] addr=0x000055c0 trans=AHB_TRANS_SEQ resp=AHB_RESP_OKAY wdata=0xc935ad4a
# UVM_INFO ../src/slv/ahb_slave_driver.sv(184) @ 2825000: uvm_test_top.env.slave_agent.drv [ahb_slave_driver] Beat AHB_WRITE addr=0x000055c0 resp=AHB_RESP_OKAY waits=2 wdata=0xc935ad4a
# UVM_INFO ../src/mst/ahb_master_monitor.sv(117) @ 2825000: uvm_test_top.env.master_agent.mon [ahb_master_monitor] Beat[119] addr=0x000055c0 wdata=0xc935ad4a resp=AHB_RESP_OKAY
# UVM_INFO ../src/mst/ahb_master_driver.sv(317) @ 2855000: uvm_test_top.env.master_agent.drv [ahb_master_driver] Beat[120/256] addr=0x000055c2 trans=AHB_TRANS_SEQ resp=AHB_RESP_OKAY wdata=0x188c6158
# UVM_INFO ../src/slv/ahb_slave_driver.sv(184) @ 2855000: uvm_test_top.env.slave_agent.drv [ahb_slave_driver] Beat AHB_WRITE addr=0x000055c2 resp=AHB_RESP_OKAY waits=1 wdata=0x188c6158
# UVM_INFO ../src/mst/ahb_master_monitor.sv(117) @ 2855000: uvm_test_top.env.master_agent.mon [ahb_master_monitor] Beat[120] addr=0x000055c2 wdata=0x188c6158 resp=AHB_RESP_OKAY
# UVM_INFO ../src/mst/ahb_master_driver.sv(317) @ 2885000: uvm_test_top.env.master_agent.drv [ahb_master_driver] Beat[121/256] addr=0x000055c4 trans=AHB_TRANS_SEQ resp=AHB_RESP_OKAY wdata=0x8753619b
# UVM_INFO ../src/slv/ahb_slave_driver.sv(184) @ 2885000: uvm_test_top.env.slave_agent.drv [ahb_slave_driver] Beat AHB_WRITE addr=0x000055c4 resp=AHB_RESP_OKAY waits=2 wdata=0x8753619b
# UVM_INFO ../src/mst/ahb_master_monitor.sv(117) @ 2885000: uvm_test_top.env.master_agent.mon [ahb_master_monitor] Beat[121] addr=0x000055c4 wdata=0x8753619b resp=AHB_RESP_OKAY
# UVM_INFO ../src/mst/ahb_master_driver.sv(317) @ 2905000: uvm_test_top.env.master_agent.drv [ahb_master_driver] Beat[122/256] addr=0x000055c6 trans=AHB_TRANS_SEQ resp=AHB_RESP_OKAY wdata=0xdb446041
# UVM_INFO ../src/slv/ahb_slave_driver.sv(184) @ 2905000: uvm_test_top.env.slave_agent.drv [ahb_slave_driver] Beat AHB_WRITE addr=0x000055c6 resp=AHB_RESP_OKAY waits=1 wdata=0xdb446041
# UVM_INFO ../src/mst/ahb_master_monitor.sv(117) @ 2905000: uvm_test_top.env.master_agent.mon [ahb_master_monitor] Beat[122] addr=0x000055c6 wdata=0xdb446041 resp=AHB_RESP_OKAY
# UVM_INFO ../src/mst/ahb_master_driver.sv(317) @ 2925000: uvm_test_top.env.master_agent.drv [ahb_master_driver] Beat[123/256] addr=0x000055c8 trans=AHB_TRANS_SEQ resp=AHB_RESP_OKAY wdata=0x5d5ddc4d
# UVM_INFO ../src/slv/ahb_slave_driver.sv(184) @ 2925000: uvm_test_top.env.slave_agent.drv [ahb_slave_driver] Beat AHB_WRITE addr=0x000055c8 resp=AHB_RESP_OKAY waits=1 wdata=0x5d5ddc4d
# UVM_INFO ../src/mst/ahb_master_monitor.sv(117) @ 2925000: uvm_test_top.env.master_agent.mon [ahb_master_monitor] Beat[123] addr=0x000055c8 wdata=0x5d5ddc4d resp=AHB_RESP_OKAY
# UVM_INFO ../src/mst/ahb_master_driver.sv(317) @ 2945000: uvm_test_top.env.master_agent.drv [ahb_master_driver] Beat[124/256] addr=0x000055ca trans=AHB_TRANS_SEQ resp=AHB_RESP_OKAY wdata=0x6f3413ac
# UVM_INFO ../src/slv/ahb_slave_driver.sv(184) @ 2945000: uvm_test_top.env.slave_agent.drv [ahb_slave_driver] Beat AHB_WRITE addr=0x000055ca resp=AHB_RESP_OKAY waits=1 wdata=0x6f3413ac
# UVM_INFO ../src/mst/ahb_master_monitor.sv(117) @ 2945000: uvm_test_top.env.master_agent.mon [ahb_master_monitor] Beat[124] addr=0x000055ca wdata=0x6f3413ac resp=AHB_RESP_OKAY
# UVM_INFO ../src/mst/ahb_master_driver.sv(317) @ 2965000: uvm_test_top.env.master_agent.drv [ahb_master_driver] Beat[125/256] addr=0x000055cc trans=AHB_TRANS_SEQ resp=AHB_RESP_OKAY wdata=0xdd745005
# UVM_INFO ../src/slv/ahb_slave_driver.sv(184) @ 2965000: uvm_test_top.env.slave_agent.drv [ahb_slave_driver] Beat AHB_WRITE addr=0x000055cc resp=AHB_RESP_OKAY waits=1 wdata=0xdd745005
# UVM_INFO ../src/mst/ahb_master_monitor.sv(117) @ 2965000: uvm_test_top.env.master_agent.mon [ahb_master_monitor] Beat[125] addr=0x000055cc wdata=0xdd745005 resp=AHB_RESP_OKAY
# UVM_INFO ../src/mst/ahb_master_driver.sv(317) @ 2995000: uvm_test_top.env.master_agent.drv [ahb_master_driver] Beat[126/256] addr=0x000055ce trans=AHB_TRANS_SEQ resp=AHB_RESP_OKAY wdata=0xd38324d9
# UVM_INFO ../src/slv/ahb_slave_driver.sv(184) @ 2995000: uvm_test_top.env.slave_agent.drv [ahb_slave_driver] Beat AHB_WRITE addr=0x000055ce resp=AHB_RESP_OKAY waits=2 wdata=0xd38324d9
# UVM_INFO ../src/mst/ahb_master_monitor.sv(117) @ 2995000: uvm_test_top.env.master_agent.mon [ahb_master_monitor] Beat[126] addr=0x000055ce wdata=0xd38324d9 resp=AHB_RESP_OKAY
# UVM_INFO ../src/mst/ahb_master_driver.sv(317) @ 3025000: uvm_test_top.env.master_agent.drv [ahb_master_driver] Beat[127/256] addr=0x000055d0 trans=AHB_TRANS_SEQ resp=AHB_RESP_OKAY wdata=0x86dc19db
# UVM_INFO ../src/slv/ahb_slave_driver.sv(184) @ 3025000: uvm_test_top.env.slave_agent.drv [ahb_slave_driver] Beat AHB_WRITE addr=0x000055d0 resp=AHB_RESP_OKAY waits=2 wdata=0x86dc19db
# UVM_INFO ../src/mst/ahb_master_monitor.sv(117) @ 3025000: uvm_test_top.env.master_agent.mon [ahb_master_monitor] Beat[127] addr=0x000055d0 wdata=0x86dc19db resp=AHB_RESP_OKAY
# UVM_INFO ../src/mst/ahb_master_driver.sv(317) @ 3075000: uvm_test_top.env.master_agent.drv [ahb_master_driver] Beat[128/256] addr=0x000055d2 trans=AHB_TRANS_SEQ resp=AHB_RESP_OKAY wdata=0xf131165d
# UVM_INFO ../src/slv/ahb_slave_driver.sv(184) @ 3075000: uvm_test_top.env.slave_agent.drv [ahb_slave_driver] Beat AHB_WRITE addr=0x000055d2 resp=AHB_RESP_OKAY waits=2 wdata=0xf131165d
# UVM_INFO ../src/mst/ahb_master_monitor.sv(117) @ 3075000: uvm_test_top.env.master_agent.mon [ahb_master_monitor] Beat[128] addr=0x000055d2 wdata=0xf131165d resp=AHB_RESP_OKAY
# UVM_INFO ../src/mst/ahb_master_driver.sv(317) @ 3105000: uvm_test_top.env.master_agent.drv [ahb_master_driver] Beat[129/256] addr=0x000055d4 trans=AHB_TRANS_SEQ resp=AHB_RESP_OKAY wdata=0xc86dadd4
# UVM_INFO ../src/slv/ahb_slave_driver.sv(184) @ 3105000: uvm_test_top.env.slave_agent.drv [ahb_slave_driver] Beat AHB_WRITE addr=0x000055d4 resp=AHB_RESP_OKAY waits=2 wdata=0xc86dadd4
# UVM_INFO ../src/mst/ahb_master_monitor.sv(117) @ 3105000: uvm_test_top.env.master_agent.mon [ahb_master_monitor] Beat[129] addr=0x000055d4 wdata=0xc86dadd4 resp=AHB_RESP_OKAY
# UVM_INFO ../src/mst/ahb_master_driver.sv(317) @ 3125000: uvm_test_top.env.master_agent.drv [ahb_master_driver] Beat[130/256] addr=0x000055d6 trans=AHB_TRANS_SEQ resp=AHB_RESP_OKAY wdata=0xd1371cb4
# UVM_INFO ../src/slv/ahb_slave_driver.sv(184) @ 3125000: uvm_test_top.env.slave_agent.drv [ahb_slave_driver] Beat AHB_WRITE addr=0x000055d6 resp=AHB_RESP_OKAY waits=1 wdata=0xd1371cb4
# UVM_INFO ../src/mst/ahb_master_monitor.sv(117) @ 3125000: uvm_test_top.env.master_agent.mon [ahb_master_monitor] Beat[130] addr=0x000055d6 wdata=0xd1371cb4 resp=AHB_RESP_OKAY
# UVM_INFO ../src/mst/ahb_master_driver.sv(317) @ 3155000: uvm_test_top.env.master_agent.drv [ahb_master_driver] Beat[131/256] addr=0x000055d8 trans=AHB_TRANS_SEQ resp=AHB_RESP_OKAY wdata=0x5c9b7a45
# UVM_INFO ../src/slv/ahb_slave_driver.sv(184) @ 3155000: uvm_test_top.env.slave_agent.drv [ahb_slave_driver] Beat AHB_WRITE addr=0x000055d8 resp=AHB_RESP_OKAY waits=2 wdata=0x5c9b7a45
# UVM_INFO ../src/mst/ahb_master_monitor.sv(117) @ 3155000: uvm_test_top.env.master_agent.mon [ahb_master_monitor] Beat[131] addr=0x000055d8 wdata=0x5c9b7a45 resp=AHB_RESP_OKAY
# UVM_INFO ../src/mst/ahb_master_driver.sv(317) @ 3185000: uvm_test_top.env.master_agent.drv [ahb_master_driver] Beat[132/256] addr=0x000055da trans=AHB_TRANS_SEQ resp=AHB_RESP_OKAY wdata=0x88aded4c
# UVM_INFO ../src/slv/ahb_slave_driver.sv(184) @ 3185000: uvm_test_top.env.slave_agent.drv [ahb_slave_driver] Beat AHB_WRITE addr=0x000055da resp=AHB_RESP_OKAY waits=2 wdata=0x88aded4c
# UVM_INFO ../src/mst/ahb_master_monitor.sv(117) @ 3185000: uvm_test_top.env.master_agent.mon [ahb_master_monitor] Beat[132] addr=0x000055da wdata=0x88aded4c resp=AHB_RESP_OKAY
# UVM_INFO ../src/mst/ahb_master_driver.sv(317) @ 3195000: uvm_test_top.env.master_agent.drv [ahb_master_driver] Beat[133/256] addr=0x000055dc trans=AHB_TRANS_SEQ resp=AHB_RESP_OKAY wdata=0x8d996985
# UVM_INFO ../src/slv/ahb_slave_driver.sv(184) @ 3195000: uvm_test_top.env.slave_agent.drv [ahb_slave_driver] Beat AHB_WRITE addr=0x000055dc resp=AHB_RESP_OKAY waits=0 wdata=0x8d996985
# UVM_INFO ../src/mst/ahb_master_monitor.sv(117) @ 3195000: uvm_test_top.env.master_agent.mon [ahb_master_monitor] Beat[133] addr=0x000055dc wdata=0x8d996985 resp=AHB_RESP_OKAY
# UVM_INFO ../src/mst/ahb_master_driver.sv(317) @ 3215000: uvm_test_top.env.master_agent.drv [ahb_master_driver] Beat[134/256] addr=0x000055de trans=AHB_TRANS_SEQ resp=AHB_RESP_OKAY wdata=0xb9d146b1
# UVM_INFO ../src/slv/ahb_slave_driver.sv(184) @ 3215000: uvm_test_top.env.slave_agent.drv [ahb_slave_driver] Beat AHB_WRITE addr=0x000055de resp=AHB_RESP_OKAY waits=1 wdata=0xb9d146b1
# UVM_INFO ../src/mst/ahb_master_monitor.sv(117) @ 3215000: uvm_test_top.env.master_agent.mon [ahb_master_monitor] Beat[134] addr=0x000055de wdata=0xb9d146b1 resp=AHB_RESP_OKAY
# UVM_INFO ../src/mst/ahb_master_driver.sv(317) @ 3245000: uvm_test_top.env.master_agent.drv [ahb_master_driver] Beat[135/256] addr=0x000055e0 trans=AHB_TRANS_SEQ resp=AHB_RESP_OKAY wdata=0x835adba5
# UVM_INFO ../src/slv/ahb_slave_driver.sv(184) @ 3245000: uvm_test_top.env.slave_agent.drv [ahb_slave_driver] Beat AHB_WRITE addr=0x000055e0 resp=AHB_RESP_OKAY waits=2 wdata=0x835adba5
# UVM_INFO ../src/mst/ahb_master_monitor.sv(117) @ 3245000: uvm_test_top.env.master_agent.mon [ahb_master_monitor] Beat[135] addr=0x000055e0 wdata=0x835adba5 resp=AHB_RESP_OKAY
# UVM_INFO ../src/mst/ahb_master_driver.sv(317) @ 3285000: uvm_test_top.env.master_agent.drv [ahb_master_driver] Beat[136/256] addr=0x000055e2 trans=AHB_TRANS_SEQ resp=AHB_RESP_OKAY wdata=0xf11e8b4d
# UVM_INFO ../src/slv/ahb_slave_driver.sv(184) @ 3285000: uvm_test_top.env.slave_agent.drv [ahb_slave_driver] Beat AHB_WRITE addr=0x000055e2 resp=AHB_RESP_OKAY waits=1 wdata=0xf11e8b4d
# UVM_INFO ../src/mst/ahb_master_monitor.sv(117) @ 3285000: uvm_test_top.env.master_agent.mon [ahb_master_monitor] Beat[136] addr=0x000055e2 wdata=0xf11e8b4d resp=AHB_RESP_OKAY
# UVM_INFO ../src/mst/ahb_master_driver.sv(317) @ 3315000: uvm_test_top.env.master_agent.drv [ahb_master_driver] Beat[137/256] addr=0x000055e4 trans=AHB_TRANS_SEQ resp=AHB_RESP_OKAY wdata=0x10668c2d
# UVM_INFO ../src/slv/ahb_slave_driver.sv(184) @ 3315000: uvm_test_top.env.slave_agent.drv [ahb_slave_driver] Beat AHB_WRITE addr=0x000055e4 resp=AHB_RESP_OKAY waits=2 wdata=0x10668c2d
# UVM_INFO ../src/mst/ahb_master_monitor.sv(117) @ 3315000: uvm_test_top.env.master_agent.mon [ahb_master_monitor] Beat[137] addr=0x000055e4 wdata=0x10668c2d resp=AHB_RESP_OKAY
# UVM_INFO ../src/mst/ahb_master_driver.sv(317) @ 3345000: uvm_test_top.env.master_agent.drv [ahb_master_driver] Beat[138/256] addr=0x000055e6 trans=AHB_TRANS_SEQ resp=AHB_RESP_OKAY wdata=0x9f5c7850
# UVM_INFO ../src/slv/ahb_slave_driver.sv(184) @ 3345000: uvm_test_top.env.slave_agent.drv [ahb_slave_driver] Beat AHB_WRITE addr=0x000055e6 resp=AHB_RESP_OKAY waits=2 wdata=0x9f5c7850
# UVM_INFO ../src/mst/ahb_master_monitor.sv(117) @ 3345000: uvm_test_top.env.master_agent.mon [ahb_master_monitor] Beat[138] addr=0x000055e6 wdata=0x9f5c7850 resp=AHB_RESP_OKAY
# UVM_INFO ../src/mst/ahb_master_driver.sv(317) @ 3365000: uvm_test_top.env.master_agent.drv [ahb_master_driver] Beat[139/256] addr=0x000055e8 trans=AHB_TRANS_SEQ resp=AHB_RESP_OKAY wdata=0xbc2b44ca
# UVM_INFO ../src/slv/ahb_slave_driver.sv(184) @ 3365000: uvm_test_top.env.slave_agent.drv [ahb_slave_driver] Beat AHB_WRITE addr=0x000055e8 resp=AHB_RESP_OKAY waits=1 wdata=0xbc2b44ca
# UVM_INFO ../src/mst/ahb_master_monitor.sv(117) @ 3365000: uvm_test_top.env.master_agent.mon [ahb_master_monitor] Beat[139] addr=0x000055e8 wdata=0xbc2b44ca resp=AHB_RESP_OKAY
# UVM_INFO ../src/mst/ahb_master_driver.sv(317) @ 3395000: uvm_test_top.env.master_agent.drv [ahb_master_driver] Beat[140/256] addr=0x000055ea trans=AHB_TRANS_SEQ resp=AHB_RESP_OKAY wdata=0xea9ab1f4
# UVM_INFO ../src/slv/ahb_slave_driver.sv(184) @ 3395000: uvm_test_top.env.slave_agent.drv [ahb_slave_driver] Beat AHB_WRITE addr=0x000055ea resp=AHB_RESP_OKAY waits=2 wdata=0xea9ab1f4
# UVM_INFO ../src/mst/ahb_master_monitor.sv(117) @ 3395000: uvm_test_top.env.master_agent.mon [ahb_master_monitor] Beat[140] addr=0x000055ea wdata=0xea9ab1f4 resp=AHB_RESP_OKAY
# UVM_INFO ../src/mst/ahb_master_driver.sv(317) @ 3405000: uvm_test_top.env.master_agent.drv [ahb_master_driver] Beat[141/256] addr=0x000055ec trans=AHB_TRANS_SEQ resp=AHB_RESP_OKAY wdata=0xc52bcecd
# UVM_INFO ../src/slv/ahb_slave_driver.sv(184) @ 3405000: uvm_test_top.env.slave_agent.drv [ahb_slave_driver] Beat AHB_WRITE addr=0x000055ec resp=AHB_RESP_OKAY waits=0 wdata=0xc52bcecd
# UVM_INFO ../src/mst/ahb_master_monitor.sv(117) @ 3405000: uvm_test_top.env.master_agent.mon [ahb_master_monitor] Beat[141] addr=0x000055ec wdata=0xc52bcecd resp=AHB_RESP_OKAY
# UVM_INFO ../src/mst/ahb_master_driver.sv(317) @ 3425000: uvm_test_top.env.master_agent.drv [ahb_master_driver] Beat[142/256] addr=0x000055ee trans=AHB_TRANS_SEQ resp=AHB_RESP_OKAY wdata=0x35fd3ef6
# UVM_INFO ../src/slv/ahb_slave_driver.sv(184) @ 3425000: uvm_test_top.env.slave_agent.drv [ahb_slave_driver] Beat AHB_WRITE addr=0x000055ee resp=AHB_RESP_OKAY waits=1 wdata=0x35fd3ef6
# UVM_INFO ../src/mst/ahb_master_monitor.sv(117) @ 3425000: uvm_test_top.env.master_agent.mon [ahb_master_monitor] Beat[142] addr=0x000055ee wdata=0x35fd3ef6 resp=AHB_RESP_OKAY
# UVM_INFO ../src/mst/ahb_master_driver.sv(317) @ 3435000: uvm_test_top.env.master_agent.drv [ahb_master_driver] Beat[143/256] addr=0x000055f0 trans=AHB_TRANS_SEQ resp=AHB_RESP_OKAY wdata=0xce3f3be1
# UVM_INFO ../src/slv/ahb_slave_driver.sv(184) @ 3435000: uvm_test_top.env.slave_agent.drv [ahb_slave_driver] Beat AHB_WRITE addr=0x000055f0 resp=AHB_RESP_OKAY waits=0 wdata=0xce3f3be1
# UVM_INFO ../src/mst/ahb_master_monitor.sv(117) @ 3435000: uvm_test_top.env.master_agent.mon [ahb_master_monitor] Beat[143] addr=0x000055f0 wdata=0xce3f3be1 resp=AHB_RESP_OKAY
# UVM_INFO ../src/mst/ahb_master_driver.sv(317) @ 3465000: uvm_test_top.env.master_agent.drv [ahb_master_driver] Beat[144/256] addr=0x000055f2 trans=AHB_TRANS_SEQ resp=AHB_RESP_OKAY wdata=0xf13a3043
# UVM_INFO ../src/slv/ahb_slave_driver.sv(184) @ 3465000: uvm_test_top.env.slave_agent.drv [ahb_slave_driver] Beat AHB_WRITE addr=0x000055f2 resp=AHB_RESP_OKAY waits=0 wdata=0xf13a3043
# UVM_INFO ../src/mst/ahb_master_monitor.sv(117) @ 3465000: uvm_test_top.env.master_agent.mon [ahb_master_monitor] Beat[144] addr=0x000055f2 wdata=0xf13a3043 resp=AHB_RESP_OKAY
# UVM_INFO ../src/mst/ahb_master_driver.sv(317) @ 3475000: uvm_test_top.env.master_agent.drv [ahb_master_driver] Beat[145/256] addr=0x000055f4 trans=AHB_TRANS_SEQ resp=AHB_RESP_OKAY wdata=0xcfe1362a
# UVM_INFO ../src/slv/ahb_slave_driver.sv(184) @ 3475000: uvm_test_top.env.slave_agent.drv [ahb_slave_driver] Beat AHB_WRITE addr=0x000055f4 resp=AHB_RESP_OKAY waits=0 wdata=0xcfe1362a
# UVM_INFO ../src/mst/ahb_master_monitor.sv(117) @ 3475000: uvm_test_top.env.master_agent.mon [ahb_master_monitor] Beat[145] addr=0x000055f4 wdata=0xcfe1362a resp=AHB_RESP_OKAY
# UVM_INFO ../src/mst/ahb_master_driver.sv(317) @ 3485000: uvm_test_top.env.master_agent.drv [ahb_master_driver] Beat[146/256] addr=0x000055f6 trans=AHB_TRANS_SEQ resp=AHB_RESP_OKAY wdata=0xa7c02575
# UVM_INFO ../src/slv/ahb_slave_driver.sv(184) @ 3485000: uvm_test_top.env.slave_agent.drv [ahb_slave_driver] Beat AHB_WRITE addr=0x000055f6 resp=AHB_RESP_OKAY waits=0 wdata=0xa7c02575
# UVM_INFO ../src/mst/ahb_master_monitor.sv(117) @ 3485000: uvm_test_top.env.master_agent.mon [ahb_master_monitor] Beat[146] addr=0x000055f6 wdata=0xa7c02575 resp=AHB_RESP_OKAY
# UVM_INFO ../src/mst/ahb_master_driver.sv(317) @ 3495000: uvm_test_top.env.master_agent.drv [ahb_master_driver] Beat[147/256] addr=0x000055f8 trans=AHB_TRANS_SEQ resp=AHB_RESP_OKAY wdata=0x7e71809f
# UVM_INFO ../src/slv/ahb_slave_driver.sv(184) @ 3495000: uvm_test_top.env.slave_agent.drv [ahb_slave_driver] Beat AHB_WRITE addr=0x000055f8 resp=AHB_RESP_OKAY waits=0 wdata=0x7e71809f
# UVM_INFO ../src/mst/ahb_master_monitor.sv(117) @ 3495000: uvm_test_top.env.master_agent.mon [ahb_master_monitor] Beat[147] addr=0x000055f8 wdata=0x7e71809f resp=AHB_RESP_OKAY
# UVM_INFO ../src/mst/ahb_master_driver.sv(317) @ 3505000: uvm_test_top.env.master_agent.drv [ahb_master_driver] Beat[148/256] addr=0x000055fa trans=AHB_TRANS_SEQ resp=AHB_RESP_OKAY wdata=0x6ca71063
# UVM_INFO ../src/slv/ahb_slave_driver.sv(184) @ 3505000: uvm_test_top.env.slave_agent.drv [ahb_slave_driver] Beat AHB_WRITE addr=0x000055fa resp=AHB_RESP_OKAY waits=0 wdata=0x6ca71063
# UVM_INFO ../src/mst/ahb_master_monitor.sv(117) @ 3505000: uvm_test_top.env.master_agent.mon [ahb_master_monitor] Beat[148] addr=0x000055fa wdata=0x6ca71063 resp=AHB_RESP_OKAY
# UVM_INFO ../src/mst/ahb_master_driver.sv(317) @ 3535000: uvm_test_top.env.master_agent.drv [ahb_master_driver] Beat[149/256] addr=0x000055fc trans=AHB_TRANS_SEQ resp=AHB_RESP_OKAY wdata=0x2fc81722
# UVM_INFO ../src/slv/ahb_slave_driver.sv(184) @ 3535000: uvm_test_top.env.slave_agent.drv [ahb_slave_driver] Beat AHB_WRITE addr=0x000055fc resp=AHB_RESP_OKAY waits=2 wdata=0x2fc81722
# UVM_INFO ../src/mst/ahb_master_monitor.sv(117) @ 3535000: uvm_test_top.env.master_agent.mon [ahb_master_monitor] Beat[149] addr=0x000055fc wdata=0x2fc81722 resp=AHB_RESP_OKAY
# UVM_INFO ../src/mst/ahb_master_driver.sv(317) @ 3545000: uvm_test_top.env.master_agent.drv [ahb_master_driver] Beat[150/256] addr=0x000055fe trans=AHB_TRANS_SEQ resp=AHB_RESP_OKAY wdata=0xe1b8c12e
# UVM_INFO ../src/slv/ahb_slave_driver.sv(184) @ 3545000: uvm_test_top.env.slave_agent.drv [ahb_slave_driver] Beat AHB_WRITE addr=0x000055fe resp=AHB_RESP_OKAY waits=0 wdata=0xe1b8c12e
# UVM_INFO ../src/mst/ahb_master_monitor.sv(117) @ 3545000: uvm_test_top.env.master_agent.mon [ahb_master_monitor] Beat[150] addr=0x000055fe wdata=0xe1b8c12e resp=AHB_RESP_OKAY
# UVM_INFO ../src/mst/ahb_master_driver.sv(317) @ 3575000: uvm_test_top.env.master_agent.drv [ahb_master_driver] Beat[151/256] addr=0x00005600 trans=AHB_TRANS_SEQ resp=AHB_RESP_OKAY wdata=0xb1dbe59a
# UVM_INFO ../src/slv/ahb_slave_driver.sv(184) @ 3575000: uvm_test_top.env.slave_agent.drv [ahb_slave_driver] Beat AHB_WRITE addr=0x00005600 resp=AHB_RESP_OKAY waits=2 wdata=0xb1dbe59a
# UVM_INFO ../src/mst/ahb_master_monitor.sv(117) @ 3575000: uvm_test_top.env.master_agent.mon [ahb_master_monitor] Beat[151] addr=0x00005600 wdata=0xb1dbe59a resp=AHB_RESP_OKAY
# UVM_INFO ../src/mst/ahb_master_driver.sv(317) @ 3595000: uvm_test_top.env.master_agent.drv [ahb_master_driver] Beat[152/256] addr=0x00005602 trans=AHB_TRANS_SEQ resp=AHB_RESP_OKAY wdata=0xca8d8177
# UVM_INFO ../src/slv/ahb_slave_driver.sv(184) @ 3595000: uvm_test_top.env.slave_agent.drv [ahb_slave_driver] Beat AHB_WRITE addr=0x00005602 resp=AHB_RESP_OKAY waits=0 wdata=0xca8d8177
# UVM_INFO ../src/mst/ahb_master_monitor.sv(117) @ 3595000: uvm_test_top.env.master_agent.mon [ahb_master_monitor] Beat[152] addr=0x00005602 wdata=0xca8d8177 resp=AHB_RESP_OKAY
# UVM_INFO ../src/mst/ahb_master_driver.sv(317) @ 3615000: uvm_test_top.env.master_agent.drv [ahb_master_driver] Beat[153/256] addr=0x00005604 trans=AHB_TRANS_SEQ resp=AHB_RESP_OKAY wdata=0x0e42c9d5
# UVM_INFO ../src/slv/ahb_slave_driver.sv(184) @ 3615000: uvm_test_top.env.slave_agent.drv [ahb_slave_driver] Beat AHB_WRITE addr=0x00005604 resp=AHB_RESP_OKAY waits=1 wdata=0x0e42c9d5
# UVM_INFO ../src/mst/ahb_master_monitor.sv(117) @ 3615000: uvm_test_top.env.master_agent.mon [ahb_master_monitor] Beat[153] addr=0x00005604 wdata=0x0e42c9d5 resp=AHB_RESP_OKAY
# UVM_INFO ../src/mst/ahb_master_driver.sv(317) @ 3635000: uvm_test_top.env.master_agent.drv [ahb_master_driver] Beat[154/256] addr=0x00005606 trans=AHB_TRANS_SEQ resp=AHB_RESP_OKAY wdata=0xfc109d76
# UVM_INFO ../src/slv/ahb_slave_driver.sv(184) @ 3635000: uvm_test_top.env.slave_agent.drv [ahb_slave_driver] Beat AHB_WRITE addr=0x00005606 resp=AHB_RESP_OKAY waits=1 wdata=0xfc109d76
# UVM_INFO ../src/mst/ahb_master_monitor.sv(117) @ 3635000: uvm_test_top.env.master_agent.mon [ahb_master_monitor] Beat[154] addr=0x00005606 wdata=0xfc109d76 resp=AHB_RESP_OKAY
# UVM_INFO ../src/mst/ahb_master_driver.sv(317) @ 3645000: uvm_test_top.env.master_agent.drv [ahb_master_driver] Beat[155/256] addr=0x00005608 trans=AHB_TRANS_SEQ resp=AHB_RESP_OKAY wdata=0xf89662ed
# UVM_INFO ../src/slv/ahb_slave_driver.sv(184) @ 3645000: uvm_test_top.env.slave_agent.drv [ahb_slave_driver] Beat AHB_WRITE addr=0x00005608 resp=AHB_RESP_OKAY waits=0 wdata=0xf89662ed
# UVM_INFO ../src/mst/ahb_master_monitor.sv(117) @ 3645000: uvm_test_top.env.master_agent.mon [ahb_master_monitor] Beat[155] addr=0x00005608 wdata=0xf89662ed resp=AHB_RESP_OKAY
# UVM_INFO ../src/mst/ahb_master_driver.sv(317) @ 3665000: uvm_test_top.env.master_agent.drv [ahb_master_driver] Beat[156/256] addr=0x0000560a trans=AHB_TRANS_SEQ resp=AHB_RESP_OKAY wdata=0xc74e19ba
