# vsim -c -coverage -sv_seed 94922163 "+UVM_TESTNAME=ahb_incr_burst_test" "+UVM_VERBOSITY=UVM_HIGH" "+DUMP_VCD" -l ./report/logs/ahb_incr_burst_test_run_5_seed_94922163.log -do "coverage save -onexit ./report/coverage/ahb_incr_burst_test_run_5_seed_94922163.ucdb; run -all; quit -f" opt_tb_top 
# Start time: 10:23:44 on Aug 05,2026
# //  Questa Sim-64
# //  Version 10.6b linux_x86_64 May 25 2017
# //
# //  Copyright 1991-2017 Mentor Graphics Corporation
# //  All Rights Reserved.
# //
# //  QuestaSim and its associated documentation contain trade
# //  secrets and commercial or financial information that are the property of
# //  Mentor Graphics Corporation and are privileged, confidential,
# //  and exempt from disclosure under the Freedom of Information Act,
# //  5 U.S.C. Section 552. Furthermore, this information
# //  is prohibited from disclosure under the Trade Secrets Act,
# //  18 U.S.C. Section 1905.
# //
# Loading sv_std.std
# Loading work.ahb_if(fast)
# Loading mtiUvm.uvm_pkg
# Loading work.ahb_pkg(fast)
# Loading work.ahb_seq_pkg(fast)
# Loading work.ahb_test_pkg(fast)
# Loading work.tb_top(fast)
# Loading work.ahb_if(fast)
# Loading work.ahb_sva(fast)
# Loading mtiUvm.questa_uvm_pkg(fast)
# Loading /cadtools/mentor/Questa_10.6b/questasim/uvm-1.1d/linux_x86_64/uvm_dpi.so
# coverage save -onexit ./report/coverage/ahb_incr_burst_test_run_5_seed_94922163.ucdb
#  run -all
# ----------------------------------------------------------------
# UVM-1.1d
# (C) 2007-2013 Mentor Graphics Corporation
# (C) 2007-2013 Cadence Design Systems, Inc.
# (C) 2006-2013 Synopsys, Inc.
# (C) 2011-2013 Cypress Semiconductor Corp.
# ----------------------------------------------------------------
# 
#   ***********       IMPORTANT RELEASE NOTES         ************
# 
#   You are using a version of the UVM library that has been compiled
#   with `UVM_NO_DEPRECATED undefined.
#   See http://www.eda.org/svdb/view.php?id=3313 for more details.
# 
#   You are using a version of the UVM library that has been compiled
#   with `UVM_OBJECT_MUST_HAVE_CONSTRUCTOR undefined.
#   See http://www.eda.org/svdb/view.php?id=3770 for more details.
# 
#       (Specify +UVM_NO_RELNOTES to turn off this notice)
# 
# UVM_INFO verilog_src/questa_uvm_pkg-1.2/src/questa_uvm_pkg.sv(215) @ 0: reporter [Questa UVM] QUESTA_UVM-1.2.3
# UVM_INFO verilog_src/questa_uvm_pkg-1.2/src/questa_uvm_pkg.sv(217) @ 0: reporter [Questa UVM]  questa_uvm::init(+struct)
# UVM_INFO ../src/tb_top.sv(126) @ 0: reporter [TB_TOP] Virtual interface set in config_db
# UVM_INFO @ 0: reporter [RNTST] Running test ahb_incr_burst_test...
# UVM_INFO ../src/tb_top.sv(140) @ 0: reporter [TB_TOP] Waveform VCD dumping enabled (ahb_lite_vip.vcd)
# UVM_INFO ../src/env/ahb_vip_env.sv(64) @ 0: uvm_test_top.env [ahb_vip_env] slave_vif not set - reusing master_vif (passthrough mode)
# UVM_INFO ../src/env/ahb_vip_env.sv(72) @ 0: uvm_test_top.env [ahb_vip_env] Scoreboard created
# UVM_INFO ../src/env/ahb_vip_env.sv(78) @ 0: uvm_test_top.env [ahb_vip_env] Coverage collectors created
# UVM_INFO ../src/mst/ahb_master_agent.sv(61) @ 0: uvm_test_top.env.master_agent [ahb_master_agent] ACTIVE mode - driver + sequencer created
# UVM_INFO ../src/slv/ahb_slave_agent.sv(64) @ 0: uvm_test_top.env.slave_agent [ahb_slave_agent] ACTIVE mode - driver + sequencer created (    auto responses)
# UVM_INFO ../src/env/ahb_vip_env.sv(92) @ 0: uvm_test_top.env [ahb_vip_env] Scoreboard connected: master_mon.ap -> scb, slave_mon.ap -> scb
# UVM_INFO ../src/env/ahb_vip_env.sv(99) @ 0: uvm_test_top.env [ahb_vip_env] Coverage connected: master_mon.ap -> master_cov, slave_mon.ap -> slave_cov
# UVM_INFO @ 0: reporter [UVMTOP] UVM testbench topology:
# ---------------------------------------------------------------
# Name                       Type                     Size  Value
# ---------------------------------------------------------------
# uvm_test_top               ahb_incr_burst_test      -     @475 
#   env                      ahb_vip_env              -     @490 
#     master_agent           ahb_master_agent         -     @505 
#       drv                  ahb_master_driver        -     @570 
#         rsp_port           uvm_analysis_port        -     @585 
#         seq_item_port      uvm_seq_item_pull_port   -     @577 
#       mon                  ahb_master_monitor       -     @563 
#         ap                 uvm_analysis_port        -     @704 
#       sqr                  ahb_master_sequencer     -     @593 
#         rsp_export         uvm_analysis_export      -     @600 
#         seq_item_export    uvm_seq_item_pull_imp    -     @694 
#         arbitration_queue  array                    0     -    
#         lock_queue         array                    0     -    
#         num_last_reqs      integral                 32    'd1  
#         num_last_rsps      integral                 32    'd1  
#     master_cov             ahb_coverage             -     @526 
#       analysis_imp         uvm_analysis_imp         -     @533 
#     scb                    ahb_scoreboard           -     @519 
#       master_export        uvm_analysis_imp_master  -     @718 
#       slave_export         uvm_analysis_imp_slave   -     @726 
#     slave_agent            ahb_slave_agent          -     @512 
#       drv                  ahb_slave_driver         -     @748 
#         rsp_port           uvm_analysis_port        -     @763 
#         seq_item_port      uvm_seq_item_pull_port   -     @755 
#       mon                  ahb_slave_monitor        -     @741 
#         ap                 uvm_analysis_port        -     @882 
#       sqr                  ahb_slave_sequencer      -     @771 
#         rsp_export         uvm_analysis_export      -     @778 
#         seq_item_export    uvm_seq_item_pull_imp    -     @872 
#         arbitration_queue  array                    0     -    
#         lock_queue         array                    0     -    
#         num_last_reqs      integral                 32    'd1  
#         num_last_rsps      integral                 32    'd1  
#     slave_cov              ahb_coverage             -     @541 
#       analysis_imp         uvm_analysis_imp         -     @548 
# ---------------------------------------------------------------
# 
# UVM_INFO verilog_src/questa_uvm_pkg-1.2/src/questa_uvm_pkg.sv(277) @ 0: reporter [Questa UVM] End Of Elaboration
# UVM_INFO ../src/mst_seq/ahb_incr_burst_seq.sv(49) @ 0: uvm_test_top.env.master_agent.sqr@@seq [ahb_incr_burst_seq] Starting INCR bursts: 16 iterations from 0x00003000
# UVM_INFO ../src/mst/ahb_master_driver.sv(183) @ 5000: uvm_test_top.env.master_agent.drv [ahb_master_driver] Flushed pending transactions (reset)
# UVM_INFO ../src/tb_top.sv(48) @ 95000: reporter [TB_TOP] Reset de-asserted
# UVM_INFO ../src/slv/ahb_slave_driver.sv(63) @ 95000: uvm_test_top.env.slave_agent.drv [ahb_slave_driver] Reset deasserted - slave driver active (    auto mode)
# UVM_INFO ../src/mst/ahb_master_driver.sv(72) @ 95000: uvm_test_top.env.master_agent.drv [ahb_master_driver] Reset deasserted - master driver active
# UVM_INFO ../src/mst/ahb_master_monitor.sv(75) @ 95000: uvm_test_top.env.master_agent.mon [ahb_master_monitor] Reset deasserted - master monitor active
# UVM_INFO ../src/slv/ahb_slave_monitor.sv(69) @ 95000: uvm_test_top.env.slave_agent.mon [ahb_slave_monitor] Reset deasserted - slave monitor active
# UVM_INFO ../src/mst/ahb_master_driver.sv(85) @ 95000: uvm_test_top.env.master_agent.drv [ahb_master_driver] Queueing [AHB_WRITE]: HADDR=0x00003008, HBURST=AHB_BURST_INCR16, HSIZE=AHB_SIZE_8B, 16 beats
# UVM_INFO ../src/mst/ahb_master_driver.sv(127) @ 95000: uvm_test_top.env.master_agent.drv [ahb_master_driver] Driving [AHB_WRITE]: HADDR=0x00003008, HBURST=AHB_BURST_INCR16, HSIZE=AHB_SIZE_8B, 16 beats               
# UVM_INFO ../src/mst/ahb_master_driver.sv(332) @ 125000: uvm_test_top.env.master_agent.drv [ahb_master_driver] Beat[0/16] addr=0x00003008 trans=AHB_TRANS_NONSEQ resp=AHB_RESP_OKAY wdata=0x057c99b9
# UVM_INFO ../src/slv/ahb_slave_driver.sv(184) @ 125000: uvm_test_top.env.slave_agent.drv [ahb_slave_driver] Beat AHB_WRITE addr=0x00003008 resp=AHB_RESP_OKAY waits=1 wdata=0x057c99b9
# UVM_INFO ../src/mst/ahb_master_monitor.sv(117) @ 125000: uvm_test_top.env.master_agent.mon [ahb_master_monitor] Beat[0] addr=0x00003008 wdata=0x057c99b9 resp=AHB_RESP_OKAY
# UVM_INFO ../src/mst/ahb_master_driver.sv(332) @ 135000: uvm_test_top.env.master_agent.drv [ahb_master_driver] Beat[1/16] addr=0x00003009 trans=AHB_TRANS_SEQ resp=AHB_RESP_OKAY wdata=0xe6b303d9
# UVM_INFO ../src/slv/ahb_slave_driver.sv(184) @ 135000: uvm_test_top.env.slave_agent.drv [ahb_slave_driver] Beat AHB_WRITE addr=0x00003009 resp=AHB_RESP_OKAY waits=0 wdata=0xe6b303d9
# UVM_INFO ../src/mst/ahb_master_monitor.sv(117) @ 135000: uvm_test_top.env.master_agent.mon [ahb_master_monitor] Beat[1] addr=0x00003009 wdata=0xe6b303d9 resp=AHB_RESP_OKAY
# UVM_INFO ../src/mst/ahb_master_driver.sv(332) @ 165000: uvm_test_top.env.master_agent.drv [ahb_master_driver] Beat[2/16] addr=0x0000300a trans=AHB_TRANS_SEQ resp=AHB_RESP_OKAY wdata=0x308df85c
# UVM_INFO ../src/slv/ahb_slave_driver.sv(184) @ 165000: uvm_test_top.env.slave_agent.drv [ahb_slave_driver] Beat AHB_WRITE addr=0x0000300a resp=AHB_RESP_OKAY waits=2 wdata=0x308df85c
# UVM_INFO ../src/mst/ahb_master_monitor.sv(117) @ 165000: uvm_test_top.env.master_agent.mon [ahb_master_monitor] Beat[2] addr=0x0000300a wdata=0x308df85c resp=AHB_RESP_OKAY
# UVM_INFO ../src/mst/ahb_master_driver.sv(332) @ 185000: uvm_test_top.env.master_agent.drv [ahb_master_driver] Beat[3/16] addr=0x0000300b trans=AHB_TRANS_SEQ resp=AHB_RESP_OKAY wdata=0x379f8e42
# UVM_INFO ../src/slv/ahb_slave_driver.sv(184) @ 185000: uvm_test_top.env.slave_agent.drv [ahb_slave_driver] Beat AHB_WRITE addr=0x0000300b resp=AHB_RESP_OKAY waits=1 wdata=0x379f8e42
# UVM_INFO ../src/mst/ahb_master_monitor.sv(117) @ 185000: uvm_test_top.env.master_agent.mon [ahb_master_monitor] Beat[3] addr=0x0000300b wdata=0x379f8e42 resp=AHB_RESP_OKAY
# UVM_INFO ../src/mst/ahb_master_driver.sv(332) @ 215000: uvm_test_top.env.master_agent.drv [ahb_master_driver] Beat[4/16] addr=0x0000300c trans=AHB_TRANS_SEQ resp=AHB_RESP_OKAY wdata=0xd58cdf6b
# UVM_INFO ../src/slv/ahb_slave_driver.sv(184) @ 215000: uvm_test_top.env.slave_agent.drv [ahb_slave_driver] Beat AHB_WRITE addr=0x0000300c resp=AHB_RESP_OKAY waits=2 wdata=0xd58cdf6b
# UVM_INFO ../src/mst/ahb_master_monitor.sv(117) @ 215000: uvm_test_top.env.master_agent.mon [ahb_master_monitor] Beat[4] addr=0x0000300c wdata=0xd58cdf6b resp=AHB_RESP_OKAY
# UVM_INFO ../src/mst/ahb_master_driver.sv(332) @ 225000: uvm_test_top.env.master_agent.drv [ahb_master_driver] Beat[5/16] addr=0x0000300d trans=AHB_TRANS_SEQ resp=AHB_RESP_OKAY wdata=0x83c04e01
# UVM_INFO ../src/slv/ahb_slave_driver.sv(184) @ 225000: uvm_test_top.env.slave_agent.drv [ahb_slave_driver] Beat AHB_WRITE addr=0x0000300d resp=AHB_RESP_OKAY waits=0 wdata=0x83c04e01
# UVM_INFO ../src/mst/ahb_master_monitor.sv(117) @ 225000: uvm_test_top.env.master_agent.mon [ahb_master_monitor] Beat[5] addr=0x0000300d wdata=0x83c04e01 resp=AHB_RESP_OKAY
# UVM_INFO ../src/mst/ahb_master_driver.sv(332) @ 235000: uvm_test_top.env.master_agent.drv [ahb_master_driver] Beat[6/16] addr=0x0000300e trans=AHB_TRANS_SEQ resp=AHB_RESP_OKAY wdata=0x31d8e932
# UVM_INFO ../src/slv/ahb_slave_driver.sv(184) @ 235000: uvm_test_top.env.slave_agent.drv [ahb_slave_driver] Beat AHB_WRITE addr=0x0000300e resp=AHB_RESP_OKAY waits=0 wdata=0x31d8e932
# UVM_INFO ../src/mst/ahb_master_monitor.sv(117) @ 235000: uvm_test_top.env.master_agent.mon [ahb_master_monitor] Beat[6] addr=0x0000300e wdata=0x31d8e932 resp=AHB_RESP_OKAY
# UVM_INFO ../src/mst/ahb_master_driver.sv(332) @ 255000: uvm_test_top.env.master_agent.drv [ahb_master_driver] Beat[7/16] addr=0x0000300f trans=AHB_TRANS_SEQ resp=AHB_RESP_OKAY wdata=0x85bbf5c8
# UVM_INFO ../src/slv/ahb_slave_driver.sv(184) @ 255000: uvm_test_top.env.slave_agent.drv [ahb_slave_driver] Beat AHB_WRITE addr=0x0000300f resp=AHB_RESP_OKAY waits=1 wdata=0x85bbf5c8
# UVM_INFO ../src/mst/ahb_master_monitor.sv(117) @ 255000: uvm_test_top.env.master_agent.mon [ahb_master_monitor] Beat[7] addr=0x0000300f wdata=0x85bbf5c8 resp=AHB_RESP_OKAY
# UVM_INFO ../src/mst/ahb_master_driver.sv(332) @ 265000: uvm_test_top.env.master_agent.drv [ahb_master_driver] Beat[8/16] addr=0x00003010 trans=AHB_TRANS_SEQ resp=AHB_RESP_OKAY wdata=0x41ac4965
# UVM_INFO ../src/slv/ahb_slave_driver.sv(184) @ 265000: uvm_test_top.env.slave_agent.drv [ahb_slave_driver] Beat AHB_WRITE addr=0x00003010 resp=AHB_RESP_OKAY waits=0 wdata=0x41ac4965
# UVM_INFO ../src/mst/ahb_master_monitor.sv(117) @ 265000: uvm_test_top.env.master_agent.mon [ahb_master_monitor] Beat[8] addr=0x00003010 wdata=0x41ac4965 resp=AHB_RESP_OKAY
# UVM_INFO ../src/mst/ahb_master_driver.sv(332) @ 285000: uvm_test_top.env.master_agent.drv [ahb_master_driver] Beat[9/16] addr=0x00003011 trans=AHB_TRANS_SEQ resp=AHB_RESP_OKAY wdata=0x78a9eeb2
# UVM_INFO ../src/slv/ahb_slave_driver.sv(184) @ 285000: uvm_test_top.env.slave_agent.drv [ahb_slave_driver] Beat AHB_WRITE addr=0x00003011 resp=AHB_RESP_OKAY waits=1 wdata=0x78a9eeb2
# UVM_INFO ../src/mst/ahb_master_monitor.sv(117) @ 285000: uvm_test_top.env.master_agent.mon [ahb_master_monitor] Beat[9] addr=0x00003011 wdata=0x78a9eeb2 resp=AHB_RESP_OKAY
# UVM_INFO ../src/mst/ahb_master_driver.sv(332) @ 305000: uvm_test_top.env.master_agent.drv [ahb_master_driver] Beat[10/16] addr=0x00003012 trans=AHB_TRANS_SEQ resp=AHB_RESP_OKAY wdata=0xf944d2c3
# UVM_INFO ../src/slv/ahb_slave_driver.sv(184) @ 305000: uvm_test_top.env.slave_agent.drv [ahb_slave_driver] Beat AHB_WRITE addr=0x00003012 resp=AHB_RESP_OKAY waits=1 wdata=0xf944d2c3
# UVM_INFO ../src/mst/ahb_master_monitor.sv(117) @ 305000: uvm_test_top.env.master_agent.mon [ahb_master_monitor] Beat[10] addr=0x00003012 wdata=0xf944d2c3 resp=AHB_RESP_OKAY
# UVM_INFO ../src/mst/ahb_master_driver.sv(332) @ 325000: uvm_test_top.env.master_agent.drv [ahb_master_driver] Beat[11/16] addr=0x00003013 trans=AHB_TRANS_SEQ resp=AHB_RESP_OKAY wdata=0x94a7252d
# UVM_INFO ../src/slv/ahb_slave_driver.sv(184) @ 325000: uvm_test_top.env.slave_agent.drv [ahb_slave_driver] Beat AHB_WRITE addr=0x00003013 resp=AHB_RESP_OKAY waits=1 wdata=0x94a7252d
# UVM_INFO ../src/mst/ahb_master_monitor.sv(117) @ 325000: uvm_test_top.env.master_agent.mon [ahb_master_monitor] Beat[11] addr=0x00003013 wdata=0x94a7252d resp=AHB_RESP_OKAY
# UVM_INFO ../src/mst/ahb_master_driver.sv(332) @ 355000: uvm_test_top.env.master_agent.drv [ahb_master_driver] Beat[12/16] addr=0x00003014 trans=AHB_TRANS_SEQ resp=AHB_RESP_OKAY wdata=0x4a3ae5fa
# UVM_INFO ../src/slv/ahb_slave_driver.sv(184) @ 355000: uvm_test_top.env.slave_agent.drv [ahb_slave_driver] Beat AHB_WRITE addr=0x00003014 resp=AHB_RESP_OKAY waits=2 wdata=0x4a3ae5fa
# UVM_INFO ../src/mst/ahb_master_monitor.sv(117) @ 355000: uvm_test_top.env.master_agent.mon [ahb_master_monitor] Beat[12] addr=0x00003014 wdata=0x4a3ae5fa resp=AHB_RESP_OKAY
# UVM_INFO ../src/mst/ahb_master_driver.sv(332) @ 375000: uvm_test_top.env.master_agent.drv [ahb_master_driver] Beat[13/16] addr=0x00003015 trans=AHB_TRANS_SEQ resp=AHB_RESP_OKAY wdata=0xf5adab61
# UVM_INFO ../src/slv/ahb_slave_driver.sv(184) @ 375000: uvm_test_top.env.slave_agent.drv [ahb_slave_driver] Beat AHB_WRITE addr=0x00003015 resp=AHB_RESP_OKAY waits=1 wdata=0xf5adab61
# UVM_INFO ../src/mst/ahb_master_monitor.sv(117) @ 375000: uvm_test_top.env.master_agent.mon [ahb_master_monitor] Beat[13] addr=0x00003015 wdata=0xf5adab61 resp=AHB_RESP_OKAY
# UVM_INFO ../src/mst/ahb_master_driver.sv(332) @ 405000: uvm_test_top.env.master_agent.drv [ahb_master_driver] Beat[14/16] addr=0x00003016 trans=AHB_TRANS_SEQ resp=AHB_RESP_OKAY wdata=0x73f14f78
# UVM_INFO ../src/slv/ahb_slave_driver.sv(184) @ 405000: uvm_test_top.env.slave_agent.drv [ahb_slave_driver] Beat AHB_WRITE addr=0x00003016 resp=AHB_RESP_OKAY waits=2 wdata=0x73f14f78
# UVM_INFO ../src/mst/ahb_master_monitor.sv(117) @ 405000: uvm_test_top.env.master_agent.mon [ahb_master_monitor] Beat[14] addr=0x00003016 wdata=0x73f14f78 resp=AHB_RESP_OKAY
# UVM_INFO ../src/mst/ahb_master_driver.sv(332) @ 425000: uvm_test_top.env.master_agent.drv [ahb_master_driver] Beat[15/16] addr=0x00003017 trans=AHB_TRANS_SEQ resp=AHB_RESP_OKAY wdata=0x721e0344
# UVM_INFO ../src/mst/ahb_master_driver.sv(376) @ 425000: uvm_test_top.env.master_agent.drv [ahb_master_driver] Transaction complete: AHB_WRITE 0x00003008, 16 beats, burst=AHB_BURST_INCR16
# UVM_INFO ../src/slv/ahb_slave_driver.sv(184) @ 425000: uvm_test_top.env.slave_agent.drv [ahb_slave_driver] Beat AHB_WRITE addr=0x00003017 resp=AHB_RESP_OKAY waits=1 wdata=0x721e0344
# UVM_INFO ../src/mst/ahb_master_monitor.sv(117) @ 425000: uvm_test_top.env.master_agent.mon [ahb_master_monitor] Beat[15] addr=0x00003017 wdata=0x721e0344 resp=AHB_RESP_OKAY
# UVM_INFO ../src/mst/ahb_master_monitor.sv(220) @ 425000: uvm_test_top.env.master_agent.mon [ahb_master_monitor] Observed [AHB_WRITE]: HADDR=0x00003008, HBURST=AHB_BURST_INCR16, HSIZE=AHB_SIZE_8B, 16 beats
# UVM_INFO ../src/env/ahb_coverage.sv(126) @ 425000: uvm_test_top.env.master_cov [ahb_coverage] Sampled [AHB_WRITE]: burst=AHB_BURST_INCR16 size=AHB_SIZE_8B beats=16 error=0
# UVM_INFO ../src/slv/ahb_slave_monitor.sv(197) @ 425000: uvm_test_top.env.slave_agent.mon [ahb_slave_monitor] Observed [AHB_WRITE]: HADDR=0x00003008, HBURST=AHB_BURST_INCR16, HSIZE=AHB_SIZE_8B, 16 beats
# UVM_INFO ../src/env/ahb_scoreboard.sv(104) @ 425000: uvm_test_top.env.scb [ahb_scoreboard] MATCH #1: [AHB_WRITE] HADDR=0x00003008 AHB_BURST_INCR16 16 beats
# UVM_INFO ../src/env/ahb_coverage.sv(126) @ 425000: uvm_test_top.env.slave_cov [ahb_coverage] Sampled [AHB_WRITE]: burst=AHB_BURST_INCR16 size=AHB_SIZE_8B beats=16 error=0
# UVM_INFO ../src/mst/ahb_master_driver.sv(85) @ 425000: uvm_test_top.env.master_agent.drv [ahb_master_driver] Queueing [AHB_READ]: HADDR=0x00003008, HBURST=AHB_BURST_INCR16, HSIZE=AHB_SIZE_8B, 16 beats
# UVM_INFO ../src/mst/ahb_master_driver.sv(127) @ 425000: uvm_test_top.env.master_agent.drv [ahb_master_driver] Driving [AHB_READ]: HADDR=0x00003008, HBURST=AHB_BURST_INCR16, HSIZE=AHB_SIZE_8B, 16 beats               
# UVM_INFO ../src/mst/ahb_master_driver.sv(332) @ 465000: uvm_test_top.env.master_agent.drv [ahb_master_driver] Beat[0/16] addr=0x00003008 trans=AHB_TRANS_NONSEQ resp=AHB_RESP_OKAY rdata=0x057c99b9
# UVM_INFO ../src/slv/ahb_slave_driver.sv(184) @ 465000: uvm_test_top.env.slave_agent.drv [ahb_slave_driver] Beat AHB_READ addr=0x00003008 resp=AHB_RESP_OKAY waits=1 rdata=0x057c99b9
# UVM_INFO ../src/mst/ahb_master_monitor.sv(117) @ 465000: uvm_test_top.env.master_agent.mon [ahb_master_monitor] Beat[0] addr=0x00003008 rdata=0x057c99b9 resp=AHB_RESP_OKAY
# UVM_INFO ../src/mst/ahb_master_driver.sv(332) @ 495000: uvm_test_top.env.master_agent.drv [ahb_master_driver] Beat[1/16] addr=0x00003009 trans=AHB_TRANS_SEQ resp=AHB_RESP_OKAY rdata=0xe6b303d9
# UVM_INFO ../src/slv/ahb_slave_driver.sv(184) @ 495000: uvm_test_top.env.slave_agent.drv [ahb_slave_driver] Beat AHB_READ addr=0x00003009 resp=AHB_RESP_OKAY waits=2 rdata=0xe6b303d9
# UVM_INFO ../src/mst/ahb_master_monitor.sv(117) @ 495000: uvm_test_top.env.master_agent.mon [ahb_master_monitor] Beat[1] addr=0x00003009 rdata=0xe6b303d9 resp=AHB_RESP_OKAY
# UVM_INFO ../src/mst/ahb_master_driver.sv(332) @ 505000: uvm_test_top.env.master_agent.drv [ahb_master_driver] Beat[2/16] addr=0x0000300a trans=AHB_TRANS_SEQ resp=AHB_RESP_OKAY rdata=0x308df85c
# UVM_INFO ../src/slv/ahb_slave_driver.sv(184) @ 505000: uvm_test_top.env.slave_agent.drv [ahb_slave_driver] Beat AHB_READ addr=0x0000300a resp=AHB_RESP_OKAY waits=0 rdata=0x308df85c
# UVM_INFO ../src/mst/ahb_master_monitor.sv(117) @ 505000: uvm_test_top.env.master_agent.mon [ahb_master_monitor] Beat[2] addr=0x0000300a rdata=0x308df85c resp=AHB_RESP_OKAY
# UVM_INFO ../src/mst/ahb_master_driver.sv(332) @ 525000: uvm_test_top.env.master_agent.drv [ahb_master_driver] Beat[3/16] addr=0x0000300b trans=AHB_TRANS_SEQ resp=AHB_RESP_OKAY rdata=0x379f8e42
# UVM_INFO ../src/slv/ahb_slave_driver.sv(184) @ 525000: uvm_test_top.env.slave_agent.drv [ahb_slave_driver] Beat AHB_READ addr=0x0000300b resp=AHB_RESP_OKAY waits=1 rdata=0x379f8e42
# UVM_INFO ../src/mst/ahb_master_monitor.sv(117) @ 525000: uvm_test_top.env.master_agent.mon [ahb_master_monitor] Beat[3] addr=0x0000300b rdata=0x379f8e42 resp=AHB_RESP_OKAY
# UVM_INFO ../src/mst/ahb_master_driver.sv(332) @ 555000: uvm_test_top.env.master_agent.drv [ahb_master_driver] Beat[4/16] addr=0x0000300c trans=AHB_TRANS_SEQ resp=AHB_RESP_OKAY rdata=0xd58cdf6b
# UVM_INFO ../src/slv/ahb_slave_driver.sv(184) @ 555000: uvm_test_top.env.slave_agent.drv [ahb_slave_driver] Beat AHB_READ addr=0x0000300c resp=AHB_RESP_OKAY waits=2 rdata=0xd58cdf6b
# UVM_INFO ../src/mst/ahb_master_monitor.sv(117) @ 555000: uvm_test_top.env.master_agent.mon [ahb_master_monitor] Beat[4] addr=0x0000300c rdata=0xd58cdf6b resp=AHB_RESP_OKAY
# UVM_INFO ../src/mst/ahb_master_driver.sv(332) @ 565000: uvm_test_top.env.master_agent.drv [ahb_master_driver] Beat[5/16] addr=0x0000300d trans=AHB_TRANS_SEQ resp=AHB_RESP_OKAY rdata=0x83c04e01
# UVM_INFO ../src/slv/ahb_slave_driver.sv(184) @ 565000: uvm_test_top.env.slave_agent.drv [ahb_slave_driver] Beat AHB_READ addr=0x0000300d resp=AHB_RESP_OKAY waits=0 rdata=0x83c04e01
# UVM_INFO ../src/mst/ahb_master_monitor.sv(117) @ 565000: uvm_test_top.env.master_agent.mon [ahb_master_monitor] Beat[5] addr=0x0000300d rdata=0x83c04e01 resp=AHB_RESP_OKAY
# UVM_INFO ../src/mst/ahb_master_driver.sv(332) @ 595000: uvm_test_top.env.master_agent.drv [ahb_master_driver] Beat[6/16] addr=0x0000300e trans=AHB_TRANS_SEQ resp=AHB_RESP_OKAY rdata=0x31d8e932
# UVM_INFO ../src/slv/ahb_slave_driver.sv(184) @ 595000: uvm_test_top.env.slave_agent.drv [ahb_slave_driver] Beat AHB_READ addr=0x0000300e resp=AHB_RESP_OKAY waits=2 rdata=0x31d8e932
# UVM_INFO ../src/mst/ahb_master_monitor.sv(117) @ 595000: uvm_test_top.env.master_agent.mon [ahb_master_monitor] Beat[6] addr=0x0000300e rdata=0x31d8e932 resp=AHB_RESP_OKAY
# UVM_INFO ../src/mst/ahb_master_driver.sv(332) @ 615000: uvm_test_top.env.master_agent.drv [ahb_master_driver] Beat[7/16] addr=0x0000300f trans=AHB_TRANS_SEQ resp=AHB_RESP_OKAY rdata=0x85bbf5c8
# UVM_INFO ../src/slv/ahb_slave_driver.sv(184) @ 615000: uvm_test_top.env.slave_agent.drv [ahb_slave_driver] Beat AHB_READ addr=0x0000300f resp=AHB_RESP_OKAY waits=1 rdata=0x85bbf5c8
# UVM_INFO ../src/mst/ahb_master_monitor.sv(117) @ 615000: uvm_test_top.env.master_agent.mon [ahb_master_monitor] Beat[7] addr=0x0000300f rdata=0x85bbf5c8 resp=AHB_RESP_OKAY
# UVM_INFO ../src/mst/ahb_master_driver.sv(332) @ 645000: uvm_test_top.env.master_agent.drv [ahb_master_driver] Beat[8/16] addr=0x00003010 trans=AHB_TRANS_SEQ resp=AHB_RESP_OKAY rdata=0x41ac4965
# UVM_INFO ../src/slv/ahb_slave_driver.sv(184) @ 645000: uvm_test_top.env.slave_agent.drv [ahb_slave_driver] Beat AHB_READ addr=0x00003010 resp=AHB_RESP_OKAY waits=2 rdata=0x41ac4965
# UVM_INFO ../src/mst/ahb_master_monitor.sv(117) @ 645000: uvm_test_top.env.master_agent.mon [ahb_master_monitor] Beat[8] addr=0x00003010 rdata=0x41ac4965 resp=AHB_RESP_OKAY
# UVM_INFO ../src/mst/ahb_master_driver.sv(332) @ 655000: uvm_test_top.env.master_agent.drv [ahb_master_driver] Beat[9/16] addr=0x00003011 trans=AHB_TRANS_SEQ resp=AHB_RESP_OKAY rdata=0x78a9eeb2
# UVM_INFO ../src/slv/ahb_slave_driver.sv(184) @ 655000: uvm_test_top.env.slave_agent.drv [ahb_slave_driver] Beat AHB_READ addr=0x00003011 resp=AHB_RESP_OKAY waits=0 rdata=0x78a9eeb2
# UVM_INFO ../src/mst/ahb_master_monitor.sv(117) @ 655000: uvm_test_top.env.master_agent.mon [ahb_master_monitor] Beat[9] addr=0x00003011 rdata=0x78a9eeb2 resp=AHB_RESP_OKAY
# UVM_INFO ../src/mst/ahb_master_driver.sv(332) @ 685000: uvm_test_top.env.master_agent.drv [ahb_master_driver] Beat[10/16] addr=0x00003012 trans=AHB_TRANS_SEQ resp=AHB_RESP_OKAY rdata=0xf944d2c3
# UVM_INFO ../src/slv/ahb_slave_driver.sv(184) @ 685000: uvm_test_top.env.slave_agent.drv [ahb_slave_driver] Beat AHB_READ addr=0x00003012 resp=AHB_RESP_OKAY waits=2 rdata=0xf944d2c3
# UVM_INFO ../src/mst/ahb_master_monitor.sv(117) @ 685000: uvm_test_top.env.master_agent.mon [ahb_master_monitor] Beat[10] addr=0x00003012 rdata=0xf944d2c3 resp=AHB_RESP_OKAY
# UVM_INFO ../src/mst/ahb_master_driver.sv(332) @ 715000: uvm_test_top.env.master_agent.drv [ahb_master_driver] Beat[11/16] addr=0x00003013 trans=AHB_TRANS_SEQ resp=AHB_RESP_OKAY rdata=0x94a7252d
# UVM_INFO ../src/slv/ahb_slave_driver.sv(184) @ 715000: uvm_test_top.env.slave_agent.drv [ahb_slave_driver] Beat AHB_READ addr=0x00003013 resp=AHB_RESP_OKAY waits=2 rdata=0x94a7252d
# UVM_INFO ../src/mst/ahb_master_monitor.sv(117) @ 715000: uvm_test_top.env.master_agent.mon [ahb_master_monitor] Beat[11] addr=0x00003013 rdata=0x94a7252d resp=AHB_RESP_OKAY
# UVM_INFO ../src/mst/ahb_master_driver.sv(332) @ 735000: uvm_test_top.env.master_agent.drv [ahb_master_driver] Beat[12/16] addr=0x00003014 trans=AHB_TRANS_SEQ resp=AHB_RESP_OKAY rdata=0x4a3ae5fa
# UVM_INFO ../src/slv/ahb_slave_driver.sv(184) @ 735000: uvm_test_top.env.slave_agent.drv [ahb_slave_driver] Beat AHB_READ addr=0x00003014 resp=AHB_RESP_OKAY waits=1 rdata=0x4a3ae5fa
# UVM_INFO ../src/mst/ahb_master_monitor.sv(117) @ 735000: uvm_test_top.env.master_agent.mon [ahb_master_monitor] Beat[12] addr=0x00003014 rdata=0x4a3ae5fa resp=AHB_RESP_OKAY
# UVM_INFO ../src/mst/ahb_master_driver.sv(332) @ 765000: uvm_test_top.env.master_agent.drv [ahb_master_driver] Beat[13/16] addr=0x00003015 trans=AHB_TRANS_SEQ resp=AHB_RESP_OKAY rdata=0xf5adab61
# UVM_INFO ../src/slv/ahb_slave_driver.sv(184) @ 765000: uvm_test_top.env.slave_agent.drv [ahb_slave_driver] Beat AHB_READ addr=0x00003015 resp=AHB_RESP_OKAY waits=2 rdata=0xf5adab61
# UVM_INFO ../src/mst/ahb_master_monitor.sv(117) @ 765000: uvm_test_top.env.master_agent.mon [ahb_master_monitor] Beat[13] addr=0x00003015 rdata=0xf5adab61 resp=AHB_RESP_OKAY
# UVM_INFO ../src/mst/ahb_master_driver.sv(332) @ 795000: uvm_test_top.env.master_agent.drv [ahb_master_driver] Beat[14/16] addr=0x00003016 trans=AHB_TRANS_SEQ resp=AHB_RESP_OKAY rdata=0x73f14f78
# UVM_INFO ../src/slv/ahb_slave_driver.sv(184) @ 795000: uvm_test_top.env.slave_agent.drv [ahb_slave_driver] Beat AHB_READ addr=0x00003016 resp=AHB_RESP_OKAY waits=2 rdata=0x73f14f78
# UVM_INFO ../src/mst/ahb_master_monitor.sv(117) @ 795000: uvm_test_top.env.master_agent.mon [ahb_master_monitor] Beat[14] addr=0x00003016 rdata=0x73f14f78 resp=AHB_RESP_OKAY
# UVM_INFO ../src/mst/ahb_master_driver.sv(332) @ 805000: uvm_test_top.env.master_agent.drv [ahb_master_driver] Beat[15/16] addr=0x00003017 trans=AHB_TRANS_SEQ resp=AHB_RESP_OKAY rdata=0x721e0344
# UVM_INFO ../src/mst/ahb_master_driver.sv(376) @ 805000: uvm_test_top.env.master_agent.drv [ahb_master_driver] Transaction complete: AHB_READ 0x00003008, 16 beats, burst=AHB_BURST_INCR16
# UVM_INFO ../src/slv/ahb_slave_driver.sv(184) @ 805000: uvm_test_top.env.slave_agent.drv [ahb_slave_driver] Beat AHB_READ addr=0x00003017 resp=AHB_RESP_OKAY waits=0 rdata=0x721e0344
# UVM_INFO ../src/mst/ahb_master_monitor.sv(117) @ 805000: uvm_test_top.env.master_agent.mon [ahb_master_monitor] Beat[15] addr=0x00003017 rdata=0x721e0344 resp=AHB_RESP_OKAY
# UVM_INFO ../src/mst/ahb_master_monitor.sv(220) @ 805000: uvm_test_top.env.master_agent.mon [ahb_master_monitor] Observed [AHB_READ]: HADDR=0x00003008, HBURST=AHB_BURST_INCR16, HSIZE=AHB_SIZE_8B, 16 beats
# UVM_INFO ../src/env/ahb_coverage.sv(126) @ 805000: uvm_test_top.env.master_cov [ahb_coverage] Sampled [AHB_READ]: burst=AHB_BURST_INCR16 size=AHB_SIZE_8B beats=16 error=0
# UVM_INFO ../src/slv/ahb_slave_monitor.sv(197) @ 805000: uvm_test_top.env.slave_agent.mon [ahb_slave_monitor] Observed [AHB_READ]: HADDR=0x00003008, HBURST=AHB_BURST_INCR16, HSIZE=AHB_SIZE_8B, 16 beats
# UVM_INFO ../src/env/ahb_scoreboard.sv(104) @ 805000: uvm_test_top.env.scb [ahb_scoreboard] MATCH #2: [AHB_READ] HADDR=0x00003008 AHB_BURST_INCR16 16 beats
# UVM_INFO ../src/env/ahb_coverage.sv(126) @ 805000: uvm_test_top.env.slave_cov [ahb_coverage] Sampled [AHB_READ]: burst=AHB_BURST_INCR16 size=AHB_SIZE_8B beats=16 error=0
# UVM_INFO ../src/mst_seq/ahb_base_seq.sv(177) @ 805000: uvm_test_top.env.master_agent.sqr@@seq [ahb_incr_burst_seq] AHB_BURST_INCR16 AHB_SIZE_8B beat 0 @0x00003008 ok
# UVM_INFO ../src/mst_seq/ahb_base_seq.sv(177) @ 805000: uvm_test_top.env.master_agent.sqr@@seq [ahb_incr_burst_seq] AHB_BURST_INCR16 AHB_SIZE_8B beat 1 @0x00003009 ok
# UVM_INFO ../src/mst_seq/ahb_base_seq.sv(177) @ 805000: uvm_test_top.env.master_agent.sqr@@seq [ahb_incr_burst_seq] AHB_BURST_INCR16 AHB_SIZE_8B beat 2 @0x0000300a ok
# UVM_INFO ../src/mst_seq/ahb_base_seq.sv(177) @ 805000: uvm_test_top.env.master_agent.sqr@@seq [ahb_incr_burst_seq] AHB_BURST_INCR16 AHB_SIZE_8B beat 3 @0x0000300b ok
# UVM_INFO ../src/mst_seq/ahb_base_seq.sv(177) @ 805000: uvm_test_top.env.master_agent.sqr@@seq [ahb_incr_burst_seq] AHB_BURST_INCR16 AHB_SIZE_8B beat 4 @0x0000300c ok
# UVM_INFO ../src/mst_seq/ahb_base_seq.sv(177) @ 805000: uvm_test_top.env.master_agent.sqr@@seq [ahb_incr_burst_seq] AHB_BURST_INCR16 AHB_SIZE_8B beat 5 @0x0000300d ok
# UVM_INFO ../src/mst_seq/ahb_base_seq.sv(177) @ 805000: uvm_test_top.env.master_agent.sqr@@seq [ahb_incr_burst_seq] AHB_BURST_INCR16 AHB_SIZE_8B beat 6 @0x0000300e ok
# UVM_INFO ../src/mst_seq/ahb_base_seq.sv(177) @ 805000: uvm_test_top.env.master_agent.sqr@@seq [ahb_incr_burst_seq] AHB_BURST_INCR16 AHB_SIZE_8B beat 7 @0x0000300f ok
# UVM_INFO ../src/mst_seq/ahb_base_seq.sv(177) @ 805000: uvm_test_top.env.master_agent.sqr@@seq [ahb_incr_burst_seq] AHB_BURST_INCR16 AHB_SIZE_8B beat 8 @0x00003010 ok
# UVM_INFO ../src/mst_seq/ahb_base_seq.sv(177) @ 805000: uvm_test_top.env.master_agent.sqr@@seq [ahb_incr_burst_seq] AHB_BURST_INCR16 AHB_SIZE_8B beat 9 @0x00003011 ok
# UVM_INFO ../src/mst_seq/ahb_base_seq.sv(177) @ 805000: uvm_test_top.env.master_agent.sqr@@seq [ahb_incr_burst_seq] AHB_BURST_INCR16 AHB_SIZE_8B beat 10 @0x00003012 ok
# UVM_INFO ../src/mst_seq/ahb_base_seq.sv(177) @ 805000: uvm_test_top.env.master_agent.sqr@@seq [ahb_incr_burst_seq] AHB_BURST_INCR16 AHB_SIZE_8B beat 11 @0x00003013 ok
# UVM_INFO ../src/mst_seq/ahb_base_seq.sv(177) @ 805000: uvm_test_top.env.master_agent.sqr@@seq [ahb_incr_burst_seq] AHB_BURST_INCR16 AHB_SIZE_8B beat 12 @0x00003014 ok
# UVM_INFO ../src/mst_seq/ahb_base_seq.sv(177) @ 805000: uvm_test_top.env.master_agent.sqr@@seq [ahb_incr_burst_seq] AHB_BURST_INCR16 AHB_SIZE_8B beat 13 @0x00003015 ok
# UVM_INFO ../src/mst_seq/ahb_base_seq.sv(177) @ 805000: uvm_test_top.env.master_agent.sqr@@seq [ahb_incr_burst_seq] AHB_BURST_INCR16 AHB_SIZE_8B beat 14 @0x00003016 ok
# UVM_INFO ../src/mst_seq/ahb_base_seq.sv(177) @ 805000: uvm_test_top.env.master_agent.sqr@@seq [ahb_incr_burst_seq] AHB_BURST_INCR16 AHB_SIZE_8B beat 15 @0x00003017 ok
# UVM_INFO ../src/mst/ahb_master_driver.sv(85) @ 805000: uvm_test_top.env.master_agent.drv [ahb_master_driver] Queueing [AHB_WRITE]: HADDR=0x00003056, HBURST=AHB_BURST_INCR4, HSIZE=AHB_SIZE_8B, 4 beats
# UVM_INFO ../src/mst/ahb_master_driver.sv(127) @ 805000: uvm_test_top.env.master_agent.drv [ahb_master_driver] Driving [AHB_WRITE]: HADDR=0x00003056, HBURST=AHB_BURST_INCR4, HSIZE=AHB_SIZE_8B, 4 beats               
# UVM_INFO ../src/mst/ahb_master_driver.sv(332) @ 845000: uvm_test_top.env.master_agent.drv [ahb_master_driver] Beat[0/4] addr=0x00003056 trans=AHB_TRANS_NONSEQ resp=AHB_RESP_OKAY wdata=0x0f1989c1
# UVM_INFO ../src/slv/ahb_slave_driver.sv(184) @ 845000: uvm_test_top.env.slave_agent.drv [ahb_slave_driver] Beat AHB_WRITE addr=0x00003056 resp=AHB_RESP_OKAY waits=1 wdata=0x0f1989c1
# UVM_INFO ../src/mst/ahb_master_monitor.sv(117) @ 845000: uvm_test_top.env.master_agent.mon [ahb_master_monitor] Beat[0] addr=0x00003056 wdata=0x0f1989c1 resp=AHB_RESP_OKAY
# UVM_INFO ../src/mst/ahb_master_driver.sv(332) @ 855000: uvm_test_top.env.master_agent.drv [ahb_master_driver] Beat[1/4] addr=0x00003057 trans=AHB_TRANS_SEQ resp=AHB_RESP_OKAY wdata=0x303083e9
# UVM_INFO ../src/slv/ahb_slave_driver.sv(184) @ 855000: uvm_test_top.env.slave_agent.drv [ahb_slave_driver] Beat AHB_WRITE addr=0x00003057 resp=AHB_RESP_OKAY waits=0 wdata=0x303083e9
# UVM_INFO ../src/mst/ahb_master_monitor.sv(117) @ 855000: uvm_test_top.env.master_agent.mon [ahb_master_monitor] Beat[1] addr=0x00003057 wdata=0x303083e9 resp=AHB_RESP_OKAY
# UVM_INFO ../src/mst/ahb_master_driver.sv(332) @ 885000: uvm_test_top.env.master_agent.drv [ahb_master_driver] Beat[2/4] addr=0x00003058 trans=AHB_TRANS_SEQ resp=AHB_RESP_OKAY wdata=0xea9ba002
# UVM_INFO ../src/slv/ahb_slave_driver.sv(184) @ 885000: uvm_test_top.env.slave_agent.drv [ahb_slave_driver] Beat AHB_WRITE addr=0x00003058 resp=AHB_RESP_OKAY waits=2 wdata=0xea9ba002
# UVM_INFO ../src/mst/ahb_master_monitor.sv(117) @ 885000: uvm_test_top.env.master_agent.mon [ahb_master_monitor] Beat[2] addr=0x00003058 wdata=0xea9ba002 resp=AHB_RESP_OKAY
# UVM_INFO ../src/mst/ahb_master_driver.sv(332) @ 895000: uvm_test_top.env.master_agent.drv [ahb_master_driver] Beat[3/4] addr=0x00003059 trans=AHB_TRANS_SEQ resp=AHB_RESP_OKAY wdata=0x0c9e7384
# UVM_INFO ../src/mst/ahb_master_driver.sv(376) @ 895000: uvm_test_top.env.master_agent.drv [ahb_master_driver] Transaction complete: AHB_WRITE 0x00003056, 4 beats, burst=AHB_BURST_INCR4
# UVM_INFO ../src/slv/ahb_slave_driver.sv(184) @ 895000: uvm_test_top.env.slave_agent.drv [ahb_slave_driver] Beat AHB_WRITE addr=0x00003059 resp=AHB_RESP_OKAY waits=0 wdata=0x0c9e7384
# UVM_INFO ../src/slv/ahb_slave_monitor.sv(197) @ 895000: uvm_test_top.env.slave_agent.mon [ahb_slave_monitor] Observed [AHB_WRITE]: HADDR=0x00003056, HBURST=AHB_BURST_INCR4, HSIZE=AHB_SIZE_8B, 4 beats
# UVM_INFO ../src/env/ahb_coverage.sv(126) @ 895000: uvm_test_top.env.slave_cov [ahb_coverage] Sampled [AHB_WRITE]: burst=AHB_BURST_INCR4 size=AHB_SIZE_8B beats=4 error=0
# UVM_INFO ../src/mst/ahb_master_monitor.sv(117) @ 895000: uvm_test_top.env.master_agent.mon [ahb_master_monitor] Beat[3] addr=0x00003059 wdata=0x0c9e7384 resp=AHB_RESP_OKAY
# UVM_INFO ../src/mst/ahb_master_monitor.sv(220) @ 895000: uvm_test_top.env.master_agent.mon [ahb_master_monitor] Observed [AHB_WRITE]: HADDR=0x00003056, HBURST=AHB_BURST_INCR4, HSIZE=AHB_SIZE_8B, 4 beats
# UVM_INFO ../src/env/ahb_coverage.sv(126) @ 895000: uvm_test_top.env.master_cov [ahb_coverage] Sampled [AHB_WRITE]: burst=AHB_BURST_INCR4 size=AHB_SIZE_8B beats=4 error=0
# UVM_INFO ../src/env/ahb_scoreboard.sv(104) @ 895000: uvm_test_top.env.scb [ahb_scoreboard] MATCH #3: [AHB_WRITE] HADDR=0x00003056 AHB_BURST_INCR4 4 beats
# UVM_INFO ../src/mst/ahb_master_driver.sv(85) @ 895000: uvm_test_top.env.master_agent.drv [ahb_master_driver] Queueing [AHB_READ]: HADDR=0x00003056, HBURST=AHB_BURST_INCR4, HSIZE=AHB_SIZE_8B, 4 beats
# UVM_INFO ../src/mst/ahb_master_driver.sv(127) @ 895000: uvm_test_top.env.master_agent.drv [ahb_master_driver] Driving [AHB_READ]: HADDR=0x00003056, HBURST=AHB_BURST_INCR4, HSIZE=AHB_SIZE_8B, 4 beats               
# UVM_INFO ../src/mst/ahb_master_driver.sv(332) @ 935000: uvm_test_top.env.master_agent.drv [ahb_master_driver] Beat[0/4] addr=0x00003056 trans=AHB_TRANS_NONSEQ resp=AHB_RESP_OKAY rdata=0x0f1989c1
# UVM_INFO ../src/slv/ahb_slave_driver.sv(184) @ 935000: uvm_test_top.env.slave_agent.drv [ahb_slave_driver] Beat AHB_READ addr=0x00003056 resp=AHB_RESP_OKAY waits=1 rdata=0x0f1989c1
# UVM_INFO ../src/mst/ahb_master_monitor.sv(117) @ 935000: uvm_test_top.env.master_agent.mon [ahb_master_monitor] Beat[0] addr=0x00003056 rdata=0x0f1989c1 resp=AHB_RESP_OKAY
# UVM_INFO ../src/mst/ahb_master_driver.sv(332) @ 945000: uvm_test_top.env.master_agent.drv [ahb_master_driver] Beat[1/4] addr=0x00003057 trans=AHB_TRANS_SEQ resp=AHB_RESP_OKAY rdata=0x303083e9
# UVM_INFO ../src/slv/ahb_slave_driver.sv(184) @ 945000: uvm_test_top.env.slave_agent.drv [ahb_slave_driver] Beat AHB_READ addr=0x00003057 resp=AHB_RESP_OKAY waits=0 rdata=0x303083e9
# UVM_INFO ../src/mst/ahb_master_monitor.sv(117) @ 945000: uvm_test_top.env.master_agent.mon [ahb_master_monitor] Beat[1] addr=0x00003057 rdata=0x303083e9 resp=AHB_RESP_OKAY
# UVM_INFO ../src/mst/ahb_master_driver.sv(332) @ 975000: uvm_test_top.env.master_agent.drv [ahb_master_driver] Beat[2/4] addr=0x00003058 trans=AHB_TRANS_SEQ resp=AHB_RESP_OKAY rdata=0xea9ba002
# UVM_INFO ../src/slv/ahb_slave_driver.sv(184) @ 975000: uvm_test_top.env.slave_agent.drv [ahb_slave_driver] Beat AHB_READ addr=0x00003058 resp=AHB_RESP_OKAY waits=2 rdata=0xea9ba002
# UVM_INFO ../src/mst/ahb_master_monitor.sv(117) @ 975000: uvm_test_top.env.master_agent.mon [ahb_master_monitor] Beat[2] addr=0x00003058 rdata=0xea9ba002 resp=AHB_RESP_OKAY
# UVM_INFO ../src/mst/ahb_master_driver.sv(332) @ 995000: uvm_test_top.env.master_agent.drv [ahb_master_driver] Beat[3/4] addr=0x00003059 trans=AHB_TRANS_SEQ resp=AHB_RESP_OKAY rdata=0x0c9e7384
# UVM_INFO ../src/mst/ahb_master_driver.sv(376) @ 995000: uvm_test_top.env.master_agent.drv [ahb_master_driver] Transaction complete: AHB_READ 0x00003056, 4 beats, burst=AHB_BURST_INCR4
# UVM_INFO ../src/slv/ahb_slave_driver.sv(184) @ 995000: uvm_test_top.env.slave_agent.drv [ahb_slave_driver] Beat AHB_READ addr=0x00003059 resp=AHB_RESP_OKAY waits=1 rdata=0x0c9e7384
# UVM_INFO ../src/slv/ahb_slave_monitor.sv(197) @ 995000: uvm_test_top.env.slave_agent.mon [ahb_slave_monitor] Observed [AHB_READ]: HADDR=0x00003056, HBURST=AHB_BURST_INCR4, HSIZE=AHB_SIZE_8B, 4 beats
# UVM_INFO ../src/env/ahb_coverage.sv(126) @ 995000: uvm_test_top.env.slave_cov [ahb_coverage] Sampled [AHB_READ]: burst=AHB_BURST_INCR4 size=AHB_SIZE_8B beats=4 error=0
# UVM_INFO ../src/mst/ahb_master_monitor.sv(117) @ 995000: uvm_test_top.env.master_agent.mon [ahb_master_monitor] Beat[3] addr=0x00003059 rdata=0x0c9e7384 resp=AHB_RESP_OKAY
# UVM_INFO ../src/mst/ahb_master_monitor.sv(220) @ 995000: uvm_test_top.env.master_agent.mon [ahb_master_monitor] Observed [AHB_READ]: HADDR=0x00003056, HBURST=AHB_BURST_INCR4, HSIZE=AHB_SIZE_8B, 4 beats
# UVM_INFO ../src/env/ahb_coverage.sv(126) @ 995000: uvm_test_top.env.master_cov [ahb_coverage] Sampled [AHB_READ]: burst=AHB_BURST_INCR4 size=AHB_SIZE_8B beats=4 error=0
# UVM_INFO ../src/env/ahb_scoreboard.sv(104) @ 995000: uvm_test_top.env.scb [ahb_scoreboard] MATCH #4: [AHB_READ] HADDR=0x00003056 AHB_BURST_INCR4 4 beats
# UVM_INFO ../src/mst_seq/ahb_base_seq.sv(177) @ 995000: uvm_test_top.env.master_agent.sqr@@seq [ahb_incr_burst_seq] AHB_BURST_INCR4 AHB_SIZE_8B beat 0 @0x00003056 ok
# UVM_INFO ../src/mst_seq/ahb_base_seq.sv(177) @ 995000: uvm_test_top.env.master_agent.sqr@@seq [ahb_incr_burst_seq] AHB_BURST_INCR4 AHB_SIZE_8B beat 1 @0x00003057 ok
# UVM_INFO ../src/mst_seq/ahb_base_seq.sv(177) @ 995000: uvm_test_top.env.master_agent.sqr@@seq [ahb_incr_burst_seq] AHB_BURST_INCR4 AHB_SIZE_8B beat 2 @0x00003058 ok
# UVM_INFO ../src/mst_seq/ahb_base_seq.sv(177) @ 995000: uvm_test_top.env.master_agent.sqr@@seq [ahb_incr_burst_seq] AHB_BURST_INCR4 AHB_SIZE_8B beat 3 @0x00003059 ok
# UVM_INFO ../src/mst/ahb_master_driver.sv(85) @ 995000: uvm_test_top.env.master_agent.drv [ahb_master_driver] Queueing [AHB_WRITE]: HADDR=0x00003093, HBURST=AHB_BURST_INCR4, HSIZE=AHB_SIZE_8B, 4 beats
# UVM_INFO ../src/mst/ahb_master_driver.sv(127) @ 995000: uvm_test_top.env.master_agent.drv [ahb_master_driver] Driving [AHB_WRITE]: HADDR=0x00003093, HBURST=AHB_BURST_INCR4, HSIZE=AHB_SIZE_8B, 4 beats               
# UVM_INFO ../src/mst/ahb_master_driver.sv(332) @ 1045000: uvm_test_top.env.master_agent.drv [ahb_master_driver] Beat[0/4] addr=0x00003093 trans=AHB_TRANS_NONSEQ resp=AHB_RESP_OKAY wdata=0x90293ac4
# UVM_INFO ../src/slv/ahb_slave_driver.sv(184) @ 1045000: uvm_test_top.env.slave_agent.drv [ahb_slave_driver] Beat AHB_WRITE addr=0x00003093 resp=AHB_RESP_OKAY waits=2 wdata=0x90293ac4
# UVM_INFO ../src/mst/ahb_master_monitor.sv(117) @ 1045000: uvm_test_top.env.master_agent.mon [ahb_master_monitor] Beat[0] addr=0x00003093 wdata=0x90293ac4 resp=AHB_RESP_OKAY
# UVM_INFO ../src/mst/ahb_master_driver.sv(332) @ 1075000: uvm_test_top.env.master_agent.drv [ahb_master_driver] Beat[1/4] addr=0x00003094 trans=AHB_TRANS_SEQ resp=AHB_RESP_OKAY wdata=0x5f004066
# UVM_INFO ../src/slv/ahb_slave_driver.sv(184) @ 1075000: uvm_test_top.env.slave_agent.drv [ahb_slave_driver] Beat AHB_WRITE addr=0x00003094 resp=AHB_RESP_OKAY waits=2 wdata=0x5f004066
# UVM_INFO ../src/mst/ahb_master_monitor.sv(117) @ 1075000: uvm_test_top.env.master_agent.mon [ahb_master_monitor] Beat[1] addr=0x00003094 wdata=0x5f004066 resp=AHB_RESP_OKAY
# UVM_INFO ../src/mst/ahb_master_driver.sv(332) @ 1085000: uvm_test_top.env.master_agent.drv [ahb_master_driver] Beat[2/4] addr=0x00003095 trans=AHB_TRANS_SEQ resp=AHB_RESP_OKAY wdata=0x956dceaf
# UVM_INFO ../src/slv/ahb_slave_driver.sv(184) @ 1085000: uvm_test_top.env.slave_agent.drv [ahb_slave_driver] Beat AHB_WRITE addr=0x00003095 resp=AHB_RESP_OKAY waits=0 wdata=0x956dceaf
# UVM_INFO ../src/mst/ahb_master_monitor.sv(117) @ 1085000: uvm_test_top.env.master_agent.mon [ahb_master_monitor] Beat[2] addr=0x00003095 wdata=0x956dceaf resp=AHB_RESP_OKAY
# UVM_INFO ../src/mst/ahb_master_driver.sv(332) @ 1115000: uvm_test_top.env.master_agent.drv [ahb_master_driver] Beat[3/4] addr=0x00003096 trans=AHB_TRANS_SEQ resp=AHB_RESP_OKAY wdata=0xda9b3881
# UVM_INFO ../src/mst/ahb_master_driver.sv(376) @ 1115000: uvm_test_top.env.master_agent.drv [ahb_master_driver] Transaction complete: AHB_WRITE 0x00003093, 4 beats, burst=AHB_BURST_INCR4
# UVM_INFO ../src/slv/ahb_slave_driver.sv(184) @ 1115000: uvm_test_top.env.slave_agent.drv [ahb_slave_driver] Beat AHB_WRITE addr=0x00003096 resp=AHB_RESP_OKAY waits=2 wdata=0xda9b3881
# UVM_INFO ../src/slv/ahb_slave_monitor.sv(197) @ 1115000: uvm_test_top.env.slave_agent.mon [ahb_slave_monitor] Observed [AHB_WRITE]: HADDR=0x00003093, HBURST=AHB_BURST_INCR4, HSIZE=AHB_SIZE_8B, 4 beats
# UVM_INFO ../src/env/ahb_coverage.sv(126) @ 1115000: uvm_test_top.env.slave_cov [ahb_coverage] Sampled [AHB_WRITE]: burst=AHB_BURST_INCR4 size=AHB_SIZE_8B beats=4 error=0
# UVM_INFO ../src/mst/ahb_master_monitor.sv(117) @ 1115000: uvm_test_top.env.master_agent.mon [ahb_master_monitor] Beat[3] addr=0x00003096 wdata=0xda9b3881 resp=AHB_RESP_OKAY
# UVM_INFO ../src/mst/ahb_master_monitor.sv(220) @ 1115000: uvm_test_top.env.master_agent.mon [ahb_master_monitor] Observed [AHB_WRITE]: HADDR=0x00003093, HBURST=AHB_BURST_INCR4, HSIZE=AHB_SIZE_8B, 4 beats
# UVM_INFO ../src/env/ahb_coverage.sv(126) @ 1115000: uvm_test_top.env.master_cov [ahb_coverage] Sampled [AHB_WRITE]: burst=AHB_BURST_INCR4 size=AHB_SIZE_8B beats=4 error=0
# UVM_INFO ../src/env/ahb_scoreboard.sv(104) @ 1115000: uvm_test_top.env.scb [ahb_scoreboard] MATCH #5: [AHB_WRITE] HADDR=0x00003093 AHB_BURST_INCR4 4 beats
# UVM_INFO ../src/mst/ahb_master_driver.sv(85) @ 1115000: uvm_test_top.env.master_agent.drv [ahb_master_driver] Queueing [AHB_READ]: HADDR=0x00003093, HBURST=AHB_BURST_INCR4, HSIZE=AHB_SIZE_8B, 4 beats
# UVM_INFO ../src/mst/ahb_master_driver.sv(127) @ 1115000: uvm_test_top.env.master_agent.drv [ahb_master_driver] Driving [AHB_READ]: HADDR=0x00003093, HBURST=AHB_BURST_INCR4, HSIZE=AHB_SIZE_8B, 4 beats               
# UVM_INFO ../src/mst/ahb_master_driver.sv(332) @ 1145000: uvm_test_top.env.master_agent.drv [ahb_master_driver] Beat[0/4] addr=0x00003093 trans=AHB_TRANS_NONSEQ resp=AHB_RESP_OKAY rdata=0x90293ac4
# UVM_INFO ../src/slv/ahb_slave_driver.sv(184) @ 1145000: uvm_test_top.env.slave_agent.drv [ahb_slave_driver] Beat AHB_READ addr=0x00003093 resp=AHB_RESP_OKAY waits=0 rdata=0x90293ac4
# UVM_INFO ../src/mst/ahb_master_monitor.sv(117) @ 1145000: uvm_test_top.env.master_agent.mon [ahb_master_monitor] Beat[0] addr=0x00003093 rdata=0x90293ac4 resp=AHB_RESP_OKAY
# UVM_INFO ../src/mst/ahb_master_driver.sv(332) @ 1175000: uvm_test_top.env.master_agent.drv [ahb_master_driver] Beat[1/4] addr=0x00003094 trans=AHB_TRANS_SEQ resp=AHB_RESP_OKAY rdata=0x5f004066
# UVM_INFO ../src/slv/ahb_slave_driver.sv(184) @ 1175000: uvm_test_top.env.slave_agent.drv [ahb_slave_driver] Beat AHB_READ addr=0x00003094 resp=AHB_RESP_OKAY waits=2 rdata=0x5f004066
# UVM_INFO ../src/mst/ahb_master_monitor.sv(117) @ 1175000: uvm_test_top.env.master_agent.mon [ahb_master_monitor] Beat[1] addr=0x00003094 rdata=0x5f004066 resp=AHB_RESP_OKAY
# UVM_INFO ../src/mst/ahb_master_driver.sv(332) @ 1195000: uvm_test_top.env.master_agent.drv [ahb_master_driver] Beat[2/4] addr=0x00003095 trans=AHB_TRANS_SEQ resp=AHB_RESP_OKAY rdata=0x956dceaf
# UVM_INFO ../src/slv/ahb_slave_driver.sv(184) @ 1195000: uvm_test_top.env.slave_agent.drv [ahb_slave_driver] Beat AHB_READ addr=0x00003095 resp=AHB_RESP_OKAY waits=1 rdata=0x956dceaf
# UVM_INFO ../src/mst/ahb_master_monitor.sv(117) @ 1195000: uvm_test_top.env.master_agent.mon [ahb_master_monitor] Beat[2] addr=0x00003095 rdata=0x956dceaf resp=AHB_RESP_OKAY
# UVM_INFO ../src/mst/ahb_master_driver.sv(332) @ 1225000: uvm_test_top.env.master_agent.drv [ahb_master_driver] Beat[3/4] addr=0x00003096 trans=AHB_TRANS_SEQ resp=AHB_RESP_OKAY rdata=0xda9b3881
# UVM_INFO ../src/mst/ahb_master_driver.sv(376) @ 1225000: uvm_test_top.env.master_agent.drv [ahb_master_driver] Transaction complete: AHB_READ 0x00003093, 4 beats, burst=AHB_BURST_INCR4
# UVM_INFO ../src/slv/ahb_slave_driver.sv(184) @ 1225000: uvm_test_top.env.slave_agent.drv [ahb_slave_driver] Beat AHB_READ addr=0x00003096 resp=AHB_RESP_OKAY waits=2 rdata=0xda9b3881
# UVM_INFO ../src/mst/ahb_master_monitor.sv(117) @ 1225000: uvm_test_top.env.master_agent.mon [ahb_master_monitor] Beat[3] addr=0x00003096 rdata=0xda9b3881 resp=AHB_RESP_OKAY
# UVM_INFO ../src/mst/ahb_master_monitor.sv(220) @ 1225000: uvm_test_top.env.master_agent.mon [ahb_master_monitor] Observed [AHB_READ]: HADDR=0x00003093, HBURST=AHB_BURST_INCR4, HSIZE=AHB_SIZE_8B, 4 beats
# UVM_INFO ../src/env/ahb_coverage.sv(126) @ 1225000: uvm_test_top.env.master_cov [ahb_coverage] Sampled [AHB_READ]: burst=AHB_BURST_INCR4 size=AHB_SIZE_8B beats=4 error=0
# UVM_INFO ../src/slv/ahb_slave_monitor.sv(197) @ 1225000: uvm_test_top.env.slave_agent.mon [ahb_slave_monitor] Observed [AHB_READ]: HADDR=0x00003093, HBURST=AHB_BURST_INCR4, HSIZE=AHB_SIZE_8B, 4 beats
# UVM_INFO ../src/env/ahb_scoreboard.sv(104) @ 1225000: uvm_test_top.env.scb [ahb_scoreboard] MATCH #6: [AHB_READ] HADDR=0x00003093 AHB_BURST_INCR4 4 beats
# UVM_INFO ../src/env/ahb_coverage.sv(126) @ 1225000: uvm_test_top.env.slave_cov [ahb_coverage] Sampled [AHB_READ]: burst=AHB_BURST_INCR4 size=AHB_SIZE_8B beats=4 error=0
# UVM_INFO ../src/mst_seq/ahb_base_seq.sv(177) @ 1225000: uvm_test_top.env.master_agent.sqr@@seq [ahb_incr_burst_seq] AHB_BURST_INCR4 AHB_SIZE_8B beat 0 @0x00003093 ok
# UVM_INFO ../src/mst_seq/ahb_base_seq.sv(177) @ 1225000: uvm_test_top.env.master_agent.sqr@@seq [ahb_incr_burst_seq] AHB_BURST_INCR4 AHB_SIZE_8B beat 1 @0x00003094 ok
# UVM_INFO ../src/mst_seq/ahb_base_seq.sv(177) @ 1225000: uvm_test_top.env.master_agent.sqr@@seq [ahb_incr_burst_seq] AHB_BURST_INCR4 AHB_SIZE_8B beat 2 @0x00003095 ok
# UVM_INFO ../src/mst_seq/ahb_base_seq.sv(177) @ 1225000: uvm_test_top.env.master_agent.sqr@@seq [ahb_incr_burst_seq] AHB_BURST_INCR4 AHB_SIZE_8B beat 3 @0x00003096 ok
# UVM_INFO ../src/mst/ahb_master_driver.sv(85) @ 1225000: uvm_test_top.env.master_agent.drv [ahb_master_driver] Queueing [AHB_WRITE]: HADDR=0x000030f0, HBURST=AHB_BURST_INCR16, HSIZE=AHB_SIZE_8B, 16 beats
# UVM_INFO ../src/mst/ahb_master_driver.sv(127) @ 1225000: uvm_test_top.env.master_agent.drv [ahb_master_driver] Driving [AHB_WRITE]: HADDR=0x000030f0, HBURST=AHB_BURST_INCR16, HSIZE=AHB_SIZE_8B, 16 beats               
# UVM_INFO ../src/mst/ahb_master_driver.sv(332) @ 1265000: uvm_test_top.env.master_agent.drv [ahb_master_driver] Beat[0/16] addr=0x000030f0 trans=AHB_TRANS_NONSEQ resp=AHB_RESP_OKAY wdata=0xc3716408
# UVM_INFO ../src/slv/ahb_slave_driver.sv(184) @ 1265000: uvm_test_top.env.slave_agent.drv [ahb_slave_driver] Beat AHB_WRITE addr=0x000030f0 resp=AHB_RESP_OKAY waits=1 wdata=0xc3716408
# UVM_INFO ../src/mst/ahb_master_monitor.sv(117) @ 1265000: uvm_test_top.env.master_agent.mon [ahb_master_monitor] Beat[0] addr=0x000030f0 wdata=0xc3716408 resp=AHB_RESP_OKAY
# UVM_INFO ../src/mst/ahb_master_driver.sv(332) @ 1275000: uvm_test_top.env.master_agent.drv [ahb_master_driver] Beat[1/16] addr=0x000030f1 trans=AHB_TRANS_SEQ resp=AHB_RESP_OKAY wdata=0xbd67aca5
# UVM_INFO ../src/slv/ahb_slave_driver.sv(184) @ 1275000: uvm_test_top.env.slave_agent.drv [ahb_slave_driver] Beat AHB_WRITE addr=0x000030f1 resp=AHB_RESP_OKAY waits=0 wdata=0xbd67aca5
# UVM_INFO ../src/mst/ahb_master_monitor.sv(117) @ 1275000: uvm_test_top.env.master_agent.mon [ahb_master_monitor] Beat[1] addr=0x000030f1 wdata=0xbd67aca5 resp=AHB_RESP_OKAY
# UVM_INFO ../src/mst/ahb_master_driver.sv(332) @ 1285000: uvm_test_top.env.master_agent.drv [ahb_master_driver] Beat[2/16] addr=0x000030f2 trans=AHB_TRANS_SEQ resp=AHB_RESP_OKAY wdata=0x67f9193b
# UVM_INFO ../src/slv/ahb_slave_driver.sv(184) @ 1285000: uvm_test_top.env.slave_agent.drv [ahb_slave_driver] Beat AHB_WRITE addr=0x000030f2 resp=AHB_RESP_OKAY waits=0 wdata=0x67f9193b
# UVM_INFO ../src/mst/ahb_master_monitor.sv(117) @ 1285000: uvm_test_top.env.master_agent.mon [ahb_master_monitor] Beat[2] addr=0x000030f2 wdata=0x67f9193b resp=AHB_RESP_OKAY
# UVM_INFO ../src/mst/ahb_master_driver.sv(332) @ 1305000: uvm_test_top.env.master_agent.drv [ahb_master_driver] Beat[3/16] addr=0x000030f3 trans=AHB_TRANS_SEQ resp=AHB_RESP_OKAY wdata=0x9d941b28
# UVM_INFO ../src/slv/ahb_slave_driver.sv(184) @ 1305000: uvm_test_top.env.slave_agent.drv [ahb_slave_driver] Beat AHB_WRITE addr=0x000030f3 resp=AHB_RESP_OKAY waits=1 wdata=0x9d941b28
# UVM_INFO ../src/mst/ahb_master_monitor.sv(117) @ 1305000: uvm_test_top.env.master_agent.mon [ahb_master_monitor] Beat[3] addr=0x000030f3 wdata=0x9d941b28 resp=AHB_RESP_OKAY
# UVM_INFO ../src/mst/ahb_master_driver.sv(332) @ 1335000: uvm_test_top.env.master_agent.drv [ahb_master_driver] Beat[4/16] addr=0x000030f4 trans=AHB_TRANS_SEQ resp=AHB_RESP_OKAY wdata=0xef38478b
# UVM_INFO ../src/slv/ahb_slave_driver.sv(184) @ 1335000: uvm_test_top.env.slave_agent.drv [ahb_slave_driver] Beat AHB_WRITE addr=0x000030f4 resp=AHB_RESP_OKAY waits=2 wdata=0xef38478b
# UVM_INFO ../src/mst/ahb_master_monitor.sv(117) @ 1335000: uvm_test_top.env.master_agent.mon [ahb_master_monitor] Beat[4] addr=0x000030f4 wdata=0xef38478b resp=AHB_RESP_OKAY
# UVM_INFO ../src/mst/ahb_master_driver.sv(332) @ 1345000: uvm_test_top.env.master_agent.drv [ahb_master_driver] Beat[5/16] addr=0x000030f5 trans=AHB_TRANS_SEQ resp=AHB_RESP_OKAY wdata=0x5d564be2
# UVM_INFO ../src/slv/ahb_slave_driver.sv(184) @ 1345000: uvm_test_top.env.slave_agent.drv [ahb_slave_driver] Beat AHB_WRITE addr=0x000030f5 resp=AHB_RESP_OKAY waits=0 wdata=0x5d564be2
# UVM_INFO ../src/mst/ahb_master_monitor.sv(117) @ 1345000: uvm_test_top.env.master_agent.mon [ahb_master_monitor] Beat[5] addr=0x000030f5 wdata=0x5d564be2 resp=AHB_RESP_OKAY
# UVM_INFO ../src/mst/ahb_master_driver.sv(332) @ 1365000: uvm_test_top.env.master_agent.drv [ahb_master_driver] Beat[6/16] addr=0x000030f6 trans=AHB_TRANS_SEQ resp=AHB_RESP_OKAY wdata=0xa5c01161
# UVM_INFO ../src/slv/ahb_slave_driver.sv(184) @ 1365000: uvm_test_top.env.slave_agent.drv [ahb_slave_driver] Beat AHB_WRITE addr=0x000030f6 resp=AHB_RESP_OKAY waits=1 wdata=0xa5c01161
# UVM_INFO ../src/mst/ahb_master_monitor.sv(117) @ 1365000: uvm_test_top.env.master_agent.mon [ahb_master_monitor] Beat[6] addr=0x000030f6 wdata=0xa5c01161 resp=AHB_RESP_OKAY
# UVM_INFO ../src/mst/ahb_master_driver.sv(332) @ 1375000: uvm_test_top.env.master_agent.drv [ahb_master_driver] Beat[7/16] addr=0x000030f7 trans=AHB_TRANS_SEQ resp=AHB_RESP_OKAY wdata=0x6aa6b714
# UVM_INFO ../src/slv/ahb_slave_driver.sv(184) @ 1375000: uvm_test_top.env.slave_agent.drv [ahb_slave_driver] Beat AHB_WRITE addr=0x000030f7 resp=AHB_RESP_OKAY waits=0 wdata=0x6aa6b714
# UVM_INFO ../src/mst/ahb_master_monitor.sv(117) @ 1375000: uvm_test_top.env.master_agent.mon [ahb_master_monitor] Beat[7] addr=0x000030f7 wdata=0x6aa6b714 resp=AHB_RESP_OKAY
# UVM_INFO ../src/mst/ahb_master_driver.sv(332) @ 1395000: uvm_test_top.env.master_agent.drv [ahb_master_driver] Beat[8/16] addr=0x000030f8 trans=AHB_TRANS_SEQ resp=AHB_RESP_OKAY wdata=0xe6920691
# UVM_INFO ../src/slv/ahb_slave_driver.sv(184) @ 1395000: uvm_test_top.env.slave_agent.drv [ahb_slave_driver] Beat AHB_WRITE addr=0x000030f8 resp=AHB_RESP_OKAY waits=1 wdata=0xe6920691
# UVM_INFO ../src/mst/ahb_master_monitor.sv(117) @ 1395000: uvm_test_top.env.master_agent.mon [ahb_master_monitor] Beat[8] addr=0x000030f8 wdata=0xe6920691 resp=AHB_RESP_OKAY
# UVM_INFO ../src/mst/ahb_master_driver.sv(332) @ 1425000: uvm_test_top.env.master_agent.drv [ahb_master_driver] Beat[9/16] addr=0x000030f9 trans=AHB_TRANS_SEQ resp=AHB_RESP_OKAY wdata=0x1bd5aa84
# UVM_INFO ../src/slv/ahb_slave_driver.sv(184) @ 1425000: uvm_test_top.env.slave_agent.drv [ahb_slave_driver] Beat AHB_WRITE addr=0x000030f9 resp=AHB_RESP_OKAY waits=2 wdata=0x1bd5aa84
# UVM_INFO ../src/mst/ahb_master_monitor.sv(117) @ 1425000: uvm_test_top.env.master_agent.mon [ahb_master_monitor] Beat[9] addr=0x000030f9 wdata=0x1bd5aa84 resp=AHB_RESP_OKAY
# UVM_INFO ../src/mst/ahb_master_driver.sv(332) @ 1435000: uvm_test_top.env.master_agent.drv [ahb_master_driver] Beat[10/16] addr=0x000030fa trans=AHB_TRANS_SEQ resp=AHB_RESP_OKAY wdata=0x0003e341
# UVM_INFO ../src/slv/ahb_slave_driver.sv(184) @ 1435000: uvm_test_top.env.slave_agent.drv [ahb_slave_driver] Beat AHB_WRITE addr=0x000030fa resp=AHB_RESP_OKAY waits=0 wdata=0x0003e341
# UVM_INFO ../src/mst/ahb_master_monitor.sv(117) @ 1435000: uvm_test_top.env.master_agent.mon [ahb_master_monitor] Beat[10] addr=0x000030fa wdata=0x0003e341 resp=AHB_RESP_OKAY
# UVM_INFO ../src/mst/ahb_master_driver.sv(332) @ 1445000: uvm_test_top.env.master_agent.drv [ahb_master_driver] Beat[11/16] addr=0x000030fb trans=AHB_TRANS_SEQ resp=AHB_RESP_OKAY wdata=0xdeb6c894
# UVM_INFO ../src/slv/ahb_slave_driver.sv(184) @ 1445000: uvm_test_top.env.slave_agent.drv [ahb_slave_driver] Beat AHB_WRITE addr=0x000030fb resp=AHB_RESP_OKAY waits=0 wdata=0xdeb6c894
# UVM_INFO ../src/mst/ahb_master_monitor.sv(117) @ 1445000: uvm_test_top.env.master_agent.mon [ahb_master_monitor] Beat[11] addr=0x000030fb wdata=0xdeb6c894 resp=AHB_RESP_OKAY
# UVM_INFO ../src/mst/ahb_master_driver.sv(332) @ 1465000: uvm_test_top.env.master_agent.drv [ahb_master_driver] Beat[12/16] addr=0x000030fc trans=AHB_TRANS_SEQ resp=AHB_RESP_OKAY wdata=0xfdc0a6e1
# UVM_INFO ../src/slv/ahb_slave_driver.sv(184) @ 1465000: uvm_test_top.env.slave_agent.drv [ahb_slave_driver] Beat AHB_WRITE addr=0x000030fc resp=AHB_RESP_OKAY waits=1 wdata=0xfdc0a6e1
# UVM_INFO ../src/mst/ahb_master_monitor.sv(117) @ 1465000: uvm_test_top.env.master_agent.mon [ahb_master_monitor] Beat[12] addr=0x000030fc wdata=0xfdc0a6e1 resp=AHB_RESP_OKAY
# UVM_INFO ../src/mst/ahb_master_driver.sv(332) @ 1495000: uvm_test_top.env.master_agent.drv [ahb_master_driver] Beat[13/16] addr=0x000030fd trans=AHB_TRANS_SEQ resp=AHB_RESP_OKAY wdata=0x52978d5b
# UVM_INFO ../src/slv/ahb_slave_driver.sv(184) @ 1495000: uvm_test_top.env.slave_agent.drv [ahb_slave_driver] Beat AHB_WRITE addr=0x000030fd resp=AHB_RESP_OKAY waits=2 wdata=0x52978d5b
# UVM_INFO ../src/mst/ahb_master_monitor.sv(117) @ 1495000: uvm_test_top.env.master_agent.mon [ahb_master_monitor] Beat[13] addr=0x000030fd wdata=0x52978d5b resp=AHB_RESP_OKAY
# UVM_INFO ../src/mst/ahb_master_driver.sv(332) @ 1505000: uvm_test_top.env.master_agent.drv [ahb_master_driver] Beat[14/16] addr=0x000030fe trans=AHB_TRANS_SEQ resp=AHB_RESP_OKAY wdata=0x082bd111
# UVM_INFO ../src/slv/ahb_slave_driver.sv(184) @ 1505000: uvm_test_top.env.slave_agent.drv [ahb_slave_driver] Beat AHB_WRITE addr=0x000030fe resp=AHB_RESP_OKAY waits=0 wdata=0x082bd111
# UVM_INFO ../src/mst/ahb_master_monitor.sv(117) @ 1505000: uvm_test_top.env.master_agent.mon [ahb_master_monitor] Beat[14] addr=0x000030fe wdata=0x082bd111 resp=AHB_RESP_OKAY
# UVM_INFO ../src/mst/ahb_master_driver.sv(332) @ 1515000: uvm_test_top.env.master_agent.drv [ahb_master_driver] Beat[15/16] addr=0x000030ff trans=AHB_TRANS_SEQ resp=AHB_RESP_OKAY wdata=0x929f5763
# UVM_INFO ../src/mst/ahb_master_driver.sv(376) @ 1515000: uvm_test_top.env.master_agent.drv [ahb_master_driver] Transaction complete: AHB_WRITE 0x000030f0, 16 beats, burst=AHB_BURST_INCR16
# UVM_INFO ../src/slv/ahb_slave_driver.sv(184) @ 1515000: uvm_test_top.env.slave_agent.drv [ahb_slave_driver] Beat AHB_WRITE addr=0x000030ff resp=AHB_RESP_OKAY waits=0 wdata=0x929f5763
# UVM_INFO ../src/slv/ahb_slave_monitor.sv(197) @ 1515000: uvm_test_top.env.slave_agent.mon [ahb_slave_monitor] Observed [AHB_WRITE]: HADDR=0x000030f0, HBURST=AHB_BURST_INCR16, HSIZE=AHB_SIZE_8B, 16 beats
# UVM_INFO ../src/env/ahb_coverage.sv(126) @ 1515000: uvm_test_top.env.slave_cov [ahb_coverage] Sampled [AHB_WRITE]: burst=AHB_BURST_INCR16 size=AHB_SIZE_8B beats=16 error=0
# UVM_INFO ../src/mst/ahb_master_monitor.sv(117) @ 1515000: uvm_test_top.env.master_agent.mon [ahb_master_monitor] Beat[15] addr=0x000030ff wdata=0x929f5763 resp=AHB_RESP_OKAY
# UVM_INFO ../src/mst/ahb_master_monitor.sv(220) @ 1515000: uvm_test_top.env.master_agent.mon [ahb_master_monitor] Observed [AHB_WRITE]: HADDR=0x000030f0, HBURST=AHB_BURST_INCR16, HSIZE=AHB_SIZE_8B, 16 beats
# UVM_INFO ../src/env/ahb_coverage.sv(126) @ 1515000: uvm_test_top.env.master_cov [ahb_coverage] Sampled [AHB_WRITE]: burst=AHB_BURST_INCR16 size=AHB_SIZE_8B beats=16 error=0
# UVM_INFO ../src/env/ahb_scoreboard.sv(104) @ 1515000: uvm_test_top.env.scb [ahb_scoreboard] MATCH #7: [AHB_WRITE] HADDR=0x000030f0 AHB_BURST_INCR16 16 beats
# UVM_INFO ../src/mst/ahb_master_driver.sv(85) @ 1515000: uvm_test_top.env.master_agent.drv [ahb_master_driver] Queueing [AHB_READ]: HADDR=0x000030f0, HBURST=AHB_BURST_INCR16, HSIZE=AHB_SIZE_8B, 16 beats
# UVM_INFO ../src/mst/ahb_master_driver.sv(127) @ 1515000: uvm_test_top.env.master_agent.drv [ahb_master_driver] Driving [AHB_READ]: HADDR=0x000030f0, HBURST=AHB_BURST_INCR16, HSIZE=AHB_SIZE_8B, 16 beats               
# UVM_INFO ../src/mst/ahb_master_driver.sv(332) @ 1555000: uvm_test_top.env.master_agent.drv [ahb_master_driver] Beat[0/16] addr=0x000030f0 trans=AHB_TRANS_NONSEQ resp=AHB_RESP_OKAY rdata=0xc3716408
# UVM_INFO ../src/slv/ahb_slave_driver.sv(184) @ 1555000: uvm_test_top.env.slave_agent.drv [ahb_slave_driver] Beat AHB_READ addr=0x000030f0 resp=AHB_RESP_OKAY waits=1 rdata=0xc3716408
# UVM_INFO ../src/mst/ahb_master_monitor.sv(117) @ 1555000: uvm_test_top.env.master_agent.mon [ahb_master_monitor] Beat[0] addr=0x000030f0 rdata=0xc3716408 resp=AHB_RESP_OKAY
# UVM_INFO ../src/mst/ahb_master_driver.sv(332) @ 1575000: uvm_test_top.env.master_agent.drv [ahb_master_driver] Beat[1/16] addr=0x000030f1 trans=AHB_TRANS_SEQ resp=AHB_RESP_OKAY rdata=0xbd67aca5
# UVM_INFO ../src/slv/ahb_slave_driver.sv(184) @ 1575000: uvm_test_top.env.slave_agent.drv [ahb_slave_driver] Beat AHB_READ addr=0x000030f1 resp=AHB_RESP_OKAY waits=1 rdata=0xbd67aca5
# UVM_INFO ../src/mst/ahb_master_monitor.sv(117) @ 1575000: uvm_test_top.env.master_agent.mon [ahb_master_monitor] Beat[1] addr=0x000030f1 rdata=0xbd67aca5 resp=AHB_RESP_OKAY
# UVM_INFO ../src/mst/ahb_master_driver.sv(332) @ 1595000: uvm_test_top.env.master_agent.drv [ahb_master_driver] Beat[2/16] addr=0x000030f2 trans=AHB_TRANS_SEQ resp=AHB_RESP_OKAY rdata=0x67f9193b
# UVM_INFO ../src/slv/ahb_slave_driver.sv(184) @ 1595000: uvm_test_top.env.slave_agent.drv [ahb_slave_driver] Beat AHB_READ addr=0x000030f2 resp=AHB_RESP_OKAY waits=1 rdata=0x67f9193b
# UVM_INFO ../src/mst/ahb_master_monitor.sv(117) @ 1595000: uvm_test_top.env.master_agent.mon [ahb_master_monitor] Beat[2] addr=0x000030f2 rdata=0x67f9193b resp=AHB_RESP_OKAY
# UVM_INFO ../src/mst/ahb_master_driver.sv(332) @ 1605000: uvm_test_top.env.master_agent.drv [ahb_master_driver] Beat[3/16] addr=0x000030f3 trans=AHB_TRANS_SEQ resp=AHB_RESP_OKAY rdata=0x9d941b28
# UVM_INFO ../src/slv/ahb_slave_driver.sv(184) @ 1605000: uvm_test_top.env.slave_agent.drv [ahb_slave_driver] Beat AHB_READ addr=0x000030f3 resp=AHB_RESP_OKAY waits=0 rdata=0x9d941b28
# UVM_INFO ../src/mst/ahb_master_monitor.sv(117) @ 1605000: uvm_test_top.env.master_agent.mon [ahb_master_monitor] Beat[3] addr=0x000030f3 rdata=0x9d941b28 resp=AHB_RESP_OKAY
# UVM_INFO ../src/mst/ahb_master_driver.sv(332) @ 1625000: uvm_test_top.env.master_agent.drv [ahb_master_driver] Beat[4/16] addr=0x000030f4 trans=AHB_TRANS_SEQ resp=AHB_RESP_OKAY rdata=0xef38478b
# UVM_INFO ../src/slv/ahb_slave_driver.sv(184) @ 1625000: uvm_test_top.env.slave_agent.drv [ahb_slave_driver] Beat AHB_READ addr=0x000030f4 resp=AHB_RESP_OKAY waits=1 rdata=0xef38478b
# UVM_INFO ../src/mst/ahb_master_monitor.sv(117) @ 1625000: uvm_test_top.env.master_agent.mon [ahb_master_monitor] Beat[4] addr=0x000030f4 rdata=0xef38478b resp=AHB_RESP_OKAY
# UVM_INFO ../src/mst/ahb_master_driver.sv(332) @ 1635000: uvm_test_top.env.master_agent.drv [ahb_master_driver] Beat[5/16] addr=0x000030f5 trans=AHB_TRANS_SEQ resp=AHB_RESP_OKAY rdata=0x5d564be2
# UVM_INFO ../src/slv/ahb_slave_driver.sv(184) @ 1635000: uvm_test_top.env.slave_agent.drv [ahb_slave_driver] Beat AHB_READ addr=0x000030f5 resp=AHB_RESP_OKAY waits=0 rdata=0x5d564be2
# UVM_INFO ../src/mst/ahb_master_monitor.sv(117) @ 1635000: uvm_test_top.env.master_agent.mon [ahb_master_monitor] Beat[5] addr=0x000030f5 rdata=0x5d564be2 resp=AHB_RESP_OKAY
# UVM_INFO ../src/mst/ahb_master_driver.sv(332) @ 1665000: uvm_test_top.env.master_agent.drv [ahb_master_driver] Beat[6/16] addr=0x000030f6 trans=AHB_TRANS_SEQ resp=AHB_RESP_OKAY rdata=0xa5c01161
# UVM_INFO ../src/slv/ahb_slave_driver.sv(184) @ 1665000: uvm_test_top.env.slave_agent.drv [ahb_slave_driver] Beat AHB_READ addr=0x000030f6 resp=AHB_RESP_OKAY waits=2 rdata=0xa5c01161
# UVM_INFO ../src/mst/ahb_master_monitor.sv(117) @ 1665000: uvm_test_top.env.master_agent.mon [ahb_master_monitor] Beat[6] addr=0x000030f6 rdata=0xa5c01161 resp=AHB_RESP_OKAY
# UVM_INFO ../src/mst/ahb_master_driver.sv(332) @ 1695000: uvm_test_top.env.master_agent.drv [ahb_master_driver] Beat[7/16] addr=0x000030f7 trans=AHB_TRANS_SEQ resp=AHB_RESP_OKAY rdata=0x6aa6b714
# UVM_INFO ../src/slv/ahb_slave_driver.sv(184) @ 1695000: uvm_test_top.env.slave_agent.drv [ahb_slave_driver] Beat AHB_READ addr=0x000030f7 resp=AHB_RESP_OKAY waits=2 rdata=0x6aa6b714
# UVM_INFO ../src/mst/ahb_master_monitor.sv(117) @ 1695000: uvm_test_top.env.master_agent.mon [ahb_master_monitor] Beat[7] addr=0x000030f7 rdata=0x6aa6b714 resp=AHB_RESP_OKAY
# UVM_INFO ../src/mst/ahb_master_driver.sv(332) @ 1725000: uvm_test_top.env.master_agent.drv [ahb_master_driver] Beat[8/16] addr=0x000030f8 trans=AHB_TRANS_SEQ resp=AHB_RESP_OKAY rdata=0xe6920691
# UVM_INFO ../src/slv/ahb_slave_driver.sv(184) @ 1725000: uvm_test_top.env.slave_agent.drv [ahb_slave_driver] Beat AHB_READ addr=0x000030f8 resp=AHB_RESP_OKAY waits=2 rdata=0xe6920691
# UVM_INFO ../src/mst/ahb_master_monitor.sv(117) @ 1725000: uvm_test_top.env.master_agent.mon [ahb_master_monitor] Beat[8] addr=0x000030f8 rdata=0xe6920691 resp=AHB_RESP_OKAY
# UVM_INFO ../src/mst/ahb_master_driver.sv(332) @ 1745000: uvm_test_top.env.master_agent.drv [ahb_master_driver] Beat[9/16] addr=0x000030f9 trans=AHB_TRANS_SEQ resp=AHB_RESP_OKAY rdata=0x1bd5aa84
# UVM_INFO ../src/slv/ahb_slave_driver.sv(184) @ 1745000: uvm_test_top.env.slave_agent.drv [ahb_slave_driver] Beat AHB_READ addr=0x000030f9 resp=AHB_RESP_OKAY waits=1 rdata=0x1bd5aa84
# UVM_INFO ../src/mst/ahb_master_monitor.sv(117) @ 1745000: uvm_test_top.env.master_agent.mon [ahb_master_monitor] Beat[9] addr=0x000030f9 rdata=0x1bd5aa84 resp=AHB_RESP_OKAY
# UVM_INFO ../src/mst/ahb_master_driver.sv(332) @ 1755000: uvm_test_top.env.master_agent.drv [ahb_master_driver] Beat[10/16] addr=0x000030fa trans=AHB_TRANS_SEQ resp=AHB_RESP_OKAY rdata=0x0003e341
# UVM_INFO ../src/slv/ahb_slave_driver.sv(184) @ 1755000: uvm_test_top.env.slave_agent.drv [ahb_slave_driver] Beat AHB_READ addr=0x000030fa resp=AHB_RESP_OKAY waits=0 rdata=0x0003e341
# UVM_INFO ../src/mst/ahb_master_monitor.sv(117) @ 1755000: uvm_test_top.env.master_agent.mon [ahb_master_monitor] Beat[10] addr=0x000030fa rdata=0x0003e341 resp=AHB_RESP_OKAY
# UVM_INFO ../src/mst/ahb_master_driver.sv(332) @ 1785000: uvm_test_top.env.master_agent.drv [ahb_master_driver] Beat[11/16] addr=0x000030fb trans=AHB_TRANS_SEQ resp=AHB_RESP_OKAY rdata=0xdeb6c894
# UVM_INFO ../src/slv/ahb_slave_driver.sv(184) @ 1785000: uvm_test_top.env.slave_agent.drv [ahb_slave_driver] Beat AHB_READ addr=0x000030fb resp=AHB_RESP_OKAY waits=2 rdata=0xdeb6c894
# UVM_INFO ../src/mst/ahb_master_monitor.sv(117) @ 1785000: uvm_test_top.env.master_agent.mon [ahb_master_monitor] Beat[11] addr=0x000030fb rdata=0xdeb6c894 resp=AHB_RESP_OKAY
# UVM_INFO ../src/mst/ahb_master_driver.sv(332) @ 1805000: uvm_test_top.env.master_agent.drv [ahb_master_driver] Beat[12/16] addr=0x000030fc trans=AHB_TRANS_SEQ resp=AHB_RESP_OKAY rdata=0xfdc0a6e1
# UVM_INFO ../src/slv/ahb_slave_driver.sv(184) @ 1805000: uvm_test_top.env.slave_agent.drv [ahb_slave_driver] Beat AHB_READ addr=0x000030fc resp=AHB_RESP_OKAY waits=1 rdata=0xfdc0a6e1
# UVM_INFO ../src/mst/ahb_master_monitor.sv(117) @ 1805000: uvm_test_top.env.master_agent.mon [ahb_master_monitor] Beat[12] addr=0x000030fc rdata=0xfdc0a6e1 resp=AHB_RESP_OKAY
# UVM_INFO ../src/mst/ahb_master_driver.sv(332) @ 1815000: uvm_test_top.env.master_agent.drv [ahb_master_driver] Beat[13/16] addr=0x000030fd trans=AHB_TRANS_SEQ resp=AHB_RESP_OKAY rdata=0x52978d5b
# UVM_INFO ../src/slv/ahb_slave_driver.sv(184) @ 1815000: uvm_test_top.env.slave_agent.drv [ahb_slave_driver] Beat AHB_READ addr=0x000030fd resp=AHB_RESP_OKAY waits=0 rdata=0x52978d5b
# UVM_INFO ../src/mst/ahb_master_monitor.sv(117) @ 1815000: uvm_test_top.env.master_agent.mon [ahb_master_monitor] Beat[13] addr=0x000030fd rdata=0x52978d5b resp=AHB_RESP_OKAY
# UVM_INFO ../src/mst/ahb_master_driver.sv(332) @ 1845000: uvm_test_top.env.master_agent.drv [ahb_master_driver] Beat[14/16] addr=0x000030fe trans=AHB_TRANS_SEQ resp=AHB_RESP_OKAY rdata=0x082bd111
# UVM_INFO ../src/slv/ahb_slave_driver.sv(184) @ 1845000: uvm_test_top.env.slave_agent.drv [ahb_slave_driver] Beat AHB_READ addr=0x000030fe resp=AHB_RESP_OKAY waits=2 rdata=0x082bd111
# UVM_INFO ../src/mst/ahb_master_monitor.sv(117) @ 1845000: uvm_test_top.env.master_agent.mon [ahb_master_monitor] Beat[14] addr=0x000030fe rdata=0x082bd111 resp=AHB_RESP_OKAY
# UVM_INFO ../src/mst/ahb_master_driver.sv(332) @ 1865000: uvm_test_top.env.master_agent.drv [ahb_master_driver] Beat[15/16] addr=0x000030ff trans=AHB_TRANS_SEQ resp=AHB_RESP_OKAY rdata=0x929f5763
# UVM_INFO ../src/mst/ahb_master_driver.sv(376) @ 1865000: uvm_test_top.env.master_agent.drv [ahb_master_driver] Transaction complete: AHB_READ 0x000030f0, 16 beats, burst=AHB_BURST_INCR16
# UVM_INFO ../src/slv/ahb_slave_driver.sv(184) @ 1865000: uvm_test_top.env.slave_agent.drv [ahb_slave_driver] Beat AHB_READ addr=0x000030ff resp=AHB_RESP_OKAY waits=1 rdata=0x929f5763
# UVM_INFO ../src/mst/ahb_master_monitor.sv(117) @ 1865000: uvm_test_top.env.master_agent.mon [ahb_master_monitor] Beat[15] addr=0x000030ff rdata=0x929f5763 resp=AHB_RESP_OKAY
# UVM_INFO ../src/mst/ahb_master_monitor.sv(220) @ 1865000: uvm_test_top.env.master_agent.mon [ahb_master_monitor] Observed [AHB_READ]: HADDR=0x000030f0, HBURST=AHB_BURST_INCR16, HSIZE=AHB_SIZE_8B, 16 beats
# UVM_INFO ../src/env/ahb_coverage.sv(126) @ 1865000: uvm_test_top.env.master_cov [ahb_coverage] Sampled [AHB_READ]: burst=AHB_BURST_INCR16 size=AHB_SIZE_8B beats=16 error=0
# UVM_INFO ../src/slv/ahb_slave_monitor.sv(197) @ 1865000: uvm_test_top.env.slave_agent.mon [ahb_slave_monitor] Observed [AHB_READ]: HADDR=0x000030f0, HBURST=AHB_BURST_INCR16, HSIZE=AHB_SIZE_8B, 16 beats
# UVM_INFO ../src/env/ahb_scoreboard.sv(104) @ 1865000: uvm_test_top.env.scb [ahb_scoreboard] MATCH #8: [AHB_READ] HADDR=0x000030f0 AHB_BURST_INCR16 16 beats
# UVM_INFO ../src/env/ahb_coverage.sv(126) @ 1865000: uvm_test_top.env.slave_cov [ahb_coverage] Sampled [AHB_READ]: burst=AHB_BURST_INCR16 size=AHB_SIZE_8B beats=16 error=0
# UVM_INFO ../src/mst_seq/ahb_base_seq.sv(177) @ 1865000: uvm_test_top.env.master_agent.sqr@@seq [ahb_incr_burst_seq] AHB_BURST_INCR16 AHB_SIZE_8B beat 0 @0x000030f0 ok
# UVM_INFO ../src/mst_seq/ahb_base_seq.sv(177) @ 1865000: uvm_test_top.env.master_agent.sqr@@seq [ahb_incr_burst_seq] AHB_BURST_INCR16 AHB_SIZE_8B beat 1 @0x000030f1 ok
# UVM_INFO ../src/mst_seq/ahb_base_seq.sv(177) @ 1865000: uvm_test_top.env.master_agent.sqr@@seq [ahb_incr_burst_seq] AHB_BURST_INCR16 AHB_SIZE_8B beat 2 @0x000030f2 ok
# UVM_INFO ../src/mst_seq/ahb_base_seq.sv(177) @ 1865000: uvm_test_top.env.master_agent.sqr@@seq [ahb_incr_burst_seq] AHB_BURST_INCR16 AHB_SIZE_8B beat 3 @0x000030f3 ok
# UVM_INFO ../src/mst_seq/ahb_base_seq.sv(177) @ 1865000: uvm_test_top.env.master_agent.sqr@@seq [ahb_incr_burst_seq] AHB_BURST_INCR16 AHB_SIZE_8B beat 4 @0x000030f4 ok
# UVM_INFO ../src/mst_seq/ahb_base_seq.sv(177) @ 1865000: uvm_test_top.env.master_agent.sqr@@seq [ahb_incr_burst_seq] AHB_BURST_INCR16 AHB_SIZE_8B beat 5 @0x000030f5 ok
# UVM_INFO ../src/mst_seq/ahb_base_seq.sv(177) @ 1865000: uvm_test_top.env.master_agent.sqr@@seq [ahb_incr_burst_seq] AHB_BURST_INCR16 AHB_SIZE_8B beat 6 @0x000030f6 ok
# UVM_INFO ../src/mst_seq/ahb_base_seq.sv(177) @ 1865000: uvm_test_top.env.master_agent.sqr@@seq [ahb_incr_burst_seq] AHB_BURST_INCR16 AHB_SIZE_8B beat 7 @0x000030f7 ok
# UVM_INFO ../src/mst_seq/ahb_base_seq.sv(177) @ 1865000: uvm_test_top.env.master_agent.sqr@@seq [ahb_incr_burst_seq] AHB_BURST_INCR16 AHB_SIZE_8B beat 8 @0x000030f8 ok
# UVM_INFO ../src/mst_seq/ahb_base_seq.sv(177) @ 1865000: uvm_test_top.env.master_agent.sqr@@seq [ahb_incr_burst_seq] AHB_BURST_INCR16 AHB_SIZE_8B beat 9 @0x000030f9 ok
# UVM_INFO ../src/mst_seq/ahb_base_seq.sv(177) @ 1865000: uvm_test_top.env.master_agent.sqr@@seq [ahb_incr_burst_seq] AHB_BURST_INCR16 AHB_SIZE_8B beat 10 @0x000030fa ok
# UVM_INFO ../src/mst_seq/ahb_base_seq.sv(177) @ 1865000: uvm_test_top.env.master_agent.sqr@@seq [ahb_incr_burst_seq] AHB_BURST_INCR16 AHB_SIZE_8B beat 11 @0x000030fb ok
# UVM_INFO ../src/mst_seq/ahb_base_seq.sv(177) @ 1865000: uvm_test_top.env.master_agent.sqr@@seq [ahb_incr_burst_seq] AHB_BURST_INCR16 AHB_SIZE_8B beat 12 @0x000030fc ok
# UVM_INFO ../src/mst_seq/ahb_base_seq.sv(177) @ 1865000: uvm_test_top.env.master_agent.sqr@@seq [ahb_incr_burst_seq] AHB_BURST_INCR16 AHB_SIZE_8B beat 13 @0x000030fd ok
# UVM_INFO ../src/mst_seq/ahb_base_seq.sv(177) @ 1865000: uvm_test_top.env.master_agent.sqr@@seq [ahb_incr_burst_seq] AHB_BURST_INCR16 AHB_SIZE_8B beat 14 @0x000030fe ok
# UVM_INFO ../src/mst_seq/ahb_base_seq.sv(177) @ 1865000: uvm_test_top.env.master_agent.sqr@@seq [ahb_incr_burst_seq] AHB_BURST_INCR16 AHB_SIZE_8B beat 15 @0x000030ff ok
# UVM_INFO ../src/mst/ahb_master_driver.sv(85) @ 1865000: uvm_test_top.env.master_agent.drv [ahb_master_driver] Queueing [AHB_WRITE]: HADDR=0x00003130, HBURST=AHB_BURST_INCR8, HSIZE=AHB_SIZE_8B, 8 beats
# UVM_INFO ../src/mst/ahb_master_driver.sv(127) @ 1865000: uvm_test_top.env.master_agent.drv [ahb_master_driver] Driving [AHB_WRITE]: HADDR=0x00003130, HBURST=AHB_BURST_INCR8, HSIZE=AHB_SIZE_8B, 8 beats               
# UVM_INFO ../src/mst/ahb_master_driver.sv(332) @ 1895000: uvm_test_top.env.master_agent.drv [ahb_master_driver] Beat[0/8] addr=0x00003130 trans=AHB_TRANS_NONSEQ resp=AHB_RESP_OKAY wdata=0x155079cd
# UVM_INFO ../src/slv/ahb_slave_driver.sv(184) @ 1895000: uvm_test_top.env.slave_agent.drv [ahb_slave_driver] Beat AHB_WRITE addr=0x00003130 resp=AHB_RESP_OKAY waits=0 wdata=0x155079cd
# UVM_INFO ../src/mst/ahb_master_monitor.sv(117) @ 1895000: uvm_test_top.env.master_agent.mon [ahb_master_monitor] Beat[0] addr=0x00003130 wdata=0x155079cd resp=AHB_RESP_OKAY
# UVM_INFO ../src/mst/ahb_master_driver.sv(332) @ 1925000: uvm_test_top.env.master_agent.drv [ahb_master_driver] Beat[1/8] addr=0x00003131 trans=AHB_TRANS_SEQ resp=AHB_RESP_OKAY wdata=0x883a9e33
# UVM_INFO ../src/slv/ahb_slave_driver.sv(184) @ 1925000: uvm_test_top.env.slave_agent.drv [ahb_slave_driver] Beat AHB_WRITE addr=0x00003131 resp=AHB_RESP_OKAY waits=2 wdata=0x883a9e33
# UVM_INFO ../src/mst/ahb_master_monitor.sv(117) @ 1925000: uvm_test_top.env.master_agent.mon [ahb_master_monitor] Beat[1] addr=0x00003131 wdata=0x883a9e33 resp=AHB_RESP_OKAY
# UVM_INFO ../src/mst/ahb_master_driver.sv(332) @ 1955000: uvm_test_top.env.master_agent.drv [ahb_master_driver] Beat[2/8] addr=0x00003132 trans=AHB_TRANS_SEQ resp=AHB_RESP_OKAY wdata=0x52937564
# UVM_INFO ../src/slv/ahb_slave_driver.sv(184) @ 1955000: uvm_test_top.env.slave_agent.drv [ahb_slave_driver] Beat AHB_WRITE addr=0x00003132 resp=AHB_RESP_OKAY waits=2 wdata=0x52937564
# UVM_INFO ../src/mst/ahb_master_monitor.sv(117) @ 1955000: uvm_test_top.env.master_agent.mon [ahb_master_monitor] Beat[2] addr=0x00003132 wdata=0x52937564 resp=AHB_RESP_OKAY
# UVM_INFO ../src/mst/ahb_master_driver.sv(332) @ 1975000: uvm_test_top.env.master_agent.drv [ahb_master_driver] Beat[3/8] addr=0x00003133 trans=AHB_TRANS_SEQ resp=AHB_RESP_OKAY wdata=0xdfec0968
# UVM_INFO ../src/slv/ahb_slave_driver.sv(184) @ 1975000: uvm_test_top.env.slave_agent.drv [ahb_slave_driver] Beat AHB_WRITE addr=0x00003133 resp=AHB_RESP_OKAY waits=1 wdata=0xdfec0968
# UVM_INFO ../src/mst/ahb_master_monitor.sv(117) @ 1975000: uvm_test_top.env.master_agent.mon [ahb_master_monitor] Beat[3] addr=0x00003133 wdata=0xdfec0968 resp=AHB_RESP_OKAY
# UVM_INFO ../src/mst/ahb_master_driver.sv(332) @ 1995000: uvm_test_top.env.master_agent.drv [ahb_master_driver] Beat[4/8] addr=0x00003134 trans=AHB_TRANS_SEQ resp=AHB_RESP_OKAY wdata=0xa540ae48
# UVM_INFO ../src/slv/ahb_slave_driver.sv(184) @ 1995000: uvm_test_top.env.slave_agent.drv [ahb_slave_driver] Beat AHB_WRITE addr=0x00003134 resp=AHB_RESP_OKAY waits=1 wdata=0xa540ae48
# UVM_INFO ../src/mst/ahb_master_monitor.sv(117) @ 1995000: uvm_test_top.env.master_agent.mon [ahb_master_monitor] Beat[4] addr=0x00003134 wdata=0xa540ae48 resp=AHB_RESP_OKAY
# UVM_INFO ../src/mst/ahb_master_driver.sv(332) @ 2025000: uvm_test_top.env.master_agent.drv [ahb_master_driver] Beat[5/8] addr=0x00003135 trans=AHB_TRANS_SEQ resp=AHB_RESP_OKAY wdata=0x2109af53
# UVM_INFO ../src/slv/ahb_slave_driver.sv(184) @ 2025000: uvm_test_top.env.slave_agent.drv [ahb_slave_driver] Beat AHB_WRITE addr=0x00003135 resp=AHB_RESP_OKAY waits=2 wdata=0x2109af53
# UVM_INFO ../src/mst/ahb_master_monitor.sv(117) @ 2025000: uvm_test_top.env.master_agent.mon [ahb_master_monitor] Beat[5] addr=0x00003135 wdata=0x2109af53 resp=AHB_RESP_OKAY
# UVM_INFO ../src/mst/ahb_master_driver.sv(332) @ 2055000: uvm_test_top.env.master_agent.drv [ahb_master_driver] Beat[6/8] addr=0x00003136 trans=AHB_TRANS_SEQ resp=AHB_RESP_OKAY wdata=0x1f4c5ebf
# UVM_INFO ../src/slv/ahb_slave_driver.sv(184) @ 2055000: uvm_test_top.env.slave_agent.drv [ahb_slave_driver] Beat AHB_WRITE addr=0x00003136 resp=AHB_RESP_OKAY waits=2 wdata=0x1f4c5ebf
# UVM_INFO ../src/mst/ahb_master_monitor.sv(117) @ 2055000: uvm_test_top.env.master_agent.mon [ahb_master_monitor] Beat[6] addr=0x00003136 wdata=0x1f4c5ebf resp=AHB_RESP_OKAY
# UVM_INFO ../src/mst/ahb_master_driver.sv(332) @ 2065000: uvm_test_top.env.master_agent.drv [ahb_master_driver] Beat[7/8] addr=0x00003137 trans=AHB_TRANS_SEQ resp=AHB_RESP_OKAY wdata=0x0350c808
# UVM_INFO ../src/mst/ahb_master_driver.sv(376) @ 2065000: uvm_test_top.env.master_agent.drv [ahb_master_driver] Transaction complete: AHB_WRITE 0x00003130, 8 beats, burst=AHB_BURST_INCR8
# UVM_INFO ../src/slv/ahb_slave_driver.sv(184) @ 2065000: uvm_test_top.env.slave_agent.drv [ahb_slave_driver] Beat AHB_WRITE addr=0x00003137 resp=AHB_RESP_OKAY waits=0 wdata=0x0350c808
# UVM_INFO ../src/mst/ahb_master_monitor.sv(117) @ 2065000: uvm_test_top.env.master_agent.mon [ahb_master_monitor] Beat[7] addr=0x00003137 wdata=0x0350c808 resp=AHB_RESP_OKAY
# UVM_INFO ../src/mst/ahb_master_monitor.sv(220) @ 2065000: uvm_test_top.env.master_agent.mon [ahb_master_monitor] Observed [AHB_WRITE]: HADDR=0x00003130, HBURST=AHB_BURST_INCR8, HSIZE=AHB_SIZE_8B, 8 beats
# UVM_INFO ../src/env/ahb_coverage.sv(126) @ 2065000: uvm_test_top.env.master_cov [ahb_coverage] Sampled [AHB_WRITE]: burst=AHB_BURST_INCR8 size=AHB_SIZE_8B beats=8 error=0
# UVM_INFO ../src/slv/ahb_slave_monitor.sv(197) @ 2065000: uvm_test_top.env.slave_agent.mon [ahb_slave_monitor] Observed [AHB_WRITE]: HADDR=0x00003130, HBURST=AHB_BURST_INCR8, HSIZE=AHB_SIZE_8B, 8 beats
# UVM_INFO ../src/env/ahb_scoreboard.sv(104) @ 2065000: uvm_test_top.env.scb [ahb_scoreboard] MATCH #9: [AHB_WRITE] HADDR=0x00003130 AHB_BURST_INCR8 8 beats
# UVM_INFO ../src/env/ahb_coverage.sv(126) @ 2065000: uvm_test_top.env.slave_cov [ahb_coverage] Sampled [AHB_WRITE]: burst=AHB_BURST_INCR8 size=AHB_SIZE_8B beats=8 error=0
# UVM_INFO ../src/mst/ahb_master_driver.sv(85) @ 2065000: uvm_test_top.env.master_agent.drv [ahb_master_driver] Queueing [AHB_READ]: HADDR=0x00003130, HBURST=AHB_BURST_INCR8, HSIZE=AHB_SIZE_8B, 8 beats
# UVM_INFO ../src/mst/ahb_master_driver.sv(127) @ 2065000: uvm_test_top.env.master_agent.drv [ahb_master_driver] Driving [AHB_READ]: HADDR=0x00003130, HBURST=AHB_BURST_INCR8, HSIZE=AHB_SIZE_8B, 8 beats               
# UVM_INFO ../src/mst/ahb_master_driver.sv(332) @ 2095000: uvm_test_top.env.master_agent.drv [ahb_master_driver] Beat[0/8] addr=0x00003130 trans=AHB_TRANS_NONSEQ resp=AHB_RESP_OKAY rdata=0x155079cd
# UVM_INFO ../src/slv/ahb_slave_driver.sv(184) @ 2095000: uvm_test_top.env.slave_agent.drv [ahb_slave_driver] Beat AHB_READ addr=0x00003130 resp=AHB_RESP_OKAY waits=0 rdata=0x155079cd
# UVM_INFO ../src/mst/ahb_master_monitor.sv(117) @ 2095000: uvm_test_top.env.master_agent.mon [ahb_master_monitor] Beat[0] addr=0x00003130 rdata=0x155079cd resp=AHB_RESP_OKAY
# UVM_INFO ../src/mst/ahb_master_driver.sv(332) @ 2105000: uvm_test_top.env.master_agent.drv [ahb_master_driver] Beat[1/8] addr=0x00003131 trans=AHB_TRANS_SEQ resp=AHB_RESP_OKAY rdata=0x883a9e33
# UVM_INFO ../src/slv/ahb_slave_driver.sv(184) @ 2105000: uvm_test_top.env.slave_agent.drv [ahb_slave_driver] Beat AHB_READ addr=0x00003131 resp=AHB_RESP_OKAY waits=0 rdata=0x883a9e33
# UVM_INFO ../src/mst/ahb_master_monitor.sv(117) @ 2105000: uvm_test_top.env.master_agent.mon [ahb_master_monitor] Beat[1] addr=0x00003131 rdata=0x883a9e33 resp=AHB_RESP_OKAY
# UVM_INFO ../src/mst/ahb_master_driver.sv(332) @ 2125000: uvm_test_top.env.master_agent.drv [ahb_master_driver] Beat[2/8] addr=0x00003132 trans=AHB_TRANS_SEQ resp=AHB_RESP_OKAY rdata=0x52937564
# UVM_INFO ../src/slv/ahb_slave_driver.sv(184) @ 2125000: uvm_test_top.env.slave_agent.drv [ahb_slave_driver] Beat AHB_READ addr=0x00003132 resp=AHB_RESP_OKAY waits=1 rdata=0x52937564
# UVM_INFO ../src/mst/ahb_master_monitor.sv(117) @ 2125000: uvm_test_top.env.master_agent.mon [ahb_master_monitor] Beat[2] addr=0x00003132 rdata=0x52937564 resp=AHB_RESP_OKAY
# UVM_INFO ../src/mst/ahb_master_driver.sv(332) @ 2145000: uvm_test_top.env.master_agent.drv [ahb_master_driver] Beat[3/8] addr=0x00003133 trans=AHB_TRANS_SEQ resp=AHB_RESP_OKAY rdata=0xdfec0968
# UVM_INFO ../src/slv/ahb_slave_driver.sv(184) @ 2145000: uvm_test_top.env.slave_agent.drv [ahb_slave_driver] Beat AHB_READ addr=0x00003133 resp=AHB_RESP_OKAY waits=1 rdata=0xdfec0968
# UVM_INFO ../src/mst/ahb_master_monitor.sv(117) @ 2145000: uvm_test_top.env.master_agent.mon [ahb_master_monitor] Beat[3] addr=0x00003133 rdata=0xdfec0968 resp=AHB_RESP_OKAY
# UVM_INFO ../src/mst/ahb_master_driver.sv(332) @ 2165000: uvm_test_top.env.master_agent.drv [ahb_master_driver] Beat[4/8] addr=0x00003134 trans=AHB_TRANS_SEQ resp=AHB_RESP_OKAY rdata=0xa540ae48
# UVM_INFO ../src/slv/ahb_slave_driver.sv(184) @ 2165000: uvm_test_top.env.slave_agent.drv [ahb_slave_driver] Beat AHB_READ addr=0x00003134 resp=AHB_RESP_OKAY waits=1 rdata=0xa540ae48
# UVM_INFO ../src/mst/ahb_master_monitor.sv(117) @ 2165000: uvm_test_top.env.master_agent.mon [ahb_master_monitor] Beat[4] addr=0x00003134 rdata=0xa540ae48 resp=AHB_RESP_OKAY
# UVM_INFO ../src/mst/ahb_master_driver.sv(332) @ 2185000: uvm_test_top.env.master_agent.drv [ahb_master_driver] Beat[5/8] addr=0x00003135 trans=AHB_TRANS_SEQ resp=AHB_RESP_OKAY rdata=0x2109af53
# UVM_INFO ../src/slv/ahb_slave_driver.sv(184) @ 2185000: uvm_test_top.env.slave_agent.drv [ahb_slave_driver] Beat AHB_READ addr=0x00003135 resp=AHB_RESP_OKAY waits=1 rdata=0x2109af53
# UVM_INFO ../src/mst/ahb_master_monitor.sv(117) @ 2185000: uvm_test_top.env.master_agent.mon [ahb_master_monitor] Beat[5] addr=0x00003135 rdata=0x2109af53 resp=AHB_RESP_OKAY
# UVM_INFO ../src/mst/ahb_master_driver.sv(332) @ 2205000: uvm_test_top.env.master_agent.drv [ahb_master_driver] Beat[6/8] addr=0x00003136 trans=AHB_TRANS_SEQ resp=AHB_RESP_OKAY rdata=0x1f4c5ebf
# UVM_INFO ../src/slv/ahb_slave_driver.sv(184) @ 2205000: uvm_test_top.env.slave_agent.drv [ahb_slave_driver] Beat AHB_READ addr=0x00003136 resp=AHB_RESP_OKAY waits=1 rdata=0x1f4c5ebf
# UVM_INFO ../src/mst/ahb_master_monitor.sv(117) @ 2205000: uvm_test_top.env.master_agent.mon [ahb_master_monitor] Beat[6] addr=0x00003136 rdata=0x1f4c5ebf resp=AHB_RESP_OKAY
# UVM_INFO ../src/mst/ahb_master_driver.sv(332) @ 2235000: uvm_test_top.env.master_agent.drv [ahb_master_driver] Beat[7/8] addr=0x00003137 trans=AHB_TRANS_SEQ resp=AHB_RESP_OKAY rdata=0x0350c808
# UVM_INFO ../src/mst/ahb_master_driver.sv(376) @ 2235000: uvm_test_top.env.master_agent.drv [ahb_master_driver] Transaction complete: AHB_READ 0x00003130, 8 beats, burst=AHB_BURST_INCR8
# UVM_INFO ../src/slv/ahb_slave_driver.sv(184) @ 2235000: uvm_test_top.env.slave_agent.drv [ahb_slave_driver] Beat AHB_READ addr=0x00003137 resp=AHB_RESP_OKAY waits=2 rdata=0x0350c808
# UVM_INFO ../src/slv/ahb_slave_monitor.sv(197) @ 2235000: uvm_test_top.env.slave_agent.mon [ahb_slave_monitor] Observed [AHB_READ]: HADDR=0x00003130, HBURST=AHB_BURST_INCR8, HSIZE=AHB_SIZE_8B, 8 beats
# UVM_INFO ../src/env/ahb_coverage.sv(126) @ 2235000: uvm_test_top.env.slave_cov [ahb_coverage] Sampled [AHB_READ]: burst=AHB_BURST_INCR8 size=AHB_SIZE_8B beats=8 error=0
# UVM_INFO ../src/mst/ahb_master_monitor.sv(117) @ 2235000: uvm_test_top.env.master_agent.mon [ahb_master_monitor] Beat[7] addr=0x00003137 rdata=0x0350c808 resp=AHB_RESP_OKAY
# UVM_INFO ../src/mst/ahb_master_monitor.sv(220) @ 2235000: uvm_test_top.env.master_agent.mon [ahb_master_monitor] Observed [AHB_READ]: HADDR=0x00003130, HBURST=AHB_BURST_INCR8, HSIZE=AHB_SIZE_8B, 8 beats
# UVM_INFO ../src/env/ahb_coverage.sv(126) @ 2235000: uvm_test_top.env.master_cov [ahb_coverage] Sampled [AHB_READ]: burst=AHB_BURST_INCR8 size=AHB_SIZE_8B beats=8 error=0
# UVM_INFO ../src/env/ahb_scoreboard.sv(104) @ 2235000: uvm_test_top.env.scb [ahb_scoreboard] MATCH #10: [AHB_READ] HADDR=0x00003130 AHB_BURST_INCR8 8 beats
# UVM_INFO ../src/mst_seq/ahb_base_seq.sv(177) @ 2235000: uvm_test_top.env.master_agent.sqr@@seq [ahb_incr_burst_seq] AHB_BURST_INCR8 AHB_SIZE_8B beat 0 @0x00003130 ok
# UVM_INFO ../src/mst_seq/ahb_base_seq.sv(177) @ 2235000: uvm_test_top.env.master_agent.sqr@@seq [ahb_incr_burst_seq] AHB_BURST_INCR8 AHB_SIZE_8B beat 1 @0x00003131 ok
# UVM_INFO ../src/mst_seq/ahb_base_seq.sv(177) @ 2235000: uvm_test_top.env.master_agent.sqr@@seq [ahb_incr_burst_seq] AHB_BURST_INCR8 AHB_SIZE_8B beat 2 @0x00003132 ok
# UVM_INFO ../src/mst_seq/ahb_base_seq.sv(177) @ 2235000: uvm_test_top.env.master_agent.sqr@@seq [ahb_incr_burst_seq] AHB_BURST_INCR8 AHB_SIZE_8B beat 3 @0x00003133 ok
# UVM_INFO ../src/mst_seq/ahb_base_seq.sv(177) @ 2235000: uvm_test_top.env.master_agent.sqr@@seq [ahb_incr_burst_seq] AHB_BURST_INCR8 AHB_SIZE_8B beat 4 @0x00003134 ok
# UVM_INFO ../src/mst_seq/ahb_base_seq.sv(177) @ 2235000: uvm_test_top.env.master_agent.sqr@@seq [ahb_incr_burst_seq] AHB_BURST_INCR8 AHB_SIZE_8B beat 5 @0x00003135 ok
# UVM_INFO ../src/mst_seq/ahb_base_seq.sv(177) @ 2235000: uvm_test_top.env.master_agent.sqr@@seq [ahb_incr_burst_seq] AHB_BURST_INCR8 AHB_SIZE_8B beat 6 @0x00003136 ok
# UVM_INFO ../src/mst_seq/ahb_base_seq.sv(177) @ 2235000: uvm_test_top.env.master_agent.sqr@@seq [ahb_incr_burst_seq] AHB_BURST_INCR8 AHB_SIZE_8B beat 7 @0x00003137 ok
# UVM_INFO ../src/mst/ahb_master_driver.sv(85) @ 2235000: uvm_test_top.env.master_agent.drv [ahb_master_driver] Queueing [AHB_WRITE]: HADDR=0x00003165, HBURST=AHB_BURST_INCR4, HSIZE=AHB_SIZE_8B, 4 beats
# UVM_INFO ../src/mst/ahb_master_driver.sv(127) @ 2235000: uvm_test_top.env.master_agent.drv [ahb_master_driver] Driving [AHB_WRITE]: HADDR=0x00003165, HBURST=AHB_BURST_INCR4, HSIZE=AHB_SIZE_8B, 4 beats               
# UVM_INFO ../src/mst/ahb_master_driver.sv(332) @ 2285000: uvm_test_top.env.master_agent.drv [ahb_master_driver] Beat[0/4] addr=0x00003165 trans=AHB_TRANS_NONSEQ resp=AHB_RESP_OKAY wdata=0xf9595122
# UVM_INFO ../src/slv/ahb_slave_driver.sv(184) @ 2285000: uvm_test_top.env.slave_agent.drv [ahb_slave_driver] Beat AHB_WRITE addr=0x00003165 resp=AHB_RESP_OKAY waits=2 wdata=0xf9595122
# UVM_INFO ../src/mst/ahb_master_monitor.sv(117) @ 2285000: uvm_test_top.env.master_agent.mon [ahb_master_monitor] Beat[0] addr=0x00003165 wdata=0xf9595122 resp=AHB_RESP_OKAY
# UVM_INFO ../src/mst/ahb_master_driver.sv(332) @ 2305000: uvm_test_top.env.master_agent.drv [ahb_master_driver] Beat[1/4] addr=0x00003166 trans=AHB_TRANS_SEQ resp=AHB_RESP_OKAY wdata=0xeb25342f
# UVM_INFO ../src/slv/ahb_slave_driver.sv(184) @ 2305000: uvm_test_top.env.slave_agent.drv [ahb_slave_driver] Beat AHB_WRITE addr=0x00003166 resp=AHB_RESP_OKAY waits=1 wdata=0xeb25342f
# UVM_INFO ../src/mst/ahb_master_monitor.sv(117) @ 2305000: uvm_test_top.env.master_agent.mon [ahb_master_monitor] Beat[1] addr=0x00003166 wdata=0xeb25342f resp=AHB_RESP_OKAY
# UVM_INFO ../src/mst/ahb_master_driver.sv(332) @ 2335000: uvm_test_top.env.master_agent.drv [ahb_master_driver] Beat[2/4] addr=0x00003167 trans=AHB_TRANS_SEQ resp=AHB_RESP_OKAY wdata=0x77fcdb73
# UVM_INFO ../src/slv/ahb_slave_driver.sv(184) @ 2335000: uvm_test_top.env.slave_agent.drv [ahb_slave_driver] Beat AHB_WRITE addr=0x00003167 resp=AHB_RESP_OKAY waits=2 wdata=0x77fcdb73
# UVM_INFO ../src/mst/ahb_master_monitor.sv(117) @ 2335000: uvm_test_top.env.master_agent.mon [ahb_master_monitor] Beat[2] addr=0x00003167 wdata=0x77fcdb73 resp=AHB_RESP_OKAY
# UVM_INFO ../src/mst/ahb_master_driver.sv(332) @ 2345000: uvm_test_top.env.master_agent.drv [ahb_master_driver] Beat[3/4] addr=0x00003168 trans=AHB_TRANS_SEQ resp=AHB_RESP_OKAY wdata=0xbec87bae
# UVM_INFO ../src/mst/ahb_master_driver.sv(376) @ 2345000: uvm_test_top.env.master_agent.drv [ahb_master_driver] Transaction complete: AHB_WRITE 0x00003165, 4 beats, burst=AHB_BURST_INCR4
# UVM_INFO ../src/slv/ahb_slave_driver.sv(184) @ 2345000: uvm_test_top.env.slave_agent.drv [ahb_slave_driver] Beat AHB_WRITE addr=0x00003168 resp=AHB_RESP_OKAY waits=0 wdata=0xbec87bae
# UVM_INFO ../src/mst/ahb_master_monitor.sv(117) @ 2345000: uvm_test_top.env.master_agent.mon [ahb_master_monitor] Beat[3] addr=0x00003168 wdata=0xbec87bae resp=AHB_RESP_OKAY
# UVM_INFO ../src/mst/ahb_master_monitor.sv(220) @ 2345000: uvm_test_top.env.master_agent.mon [ahb_master_monitor] Observed [AHB_WRITE]: HADDR=0x00003165, HBURST=AHB_BURST_INCR4, HSIZE=AHB_SIZE_8B, 4 beats
# UVM_INFO ../src/env/ahb_coverage.sv(126) @ 2345000: uvm_test_top.env.master_cov [ahb_coverage] Sampled [AHB_WRITE]: burst=AHB_BURST_INCR4 size=AHB_SIZE_8B beats=4 error=0
# UVM_INFO ../src/slv/ahb_slave_monitor.sv(197) @ 2345000: uvm_test_top.env.slave_agent.mon [ahb_slave_monitor] Observed [AHB_WRITE]: HADDR=0x00003165, HBURST=AHB_BURST_INCR4, HSIZE=AHB_SIZE_8B, 4 beats
# UVM_INFO ../src/env/ahb_scoreboard.sv(104) @ 2345000: uvm_test_top.env.scb [ahb_scoreboard] MATCH #11: [AHB_WRITE] HADDR=0x00003165 AHB_BURST_INCR4 4 beats
# UVM_INFO ../src/env/ahb_coverage.sv(126) @ 2345000: uvm_test_top.env.slave_cov [ahb_coverage] Sampled [AHB_WRITE]: burst=AHB_BURST_INCR4 size=AHB_SIZE_8B beats=4 error=0
# UVM_INFO ../src/mst/ahb_master_driver.sv(85) @ 2345000: uvm_test_top.env.master_agent.drv [ahb_master_driver] Queueing [AHB_READ]: HADDR=0x00003165, HBURST=AHB_BURST_INCR4, HSIZE=AHB_SIZE_8B, 4 beats
# UVM_INFO ../src/mst/ahb_master_driver.sv(127) @ 2345000: uvm_test_top.env.master_agent.drv [ahb_master_driver] Driving [AHB_READ]: HADDR=0x00003165, HBURST=AHB_BURST_INCR4, HSIZE=AHB_SIZE_8B, 4 beats               
# UVM_INFO ../src/mst/ahb_master_driver.sv(332) @ 2395000: uvm_test_top.env.master_agent.drv [ahb_master_driver] Beat[0/4] addr=0x00003165 trans=AHB_TRANS_NONSEQ resp=AHB_RESP_OKAY rdata=0xf9595122
# UVM_INFO ../src/slv/ahb_slave_driver.sv(184) @ 2395000: uvm_test_top.env.slave_agent.drv [ahb_slave_driver] Beat AHB_READ addr=0x00003165 resp=AHB_RESP_OKAY waits=2 rdata=0xf9595122
# UVM_INFO ../src/mst/ahb_master_monitor.sv(117) @ 2395000: uvm_test_top.env.master_agent.mon [ahb_master_monitor] Beat[0] addr=0x00003165 rdata=0xf9595122 resp=AHB_RESP_OKAY
# UVM_INFO ../src/mst/ahb_master_driver.sv(332) @ 2415000: uvm_test_top.env.master_agent.drv [ahb_master_driver] Beat[1/4] addr=0x00003166 trans=AHB_TRANS_SEQ resp=AHB_RESP_OKAY rdata=0xeb25342f
# UVM_INFO ../src/slv/ahb_slave_driver.sv(184) @ 2415000: uvm_test_top.env.slave_agent.drv [ahb_slave_driver] Beat AHB_READ addr=0x00003166 resp=AHB_RESP_OKAY waits=1 rdata=0xeb25342f
# UVM_INFO ../src/mst/ahb_master_monitor.sv(117) @ 2415000: uvm_test_top.env.master_agent.mon [ahb_master_monitor] Beat[1] addr=0x00003166 rdata=0xeb25342f resp=AHB_RESP_OKAY
# UVM_INFO ../src/mst/ahb_master_driver.sv(332) @ 2435000: uvm_test_top.env.master_agent.drv [ahb_master_driver] Beat[2/4] addr=0x00003167 trans=AHB_TRANS_SEQ resp=AHB_RESP_OKAY rdata=0x77fcdb73
# UVM_INFO ../src/slv/ahb_slave_driver.sv(184) @ 2435000: uvm_test_top.env.slave_agent.drv [ahb_slave_driver] Beat AHB_READ addr=0x00003167 resp=AHB_RESP_OKAY waits=1 rdata=0x77fcdb73
# UVM_INFO ../src/mst/ahb_master_monitor.sv(117) @ 2435000: uvm_test_top.env.master_agent.mon [ahb_master_monitor] Beat[2] addr=0x00003167 rdata=0x77fcdb73 resp=AHB_RESP_OKAY
# UVM_INFO ../src/mst/ahb_master_driver.sv(332) @ 2465000: uvm_test_top.env.master_agent.drv [ahb_master_driver] Beat[3/4] addr=0x00003168 trans=AHB_TRANS_SEQ resp=AHB_RESP_OKAY rdata=0xbec87bae
# UVM_INFO ../src/mst/ahb_master_driver.sv(376) @ 2465000: uvm_test_top.env.master_agent.drv [ahb_master_driver] Transaction complete: AHB_READ 0x00003165, 4 beats, burst=AHB_BURST_INCR4
# UVM_INFO ../src/slv/ahb_slave_driver.sv(184) @ 2465000: uvm_test_top.env.slave_agent.drv [ahb_slave_driver] Beat AHB_READ addr=0x00003168 resp=AHB_RESP_OKAY waits=2 rdata=0xbec87bae
# UVM_INFO ../src/mst/ahb_master_monitor.sv(117) @ 2465000: uvm_test_top.env.master_agent.mon [ahb_master_monitor] Beat[3] addr=0x00003168 rdata=0xbec87bae resp=AHB_RESP_OKAY
# UVM_INFO ../src/mst/ahb_master_monitor.sv(220) @ 2465000: uvm_test_top.env.master_agent.mon [ahb_master_monitor] Observed [AHB_READ]: HADDR=0x00003165, HBURST=AHB_BURST_INCR4, HSIZE=AHB_SIZE_8B, 4 beats
# UVM_INFO ../src/env/ahb_coverage.sv(126) @ 2465000: uvm_test_top.env.master_cov [ahb_coverage] Sampled [AHB_READ]: burst=AHB_BURST_INCR4 size=AHB_SIZE_8B beats=4 error=0
# UVM_INFO ../src/slv/ahb_slave_monitor.sv(197) @ 2465000: uvm_test_top.env.slave_agent.mon [ahb_slave_monitor] Observed [AHB_READ]: HADDR=0x00003165, HBURST=AHB_BURST_INCR4, HSIZE=AHB_SIZE_8B, 4 beats
# UVM_INFO ../src/env/ahb_scoreboard.sv(104) @ 2465000: uvm_test_top.env.scb [ahb_scoreboard] MATCH #12: [AHB_READ] HADDR=0x00003165 AHB_BURST_INCR4 4 beats
# UVM_INFO ../src/env/ahb_coverage.sv(126) @ 2465000: uvm_test_top.env.slave_cov [ahb_coverage] Sampled [AHB_READ]: burst=AHB_BURST_INCR4 size=AHB_SIZE_8B beats=4 error=0
# UVM_INFO ../src/mst_seq/ahb_base_seq.sv(177) @ 2465000: uvm_test_top.env.master_agent.sqr@@seq [ahb_incr_burst_seq] AHB_BURST_INCR4 AHB_SIZE_8B beat 0 @0x00003165 ok
# UVM_INFO ../src/mst_seq/ahb_base_seq.sv(177) @ 2465000: uvm_test_top.env.master_agent.sqr@@seq [ahb_incr_burst_seq] AHB_BURST_INCR4 AHB_SIZE_8B beat 1 @0x00003166 ok
# UVM_INFO ../src/mst_seq/ahb_base_seq.sv(177) @ 2465000: uvm_test_top.env.master_agent.sqr@@seq [ahb_incr_burst_seq] AHB_BURST_INCR4 AHB_SIZE_8B beat 2 @0x00003167 ok
# UVM_INFO ../src/mst_seq/ahb_base_seq.sv(177) @ 2465000: uvm_test_top.env.master_agent.sqr@@seq [ahb_incr_burst_seq] AHB_BURST_INCR4 AHB_SIZE_8B beat 3 @0x00003168 ok
# UVM_INFO ../src/mst/ahb_master_driver.sv(85) @ 2465000: uvm_test_top.env.master_agent.drv [ahb_master_driver] Queueing [AHB_WRITE]: HADDR=0x00003184, HBURST=AHB_BURST_INCR4, HSIZE=AHB_SIZE_8B, 4 beats
# UVM_INFO ../src/mst/ahb_master_driver.sv(127) @ 2465000: uvm_test_top.env.master_agent.drv [ahb_master_driver] Driving [AHB_WRITE]: HADDR=0x00003184, HBURST=AHB_BURST_INCR4, HSIZE=AHB_SIZE_8B, 4 beats               
# UVM_INFO ../src/mst/ahb_master_driver.sv(332) @ 2515000: uvm_test_top.env.master_agent.drv [ahb_master_driver] Beat[0/4] addr=0x00003184 trans=AHB_TRANS_NONSEQ resp=AHB_RESP_OKAY wdata=0x9771b3be
# UVM_INFO ../src/slv/ahb_slave_driver.sv(184) @ 2515000: uvm_test_top.env.slave_agent.drv [ahb_slave_driver] Beat AHB_WRITE addr=0x00003184 resp=AHB_RESP_OKAY waits=2 wdata=0x9771b3be
# UVM_INFO ../src/mst/ahb_master_monitor.sv(117) @ 2515000: uvm_test_top.env.master_agent.mon [ahb_master_monitor] Beat[0] addr=0x00003184 wdata=0x9771b3be resp=AHB_RESP_OKAY
# UVM_INFO ../src/mst/ahb_master_driver.sv(332) @ 2525000: uvm_test_top.env.master_agent.drv [ahb_master_driver] Beat[1/4] addr=0x00003185 trans=AHB_TRANS_SEQ resp=AHB_RESP_OKAY wdata=0x719aaf8c
# UVM_INFO ../src/slv/ahb_slave_driver.sv(184) @ 2525000: uvm_test_top.env.slave_agent.drv [ahb_slave_driver] Beat AHB_WRITE addr=0x00003185 resp=AHB_RESP_OKAY waits=0 wdata=0x719aaf8c
# UVM_INFO ../src/mst/ahb_master_monitor.sv(117) @ 2525000: uvm_test_top.env.master_agent.mon [ahb_master_monitor] Beat[1] addr=0x00003185 wdata=0x719aaf8c resp=AHB_RESP_OKAY
# UVM_INFO ../src/mst/ahb_master_driver.sv(332) @ 2545000: uvm_test_top.env.master_agent.drv [ahb_master_driver] Beat[2/4] addr=0x00003186 trans=AHB_TRANS_SEQ resp=AHB_RESP_OKAY wdata=0x0967f797
# UVM_INFO ../src/slv/ahb_slave_driver.sv(184) @ 2545000: uvm_test_top.env.slave_agent.drv [ahb_slave_driver] Beat AHB_WRITE addr=0x00003186 resp=AHB_RESP_OKAY waits=1 wdata=0x0967f797
# UVM_INFO ../src/mst/ahb_master_monitor.sv(117) @ 2545000: uvm_test_top.env.master_agent.mon [ahb_master_monitor] Beat[2] addr=0x00003186 wdata=0x0967f797 resp=AHB_RESP_OKAY
# UVM_INFO ../src/mst/ahb_master_driver.sv(332) @ 2565000: uvm_test_top.env.master_agent.drv [ahb_master_driver] Beat[3/4] addr=0x00003187 trans=AHB_TRANS_SEQ resp=AHB_RESP_OKAY wdata=0x4a11b2b1
# UVM_INFO ../src/mst/ahb_master_driver.sv(376) @ 2565000: uvm_test_top.env.master_agent.drv [ahb_master_driver] Transaction complete: AHB_WRITE 0x00003184, 4 beats, burst=AHB_BURST_INCR4
# UVM_INFO ../src/slv/ahb_slave_driver.sv(184) @ 2565000: uvm_test_top.env.slave_agent.drv [ahb_slave_driver] Beat AHB_WRITE addr=0x00003187 resp=AHB_RESP_OKAY waits=1 wdata=0x4a11b2b1
# UVM_INFO ../src/mst/ahb_master_monitor.sv(117) @ 2565000: uvm_test_top.env.master_agent.mon [ahb_master_monitor] Beat[3] addr=0x00003187 wdata=0x4a11b2b1 resp=AHB_RESP_OKAY
# UVM_INFO ../src/mst/ahb_master_monitor.sv(220) @ 2565000: uvm_test_top.env.master_agent.mon [ahb_master_monitor] Observed [AHB_WRITE]: HADDR=0x00003184, HBURST=AHB_BURST_INCR4, HSIZE=AHB_SIZE_8B, 4 beats
# UVM_INFO ../src/env/ahb_coverage.sv(126) @ 2565000: uvm_test_top.env.master_cov [ahb_coverage] Sampled [AHB_WRITE]: burst=AHB_BURST_INCR4 size=AHB_SIZE_8B beats=4 error=0
# UVM_INFO ../src/slv/ahb_slave_monitor.sv(197) @ 2565000: uvm_test_top.env.slave_agent.mon [ahb_slave_monitor] Observed [AHB_WRITE]: HADDR=0x00003184, HBURST=AHB_BURST_INCR4, HSIZE=AHB_SIZE_8B, 4 beats
# UVM_INFO ../src/env/ahb_scoreboard.sv(104) @ 2565000: uvm_test_top.env.scb [ahb_scoreboard] MATCH #13: [AHB_WRITE] HADDR=0x00003184 AHB_BURST_INCR4 4 beats
# UVM_INFO ../src/env/ahb_coverage.sv(126) @ 2565000: uvm_test_top.env.slave_cov [ahb_coverage] Sampled [AHB_WRITE]: burst=AHB_BURST_INCR4 size=AHB_SIZE_8B beats=4 error=0
# UVM_INFO ../src/mst/ahb_master_driver.sv(85) @ 2565000: uvm_test_top.env.master_agent.drv [ahb_master_driver] Queueing [AHB_READ]: HADDR=0x00003184, HBURST=AHB_BURST_INCR4, HSIZE=AHB_SIZE_8B, 4 beats
# UVM_INFO ../src/mst/ahb_master_driver.sv(127) @ 2565000: uvm_test_top.env.master_agent.drv [ahb_master_driver] Driving [AHB_READ]: HADDR=0x00003184, HBURST=AHB_BURST_INCR4, HSIZE=AHB_SIZE_8B, 4 beats               
# UVM_INFO ../src/mst/ahb_master_driver.sv(332) @ 2605000: uvm_test_top.env.master_agent.drv [ahb_master_driver] Beat[0/4] addr=0x00003184 trans=AHB_TRANS_NONSEQ resp=AHB_RESP_OKAY rdata=0x9771b3be
# UVM_INFO ../src/slv/ahb_slave_driver.sv(184) @ 2605000: uvm_test_top.env.slave_agent.drv [ahb_slave_driver] Beat AHB_READ addr=0x00003184 resp=AHB_RESP_OKAY waits=1 rdata=0x9771b3be
# UVM_INFO ../src/mst/ahb_master_monitor.sv(117) @ 2605000: uvm_test_top.env.master_agent.mon [ahb_master_monitor] Beat[0] addr=0x00003184 rdata=0x9771b3be resp=AHB_RESP_OKAY
# UVM_INFO ../src/mst/ahb_master_driver.sv(332) @ 2615000: uvm_test_top.env.master_agent.drv [ahb_master_driver] Beat[1/4] addr=0x00003185 trans=AHB_TRANS_SEQ resp=AHB_RESP_OKAY rdata=0x719aaf8c
# UVM_INFO ../src/slv/ahb_slave_driver.sv(184) @ 2615000: uvm_test_top.env.slave_agent.drv [ahb_slave_driver] Beat AHB_READ addr=0x00003185 resp=AHB_RESP_OKAY waits=0 rdata=0x719aaf8c
# UVM_INFO ../src/mst/ahb_master_monitor.sv(117) @ 2615000: uvm_test_top.env.master_agent.mon [ahb_master_monitor] Beat[1] addr=0x00003185 rdata=0x719aaf8c resp=AHB_RESP_OKAY
# UVM_INFO ../src/mst/ahb_master_driver.sv(332) @ 2635000: uvm_test_top.env.master_agent.drv [ahb_master_driver] Beat[2/4] addr=0x00003186 trans=AHB_TRANS_SEQ resp=AHB_RESP_OKAY rdata=0x0967f797
# UVM_INFO ../src/slv/ahb_slave_driver.sv(184) @ 2635000: uvm_test_top.env.slave_agent.drv [ahb_slave_driver] Beat AHB_READ addr=0x00003186 resp=AHB_RESP_OKAY waits=1 rdata=0x0967f797
# UVM_INFO ../src/mst/ahb_master_monitor.sv(117) @ 2635000: uvm_test_top.env.master_agent.mon [ahb_master_monitor] Beat[2] addr=0x00003186 rdata=0x0967f797 resp=AHB_RESP_OKAY
# UVM_INFO ../src/mst/ahb_master_driver.sv(332) @ 2665000: uvm_test_top.env.master_agent.drv [ahb_master_driver] Beat[3/4] addr=0x00003187 trans=AHB_TRANS_SEQ resp=AHB_RESP_OKAY rdata=0x4a11b2b1
# UVM_INFO ../src/mst/ahb_master_driver.sv(376) @ 2665000: uvm_test_top.env.master_agent.drv [ahb_master_driver] Transaction complete: AHB_READ 0x00003184, 4 beats, burst=AHB_BURST_INCR4
# UVM_INFO ../src/slv/ahb_slave_driver.sv(184) @ 2665000: uvm_test_top.env.slave_agent.drv [ahb_slave_driver] Beat AHB_READ addr=0x00003187 resp=AHB_RESP_OKAY waits=2 rdata=0x4a11b2b1
# UVM_INFO ../src/mst/ahb_master_monitor.sv(117) @ 2665000: uvm_test_top.env.master_agent.mon [ahb_master_monitor] Beat[3] addr=0x00003187 rdata=0x4a11b2b1 resp=AHB_RESP_OKAY
# UVM_INFO ../src/mst/ahb_master_monitor.sv(220) @ 2665000: uvm_test_top.env.master_agent.mon [ahb_master_monitor] Observed [AHB_READ]: HADDR=0x00003184, HBURST=AHB_BURST_INCR4, HSIZE=AHB_SIZE_8B, 4 beats
# UVM_INFO ../src/env/ahb_coverage.sv(126) @ 2665000: uvm_test_top.env.master_cov [ahb_coverage] Sampled [AHB_READ]: burst=AHB_BURST_INCR4 size=AHB_SIZE_8B beats=4 error=0
# UVM_INFO ../src/slv/ahb_slave_monitor.sv(197) @ 2665000: uvm_test_top.env.slave_agent.mon [ahb_slave_monitor] Observed [AHB_READ]: HADDR=0x00003184, HBURST=AHB_BURST_INCR4, HSIZE=AHB_SIZE_8B, 4 beats
# UVM_INFO ../src/env/ahb_scoreboard.sv(104) @ 2665000: uvm_test_top.env.scb [ahb_scoreboard] MATCH #14: [AHB_READ] HADDR=0x00003184 AHB_BURST_INCR4 4 beats
# UVM_INFO ../src/env/ahb_coverage.sv(126) @ 2665000: uvm_test_top.env.slave_cov [ahb_coverage] Sampled [AHB_READ]: burst=AHB_BURST_INCR4 size=AHB_SIZE_8B beats=4 error=0
# UVM_INFO ../src/mst_seq/ahb_base_seq.sv(177) @ 2665000: uvm_test_top.env.master_agent.sqr@@seq [ahb_incr_burst_seq] AHB_BURST_INCR4 AHB_SIZE_8B beat 0 @0x00003184 ok
# UVM_INFO ../src/mst_seq/ahb_base_seq.sv(177) @ 2665000: uvm_test_top.env.master_agent.sqr@@seq [ahb_incr_burst_seq] AHB_BURST_INCR4 AHB_SIZE_8B beat 1 @0x00003185 ok
