# vsim -c -coverage -sv_seed 47864598 "+UVM_TESTNAME=ahb_undefined_burst_test" "+UVM_VERBOSITY=UVM_HIGH" "+DUMP_VCD" -l ./report/logs/ahb_undefined_burst_test_run_3_seed_47864598.log -do "coverage save -onexit ./report/coverage/ahb_undefined_burst_test_run_3_seed_47864598.ucdb; run -all; quit -f" opt_tb_top 
# Start time: 09:16:23 on Aug 03,2026
# //  Questa Sim-64
# //  Version 10.6b linux_x86_64 May 25 2017
# //
# //  Copyright 1991-2017 Mentor Graphics Corporation
# //  All Rights Reserved.
# //
# //  QuestaSim and its associated documentation contain trade
# //  secrets and commercial or financial information that are the property of
# //  Mentor Graphics Corporation and are privileged, confidential,
# //  and exempt from disclosure under the Freedom of Information Act,
# //  5 U.S.C. Section 552. Furthermore, this information
# //  is prohibited from disclosure under the Trade Secrets Act,
# //  18 U.S.C. Section 1905.
# //
# Loading sv_std.std
# Loading work.ahb_if(fast)
# Loading mtiUvm.uvm_pkg
# Loading work.ahb_pkg(fast)
# Loading work.ahb_seq_pkg(fast)
# Loading work.ahb_test_pkg(fast)
# Loading work.tb_top(fast)
# Loading work.ahb_if(fast)
# Loading work.ahb_sva(fast)
# Loading mtiUvm.questa_uvm_pkg(fast)
# Loading /cadtools/mentor/Questa_10.6b/questasim/uvm-1.1d/linux_x86_64/uvm_dpi.so
# coverage save -onexit ./report/coverage/ahb_undefined_burst_test_run_3_seed_47864598.ucdb
#  run -all
# ----------------------------------------------------------------
# UVM-1.1d
# (C) 2007-2013 Mentor Graphics Corporation
# (C) 2007-2013 Cadence Design Systems, Inc.
# (C) 2006-2013 Synopsys, Inc.
# (C) 2011-2013 Cypress Semiconductor Corp.
# ----------------------------------------------------------------
# 
#   ***********       IMPORTANT RELEASE NOTES         ************
# 
#   You are using a version of the UVM library that has been compiled
#   with `UVM_NO_DEPRECATED undefined.
#   See http://www.eda.org/svdb/view.php?id=3313 for more details.
# 
#   You are using a version of the UVM library that has been compiled
#   with `UVM_OBJECT_MUST_HAVE_CONSTRUCTOR undefined.
#   See http://www.eda.org/svdb/view.php?id=3770 for more details.
# 
#       (Specify +UVM_NO_RELNOTES to turn off this notice)
# 
# UVM_INFO verilog_src/questa_uvm_pkg-1.2/src/questa_uvm_pkg.sv(215) @ 0: reporter [Questa UVM] QUESTA_UVM-1.2.3
# UVM_INFO verilog_src/questa_uvm_pkg-1.2/src/questa_uvm_pkg.sv(217) @ 0: reporter [Questa UVM]  questa_uvm::init(+struct)
# UVM_INFO ../src/tb_top.sv(126) @ 0: reporter [TB_TOP] Virtual interface set in config_db
# UVM_INFO @ 0: reporter [RNTST] Running test ahb_undefined_burst_test...
# UVM_INFO ../src/tb_top.sv(140) @ 0: reporter [TB_TOP] Waveform VCD dumping enabled (ahb_lite_vip.vcd)
# UVM_INFO ../src/env/ahb_vip_env.sv(64) @ 0: uvm_test_top.env [ahb_vip_env] slave_vif not set - reusing master_vif (passthrough mode)
# UVM_INFO ../src/env/ahb_vip_env.sv(72) @ 0: uvm_test_top.env [ahb_vip_env] Scoreboard created
# UVM_INFO ../src/env/ahb_vip_env.sv(78) @ 0: uvm_test_top.env [ahb_vip_env] Coverage collectors created
# UVM_INFO ../src/mst/ahb_master_agent.sv(61) @ 0: uvm_test_top.env.master_agent [ahb_master_agent] ACTIVE mode - driver + sequencer created
# UVM_INFO ../src/slv/ahb_slave_agent.sv(64) @ 0: uvm_test_top.env.slave_agent [ahb_slave_agent] ACTIVE mode - driver + sequencer created (    auto responses)
# UVM_INFO ../src/env/ahb_vip_env.sv(92) @ 0: uvm_test_top.env [ahb_vip_env] Scoreboard connected: master_mon.ap -> scb, slave_mon.ap -> scb
# UVM_INFO ../src/env/ahb_vip_env.sv(99) @ 0: uvm_test_top.env [ahb_vip_env] Coverage connected: master_mon.ap -> master_cov, slave_mon.ap -> slave_cov
# UVM_INFO @ 0: reporter [UVMTOP] UVM testbench topology:
# ----------------------------------------------------------------
# Name                       Type                      Size  Value
# ----------------------------------------------------------------
# uvm_test_top               ahb_undefined_burst_test  -     @475 
#   env                      ahb_vip_env               -     @490 
#     master_agent           ahb_master_agent          -     @505 
#       drv                  ahb_master_driver         -     @570 
#         rsp_port           uvm_analysis_port         -     @585 
#         seq_item_port      uvm_seq_item_pull_port    -     @577 
#       mon                  ahb_master_monitor        -     @563 
#         ap                 uvm_analysis_port         -     @704 
#       sqr                  ahb_master_sequencer      -     @593 
#         rsp_export         uvm_analysis_export       -     @600 
#         seq_item_export    uvm_seq_item_pull_imp     -     @694 
#         arbitration_queue  array                     0     -    
#         lock_queue         array                     0     -    
#         num_last_reqs      integral                  32    'd1  
#         num_last_rsps      integral                  32    'd1  
#     master_cov             ahb_coverage              -     @526 
#       analysis_imp         uvm_analysis_imp          -     @533 
#     scb                    ahb_scoreboard            -     @519 
#       master_export        uvm_analysis_imp_master   -     @718 
#       slave_export         uvm_analysis_imp_slave    -     @726 
#     slave_agent            ahb_slave_agent           -     @512 
#       drv                  ahb_slave_driver          -     @748 
#         rsp_port           uvm_analysis_port         -     @763 
#         seq_item_port      uvm_seq_item_pull_port    -     @755 
#       mon                  ahb_slave_monitor         -     @741 
#         ap                 uvm_analysis_port         -     @882 
#       sqr                  ahb_slave_sequencer       -     @771 
#         rsp_export         uvm_analysis_export       -     @778 
#         seq_item_export    uvm_seq_item_pull_imp     -     @872 
#         arbitration_queue  array                     0     -    
#         lock_queue         array                     0     -    
#         num_last_reqs      integral                  32    'd1  
#         num_last_rsps      integral                  32    'd1  
#     slave_cov              ahb_coverage              -     @541 
#       analysis_imp         uvm_analysis_imp          -     @548 
# ----------------------------------------------------------------
# 
# UVM_INFO verilog_src/questa_uvm_pkg-1.2/src/questa_uvm_pkg.sv(277) @ 0: reporter [Questa UVM] End Of Elaboration
# UVM_INFO ../src/mst_seq/ahb_undefined_burst_seq.sv(55) @ 0: uvm_test_top.env.master_agent.sqr@@seq [ahb_undefined_burst_seq] Starting undefined-length INCR bursts: 8 iterations from 0x00005000
# UVM_INFO ../src/mst_seq/ahb_undefined_burst_seq.sv(122) @ 0: uvm_test_top.env.master_agent.sqr@@seq [ahb_undefined_burst_seq] INCR 1 beats, AHB_SIZE_8B @0x0000506b, trailing_busy=0, retract=0, pipelined=0
# UVM_INFO ../src/mst/ahb_master_driver.sv(181) @ 5000: uvm_test_top.env.master_agent.drv [ahb_master_driver] Flushed pending transactions (reset)
# UVM_INFO ../src/tb_top.sv(48) @ 95000: reporter [TB_TOP] Reset de-asserted
# UVM_INFO ../src/slv/ahb_slave_driver.sv(59) @ 95000: uvm_test_top.env.slave_agent.drv [ahb_slave_driver] Reset deasserted - slave driver active (    auto mode)
# UVM_INFO ../src/mst/ahb_master_driver.sv(68) @ 95000: uvm_test_top.env.master_agent.drv [ahb_master_driver] Reset deasserted - master driver active
# UVM_INFO ../src/mst/ahb_master_monitor.sv(75) @ 95000: uvm_test_top.env.master_agent.mon [ahb_master_monitor] Reset deasserted - master monitor active
# UVM_INFO ../src/slv/ahb_slave_monitor.sv(69) @ 95000: uvm_test_top.env.slave_agent.mon [ahb_slave_monitor] Reset deasserted - slave monitor active
# UVM_INFO ../src/mst/ahb_master_driver.sv(82) @ 95000: uvm_test_top.env.master_agent.drv [ahb_master_driver] Queueing [AHB_WRITE]: HADDR=0x0000506b, HBURST=AHB_BURST_INCR, HSIZE=AHB_SIZE_8B, 1 beats
# UVM_INFO ../src/mst/ahb_master_driver.sv(124) @ 95000: uvm_test_top.env.master_agent.drv [ahb_master_driver] Driving [AHB_WRITE]: HADDR=0x0000506b, HBURST=AHB_BURST_INCR, HSIZE=AHB_SIZE_8B, 1 beats               
# UVM_INFO ../src/mst/ahb_master_driver.sv(309) @ 135000: uvm_test_top.env.master_agent.drv [ahb_master_driver] Beat[0/1] addr=0x0000506b trans=AHB_TRANS_NONSEQ resp=AHB_RESP_OKAY wdata=0x65abf9ff
# UVM_INFO ../src/mst/ahb_master_driver.sv(353) @ 135000: uvm_test_top.env.master_agent.drv [ahb_master_driver] Transaction complete: AHB_WRITE 0x0000506b, 1 beats, burst=AHB_BURST_INCR
# UVM_INFO ../src/slv/ahb_slave_driver.sv(174) @ 135000: uvm_test_top.env.slave_agent.drv [ahb_slave_driver] Beat AHB_WRITE addr=0x0000506b resp=AHB_RESP_OKAY waits=2 wdata=0x65abf9ff
# UVM_INFO ../src/slv/ahb_slave_monitor.sv(197) @ 135000: uvm_test_top.env.slave_agent.mon [ahb_slave_monitor] Observed [AHB_WRITE]: HADDR=0x0000506b, HBURST=AHB_BURST_INCR, HSIZE=AHB_SIZE_8B, 1 beats
# UVM_INFO ../src/env/ahb_coverage.sv(127) @ 135000: uvm_test_top.env.slave_cov [ahb_coverage] Sampled [AHB_WRITE]: burst=AHB_BURST_INCR size=AHB_SIZE_8B beats=1 error=0
# UVM_INFO ../src/mst/ahb_master_monitor.sv(117) @ 135000: uvm_test_top.env.master_agent.mon [ahb_master_monitor] Beat[0] addr=0x0000506b wdata=0x65abf9ff resp=AHB_RESP_OKAY
# UVM_INFO ../src/mst/ahb_master_monitor.sv(222) @ 135000: uvm_test_top.env.master_agent.mon [ahb_master_monitor] Observed [AHB_WRITE]: HADDR=0x0000506b, HBURST=AHB_BURST_INCR, HSIZE=AHB_SIZE_8B, 1 beats
# UVM_INFO ../src/env/ahb_coverage.sv(127) @ 135000: uvm_test_top.env.master_cov [ahb_coverage] Sampled [AHB_WRITE]: burst=AHB_BURST_INCR size=AHB_SIZE_8B beats=1 error=0
# UVM_INFO ../src/env/ahb_scoreboard.sv(104) @ 135000: uvm_test_top.env.scb [ahb_scoreboard] MATCH #1: [AHB_WRITE] HADDR=0x0000506b AHB_BURST_INCR 1 beats
# UVM_INFO ../src/mst/ahb_master_driver.sv(82) @ 135000: uvm_test_top.env.master_agent.drv [ahb_master_driver] Queueing [AHB_READ]: HADDR=0x0000506b, HBURST=AHB_BURST_INCR, HSIZE=AHB_SIZE_8B, 1 beats
# UVM_INFO ../src/mst/ahb_master_driver.sv(124) @ 135000: uvm_test_top.env.master_agent.drv [ahb_master_driver] Driving [AHB_READ]: HADDR=0x0000506b, HBURST=AHB_BURST_INCR, HSIZE=AHB_SIZE_8B, 1 beats               
# UVM_INFO ../src/mst/ahb_master_driver.sv(309) @ 175000: uvm_test_top.env.master_agent.drv [ahb_master_driver] Beat[0/1] addr=0x0000506b trans=AHB_TRANS_NONSEQ resp=AHB_RESP_OKAY rdata=0x65abf9ff
# UVM_INFO ../src/mst/ahb_master_driver.sv(353) @ 175000: uvm_test_top.env.master_agent.drv [ahb_master_driver] Transaction complete: AHB_READ 0x0000506b, 1 beats, burst=AHB_BURST_INCR
# UVM_INFO ../src/slv/ahb_slave_driver.sv(174) @ 175000: uvm_test_top.env.slave_agent.drv [ahb_slave_driver] Beat AHB_READ addr=0x0000506b resp=AHB_RESP_OKAY waits=1 rdata=0x65abf9ff
# UVM_INFO ../src/slv/ahb_slave_monitor.sv(197) @ 175000: uvm_test_top.env.slave_agent.mon [ahb_slave_monitor] Observed [AHB_READ]: HADDR=0x0000506b, HBURST=AHB_BURST_INCR, HSIZE=AHB_SIZE_8B, 1 beats
# UVM_INFO ../src/env/ahb_coverage.sv(127) @ 175000: uvm_test_top.env.slave_cov [ahb_coverage] Sampled [AHB_READ]: burst=AHB_BURST_INCR size=AHB_SIZE_8B beats=1 error=0
# UVM_INFO ../src/mst/ahb_master_monitor.sv(117) @ 175000: uvm_test_top.env.master_agent.mon [ahb_master_monitor] Beat[0] addr=0x0000506b rdata=0x65abf9ff resp=AHB_RESP_OKAY
# UVM_INFO ../src/mst/ahb_master_monitor.sv(222) @ 175000: uvm_test_top.env.master_agent.mon [ahb_master_monitor] Observed [AHB_READ]: HADDR=0x0000506b, HBURST=AHB_BURST_INCR, HSIZE=AHB_SIZE_8B, 1 beats
# UVM_INFO ../src/env/ahb_coverage.sv(127) @ 175000: uvm_test_top.env.master_cov [ahb_coverage] Sampled [AHB_READ]: burst=AHB_BURST_INCR size=AHB_SIZE_8B beats=1 error=0
# UVM_INFO ../src/env/ahb_scoreboard.sv(104) @ 175000: uvm_test_top.env.scb [ahb_scoreboard] MATCH #2: [AHB_READ] HADDR=0x0000506b AHB_BURST_INCR 1 beats
# UVM_INFO ../src/mst_seq/ahb_base_seq.sv(164) @ 175000: uvm_test_top.env.master_agent.sqr@@seq [ahb_undefined_burst_seq] AHB_BURST_INCR AHB_SIZE_8B beat 0 @0x0000506b ok
# UVM_INFO ../src/mst_seq/ahb_undefined_burst_seq.sv(122) @ 175000: uvm_test_top.env.master_agent.sqr@@seq [ahb_undefined_burst_seq] INCR 256 beats, AHB_SIZE_8B @0x00005482, trailing_busy=1, retract=0, pipelined=0
# UVM_INFO ../src/mst/ahb_master_driver.sv(82) @ 175000: uvm_test_top.env.master_agent.drv [ahb_master_driver] Queueing [AHB_WRITE]: HADDR=0x00005482, HBURST=AHB_BURST_INCR, HSIZE=AHB_SIZE_8B, 256 beats
# UVM_INFO ../src/mst/ahb_master_driver.sv(124) @ 175000: uvm_test_top.env.master_agent.drv [ahb_master_driver] Driving [AHB_WRITE]: HADDR=0x00005482, HBURST=AHB_BURST_INCR, HSIZE=AHB_SIZE_8B, 256 beats               
# UVM_INFO ../src/mst/ahb_master_driver.sv(309) @ 215000: uvm_test_top.env.master_agent.drv [ahb_master_driver] Beat[0/256] addr=0x00005482 trans=AHB_TRANS_NONSEQ resp=AHB_RESP_OKAY wdata=0xc034cb4b
# UVM_INFO ../src/slv/ahb_slave_driver.sv(174) @ 215000: uvm_test_top.env.slave_agent.drv [ahb_slave_driver] Beat AHB_WRITE addr=0x00005482 resp=AHB_RESP_OKAY waits=1 wdata=0xc034cb4b
# UVM_INFO ../src/mst/ahb_master_monitor.sv(117) @ 215000: uvm_test_top.env.master_agent.mon [ahb_master_monitor] Beat[0] addr=0x00005482 wdata=0xc034cb4b resp=AHB_RESP_OKAY
# UVM_INFO ../src/mst/ahb_master_driver.sv(309) @ 225000: uvm_test_top.env.master_agent.drv [ahb_master_driver] Beat[1/256] addr=0x00005483 trans=AHB_TRANS_SEQ resp=AHB_RESP_OKAY wdata=0x4d98b16d
# UVM_INFO ../src/slv/ahb_slave_driver.sv(174) @ 225000: uvm_test_top.env.slave_agent.drv [ahb_slave_driver] Beat AHB_WRITE addr=0x00005483 resp=AHB_RESP_OKAY waits=0 wdata=0x4d98b16d
# UVM_INFO ../src/mst/ahb_master_monitor.sv(117) @ 225000: uvm_test_top.env.master_agent.mon [ahb_master_monitor] Beat[1] addr=0x00005483 wdata=0x4d98b16d resp=AHB_RESP_OKAY
# UVM_INFO ../src/mst/ahb_master_driver.sv(309) @ 235000: uvm_test_top.env.master_agent.drv [ahb_master_driver] Beat[2/256] addr=0x00005484 trans=AHB_TRANS_SEQ resp=AHB_RESP_OKAY wdata=0x0e767965
# UVM_INFO ../src/slv/ahb_slave_driver.sv(174) @ 235000: uvm_test_top.env.slave_agent.drv [ahb_slave_driver] Beat AHB_WRITE addr=0x00005484 resp=AHB_RESP_OKAY waits=0 wdata=0x0e767965
# UVM_INFO ../src/mst/ahb_master_monitor.sv(117) @ 235000: uvm_test_top.env.master_agent.mon [ahb_master_monitor] Beat[2] addr=0x00005484 wdata=0x0e767965 resp=AHB_RESP_OKAY
# UVM_INFO ../src/mst/ahb_master_driver.sv(309) @ 265000: uvm_test_top.env.master_agent.drv [ahb_master_driver] Beat[3/256] addr=0x00005485 trans=AHB_TRANS_SEQ resp=AHB_RESP_OKAY wdata=0xea98220f
# UVM_INFO ../src/slv/ahb_slave_driver.sv(174) @ 265000: uvm_test_top.env.slave_agent.drv [ahb_slave_driver] Beat AHB_WRITE addr=0x00005485 resp=AHB_RESP_OKAY waits=2 wdata=0xea98220f
# UVM_INFO ../src/mst/ahb_master_monitor.sv(117) @ 265000: uvm_test_top.env.master_agent.mon [ahb_master_monitor] Beat[3] addr=0x00005485 wdata=0xea98220f resp=AHB_RESP_OKAY
# UVM_INFO ../src/mst/ahb_master_driver.sv(309) @ 285000: uvm_test_top.env.master_agent.drv [ahb_master_driver] Beat[4/256] addr=0x00005486 trans=AHB_TRANS_SEQ resp=AHB_RESP_OKAY wdata=0x3f1d5d49
# UVM_INFO ../src/slv/ahb_slave_driver.sv(174) @ 285000: uvm_test_top.env.slave_agent.drv [ahb_slave_driver] Beat AHB_WRITE addr=0x00005486 resp=AHB_RESP_OKAY waits=1 wdata=0x3f1d5d49
# UVM_INFO ../src/mst/ahb_master_monitor.sv(117) @ 285000: uvm_test_top.env.master_agent.mon [ahb_master_monitor] Beat[4] addr=0x00005486 wdata=0x3f1d5d49 resp=AHB_RESP_OKAY
# UVM_INFO ../src/mst/ahb_master_driver.sv(309) @ 315000: uvm_test_top.env.master_agent.drv [ahb_master_driver] Beat[5/256] addr=0x00005487 trans=AHB_TRANS_SEQ resp=AHB_RESP_OKAY wdata=0xac7ff922
# UVM_INFO ../src/slv/ahb_slave_driver.sv(174) @ 315000: uvm_test_top.env.slave_agent.drv [ahb_slave_driver] Beat AHB_WRITE addr=0x00005487 resp=AHB_RESP_OKAY waits=2 wdata=0xac7ff922
# UVM_INFO ../src/mst/ahb_master_monitor.sv(117) @ 315000: uvm_test_top.env.master_agent.mon [ahb_master_monitor] Beat[5] addr=0x00005487 wdata=0xac7ff922 resp=AHB_RESP_OKAY
# UVM_INFO ../src/mst/ahb_master_driver.sv(309) @ 325000: uvm_test_top.env.master_agent.drv [ahb_master_driver] Beat[6/256] addr=0x00005488 trans=AHB_TRANS_SEQ resp=AHB_RESP_OKAY wdata=0x639015dd
# UVM_INFO ../src/slv/ahb_slave_driver.sv(174) @ 325000: uvm_test_top.env.slave_agent.drv [ahb_slave_driver] Beat AHB_WRITE addr=0x00005488 resp=AHB_RESP_OKAY waits=0 wdata=0x639015dd
# UVM_INFO ../src/mst/ahb_master_monitor.sv(117) @ 325000: uvm_test_top.env.master_agent.mon [ahb_master_monitor] Beat[6] addr=0x00005488 wdata=0x639015dd resp=AHB_RESP_OKAY
# UVM_INFO ../src/mst/ahb_master_driver.sv(309) @ 335000: uvm_test_top.env.master_agent.drv [ahb_master_driver] Beat[7/256] addr=0x00005489 trans=AHB_TRANS_SEQ resp=AHB_RESP_OKAY wdata=0xa8df952f
# UVM_INFO ../src/slv/ahb_slave_driver.sv(174) @ 335000: uvm_test_top.env.slave_agent.drv [ahb_slave_driver] Beat AHB_WRITE addr=0x00005489 resp=AHB_RESP_OKAY waits=0 wdata=0xa8df952f
# UVM_INFO ../src/mst/ahb_master_monitor.sv(117) @ 335000: uvm_test_top.env.master_agent.mon [ahb_master_monitor] Beat[7] addr=0x00005489 wdata=0xa8df952f resp=AHB_RESP_OKAY
# UVM_INFO ../src/mst/ahb_master_driver.sv(309) @ 365000: uvm_test_top.env.master_agent.drv [ahb_master_driver] Beat[8/256] addr=0x0000548a trans=AHB_TRANS_SEQ resp=AHB_RESP_OKAY wdata=0x2a5d5719
# UVM_INFO ../src/slv/ahb_slave_driver.sv(174) @ 365000: uvm_test_top.env.slave_agent.drv [ahb_slave_driver] Beat AHB_WRITE addr=0x0000548a resp=AHB_RESP_OKAY waits=0 wdata=0x2a5d5719
# UVM_INFO ../src/mst/ahb_master_monitor.sv(117) @ 365000: uvm_test_top.env.master_agent.mon [ahb_master_monitor] Beat[8] addr=0x0000548a wdata=0x2a5d5719 resp=AHB_RESP_OKAY
# UVM_INFO ../src/mst/ahb_master_driver.sv(309) @ 385000: uvm_test_top.env.master_agent.drv [ahb_master_driver] Beat[9/256] addr=0x0000548b trans=AHB_TRANS_SEQ resp=AHB_RESP_OKAY wdata=0x81b464c2
# UVM_INFO ../src/slv/ahb_slave_driver.sv(174) @ 385000: uvm_test_top.env.slave_agent.drv [ahb_slave_driver] Beat AHB_WRITE addr=0x0000548b resp=AHB_RESP_OKAY waits=1 wdata=0x81b464c2
# UVM_INFO ../src/mst/ahb_master_monitor.sv(117) @ 385000: uvm_test_top.env.master_agent.mon [ahb_master_monitor] Beat[9] addr=0x0000548b wdata=0x81b464c2 resp=AHB_RESP_OKAY
# UVM_INFO ../src/mst/ahb_master_driver.sv(309) @ 415000: uvm_test_top.env.master_agent.drv [ahb_master_driver] Beat[10/256] addr=0x0000548c trans=AHB_TRANS_SEQ resp=AHB_RESP_OKAY wdata=0x5a3dad6e
# UVM_INFO ../src/slv/ahb_slave_driver.sv(174) @ 415000: uvm_test_top.env.slave_agent.drv [ahb_slave_driver] Beat AHB_WRITE addr=0x0000548c resp=AHB_RESP_OKAY waits=2 wdata=0x5a3dad6e
# UVM_INFO ../src/mst/ahb_master_monitor.sv(117) @ 415000: uvm_test_top.env.master_agent.mon [ahb_master_monitor] Beat[10] addr=0x0000548c wdata=0x5a3dad6e resp=AHB_RESP_OKAY
# UVM_INFO ../src/mst/ahb_master_driver.sv(309) @ 445000: uvm_test_top.env.master_agent.drv [ahb_master_driver] Beat[11/256] addr=0x0000548d trans=AHB_TRANS_SEQ resp=AHB_RESP_OKAY wdata=0x6de4f08a
# UVM_INFO ../src/slv/ahb_slave_driver.sv(174) @ 445000: uvm_test_top.env.slave_agent.drv [ahb_slave_driver] Beat AHB_WRITE addr=0x0000548d resp=AHB_RESP_OKAY waits=2 wdata=0x6de4f08a
# UVM_INFO ../src/mst/ahb_master_monitor.sv(117) @ 445000: uvm_test_top.env.master_agent.mon [ahb_master_monitor] Beat[11] addr=0x0000548d wdata=0x6de4f08a resp=AHB_RESP_OKAY
# UVM_INFO ../src/mst/ahb_master_driver.sv(309) @ 465000: uvm_test_top.env.master_agent.drv [ahb_master_driver] Beat[12/256] addr=0x0000548e trans=AHB_TRANS_SEQ resp=AHB_RESP_OKAY wdata=0x6aa3ca43
# UVM_INFO ../src/slv/ahb_slave_driver.sv(174) @ 465000: uvm_test_top.env.slave_agent.drv [ahb_slave_driver] Beat AHB_WRITE addr=0x0000548e resp=AHB_RESP_OKAY waits=1 wdata=0x6aa3ca43
# UVM_INFO ../src/mst/ahb_master_monitor.sv(117) @ 465000: uvm_test_top.env.master_agent.mon [ahb_master_monitor] Beat[12] addr=0x0000548e wdata=0x6aa3ca43 resp=AHB_RESP_OKAY
# UVM_INFO ../src/mst/ahb_master_driver.sv(309) @ 475000: uvm_test_top.env.master_agent.drv [ahb_master_driver] Beat[13/256] addr=0x0000548f trans=AHB_TRANS_SEQ resp=AHB_RESP_OKAY wdata=0x75a171da
# UVM_INFO ../src/slv/ahb_slave_driver.sv(174) @ 475000: uvm_test_top.env.slave_agent.drv [ahb_slave_driver] Beat AHB_WRITE addr=0x0000548f resp=AHB_RESP_OKAY waits=0 wdata=0x75a171da
# UVM_INFO ../src/mst/ahb_master_monitor.sv(117) @ 475000: uvm_test_top.env.master_agent.mon [ahb_master_monitor] Beat[13] addr=0x0000548f wdata=0x75a171da resp=AHB_RESP_OKAY
# UVM_INFO ../src/mst/ahb_master_driver.sv(309) @ 485000: uvm_test_top.env.master_agent.drv [ahb_master_driver] Beat[14/256] addr=0x00005490 trans=AHB_TRANS_SEQ resp=AHB_RESP_OKAY wdata=0x8e9597aa
# UVM_INFO ../src/slv/ahb_slave_driver.sv(174) @ 485000: uvm_test_top.env.slave_agent.drv [ahb_slave_driver] Beat AHB_WRITE addr=0x00005490 resp=AHB_RESP_OKAY waits=0 wdata=0x8e9597aa
# UVM_INFO ../src/mst/ahb_master_monitor.sv(117) @ 485000: uvm_test_top.env.master_agent.mon [ahb_master_monitor] Beat[14] addr=0x00005490 wdata=0x8e9597aa resp=AHB_RESP_OKAY
# UVM_INFO ../src/mst/ahb_master_driver.sv(309) @ 495000: uvm_test_top.env.master_agent.drv [ahb_master_driver] Beat[15/256] addr=0x00005491 trans=AHB_TRANS_SEQ resp=AHB_RESP_OKAY wdata=0xb1dafe71
# UVM_INFO ../src/slv/ahb_slave_driver.sv(174) @ 495000: uvm_test_top.env.slave_agent.drv [ahb_slave_driver] Beat AHB_WRITE addr=0x00005491 resp=AHB_RESP_OKAY waits=0 wdata=0xb1dafe71
# UVM_INFO ../src/mst/ahb_master_monitor.sv(117) @ 495000: uvm_test_top.env.master_agent.mon [ahb_master_monitor] Beat[15] addr=0x00005491 wdata=0xb1dafe71 resp=AHB_RESP_OKAY
# UVM_INFO ../src/mst/ahb_master_driver.sv(309) @ 515000: uvm_test_top.env.master_agent.drv [ahb_master_driver] Beat[16/256] addr=0x00005492 trans=AHB_TRANS_SEQ resp=AHB_RESP_OKAY wdata=0xc9d1ae07
# UVM_INFO ../src/slv/ahb_slave_driver.sv(174) @ 515000: uvm_test_top.env.slave_agent.drv [ahb_slave_driver] Beat AHB_WRITE addr=0x00005492 resp=AHB_RESP_OKAY waits=0 wdata=0xc9d1ae07
# UVM_INFO ../src/mst/ahb_master_monitor.sv(117) @ 515000: uvm_test_top.env.master_agent.mon [ahb_master_monitor] Beat[16] addr=0x00005492 wdata=0xc9d1ae07 resp=AHB_RESP_OKAY
# UVM_INFO ../src/mst/ahb_master_driver.sv(309) @ 525000: uvm_test_top.env.master_agent.drv [ahb_master_driver] Beat[17/256] addr=0x00005493 trans=AHB_TRANS_SEQ resp=AHB_RESP_OKAY wdata=0x79bdfa72
# UVM_INFO ../src/slv/ahb_slave_driver.sv(174) @ 525000: uvm_test_top.env.slave_agent.drv [ahb_slave_driver] Beat AHB_WRITE addr=0x00005493 resp=AHB_RESP_OKAY waits=0 wdata=0x79bdfa72
# UVM_INFO ../src/mst/ahb_master_monitor.sv(117) @ 525000: uvm_test_top.env.master_agent.mon [ahb_master_monitor] Beat[17] addr=0x00005493 wdata=0x79bdfa72 resp=AHB_RESP_OKAY
# UVM_INFO ../src/mst/ahb_master_driver.sv(309) @ 535000: uvm_test_top.env.master_agent.drv [ahb_master_driver] Beat[18/256] addr=0x00005494 trans=AHB_TRANS_SEQ resp=AHB_RESP_OKAY wdata=0x96b67e08
# UVM_INFO ../src/slv/ahb_slave_driver.sv(174) @ 535000: uvm_test_top.env.slave_agent.drv [ahb_slave_driver] Beat AHB_WRITE addr=0x00005494 resp=AHB_RESP_OKAY waits=0 wdata=0x96b67e08
# UVM_INFO ../src/mst/ahb_master_monitor.sv(117) @ 535000: uvm_test_top.env.master_agent.mon [ahb_master_monitor] Beat[18] addr=0x00005494 wdata=0x96b67e08 resp=AHB_RESP_OKAY
# UVM_INFO ../src/mst/ahb_master_driver.sv(309) @ 555000: uvm_test_top.env.master_agent.drv [ahb_master_driver] Beat[19/256] addr=0x00005495 trans=AHB_TRANS_SEQ resp=AHB_RESP_OKAY wdata=0x6a27c072
# UVM_INFO ../src/slv/ahb_slave_driver.sv(174) @ 555000: uvm_test_top.env.slave_agent.drv [ahb_slave_driver] Beat AHB_WRITE addr=0x00005495 resp=AHB_RESP_OKAY waits=1 wdata=0x6a27c072
# UVM_INFO ../src/mst/ahb_master_monitor.sv(117) @ 555000: uvm_test_top.env.master_agent.mon [ahb_master_monitor] Beat[19] addr=0x00005495 wdata=0x6a27c072 resp=AHB_RESP_OKAY
# UVM_INFO ../src/mst/ahb_master_driver.sv(309) @ 575000: uvm_test_top.env.master_agent.drv [ahb_master_driver] Beat[20/256] addr=0x00005496 trans=AHB_TRANS_SEQ resp=AHB_RESP_OKAY wdata=0x7979003e
# UVM_INFO ../src/slv/ahb_slave_driver.sv(174) @ 575000: uvm_test_top.env.slave_agent.drv [ahb_slave_driver] Beat AHB_WRITE addr=0x00005496 resp=AHB_RESP_OKAY waits=1 wdata=0x7979003e
# UVM_INFO ../src/mst/ahb_master_monitor.sv(117) @ 575000: uvm_test_top.env.master_agent.mon [ahb_master_monitor] Beat[20] addr=0x00005496 wdata=0x7979003e resp=AHB_RESP_OKAY
# UVM_INFO ../src/mst/ahb_master_driver.sv(309) @ 595000: uvm_test_top.env.master_agent.drv [ahb_master_driver] Beat[21/256] addr=0x00005497 trans=AHB_TRANS_SEQ resp=AHB_RESP_OKAY wdata=0x1e5de18d
# UVM_INFO ../src/slv/ahb_slave_driver.sv(174) @ 595000: uvm_test_top.env.slave_agent.drv [ahb_slave_driver] Beat AHB_WRITE addr=0x00005497 resp=AHB_RESP_OKAY waits=1 wdata=0x1e5de18d
# UVM_INFO ../src/mst/ahb_master_monitor.sv(117) @ 595000: uvm_test_top.env.master_agent.mon [ahb_master_monitor] Beat[21] addr=0x00005497 wdata=0x1e5de18d resp=AHB_RESP_OKAY
# UVM_INFO ../src/mst/ahb_master_driver.sv(309) @ 625000: uvm_test_top.env.master_agent.drv [ahb_master_driver] Beat[22/256] addr=0x00005498 trans=AHB_TRANS_SEQ resp=AHB_RESP_OKAY wdata=0xe7da1ff9
# UVM_INFO ../src/slv/ahb_slave_driver.sv(174) @ 625000: uvm_test_top.env.slave_agent.drv [ahb_slave_driver] Beat AHB_WRITE addr=0x00005498 resp=AHB_RESP_OKAY waits=2 wdata=0xe7da1ff9
# UVM_INFO ../src/mst/ahb_master_monitor.sv(117) @ 625000: uvm_test_top.env.master_agent.mon [ahb_master_monitor] Beat[22] addr=0x00005498 wdata=0xe7da1ff9 resp=AHB_RESP_OKAY
# UVM_INFO ../src/mst/ahb_master_driver.sv(309) @ 655000: uvm_test_top.env.master_agent.drv [ahb_master_driver] Beat[23/256] addr=0x00005499 trans=AHB_TRANS_SEQ resp=AHB_RESP_OKAY wdata=0x68b9b812
# UVM_INFO ../src/slv/ahb_slave_driver.sv(174) @ 655000: uvm_test_top.env.slave_agent.drv [ahb_slave_driver] Beat AHB_WRITE addr=0x00005499 resp=AHB_RESP_OKAY waits=2 wdata=0x68b9b812
# UVM_INFO ../src/mst/ahb_master_monitor.sv(117) @ 655000: uvm_test_top.env.master_agent.mon [ahb_master_monitor] Beat[23] addr=0x00005499 wdata=0x68b9b812 resp=AHB_RESP_OKAY
# UVM_INFO ../src/mst/ahb_master_driver.sv(309) @ 685000: uvm_test_top.env.master_agent.drv [ahb_master_driver] Beat[24/256] addr=0x0000549a trans=AHB_TRANS_SEQ resp=AHB_RESP_OKAY wdata=0x1f715b84
# UVM_INFO ../src/slv/ahb_slave_driver.sv(174) @ 685000: uvm_test_top.env.slave_agent.drv [ahb_slave_driver] Beat AHB_WRITE addr=0x0000549a resp=AHB_RESP_OKAY waits=1 wdata=0x1f715b84
# UVM_INFO ../src/mst/ahb_master_monitor.sv(117) @ 685000: uvm_test_top.env.master_agent.mon [ahb_master_monitor] Beat[24] addr=0x0000549a wdata=0x1f715b84 resp=AHB_RESP_OKAY
# UVM_INFO ../src/mst/ahb_master_driver.sv(309) @ 705000: uvm_test_top.env.master_agent.drv [ahb_master_driver] Beat[25/256] addr=0x0000549b trans=AHB_TRANS_SEQ resp=AHB_RESP_OKAY wdata=0x1e11bcc1
# UVM_INFO ../src/slv/ahb_slave_driver.sv(174) @ 705000: uvm_test_top.env.slave_agent.drv [ahb_slave_driver] Beat AHB_WRITE addr=0x0000549b resp=AHB_RESP_OKAY waits=1 wdata=0x1e11bcc1
# UVM_INFO ../src/mst/ahb_master_monitor.sv(117) @ 705000: uvm_test_top.env.master_agent.mon [ahb_master_monitor] Beat[25] addr=0x0000549b wdata=0x1e11bcc1 resp=AHB_RESP_OKAY
# UVM_INFO ../src/mst/ahb_master_driver.sv(309) @ 725000: uvm_test_top.env.master_agent.drv [ahb_master_driver] Beat[26/256] addr=0x0000549c trans=AHB_TRANS_SEQ resp=AHB_RESP_OKAY wdata=0x615dd7f4
# UVM_INFO ../src/slv/ahb_slave_driver.sv(174) @ 725000: uvm_test_top.env.slave_agent.drv [ahb_slave_driver] Beat AHB_WRITE addr=0x0000549c resp=AHB_RESP_OKAY waits=1 wdata=0x615dd7f4
# UVM_INFO ../src/mst/ahb_master_monitor.sv(117) @ 725000: uvm_test_top.env.master_agent.mon [ahb_master_monitor] Beat[26] addr=0x0000549c wdata=0x615dd7f4 resp=AHB_RESP_OKAY
# UVM_INFO ../src/mst/ahb_master_driver.sv(309) @ 735000: uvm_test_top.env.master_agent.drv [ahb_master_driver] Beat[27/256] addr=0x0000549d trans=AHB_TRANS_SEQ resp=AHB_RESP_OKAY wdata=0xd6d169e9
# UVM_INFO ../src/slv/ahb_slave_driver.sv(174) @ 735000: uvm_test_top.env.slave_agent.drv [ahb_slave_driver] Beat AHB_WRITE addr=0x0000549d resp=AHB_RESP_OKAY waits=0 wdata=0xd6d169e9
# UVM_INFO ../src/mst/ahb_master_monitor.sv(117) @ 735000: uvm_test_top.env.master_agent.mon [ahb_master_monitor] Beat[27] addr=0x0000549d wdata=0xd6d169e9 resp=AHB_RESP_OKAY
# UVM_INFO ../src/mst/ahb_master_driver.sv(309) @ 755000: uvm_test_top.env.master_agent.drv [ahb_master_driver] Beat[28/256] addr=0x0000549e trans=AHB_TRANS_SEQ resp=AHB_RESP_OKAY wdata=0xb13380cc
# UVM_INFO ../src/slv/ahb_slave_driver.sv(174) @ 755000: uvm_test_top.env.slave_agent.drv [ahb_slave_driver] Beat AHB_WRITE addr=0x0000549e resp=AHB_RESP_OKAY waits=1 wdata=0xb13380cc
# UVM_INFO ../src/mst/ahb_master_monitor.sv(117) @ 755000: uvm_test_top.env.master_agent.mon [ahb_master_monitor] Beat[28] addr=0x0000549e wdata=0xb13380cc resp=AHB_RESP_OKAY
# UVM_INFO ../src/mst/ahb_master_driver.sv(309) @ 785000: uvm_test_top.env.master_agent.drv [ahb_master_driver] Beat[29/256] addr=0x0000549f trans=AHB_TRANS_SEQ resp=AHB_RESP_OKAY wdata=0x6c6fec49
# UVM_INFO ../src/slv/ahb_slave_driver.sv(174) @ 785000: uvm_test_top.env.slave_agent.drv [ahb_slave_driver] Beat AHB_WRITE addr=0x0000549f resp=AHB_RESP_OKAY waits=2 wdata=0x6c6fec49
# UVM_INFO ../src/mst/ahb_master_monitor.sv(117) @ 785000: uvm_test_top.env.master_agent.mon [ahb_master_monitor] Beat[29] addr=0x0000549f wdata=0x6c6fec49 resp=AHB_RESP_OKAY
# UVM_INFO ../src/mst/ahb_master_driver.sv(309) @ 805000: uvm_test_top.env.master_agent.drv [ahb_master_driver] Beat[30/256] addr=0x000054a0 trans=AHB_TRANS_SEQ resp=AHB_RESP_OKAY wdata=0xbe4bb0b6
# UVM_INFO ../src/slv/ahb_slave_driver.sv(174) @ 805000: uvm_test_top.env.slave_agent.drv [ahb_slave_driver] Beat AHB_WRITE addr=0x000054a0 resp=AHB_RESP_OKAY waits=1 wdata=0xbe4bb0b6
# UVM_INFO ../src/mst/ahb_master_monitor.sv(117) @ 805000: uvm_test_top.env.master_agent.mon [ahb_master_monitor] Beat[30] addr=0x000054a0 wdata=0xbe4bb0b6 resp=AHB_RESP_OKAY
# UVM_INFO ../src/mst/ahb_master_driver.sv(309) @ 815000: uvm_test_top.env.master_agent.drv [ahb_master_driver] Beat[31/256] addr=0x000054a1 trans=AHB_TRANS_SEQ resp=AHB_RESP_OKAY wdata=0xeb8cced0
# UVM_INFO ../src/slv/ahb_slave_driver.sv(174) @ 815000: uvm_test_top.env.slave_agent.drv [ahb_slave_driver] Beat AHB_WRITE addr=0x000054a1 resp=AHB_RESP_OKAY waits=0 wdata=0xeb8cced0
# UVM_INFO ../src/mst/ahb_master_monitor.sv(117) @ 815000: uvm_test_top.env.master_agent.mon [ahb_master_monitor] Beat[31] addr=0x000054a1 wdata=0xeb8cced0 resp=AHB_RESP_OKAY
# UVM_INFO ../src/mst/ahb_master_driver.sv(309) @ 845000: uvm_test_top.env.master_agent.drv [ahb_master_driver] Beat[32/256] addr=0x000054a2 trans=AHB_TRANS_SEQ resp=AHB_RESP_OKAY wdata=0xc7754888
# UVM_INFO ../src/slv/ahb_slave_driver.sv(174) @ 845000: uvm_test_top.env.slave_agent.drv [ahb_slave_driver] Beat AHB_WRITE addr=0x000054a2 resp=AHB_RESP_OKAY waits=1 wdata=0xc7754888
# UVM_INFO ../src/mst/ahb_master_monitor.sv(117) @ 845000: uvm_test_top.env.master_agent.mon [ahb_master_monitor] Beat[32] addr=0x000054a2 wdata=0xc7754888 resp=AHB_RESP_OKAY
# UVM_INFO ../src/mst/ahb_master_driver.sv(309) @ 865000: uvm_test_top.env.master_agent.drv [ahb_master_driver] Beat[33/256] addr=0x000054a3 trans=AHB_TRANS_SEQ resp=AHB_RESP_OKAY wdata=0xe23f33bb
# UVM_INFO ../src/slv/ahb_slave_driver.sv(174) @ 865000: uvm_test_top.env.slave_agent.drv [ahb_slave_driver] Beat AHB_WRITE addr=0x000054a3 resp=AHB_RESP_OKAY waits=1 wdata=0xe23f33bb
# UVM_INFO ../src/mst/ahb_master_monitor.sv(117) @ 865000: uvm_test_top.env.master_agent.mon [ahb_master_monitor] Beat[33] addr=0x000054a3 wdata=0xe23f33bb resp=AHB_RESP_OKAY
# UVM_INFO ../src/mst/ahb_master_driver.sv(309) @ 895000: uvm_test_top.env.master_agent.drv [ahb_master_driver] Beat[34/256] addr=0x000054a4 trans=AHB_TRANS_SEQ resp=AHB_RESP_OKAY wdata=0x4adfa31f
# UVM_INFO ../src/slv/ahb_slave_driver.sv(174) @ 895000: uvm_test_top.env.slave_agent.drv [ahb_slave_driver] Beat AHB_WRITE addr=0x000054a4 resp=AHB_RESP_OKAY waits=2 wdata=0x4adfa31f
# UVM_INFO ../src/mst/ahb_master_monitor.sv(117) @ 895000: uvm_test_top.env.master_agent.mon [ahb_master_monitor] Beat[34] addr=0x000054a4 wdata=0x4adfa31f resp=AHB_RESP_OKAY
# UVM_INFO ../src/mst/ahb_master_driver.sv(309) @ 925000: uvm_test_top.env.master_agent.drv [ahb_master_driver] Beat[35/256] addr=0x000054a5 trans=AHB_TRANS_SEQ resp=AHB_RESP_OKAY wdata=0xac0026df
# UVM_INFO ../src/slv/ahb_slave_driver.sv(174) @ 925000: uvm_test_top.env.slave_agent.drv [ahb_slave_driver] Beat AHB_WRITE addr=0x000054a5 resp=AHB_RESP_OKAY waits=2 wdata=0xac0026df
# UVM_INFO ../src/mst/ahb_master_monitor.sv(117) @ 925000: uvm_test_top.env.master_agent.mon [ahb_master_monitor] Beat[35] addr=0x000054a5 wdata=0xac0026df resp=AHB_RESP_OKAY
# UVM_INFO ../src/mst/ahb_master_driver.sv(309) @ 945000: uvm_test_top.env.master_agent.drv [ahb_master_driver] Beat[36/256] addr=0x000054a6 trans=AHB_TRANS_SEQ resp=AHB_RESP_OKAY wdata=0x25085b7e
# UVM_INFO ../src/slv/ahb_slave_driver.sv(174) @ 945000: uvm_test_top.env.slave_agent.drv [ahb_slave_driver] Beat AHB_WRITE addr=0x000054a6 resp=AHB_RESP_OKAY waits=1 wdata=0x25085b7e
# UVM_INFO ../src/mst/ahb_master_monitor.sv(117) @ 945000: uvm_test_top.env.master_agent.mon [ahb_master_monitor] Beat[36] addr=0x000054a6 wdata=0x25085b7e resp=AHB_RESP_OKAY
# UVM_INFO ../src/mst/ahb_master_driver.sv(309) @ 955000: uvm_test_top.env.master_agent.drv [ahb_master_driver] Beat[37/256] addr=0x000054a7 trans=AHB_TRANS_SEQ resp=AHB_RESP_OKAY wdata=0x6f645717
# UVM_INFO ../src/slv/ahb_slave_driver.sv(174) @ 955000: uvm_test_top.env.slave_agent.drv [ahb_slave_driver] Beat AHB_WRITE addr=0x000054a7 resp=AHB_RESP_OKAY waits=0 wdata=0x6f645717
# UVM_INFO ../src/mst/ahb_master_monitor.sv(117) @ 955000: uvm_test_top.env.master_agent.mon [ahb_master_monitor] Beat[37] addr=0x000054a7 wdata=0x6f645717 resp=AHB_RESP_OKAY
# UVM_INFO ../src/mst/ahb_master_driver.sv(309) @ 975000: uvm_test_top.env.master_agent.drv [ahb_master_driver] Beat[38/256] addr=0x000054a8 trans=AHB_TRANS_SEQ resp=AHB_RESP_OKAY wdata=0x1188dc11
# UVM_INFO ../src/slv/ahb_slave_driver.sv(174) @ 975000: uvm_test_top.env.slave_agent.drv [ahb_slave_driver] Beat AHB_WRITE addr=0x000054a8 resp=AHB_RESP_OKAY waits=1 wdata=0x1188dc11
# UVM_INFO ../src/mst/ahb_master_monitor.sv(117) @ 975000: uvm_test_top.env.master_agent.mon [ahb_master_monitor] Beat[38] addr=0x000054a8 wdata=0x1188dc11 resp=AHB_RESP_OKAY
# UVM_INFO ../src/mst/ahb_master_driver.sv(309) @ 1005000: uvm_test_top.env.master_agent.drv [ahb_master_driver] Beat[39/256] addr=0x000054a9 trans=AHB_TRANS_SEQ resp=AHB_RESP_OKAY wdata=0xfa0fa489
# UVM_INFO ../src/slv/ahb_slave_driver.sv(174) @ 1005000: uvm_test_top.env.slave_agent.drv [ahb_slave_driver] Beat AHB_WRITE addr=0x000054a9 resp=AHB_RESP_OKAY waits=2 wdata=0xfa0fa489
# UVM_INFO ../src/mst/ahb_master_monitor.sv(117) @ 1005000: uvm_test_top.env.master_agent.mon [ahb_master_monitor] Beat[39] addr=0x000054a9 wdata=0xfa0fa489 resp=AHB_RESP_OKAY
# UVM_INFO ../src/mst/ahb_master_driver.sv(309) @ 1045000: uvm_test_top.env.master_agent.drv [ahb_master_driver] Beat[40/256] addr=0x000054aa trans=AHB_TRANS_SEQ resp=AHB_RESP_OKAY wdata=0x15a457a5
# UVM_INFO ../src/slv/ahb_slave_driver.sv(174) @ 1045000: uvm_test_top.env.slave_agent.drv [ahb_slave_driver] Beat AHB_WRITE addr=0x000054aa resp=AHB_RESP_OKAY waits=2 wdata=0x15a457a5
# UVM_INFO ../src/mst/ahb_master_monitor.sv(117) @ 1045000: uvm_test_top.env.master_agent.mon [ahb_master_monitor] Beat[40] addr=0x000054aa wdata=0x15a457a5 resp=AHB_RESP_OKAY
# UVM_INFO ../src/mst/ahb_master_driver.sv(309) @ 1075000: uvm_test_top.env.master_agent.drv [ahb_master_driver] Beat[41/256] addr=0x000054ab trans=AHB_TRANS_SEQ resp=AHB_RESP_OKAY wdata=0x2c9d6db5
# UVM_INFO ../src/slv/ahb_slave_driver.sv(174) @ 1075000: uvm_test_top.env.slave_agent.drv [ahb_slave_driver] Beat AHB_WRITE addr=0x000054ab resp=AHB_RESP_OKAY waits=2 wdata=0x2c9d6db5
# UVM_INFO ../src/mst/ahb_master_monitor.sv(117) @ 1075000: uvm_test_top.env.master_agent.mon [ahb_master_monitor] Beat[41] addr=0x000054ab wdata=0x2c9d6db5 resp=AHB_RESP_OKAY
# UVM_INFO ../src/mst/ahb_master_driver.sv(309) @ 1095000: uvm_test_top.env.master_agent.drv [ahb_master_driver] Beat[42/256] addr=0x000054ac trans=AHB_TRANS_SEQ resp=AHB_RESP_OKAY wdata=0xba272c9c
# UVM_INFO ../src/slv/ahb_slave_driver.sv(174) @ 1095000: uvm_test_top.env.slave_agent.drv [ahb_slave_driver] Beat AHB_WRITE addr=0x000054ac resp=AHB_RESP_OKAY waits=1 wdata=0xba272c9c
# UVM_INFO ../src/mst/ahb_master_monitor.sv(117) @ 1095000: uvm_test_top.env.master_agent.mon [ahb_master_monitor] Beat[42] addr=0x000054ac wdata=0xba272c9c resp=AHB_RESP_OKAY
# UVM_INFO ../src/mst/ahb_master_driver.sv(309) @ 1115000: uvm_test_top.env.master_agent.drv [ahb_master_driver] Beat[43/256] addr=0x000054ad trans=AHB_TRANS_SEQ resp=AHB_RESP_OKAY wdata=0xb91d8b1e
# UVM_INFO ../src/slv/ahb_slave_driver.sv(174) @ 1115000: uvm_test_top.env.slave_agent.drv [ahb_slave_driver] Beat AHB_WRITE addr=0x000054ad resp=AHB_RESP_OKAY waits=1 wdata=0xb91d8b1e
# UVM_INFO ../src/mst/ahb_master_monitor.sv(117) @ 1115000: uvm_test_top.env.master_agent.mon [ahb_master_monitor] Beat[43] addr=0x000054ad wdata=0xb91d8b1e resp=AHB_RESP_OKAY
# UVM_INFO ../src/mst/ahb_master_driver.sv(309) @ 1145000: uvm_test_top.env.master_agent.drv [ahb_master_driver] Beat[44/256] addr=0x000054ae trans=AHB_TRANS_SEQ resp=AHB_RESP_OKAY wdata=0xe7cda141
# UVM_INFO ../src/slv/ahb_slave_driver.sv(174) @ 1145000: uvm_test_top.env.slave_agent.drv [ahb_slave_driver] Beat AHB_WRITE addr=0x000054ae resp=AHB_RESP_OKAY waits=2 wdata=0xe7cda141
# UVM_INFO ../src/mst/ahb_master_monitor.sv(117) @ 1145000: uvm_test_top.env.master_agent.mon [ahb_master_monitor] Beat[44] addr=0x000054ae wdata=0xe7cda141 resp=AHB_RESP_OKAY
# UVM_INFO ../src/mst/ahb_master_driver.sv(309) @ 1175000: uvm_test_top.env.master_agent.drv [ahb_master_driver] Beat[45/256] addr=0x000054af trans=AHB_TRANS_SEQ resp=AHB_RESP_OKAY wdata=0x118f8b59
# UVM_INFO ../src/slv/ahb_slave_driver.sv(174) @ 1175000: uvm_test_top.env.slave_agent.drv [ahb_slave_driver] Beat AHB_WRITE addr=0x000054af resp=AHB_RESP_OKAY waits=2 wdata=0x118f8b59
# UVM_INFO ../src/mst/ahb_master_monitor.sv(117) @ 1175000: uvm_test_top.env.master_agent.mon [ahb_master_monitor] Beat[45] addr=0x000054af wdata=0x118f8b59 resp=AHB_RESP_OKAY
# UVM_INFO ../src/mst/ahb_master_driver.sv(309) @ 1195000: uvm_test_top.env.master_agent.drv [ahb_master_driver] Beat[46/256] addr=0x000054b0 trans=AHB_TRANS_SEQ resp=AHB_RESP_OKAY wdata=0x3dd78c51
# UVM_INFO ../src/slv/ahb_slave_driver.sv(174) @ 1195000: uvm_test_top.env.slave_agent.drv [ahb_slave_driver] Beat AHB_WRITE addr=0x000054b0 resp=AHB_RESP_OKAY waits=1 wdata=0x3dd78c51
# UVM_INFO ../src/mst/ahb_master_monitor.sv(117) @ 1195000: uvm_test_top.env.master_agent.mon [ahb_master_monitor] Beat[46] addr=0x000054b0 wdata=0x3dd78c51 resp=AHB_RESP_OKAY
# UVM_INFO ../src/mst/ahb_master_driver.sv(309) @ 1215000: uvm_test_top.env.master_agent.drv [ahb_master_driver] Beat[47/256] addr=0x000054b1 trans=AHB_TRANS_SEQ resp=AHB_RESP_OKAY wdata=0x9f2bdc6d
# UVM_INFO ../src/slv/ahb_slave_driver.sv(174) @ 1215000: uvm_test_top.env.slave_agent.drv [ahb_slave_driver] Beat AHB_WRITE addr=0x000054b1 resp=AHB_RESP_OKAY waits=1 wdata=0x9f2bdc6d
# UVM_INFO ../src/mst/ahb_master_monitor.sv(117) @ 1215000: uvm_test_top.env.master_agent.mon [ahb_master_monitor] Beat[47] addr=0x000054b1 wdata=0x9f2bdc6d resp=AHB_RESP_OKAY
# UVM_INFO ../src/mst/ahb_master_driver.sv(309) @ 1265000: uvm_test_top.env.master_agent.drv [ahb_master_driver] Beat[48/256] addr=0x000054b2 trans=AHB_TRANS_SEQ resp=AHB_RESP_OKAY wdata=0x7269d758
# UVM_INFO ../src/slv/ahb_slave_driver.sv(174) @ 1265000: uvm_test_top.env.slave_agent.drv [ahb_slave_driver] Beat AHB_WRITE addr=0x000054b2 resp=AHB_RESP_OKAY waits=2 wdata=0x7269d758
# UVM_INFO ../src/mst/ahb_master_monitor.sv(117) @ 1265000: uvm_test_top.env.master_agent.mon [ahb_master_monitor] Beat[48] addr=0x000054b2 wdata=0x7269d758 resp=AHB_RESP_OKAY
# UVM_INFO ../src/mst/ahb_master_driver.sv(309) @ 1285000: uvm_test_top.env.master_agent.drv [ahb_master_driver] Beat[49/256] addr=0x000054b3 trans=AHB_TRANS_SEQ resp=AHB_RESP_OKAY wdata=0xe84eaeaf
# UVM_INFO ../src/slv/ahb_slave_driver.sv(174) @ 1285000: uvm_test_top.env.slave_agent.drv [ahb_slave_driver] Beat AHB_WRITE addr=0x000054b3 resp=AHB_RESP_OKAY waits=1 wdata=0xe84eaeaf
# UVM_INFO ../src/mst/ahb_master_monitor.sv(117) @ 1285000: uvm_test_top.env.master_agent.mon [ahb_master_monitor] Beat[49] addr=0x000054b3 wdata=0xe84eaeaf resp=AHB_RESP_OKAY
# UVM_INFO ../src/mst/ahb_master_driver.sv(309) @ 1295000: uvm_test_top.env.master_agent.drv [ahb_master_driver] Beat[50/256] addr=0x000054b4 trans=AHB_TRANS_SEQ resp=AHB_RESP_OKAY wdata=0xf97510e4
# UVM_INFO ../src/slv/ahb_slave_driver.sv(174) @ 1295000: uvm_test_top.env.slave_agent.drv [ahb_slave_driver] Beat AHB_WRITE addr=0x000054b4 resp=AHB_RESP_OKAY waits=0 wdata=0xf97510e4
# UVM_INFO ../src/mst/ahb_master_monitor.sv(117) @ 1295000: uvm_test_top.env.master_agent.mon [ahb_master_monitor] Beat[50] addr=0x000054b4 wdata=0xf97510e4 resp=AHB_RESP_OKAY
# UVM_INFO ../src/mst/ahb_master_driver.sv(309) @ 1305000: uvm_test_top.env.master_agent.drv [ahb_master_driver] Beat[51/256] addr=0x000054b5 trans=AHB_TRANS_SEQ resp=AHB_RESP_OKAY wdata=0xbbed4fb3
# UVM_INFO ../src/slv/ahb_slave_driver.sv(174) @ 1305000: uvm_test_top.env.slave_agent.drv [ahb_slave_driver] Beat AHB_WRITE addr=0x000054b5 resp=AHB_RESP_OKAY waits=0 wdata=0xbbed4fb3
# UVM_INFO ../src/mst/ahb_master_monitor.sv(117) @ 1305000: uvm_test_top.env.master_agent.mon [ahb_master_monitor] Beat[51] addr=0x000054b5 wdata=0xbbed4fb3 resp=AHB_RESP_OKAY
# UVM_INFO ../src/mst/ahb_master_driver.sv(309) @ 1335000: uvm_test_top.env.master_agent.drv [ahb_master_driver] Beat[52/256] addr=0x000054b6 trans=AHB_TRANS_SEQ resp=AHB_RESP_OKAY wdata=0x31b9f1a2
# UVM_INFO ../src/slv/ahb_slave_driver.sv(174) @ 1335000: uvm_test_top.env.slave_agent.drv [ahb_slave_driver] Beat AHB_WRITE addr=0x000054b6 resp=AHB_RESP_OKAY waits=2 wdata=0x31b9f1a2
# UVM_INFO ../src/mst/ahb_master_monitor.sv(117) @ 1335000: uvm_test_top.env.master_agent.mon [ahb_master_monitor] Beat[52] addr=0x000054b6 wdata=0x31b9f1a2 resp=AHB_RESP_OKAY
# UVM_INFO ../src/mst/ahb_master_driver.sv(309) @ 1365000: uvm_test_top.env.master_agent.drv [ahb_master_driver] Beat[53/256] addr=0x000054b7 trans=AHB_TRANS_SEQ resp=AHB_RESP_OKAY wdata=0xcaac5785
# UVM_INFO ../src/slv/ahb_slave_driver.sv(174) @ 1365000: uvm_test_top.env.slave_agent.drv [ahb_slave_driver] Beat AHB_WRITE addr=0x000054b7 resp=AHB_RESP_OKAY waits=2 wdata=0xcaac5785
# UVM_INFO ../src/mst/ahb_master_monitor.sv(117) @ 1365000: uvm_test_top.env.master_agent.mon [ahb_master_monitor] Beat[53] addr=0x000054b7 wdata=0xcaac5785 resp=AHB_RESP_OKAY
# UVM_INFO ../src/mst/ahb_master_driver.sv(309) @ 1395000: uvm_test_top.env.master_agent.drv [ahb_master_driver] Beat[54/256] addr=0x000054b8 trans=AHB_TRANS_SEQ resp=AHB_RESP_OKAY wdata=0x8c734459
# UVM_INFO ../src/slv/ahb_slave_driver.sv(174) @ 1395000: uvm_test_top.env.slave_agent.drv [ahb_slave_driver] Beat AHB_WRITE addr=0x000054b8 resp=AHB_RESP_OKAY waits=2 wdata=0x8c734459
# UVM_INFO ../src/mst/ahb_master_monitor.sv(117) @ 1395000: uvm_test_top.env.master_agent.mon [ahb_master_monitor] Beat[54] addr=0x000054b8 wdata=0x8c734459 resp=AHB_RESP_OKAY
# UVM_INFO ../src/mst/ahb_master_driver.sv(309) @ 1415000: uvm_test_top.env.master_agent.drv [ahb_master_driver] Beat[55/256] addr=0x000054b9 trans=AHB_TRANS_SEQ resp=AHB_RESP_OKAY wdata=0x8389e13b
# UVM_INFO ../src/slv/ahb_slave_driver.sv(174) @ 1415000: uvm_test_top.env.slave_agent.drv [ahb_slave_driver] Beat AHB_WRITE addr=0x000054b9 resp=AHB_RESP_OKAY waits=1 wdata=0x8389e13b
# UVM_INFO ../src/mst/ahb_master_monitor.sv(117) @ 1415000: uvm_test_top.env.master_agent.mon [ahb_master_monitor] Beat[55] addr=0x000054b9 wdata=0x8389e13b resp=AHB_RESP_OKAY
# UVM_INFO ../src/mst/ahb_master_driver.sv(309) @ 1445000: uvm_test_top.env.master_agent.drv [ahb_master_driver] Beat[56/256] addr=0x000054ba trans=AHB_TRANS_SEQ resp=AHB_RESP_OKAY wdata=0x480f23a2
# UVM_INFO ../src/slv/ahb_slave_driver.sv(174) @ 1445000: uvm_test_top.env.slave_agent.drv [ahb_slave_driver] Beat AHB_WRITE addr=0x000054ba resp=AHB_RESP_OKAY waits=0 wdata=0x480f23a2
# UVM_INFO ../src/mst/ahb_master_monitor.sv(117) @ 1445000: uvm_test_top.env.master_agent.mon [ahb_master_monitor] Beat[56] addr=0x000054ba wdata=0x480f23a2 resp=AHB_RESP_OKAY
# UVM_INFO ../src/mst/ahb_master_driver.sv(309) @ 1465000: uvm_test_top.env.master_agent.drv [ahb_master_driver] Beat[57/256] addr=0x000054bb trans=AHB_TRANS_SEQ resp=AHB_RESP_OKAY wdata=0x7432d9d1
# UVM_INFO ../src/slv/ahb_slave_driver.sv(174) @ 1465000: uvm_test_top.env.slave_agent.drv [ahb_slave_driver] Beat AHB_WRITE addr=0x000054bb resp=AHB_RESP_OKAY waits=1 wdata=0x7432d9d1
# UVM_INFO ../src/mst/ahb_master_monitor.sv(117) @ 1465000: uvm_test_top.env.master_agent.mon [ahb_master_monitor] Beat[57] addr=0x000054bb wdata=0x7432d9d1 resp=AHB_RESP_OKAY
# UVM_INFO ../src/mst/ahb_master_driver.sv(309) @ 1485000: uvm_test_top.env.master_agent.drv [ahb_master_driver] Beat[58/256] addr=0x000054bc trans=AHB_TRANS_SEQ resp=AHB_RESP_OKAY wdata=0xed67c60e
# UVM_INFO ../src/slv/ahb_slave_driver.sv(174) @ 1485000: uvm_test_top.env.slave_agent.drv [ahb_slave_driver] Beat AHB_WRITE addr=0x000054bc resp=AHB_RESP_OKAY waits=1 wdata=0xed67c60e
# UVM_INFO ../src/mst/ahb_master_monitor.sv(117) @ 1485000: uvm_test_top.env.master_agent.mon [ahb_master_monitor] Beat[58] addr=0x000054bc wdata=0xed67c60e resp=AHB_RESP_OKAY
# UVM_INFO ../src/mst/ahb_master_driver.sv(309) @ 1495000: uvm_test_top.env.master_agent.drv [ahb_master_driver] Beat[59/256] addr=0x000054bd trans=AHB_TRANS_SEQ resp=AHB_RESP_OKAY wdata=0xf816fb0a
# UVM_INFO ../src/slv/ahb_slave_driver.sv(174) @ 1495000: uvm_test_top.env.slave_agent.drv [ahb_slave_driver] Beat AHB_WRITE addr=0x000054bd resp=AHB_RESP_OKAY waits=0 wdata=0xf816fb0a
# UVM_INFO ../src/mst/ahb_master_monitor.sv(117) @ 1495000: uvm_test_top.env.master_agent.mon [ahb_master_monitor] Beat[59] addr=0x000054bd wdata=0xf816fb0a resp=AHB_RESP_OKAY
# UVM_INFO ../src/mst/ahb_master_driver.sv(309) @ 1525000: uvm_test_top.env.master_agent.drv [ahb_master_driver] Beat[60/256] addr=0x000054be trans=AHB_TRANS_SEQ resp=AHB_RESP_OKAY wdata=0xeac42982
# UVM_INFO ../src/slv/ahb_slave_driver.sv(174) @ 1525000: uvm_test_top.env.slave_agent.drv [ahb_slave_driver] Beat AHB_WRITE addr=0x000054be resp=AHB_RESP_OKAY waits=2 wdata=0xeac42982
# UVM_INFO ../src/mst/ahb_master_monitor.sv(117) @ 1525000: uvm_test_top.env.master_agent.mon [ahb_master_monitor] Beat[60] addr=0x000054be wdata=0xeac42982 resp=AHB_RESP_OKAY
# UVM_INFO ../src/mst/ahb_master_driver.sv(309) @ 1545000: uvm_test_top.env.master_agent.drv [ahb_master_driver] Beat[61/256] addr=0x000054bf trans=AHB_TRANS_SEQ resp=AHB_RESP_OKAY wdata=0x8fb959ef
# UVM_INFO ../src/slv/ahb_slave_driver.sv(174) @ 1545000: uvm_test_top.env.slave_agent.drv [ahb_slave_driver] Beat AHB_WRITE addr=0x000054bf resp=AHB_RESP_OKAY waits=1 wdata=0x8fb959ef
# UVM_INFO ../src/mst/ahb_master_monitor.sv(117) @ 1545000: uvm_test_top.env.master_agent.mon [ahb_master_monitor] Beat[61] addr=0x000054bf wdata=0x8fb959ef resp=AHB_RESP_OKAY
# UVM_INFO ../src/mst/ahb_master_driver.sv(309) @ 1555000: uvm_test_top.env.master_agent.drv [ahb_master_driver] Beat[62/256] addr=0x000054c0 trans=AHB_TRANS_SEQ resp=AHB_RESP_OKAY wdata=0x4c960da8
# UVM_INFO ../src/slv/ahb_slave_driver.sv(174) @ 1555000: uvm_test_top.env.slave_agent.drv [ahb_slave_driver] Beat AHB_WRITE addr=0x000054c0 resp=AHB_RESP_OKAY waits=0 wdata=0x4c960da8
# UVM_INFO ../src/mst/ahb_master_monitor.sv(117) @ 1555000: uvm_test_top.env.master_agent.mon [ahb_master_monitor] Beat[62] addr=0x000054c0 wdata=0x4c960da8 resp=AHB_RESP_OKAY
# UVM_INFO ../src/mst/ahb_master_driver.sv(309) @ 1565000: uvm_test_top.env.master_agent.drv [ahb_master_driver] Beat[63/256] addr=0x000054c1 trans=AHB_TRANS_SEQ resp=AHB_RESP_OKAY wdata=0x8cf30b4f
# UVM_INFO ../src/slv/ahb_slave_driver.sv(174) @ 1565000: uvm_test_top.env.slave_agent.drv [ahb_slave_driver] Beat AHB_WRITE addr=0x000054c1 resp=AHB_RESP_OKAY waits=0 wdata=0x8cf30b4f
# UVM_INFO ../src/mst/ahb_master_monitor.sv(117) @ 1565000: uvm_test_top.env.master_agent.mon [ahb_master_monitor] Beat[63] addr=0x000054c1 wdata=0x8cf30b4f resp=AHB_RESP_OKAY
# UVM_INFO ../src/mst/ahb_master_driver.sv(309) @ 1595000: uvm_test_top.env.master_agent.drv [ahb_master_driver] Beat[64/256] addr=0x000054c2 trans=AHB_TRANS_SEQ resp=AHB_RESP_OKAY wdata=0xb28a1a76
# UVM_INFO ../src/slv/ahb_slave_driver.sv(174) @ 1595000: uvm_test_top.env.slave_agent.drv [ahb_slave_driver] Beat AHB_WRITE addr=0x000054c2 resp=AHB_RESP_OKAY waits=0 wdata=0xb28a1a76
# UVM_INFO ../src/mst/ahb_master_monitor.sv(117) @ 1595000: uvm_test_top.env.master_agent.mon [ahb_master_monitor] Beat[64] addr=0x000054c2 wdata=0xb28a1a76 resp=AHB_RESP_OKAY
# UVM_INFO ../src/mst/ahb_master_driver.sv(309) @ 1625000: uvm_test_top.env.master_agent.drv [ahb_master_driver] Beat[65/256] addr=0x000054c3 trans=AHB_TRANS_SEQ resp=AHB_RESP_OKAY wdata=0x1261ad4a
# UVM_INFO ../src/slv/ahb_slave_driver.sv(174) @ 1625000: uvm_test_top.env.slave_agent.drv [ahb_slave_driver] Beat AHB_WRITE addr=0x000054c3 resp=AHB_RESP_OKAY waits=2 wdata=0x1261ad4a
# UVM_INFO ../src/mst/ahb_master_monitor.sv(117) @ 1625000: uvm_test_top.env.master_agent.mon [ahb_master_monitor] Beat[65] addr=0x000054c3 wdata=0x1261ad4a resp=AHB_RESP_OKAY
# UVM_INFO ../src/mst/ahb_master_driver.sv(309) @ 1645000: uvm_test_top.env.master_agent.drv [ahb_master_driver] Beat[66/256] addr=0x000054c4 trans=AHB_TRANS_SEQ resp=AHB_RESP_OKAY wdata=0x6bf0b559
# UVM_INFO ../src/slv/ahb_slave_driver.sv(174) @ 1645000: uvm_test_top.env.slave_agent.drv [ahb_slave_driver] Beat AHB_WRITE addr=0x000054c4 resp=AHB_RESP_OKAY waits=1 wdata=0x6bf0b559
# UVM_INFO ../src/mst/ahb_master_monitor.sv(117) @ 1645000: uvm_test_top.env.master_agent.mon [ahb_master_monitor] Beat[66] addr=0x000054c4 wdata=0x6bf0b559 resp=AHB_RESP_OKAY
# UVM_INFO ../src/mst/ahb_master_driver.sv(309) @ 1675000: uvm_test_top.env.master_agent.drv [ahb_master_driver] Beat[67/256] addr=0x000054c5 trans=AHB_TRANS_SEQ resp=AHB_RESP_OKAY wdata=0x17f13740
# UVM_INFO ../src/slv/ahb_slave_driver.sv(174) @ 1675000: uvm_test_top.env.slave_agent.drv [ahb_slave_driver] Beat AHB_WRITE addr=0x000054c5 resp=AHB_RESP_OKAY waits=2 wdata=0x17f13740
# UVM_INFO ../src/mst/ahb_master_monitor.sv(117) @ 1675000: uvm_test_top.env.master_agent.mon [ahb_master_monitor] Beat[67] addr=0x000054c5 wdata=0x17f13740 resp=AHB_RESP_OKAY
# UVM_INFO ../src/mst/ahb_master_driver.sv(309) @ 1705000: uvm_test_top.env.master_agent.drv [ahb_master_driver] Beat[68/256] addr=0x000054c6 trans=AHB_TRANS_SEQ resp=AHB_RESP_OKAY wdata=0x670208f8
# UVM_INFO ../src/slv/ahb_slave_driver.sv(174) @ 1705000: uvm_test_top.env.slave_agent.drv [ahb_slave_driver] Beat AHB_WRITE addr=0x000054c6 resp=AHB_RESP_OKAY waits=2 wdata=0x670208f8
# UVM_INFO ../src/mst/ahb_master_monitor.sv(117) @ 1705000: uvm_test_top.env.master_agent.mon [ahb_master_monitor] Beat[68] addr=0x000054c6 wdata=0x670208f8 resp=AHB_RESP_OKAY
# UVM_INFO ../src/mst/ahb_master_driver.sv(309) @ 1725000: uvm_test_top.env.master_agent.drv [ahb_master_driver] Beat[69/256] addr=0x000054c7 trans=AHB_TRANS_SEQ resp=AHB_RESP_OKAY wdata=0xbd7fc9cd
# UVM_INFO ../src/slv/ahb_slave_driver.sv(174) @ 1725000: uvm_test_top.env.slave_agent.drv [ahb_slave_driver] Beat AHB_WRITE addr=0x000054c7 resp=AHB_RESP_OKAY waits=1 wdata=0xbd7fc9cd
# UVM_INFO ../src/mst/ahb_master_monitor.sv(117) @ 1725000: uvm_test_top.env.master_agent.mon [ahb_master_monitor] Beat[69] addr=0x000054c7 wdata=0xbd7fc9cd resp=AHB_RESP_OKAY
# UVM_INFO ../src/mst/ahb_master_driver.sv(309) @ 1755000: uvm_test_top.env.master_agent.drv [ahb_master_driver] Beat[70/256] addr=0x000054c8 trans=AHB_TRANS_SEQ resp=AHB_RESP_OKAY wdata=0xe3200f0b
# UVM_INFO ../src/slv/ahb_slave_driver.sv(174) @ 1755000: uvm_test_top.env.slave_agent.drv [ahb_slave_driver] Beat AHB_WRITE addr=0x000054c8 resp=AHB_RESP_OKAY waits=2 wdata=0xe3200f0b
# UVM_INFO ../src/mst/ahb_master_monitor.sv(117) @ 1755000: uvm_test_top.env.master_agent.mon [ahb_master_monitor] Beat[70] addr=0x000054c8 wdata=0xe3200f0b resp=AHB_RESP_OKAY
# UVM_INFO ../src/mst/ahb_master_driver.sv(309) @ 1765000: uvm_test_top.env.master_agent.drv [ahb_master_driver] Beat[71/256] addr=0x000054c9 trans=AHB_TRANS_SEQ resp=AHB_RESP_OKAY wdata=0x4df39990
# UVM_INFO ../src/slv/ahb_slave_driver.sv(174) @ 1765000: uvm_test_top.env.slave_agent.drv [ahb_slave_driver] Beat AHB_WRITE addr=0x000054c9 resp=AHB_RESP_OKAY waits=0 wdata=0x4df39990
# UVM_INFO ../src/mst/ahb_master_monitor.sv(117) @ 1765000: uvm_test_top.env.master_agent.mon [ahb_master_monitor] Beat[71] addr=0x000054c9 wdata=0x4df39990 resp=AHB_RESP_OKAY
# UVM_INFO ../src/mst/ahb_master_driver.sv(309) @ 1805000: uvm_test_top.env.master_agent.drv [ahb_master_driver] Beat[72/256] addr=0x000054ca trans=AHB_TRANS_SEQ resp=AHB_RESP_OKAY wdata=0x9ec40b7f
# UVM_INFO ../src/slv/ahb_slave_driver.sv(174) @ 1805000: uvm_test_top.env.slave_agent.drv [ahb_slave_driver] Beat AHB_WRITE addr=0x000054ca resp=AHB_RESP_OKAY waits=1 wdata=0x9ec40b7f
# UVM_INFO ../src/mst/ahb_master_monitor.sv(117) @ 1805000: uvm_test_top.env.master_agent.mon [ahb_master_monitor] Beat[72] addr=0x000054ca wdata=0x9ec40b7f resp=AHB_RESP_OKAY
# UVM_INFO ../src/mst/ahb_master_driver.sv(309) @ 1815000: uvm_test_top.env.master_agent.drv [ahb_master_driver] Beat[73/256] addr=0x000054cb trans=AHB_TRANS_SEQ resp=AHB_RESP_OKAY wdata=0x2b75f43a
# UVM_INFO ../src/slv/ahb_slave_driver.sv(174) @ 1815000: uvm_test_top.env.slave_agent.drv [ahb_slave_driver] Beat AHB_WRITE addr=0x000054cb resp=AHB_RESP_OKAY waits=0 wdata=0x2b75f43a
# UVM_INFO ../src/mst/ahb_master_monitor.sv(117) @ 1815000: uvm_test_top.env.master_agent.mon [ahb_master_monitor] Beat[73] addr=0x000054cb wdata=0x2b75f43a resp=AHB_RESP_OKAY
# UVM_INFO ../src/mst/ahb_master_driver.sv(309) @ 1835000: uvm_test_top.env.master_agent.drv [ahb_master_driver] Beat[74/256] addr=0x000054cc trans=AHB_TRANS_SEQ resp=AHB_RESP_OKAY wdata=0x16ed5691
# UVM_INFO ../src/slv/ahb_slave_driver.sv(174) @ 1835000: uvm_test_top.env.slave_agent.drv [ahb_slave_driver] Beat AHB_WRITE addr=0x000054cc resp=AHB_RESP_OKAY waits=1 wdata=0x16ed5691
# UVM_INFO ../src/mst/ahb_master_monitor.sv(117) @ 1835000: uvm_test_top.env.master_agent.mon [ahb_master_monitor] Beat[74] addr=0x000054cc wdata=0x16ed5691 resp=AHB_RESP_OKAY
# UVM_INFO ../src/mst/ahb_master_driver.sv(309) @ 1845000: uvm_test_top.env.master_agent.drv [ahb_master_driver] Beat[75/256] addr=0x000054cd trans=AHB_TRANS_SEQ resp=AHB_RESP_OKAY wdata=0x1fcec1cf
# UVM_INFO ../src/slv/ahb_slave_driver.sv(174) @ 1845000: uvm_test_top.env.slave_agent.drv [ahb_slave_driver] Beat AHB_WRITE addr=0x000054cd resp=AHB_RESP_OKAY waits=0 wdata=0x1fcec1cf
# UVM_INFO ../src/mst/ahb_master_monitor.sv(117) @ 1845000: uvm_test_top.env.master_agent.mon [ahb_master_monitor] Beat[75] addr=0x000054cd wdata=0x1fcec1cf resp=AHB_RESP_OKAY
# UVM_INFO ../src/mst/ahb_master_driver.sv(309) @ 1875000: uvm_test_top.env.master_agent.drv [ahb_master_driver] Beat[76/256] addr=0x000054ce trans=AHB_TRANS_SEQ resp=AHB_RESP_OKAY wdata=0x3fc51e6d
# UVM_INFO ../src/slv/ahb_slave_driver.sv(174) @ 1875000: uvm_test_top.env.slave_agent.drv [ahb_slave_driver] Beat AHB_WRITE addr=0x000054ce resp=AHB_RESP_OKAY waits=2 wdata=0x3fc51e6d
# UVM_INFO ../src/mst/ahb_master_monitor.sv(117) @ 1875000: uvm_test_top.env.master_agent.mon [ahb_master_monitor] Beat[76] addr=0x000054ce wdata=0x3fc51e6d resp=AHB_RESP_OKAY
# UVM_INFO ../src/mst/ahb_master_driver.sv(309) @ 1885000: uvm_test_top.env.master_agent.drv [ahb_master_driver] Beat[77/256] addr=0x000054cf trans=AHB_TRANS_SEQ resp=AHB_RESP_OKAY wdata=0x9a71cca1
# UVM_INFO ../src/slv/ahb_slave_driver.sv(174) @ 1885000: uvm_test_top.env.slave_agent.drv [ahb_slave_driver] Beat AHB_WRITE addr=0x000054cf resp=AHB_RESP_OKAY waits=0 wdata=0x9a71cca1
# UVM_INFO ../src/mst/ahb_master_monitor.sv(117) @ 1885000: uvm_test_top.env.master_agent.mon [ahb_master_monitor] Beat[77] addr=0x000054cf wdata=0x9a71cca1 resp=AHB_RESP_OKAY
# UVM_INFO ../src/mst/ahb_master_driver.sv(309) @ 1915000: uvm_test_top.env.master_agent.drv [ahb_master_driver] Beat[78/256] addr=0x000054d0 trans=AHB_TRANS_SEQ resp=AHB_RESP_OKAY wdata=0xf029dccc
# UVM_INFO ../src/slv/ahb_slave_driver.sv(174) @ 1915000: uvm_test_top.env.slave_agent.drv [ahb_slave_driver] Beat AHB_WRITE addr=0x000054d0 resp=AHB_RESP_OKAY waits=2 wdata=0xf029dccc
# UVM_INFO ../src/mst/ahb_master_monitor.sv(117) @ 1915000: uvm_test_top.env.master_agent.mon [ahb_master_monitor] Beat[78] addr=0x000054d0 wdata=0xf029dccc resp=AHB_RESP_OKAY
# UVM_INFO ../src/mst/ahb_master_driver.sv(309) @ 1945000: uvm_test_top.env.master_agent.drv [ahb_master_driver] Beat[79/256] addr=0x000054d1 trans=AHB_TRANS_SEQ resp=AHB_RESP_OKAY wdata=0xc1141f2e
# UVM_INFO ../src/slv/ahb_slave_driver.sv(174) @ 1945000: uvm_test_top.env.slave_agent.drv [ahb_slave_driver] Beat AHB_WRITE addr=0x000054d1 resp=AHB_RESP_OKAY waits=2 wdata=0xc1141f2e
# UVM_INFO ../src/mst/ahb_master_monitor.sv(117) @ 1945000: uvm_test_top.env.master_agent.mon [ahb_master_monitor] Beat[79] addr=0x000054d1 wdata=0xc1141f2e resp=AHB_RESP_OKAY
# UVM_INFO ../src/mst/ahb_master_driver.sv(309) @ 1975000: uvm_test_top.env.master_agent.drv [ahb_master_driver] Beat[80/256] addr=0x000054d2 trans=AHB_TRANS_SEQ resp=AHB_RESP_OKAY wdata=0xb3b5910b
# UVM_INFO ../src/slv/ahb_slave_driver.sv(174) @ 1975000: uvm_test_top.env.slave_agent.drv [ahb_slave_driver] Beat AHB_WRITE addr=0x000054d2 resp=AHB_RESP_OKAY waits=0 wdata=0xb3b5910b
# UVM_INFO ../src/mst/ahb_master_monitor.sv(117) @ 1975000: uvm_test_top.env.master_agent.mon [ahb_master_monitor] Beat[80] addr=0x000054d2 wdata=0xb3b5910b resp=AHB_RESP_OKAY
# UVM_INFO ../src/mst/ahb_master_driver.sv(309) @ 1985000: uvm_test_top.env.master_agent.drv [ahb_master_driver] Beat[81/256] addr=0x000054d3 trans=AHB_TRANS_SEQ resp=AHB_RESP_OKAY wdata=0xd8c7a0bc
# UVM_INFO ../src/slv/ahb_slave_driver.sv(174) @ 1985000: uvm_test_top.env.slave_agent.drv [ahb_slave_driver] Beat AHB_WRITE addr=0x000054d3 resp=AHB_RESP_OKAY waits=0 wdata=0xd8c7a0bc
# UVM_INFO ../src/mst/ahb_master_monitor.sv(117) @ 1985000: uvm_test_top.env.master_agent.mon [ahb_master_monitor] Beat[81] addr=0x000054d3 wdata=0xd8c7a0bc resp=AHB_RESP_OKAY
# UVM_INFO ../src/mst/ahb_master_driver.sv(309) @ 2005000: uvm_test_top.env.master_agent.drv [ahb_master_driver] Beat[82/256] addr=0x000054d4 trans=AHB_TRANS_SEQ resp=AHB_RESP_OKAY wdata=0x87b25d75
# UVM_INFO ../src/slv/ahb_slave_driver.sv(174) @ 2005000: uvm_test_top.env.slave_agent.drv [ahb_slave_driver] Beat AHB_WRITE addr=0x000054d4 resp=AHB_RESP_OKAY waits=1 wdata=0x87b25d75
# UVM_INFO ../src/mst/ahb_master_monitor.sv(117) @ 2005000: uvm_test_top.env.master_agent.mon [ahb_master_monitor] Beat[82] addr=0x000054d4 wdata=0x87b25d75 resp=AHB_RESP_OKAY
# UVM_INFO ../src/mst/ahb_master_driver.sv(309) @ 2025000: uvm_test_top.env.master_agent.drv [ahb_master_driver] Beat[83/256] addr=0x000054d5 trans=AHB_TRANS_SEQ resp=AHB_RESP_OKAY wdata=0x160fc14c
# UVM_INFO ../src/slv/ahb_slave_driver.sv(174) @ 2025000: uvm_test_top.env.slave_agent.drv [ahb_slave_driver] Beat AHB_WRITE addr=0x000054d5 resp=AHB_RESP_OKAY waits=1 wdata=0x160fc14c
# UVM_INFO ../src/mst/ahb_master_monitor.sv(117) @ 2025000: uvm_test_top.env.master_agent.mon [ahb_master_monitor] Beat[83] addr=0x000054d5 wdata=0x160fc14c resp=AHB_RESP_OKAY
# UVM_INFO ../src/mst/ahb_master_driver.sv(309) @ 2045000: uvm_test_top.env.master_agent.drv [ahb_master_driver] Beat[84/256] addr=0x000054d6 trans=AHB_TRANS_SEQ resp=AHB_RESP_OKAY wdata=0x521b42b3
# UVM_INFO ../src/slv/ahb_slave_driver.sv(174) @ 2045000: uvm_test_top.env.slave_agent.drv [ahb_slave_driver] Beat AHB_WRITE addr=0x000054d6 resp=AHB_RESP_OKAY waits=1 wdata=0x521b42b3
# UVM_INFO ../src/mst/ahb_master_monitor.sv(117) @ 2045000: uvm_test_top.env.master_agent.mon [ahb_master_monitor] Beat[84] addr=0x000054d6 wdata=0x521b42b3 resp=AHB_RESP_OKAY
# UVM_INFO ../src/mst/ahb_master_driver.sv(309) @ 2075000: uvm_test_top.env.master_agent.drv [ahb_master_driver] Beat[85/256] addr=0x000054d7 trans=AHB_TRANS_SEQ resp=AHB_RESP_OKAY wdata=0xfd81e200
# UVM_INFO ../src/slv/ahb_slave_driver.sv(174) @ 2075000: uvm_test_top.env.slave_agent.drv [ahb_slave_driver] Beat AHB_WRITE addr=0x000054d7 resp=AHB_RESP_OKAY waits=2 wdata=0xfd81e200
# UVM_INFO ../src/mst/ahb_master_monitor.sv(117) @ 2075000: uvm_test_top.env.master_agent.mon [ahb_master_monitor] Beat[85] addr=0x000054d7 wdata=0xfd81e200 resp=AHB_RESP_OKAY
# UVM_INFO ../src/mst/ahb_master_driver.sv(309) @ 2085000: uvm_test_top.env.master_agent.drv [ahb_master_driver] Beat[86/256] addr=0x000054d8 trans=AHB_TRANS_SEQ resp=AHB_RESP_OKAY wdata=0x649aeb7b
# UVM_INFO ../src/slv/ahb_slave_driver.sv(174) @ 2085000: uvm_test_top.env.slave_agent.drv [ahb_slave_driver] Beat AHB_WRITE addr=0x000054d8 resp=AHB_RESP_OKAY waits=0 wdata=0x649aeb7b
# UVM_INFO ../src/mst/ahb_master_monitor.sv(117) @ 2085000: uvm_test_top.env.master_agent.mon [ahb_master_monitor] Beat[86] addr=0x000054d8 wdata=0x649aeb7b resp=AHB_RESP_OKAY
# UVM_INFO ../src/mst/ahb_master_driver.sv(309) @ 2115000: uvm_test_top.env.master_agent.drv [ahb_master_driver] Beat[87/256] addr=0x000054d9 trans=AHB_TRANS_SEQ resp=AHB_RESP_OKAY wdata=0x93a2950a
# UVM_INFO ../src/slv/ahb_slave_driver.sv(174) @ 2115000: uvm_test_top.env.slave_agent.drv [ahb_slave_driver] Beat AHB_WRITE addr=0x000054d9 resp=AHB_RESP_OKAY waits=2 wdata=0x93a2950a
# UVM_INFO ../src/mst/ahb_master_monitor.sv(117) @ 2115000: uvm_test_top.env.master_agent.mon [ahb_master_monitor] Beat[87] addr=0x000054d9 wdata=0x93a2950a resp=AHB_RESP_OKAY
# UVM_INFO ../src/mst/ahb_master_driver.sv(309) @ 2155000: uvm_test_top.env.master_agent.drv [ahb_master_driver] Beat[88/256] addr=0x000054da trans=AHB_TRANS_SEQ resp=AHB_RESP_OKAY wdata=0xa4a7fcbd
# UVM_INFO ../src/slv/ahb_slave_driver.sv(174) @ 2155000: uvm_test_top.env.slave_agent.drv [ahb_slave_driver] Beat AHB_WRITE addr=0x000054da resp=AHB_RESP_OKAY waits=1 wdata=0xa4a7fcbd
# UVM_INFO ../src/mst/ahb_master_monitor.sv(117) @ 2155000: uvm_test_top.env.master_agent.mon [ahb_master_monitor] Beat[88] addr=0x000054da wdata=0xa4a7fcbd resp=AHB_RESP_OKAY
# UVM_INFO ../src/mst/ahb_master_driver.sv(309) @ 2185000: uvm_test_top.env.master_agent.drv [ahb_master_driver] Beat[89/256] addr=0x000054db trans=AHB_TRANS_SEQ resp=AHB_RESP_OKAY wdata=0x158f796b
# UVM_INFO ../src/slv/ahb_slave_driver.sv(174) @ 2185000: uvm_test_top.env.slave_agent.drv [ahb_slave_driver] Beat AHB_WRITE addr=0x000054db resp=AHB_RESP_OKAY waits=2 wdata=0x158f796b
# UVM_INFO ../src/mst/ahb_master_monitor.sv(117) @ 2185000: uvm_test_top.env.master_agent.mon [ahb_master_monitor] Beat[89] addr=0x000054db wdata=0x158f796b resp=AHB_RESP_OKAY
# UVM_INFO ../src/mst/ahb_master_driver.sv(309) @ 2215000: uvm_test_top.env.master_agent.drv [ahb_master_driver] Beat[90/256] addr=0x000054dc trans=AHB_TRANS_SEQ resp=AHB_RESP_OKAY wdata=0xed64f15b
# UVM_INFO ../src/slv/ahb_slave_driver.sv(174) @ 2215000: uvm_test_top.env.slave_agent.drv [ahb_slave_driver] Beat AHB_WRITE addr=0x000054dc resp=AHB_RESP_OKAY waits=2 wdata=0xed64f15b
# UVM_INFO ../src/mst/ahb_master_monitor.sv(117) @ 2215000: uvm_test_top.env.master_agent.mon [ahb_master_monitor] Beat[90] addr=0x000054dc wdata=0xed64f15b resp=AHB_RESP_OKAY
# UVM_INFO ../src/mst/ahb_master_driver.sv(309) @ 2245000: uvm_test_top.env.master_agent.drv [ahb_master_driver] Beat[91/256] addr=0x000054dd trans=AHB_TRANS_SEQ resp=AHB_RESP_OKAY wdata=0x41c1f4a6
# UVM_INFO ../src/slv/ahb_slave_driver.sv(174) @ 2245000: uvm_test_top.env.slave_agent.drv [ahb_slave_driver] Beat AHB_WRITE addr=0x000054dd resp=AHB_RESP_OKAY waits=2 wdata=0x41c1f4a6
# UVM_INFO ../src/mst/ahb_master_monitor.sv(117) @ 2245000: uvm_test_top.env.master_agent.mon [ahb_master_monitor] Beat[91] addr=0x000054dd wdata=0x41c1f4a6 resp=AHB_RESP_OKAY
# UVM_INFO ../src/mst/ahb_master_driver.sv(309) @ 2255000: uvm_test_top.env.master_agent.drv [ahb_master_driver] Beat[92/256] addr=0x000054de trans=AHB_TRANS_SEQ resp=AHB_RESP_OKAY wdata=0xa34c1c04
# UVM_INFO ../src/slv/ahb_slave_driver.sv(174) @ 2255000: uvm_test_top.env.slave_agent.drv [ahb_slave_driver] Beat AHB_WRITE addr=0x000054de resp=AHB_RESP_OKAY waits=0 wdata=0xa34c1c04
# UVM_INFO ../src/mst/ahb_master_monitor.sv(117) @ 2255000: uvm_test_top.env.master_agent.mon [ahb_master_monitor] Beat[92] addr=0x000054de wdata=0xa34c1c04 resp=AHB_RESP_OKAY
# UVM_INFO ../src/mst/ahb_master_driver.sv(309) @ 2265000: uvm_test_top.env.master_agent.drv [ahb_master_driver] Beat[93/256] addr=0x000054df trans=AHB_TRANS_SEQ resp=AHB_RESP_OKAY wdata=0x27c311c2
# UVM_INFO ../src/slv/ahb_slave_driver.sv(174) @ 2265000: uvm_test_top.env.slave_agent.drv [ahb_slave_driver] Beat AHB_WRITE addr=0x000054df resp=AHB_RESP_OKAY waits=0 wdata=0x27c311c2
# UVM_INFO ../src/mst/ahb_master_monitor.sv(117) @ 2265000: uvm_test_top.env.master_agent.mon [ahb_master_monitor] Beat[93] addr=0x000054df wdata=0x27c311c2 resp=AHB_RESP_OKAY
# UVM_INFO ../src/mst/ahb_master_driver.sv(309) @ 2285000: uvm_test_top.env.master_agent.drv [ahb_master_driver] Beat[94/256] addr=0x000054e0 trans=AHB_TRANS_SEQ resp=AHB_RESP_OKAY wdata=0x3d1bba72
# UVM_INFO ../src/slv/ahb_slave_driver.sv(174) @ 2285000: uvm_test_top.env.slave_agent.drv [ahb_slave_driver] Beat AHB_WRITE addr=0x000054e0 resp=AHB_RESP_OKAY waits=1 wdata=0x3d1bba72
# UVM_INFO ../src/mst/ahb_master_monitor.sv(117) @ 2285000: uvm_test_top.env.master_agent.mon [ahb_master_monitor] Beat[94] addr=0x000054e0 wdata=0x3d1bba72 resp=AHB_RESP_OKAY
# UVM_INFO ../src/mst/ahb_master_driver.sv(309) @ 2295000: uvm_test_top.env.master_agent.drv [ahb_master_driver] Beat[95/256] addr=0x000054e1 trans=AHB_TRANS_SEQ resp=AHB_RESP_OKAY wdata=0xacdda264
# UVM_INFO ../src/slv/ahb_slave_driver.sv(174) @ 2295000: uvm_test_top.env.slave_agent.drv [ahb_slave_driver] Beat AHB_WRITE addr=0x000054e1 resp=AHB_RESP_OKAY waits=0 wdata=0xacdda264
# UVM_INFO ../src/mst/ahb_master_monitor.sv(117) @ 2295000: uvm_test_top.env.master_agent.mon [ahb_master_monitor] Beat[95] addr=0x000054e1 wdata=0xacdda264 resp=AHB_RESP_OKAY
# UVM_INFO ../src/mst/ahb_master_driver.sv(309) @ 2325000: uvm_test_top.env.master_agent.drv [ahb_master_driver] Beat[96/256] addr=0x000054e2 trans=AHB_TRANS_SEQ resp=AHB_RESP_OKAY wdata=0x9abcdf09
# UVM_INFO ../src/slv/ahb_slave_driver.sv(174) @ 2325000: uvm_test_top.env.slave_agent.drv [ahb_slave_driver] Beat AHB_WRITE addr=0x000054e2 resp=AHB_RESP_OKAY waits=1 wdata=0x9abcdf09
# UVM_INFO ../src/mst/ahb_master_monitor.sv(117) @ 2325000: uvm_test_top.env.master_agent.mon [ahb_master_monitor] Beat[96] addr=0x000054e2 wdata=0x9abcdf09 resp=AHB_RESP_OKAY
# UVM_INFO ../src/mst/ahb_master_driver.sv(309) @ 2355000: uvm_test_top.env.master_agent.drv [ahb_master_driver] Beat[97/256] addr=0x000054e3 trans=AHB_TRANS_SEQ resp=AHB_RESP_OKAY wdata=0x2a31a555
# UVM_INFO ../src/slv/ahb_slave_driver.sv(174) @ 2355000: uvm_test_top.env.slave_agent.drv [ahb_slave_driver] Beat AHB_WRITE addr=0x000054e3 resp=AHB_RESP_OKAY waits=2 wdata=0x2a31a555
# UVM_INFO ../src/mst/ahb_master_monitor.sv(117) @ 2355000: uvm_test_top.env.master_agent.mon [ahb_master_monitor] Beat[97] addr=0x000054e3 wdata=0x2a31a555 resp=AHB_RESP_OKAY
# UVM_INFO ../src/mst/ahb_master_driver.sv(309) @ 2385000: uvm_test_top.env.master_agent.drv [ahb_master_driver] Beat[98/256] addr=0x000054e4 trans=AHB_TRANS_SEQ resp=AHB_RESP_OKAY wdata=0xe9f41e07
# UVM_INFO ../src/slv/ahb_slave_driver.sv(174) @ 2385000: uvm_test_top.env.slave_agent.drv [ahb_slave_driver] Beat AHB_WRITE addr=0x000054e4 resp=AHB_RESP_OKAY waits=2 wdata=0xe9f41e07
# UVM_INFO ../src/mst/ahb_master_monitor.sv(117) @ 2385000: uvm_test_top.env.master_agent.mon [ahb_master_monitor] Beat[98] addr=0x000054e4 wdata=0xe9f41e07 resp=AHB_RESP_OKAY
# UVM_INFO ../src/mst/ahb_master_driver.sv(309) @ 2415000: uvm_test_top.env.master_agent.drv [ahb_master_driver] Beat[99/256] addr=0x000054e5 trans=AHB_TRANS_SEQ resp=AHB_RESP_OKAY wdata=0xeaa8eb87
# UVM_INFO ../src/slv/ahb_slave_driver.sv(174) @ 2415000: uvm_test_top.env.slave_agent.drv [ahb_slave_driver] Beat AHB_WRITE addr=0x000054e5 resp=AHB_RESP_OKAY waits=2 wdata=0xeaa8eb87
# UVM_INFO ../src/mst/ahb_master_monitor.sv(117) @ 2415000: uvm_test_top.env.master_agent.mon [ahb_master_monitor] Beat[99] addr=0x000054e5 wdata=0xeaa8eb87 resp=AHB_RESP_OKAY
# UVM_INFO ../src/mst/ahb_master_driver.sv(309) @ 2425000: uvm_test_top.env.master_agent.drv [ahb_master_driver] Beat[100/256] addr=0x000054e6 trans=AHB_TRANS_SEQ resp=AHB_RESP_OKAY wdata=0xccdd20b5
# UVM_INFO ../src/slv/ahb_slave_driver.sv(174) @ 2425000: uvm_test_top.env.slave_agent.drv [ahb_slave_driver] Beat AHB_WRITE addr=0x000054e6 resp=AHB_RESP_OKAY waits=0 wdata=0xccdd20b5
# UVM_INFO ../src/mst/ahb_master_monitor.sv(117) @ 2425000: uvm_test_top.env.master_agent.mon [ahb_master_monitor] Beat[100] addr=0x000054e6 wdata=0xccdd20b5 resp=AHB_RESP_OKAY
# UVM_INFO ../src/mst/ahb_master_driver.sv(309) @ 2455000: uvm_test_top.env.master_agent.drv [ahb_master_driver] Beat[101/256] addr=0x000054e7 trans=AHB_TRANS_SEQ resp=AHB_RESP_OKAY wdata=0xaf02fbdc
# UVM_INFO ../src/slv/ahb_slave_driver.sv(174) @ 2455000: uvm_test_top.env.slave_agent.drv [ahb_slave_driver] Beat AHB_WRITE addr=0x000054e7 resp=AHB_RESP_OKAY waits=2 wdata=0xaf02fbdc
# UVM_INFO ../src/mst/ahb_master_monitor.sv(117) @ 2455000: uvm_test_top.env.master_agent.mon [ahb_master_monitor] Beat[101] addr=0x000054e7 wdata=0xaf02fbdc resp=AHB_RESP_OKAY
# UVM_INFO ../src/mst/ahb_master_driver.sv(309) @ 2485000: uvm_test_top.env.master_agent.drv [ahb_master_driver] Beat[102/256] addr=0x000054e8 trans=AHB_TRANS_SEQ resp=AHB_RESP_OKAY wdata=0xdc629e1c
# UVM_INFO ../src/slv/ahb_slave_driver.sv(174) @ 2485000: uvm_test_top.env.slave_agent.drv [ahb_slave_driver] Beat AHB_WRITE addr=0x000054e8 resp=AHB_RESP_OKAY waits=2 wdata=0xdc629e1c
# UVM_INFO ../src/mst/ahb_master_monitor.sv(117) @ 2485000: uvm_test_top.env.master_agent.mon [ahb_master_monitor] Beat[102] addr=0x000054e8 wdata=0xdc629e1c resp=AHB_RESP_OKAY
# UVM_INFO ../src/mst/ahb_master_driver.sv(309) @ 2505000: uvm_test_top.env.master_agent.drv [ahb_master_driver] Beat[103/256] addr=0x000054e9 trans=AHB_TRANS_SEQ resp=AHB_RESP_OKAY wdata=0xa3499988
# UVM_INFO ../src/slv/ahb_slave_driver.sv(174) @ 2505000: uvm_test_top.env.slave_agent.drv [ahb_slave_driver] Beat AHB_WRITE addr=0x000054e9 resp=AHB_RESP_OKAY waits=1 wdata=0xa3499988
# UVM_INFO ../src/mst/ahb_master_monitor.sv(117) @ 2505000: uvm_test_top.env.master_agent.mon [ahb_master_monitor] Beat[103] addr=0x000054e9 wdata=0xa3499988 resp=AHB_RESP_OKAY
# UVM_INFO ../src/mst/ahb_master_driver.sv(309) @ 2555000: uvm_test_top.env.master_agent.drv [ahb_master_driver] Beat[104/256] addr=0x000054ea trans=AHB_TRANS_SEQ resp=AHB_RESP_OKAY wdata=0xd7f90ba9
# UVM_INFO ../src/slv/ahb_slave_driver.sv(174) @ 2555000: uvm_test_top.env.slave_agent.drv [ahb_slave_driver] Beat AHB_WRITE addr=0x000054ea resp=AHB_RESP_OKAY waits=2 wdata=0xd7f90ba9
# UVM_INFO ../src/mst/ahb_master_monitor.sv(117) @ 2555000: uvm_test_top.env.master_agent.mon [ahb_master_monitor] Beat[104] addr=0x000054ea wdata=0xd7f90ba9 resp=AHB_RESP_OKAY
# UVM_INFO ../src/mst/ahb_master_driver.sv(309) @ 2575000: uvm_test_top.env.master_agent.drv [ahb_master_driver] Beat[105/256] addr=0x000054eb trans=AHB_TRANS_SEQ resp=AHB_RESP_OKAY wdata=0x483908c6
# UVM_INFO ../src/slv/ahb_slave_driver.sv(174) @ 2575000: uvm_test_top.env.slave_agent.drv [ahb_slave_driver] Beat AHB_WRITE addr=0x000054eb resp=AHB_RESP_OKAY waits=1 wdata=0x483908c6
# UVM_INFO ../src/mst/ahb_master_monitor.sv(117) @ 2575000: uvm_test_top.env.master_agent.mon [ahb_master_monitor] Beat[105] addr=0x000054eb wdata=0x483908c6 resp=AHB_RESP_OKAY
# UVM_INFO ../src/mst/ahb_master_driver.sv(309) @ 2595000: uvm_test_top.env.master_agent.drv [ahb_master_driver] Beat[106/256] addr=0x000054ec trans=AHB_TRANS_SEQ resp=AHB_RESP_OKAY wdata=0xda166b79
# UVM_INFO ../src/slv/ahb_slave_driver.sv(174) @ 2595000: uvm_test_top.env.slave_agent.drv [ahb_slave_driver] Beat AHB_WRITE addr=0x000054ec resp=AHB_RESP_OKAY waits=1 wdata=0xda166b79
# UVM_INFO ../src/mst/ahb_master_monitor.sv(117) @ 2595000: uvm_test_top.env.master_agent.mon [ahb_master_monitor] Beat[106] addr=0x000054ec wdata=0xda166b79 resp=AHB_RESP_OKAY
# UVM_INFO ../src/mst/ahb_master_driver.sv(309) @ 2605000: uvm_test_top.env.master_agent.drv [ahb_master_driver] Beat[107/256] addr=0x000054ed trans=AHB_TRANS_SEQ resp=AHB_RESP_OKAY wdata=0xc1eed1c4
# UVM_INFO ../src/slv/ahb_slave_driver.sv(174) @ 2605000: uvm_test_top.env.slave_agent.drv [ahb_slave_driver] Beat AHB_WRITE addr=0x000054ed resp=AHB_RESP_OKAY waits=0 wdata=0xc1eed1c4
# UVM_INFO ../src/mst/ahb_master_monitor.sv(117) @ 2605000: uvm_test_top.env.master_agent.mon [ahb_master_monitor] Beat[107] addr=0x000054ed wdata=0xc1eed1c4 resp=AHB_RESP_OKAY
# UVM_INFO ../src/mst/ahb_master_driver.sv(309) @ 2625000: uvm_test_top.env.master_agent.drv [ahb_master_driver] Beat[108/256] addr=0x000054ee trans=AHB_TRANS_SEQ resp=AHB_RESP_OKAY wdata=0xbcd34631
# UVM_INFO ../src/slv/ahb_slave_driver.sv(174) @ 2625000: uvm_test_top.env.slave_agent.drv [ahb_slave_driver] Beat AHB_WRITE addr=0x000054ee resp=AHB_RESP_OKAY waits=1 wdata=0xbcd34631
# UVM_INFO ../src/mst/ahb_master_monitor.sv(117) @ 2625000: uvm_test_top.env.master_agent.mon [ahb_master_monitor] Beat[108] addr=0x000054ee wdata=0xbcd34631 resp=AHB_RESP_OKAY
# UVM_INFO ../src/mst/ahb_master_driver.sv(309) @ 2635000: uvm_test_top.env.master_agent.drv [ahb_master_driver] Beat[109/256] addr=0x000054ef trans=AHB_TRANS_SEQ resp=AHB_RESP_OKAY wdata=0xa592032d
# UVM_INFO ../src/slv/ahb_slave_driver.sv(174) @ 2635000: uvm_test_top.env.slave_agent.drv [ahb_slave_driver] Beat AHB_WRITE addr=0x000054ef resp=AHB_RESP_OKAY waits=0 wdata=0xa592032d
# UVM_INFO ../src/mst/ahb_master_monitor.sv(117) @ 2635000: uvm_test_top.env.master_agent.mon [ahb_master_monitor] Beat[109] addr=0x000054ef wdata=0xa592032d resp=AHB_RESP_OKAY
# UVM_INFO ../src/mst/ahb_master_driver.sv(309) @ 2645000: uvm_test_top.env.master_agent.drv [ahb_master_driver] Beat[110/256] addr=0x000054f0 trans=AHB_TRANS_SEQ resp=AHB_RESP_OKAY wdata=0x7f4838a9
# UVM_INFO ../src/slv/ahb_slave_driver.sv(174) @ 2645000: uvm_test_top.env.slave_agent.drv [ahb_slave_driver] Beat AHB_WRITE addr=0x000054f0 resp=AHB_RESP_OKAY waits=0 wdata=0x7f4838a9
# UVM_INFO ../src/mst/ahb_master_monitor.sv(117) @ 2645000: uvm_test_top.env.master_agent.mon [ahb_master_monitor] Beat[110] addr=0x000054f0 wdata=0x7f4838a9 resp=AHB_RESP_OKAY
# UVM_INFO ../src/mst/ahb_master_driver.sv(309) @ 2665000: uvm_test_top.env.master_agent.drv [ahb_master_driver] Beat[111/256] addr=0x000054f1 trans=AHB_TRANS_SEQ resp=AHB_RESP_OKAY wdata=0x90b9d549
# UVM_INFO ../src/slv/ahb_slave_driver.sv(174) @ 2665000: uvm_test_top.env.slave_agent.drv [ahb_slave_driver] Beat AHB_WRITE addr=0x000054f1 resp=AHB_RESP_OKAY waits=1 wdata=0x90b9d549
# UVM_INFO ../src/mst/ahb_master_monitor.sv(117) @ 2665000: uvm_test_top.env.master_agent.mon [ahb_master_monitor] Beat[111] addr=0x000054f1 wdata=0x90b9d549 resp=AHB_RESP_OKAY
# UVM_INFO ../src/mst/ahb_master_driver.sv(309) @ 2695000: uvm_test_top.env.master_agent.drv [ahb_master_driver] Beat[112/256] addr=0x000054f2 trans=AHB_TRANS_SEQ resp=AHB_RESP_OKAY wdata=0x7aa36d30
# UVM_INFO ../src/slv/ahb_slave_driver.sv(174) @ 2695000: uvm_test_top.env.slave_agent.drv [ahb_slave_driver] Beat AHB_WRITE addr=0x000054f2 resp=AHB_RESP_OKAY waits=1 wdata=0x7aa36d30
# UVM_INFO ../src/mst/ahb_master_monitor.sv(117) @ 2695000: uvm_test_top.env.master_agent.mon [ahb_master_monitor] Beat[112] addr=0x000054f2 wdata=0x7aa36d30 resp=AHB_RESP_OKAY
# UVM_INFO ../src/mst/ahb_master_driver.sv(309) @ 2715000: uvm_test_top.env.master_agent.drv [ahb_master_driver] Beat[113/256] addr=0x000054f3 trans=AHB_TRANS_SEQ resp=AHB_RESP_OKAY wdata=0x3acebc46
# UVM_INFO ../src/slv/ahb_slave_driver.sv(174) @ 2715000: uvm_test_top.env.slave_agent.drv [ahb_slave_driver] Beat AHB_WRITE addr=0x000054f3 resp=AHB_RESP_OKAY waits=1 wdata=0x3acebc46
# UVM_INFO ../src/mst/ahb_master_monitor.sv(117) @ 2715000: uvm_test_top.env.master_agent.mon [ahb_master_monitor] Beat[113] addr=0x000054f3 wdata=0x3acebc46 resp=AHB_RESP_OKAY
# UVM_INFO ../src/mst/ahb_master_driver.sv(309) @ 2725000: uvm_test_top.env.master_agent.drv [ahb_master_driver] Beat[114/256] addr=0x000054f4 trans=AHB_TRANS_SEQ resp=AHB_RESP_OKAY wdata=0xd14582ef
# UVM_INFO ../src/slv/ahb_slave_driver.sv(174) @ 2725000: uvm_test_top.env.slave_agent.drv [ahb_slave_driver] Beat AHB_WRITE addr=0x000054f4 resp=AHB_RESP_OKAY waits=0 wdata=0xd14582ef
# UVM_INFO ../src/mst/ahb_master_monitor.sv(117) @ 2725000: uvm_test_top.env.master_agent.mon [ahb_master_monitor] Beat[114] addr=0x000054f4 wdata=0xd14582ef resp=AHB_RESP_OKAY
# UVM_INFO ../src/mst/ahb_master_driver.sv(309) @ 2745000: uvm_test_top.env.master_agent.drv [ahb_master_driver] Beat[115/256] addr=0x000054f5 trans=AHB_TRANS_SEQ resp=AHB_RESP_OKAY wdata=0xa934926b
# UVM_INFO ../src/slv/ahb_slave_driver.sv(174) @ 2745000: uvm_test_top.env.slave_agent.drv [ahb_slave_driver] Beat AHB_WRITE addr=0x000054f5 resp=AHB_RESP_OKAY waits=1 wdata=0xa934926b
# UVM_INFO ../src/mst/ahb_master_monitor.sv(117) @ 2745000: uvm_test_top.env.master_agent.mon [ahb_master_monitor] Beat[115] addr=0x000054f5 wdata=0xa934926b resp=AHB_RESP_OKAY
# UVM_INFO ../src/mst/ahb_master_driver.sv(309) @ 2775000: uvm_test_top.env.master_agent.drv [ahb_master_driver] Beat[116/256] addr=0x000054f6 trans=AHB_TRANS_SEQ resp=AHB_RESP_OKAY wdata=0x11b857cf
# UVM_INFO ../src/slv/ahb_slave_driver.sv(174) @ 2775000: uvm_test_top.env.slave_agent.drv [ahb_slave_driver] Beat AHB_WRITE addr=0x000054f6 resp=AHB_RESP_OKAY waits=2 wdata=0x11b857cf
# UVM_INFO ../src/mst/ahb_master_monitor.sv(117) @ 2775000: uvm_test_top.env.master_agent.mon [ahb_master_monitor] Beat[116] addr=0x000054f6 wdata=0x11b857cf resp=AHB_RESP_OKAY
# UVM_INFO ../src/mst/ahb_master_driver.sv(309) @ 2795000: uvm_test_top.env.master_agent.drv [ahb_master_driver] Beat[117/256] addr=0x000054f7 trans=AHB_TRANS_SEQ resp=AHB_RESP_OKAY wdata=0x0b3e1e51
# UVM_INFO ../src/slv/ahb_slave_driver.sv(174) @ 2795000: uvm_test_top.env.slave_agent.drv [ahb_slave_driver] Beat AHB_WRITE addr=0x000054f7 resp=AHB_RESP_OKAY waits=1 wdata=0x0b3e1e51
# UVM_INFO ../src/mst/ahb_master_monitor.sv(117) @ 2795000: uvm_test_top.env.master_agent.mon [ahb_master_monitor] Beat[117] addr=0x000054f7 wdata=0x0b3e1e51 resp=AHB_RESP_OKAY
# UVM_INFO ../src/mst/ahb_master_driver.sv(309) @ 2815000: uvm_test_top.env.master_agent.drv [ahb_master_driver] Beat[118/256] addr=0x000054f8 trans=AHB_TRANS_SEQ resp=AHB_RESP_OKAY wdata=0xea4e0bf8
# UVM_INFO ../src/slv/ahb_slave_driver.sv(174) @ 2815000: uvm_test_top.env.slave_agent.drv [ahb_slave_driver] Beat AHB_WRITE addr=0x000054f8 resp=AHB_RESP_OKAY waits=1 wdata=0xea4e0bf8
# UVM_INFO ../src/mst/ahb_master_monitor.sv(117) @ 2815000: uvm_test_top.env.master_agent.mon [ahb_master_monitor] Beat[118] addr=0x000054f8 wdata=0xea4e0bf8 resp=AHB_RESP_OKAY
# UVM_INFO ../src/mst/ahb_master_driver.sv(309) @ 2835000: uvm_test_top.env.master_agent.drv [ahb_master_driver] Beat[119/256] addr=0x000054f9 trans=AHB_TRANS_SEQ resp=AHB_RESP_OKAY wdata=0x349dacd9
# UVM_INFO ../src/slv/ahb_slave_driver.sv(174) @ 2835000: uvm_test_top.env.slave_agent.drv [ahb_slave_driver] Beat AHB_WRITE addr=0x000054f9 resp=AHB_RESP_OKAY waits=1 wdata=0x349dacd9
# UVM_INFO ../src/mst/ahb_master_monitor.sv(117) @ 2835000: uvm_test_top.env.master_agent.mon [ahb_master_monitor] Beat[119] addr=0x000054f9 wdata=0x349dacd9 resp=AHB_RESP_OKAY
# UVM_INFO ../src/mst/ahb_master_driver.sv(309) @ 2855000: uvm_test_top.env.master_agent.drv [ahb_master_driver] Beat[120/256] addr=0x000054fa trans=AHB_TRANS_SEQ resp=AHB_RESP_OKAY wdata=0x52014d47
# UVM_INFO ../src/slv/ahb_slave_driver.sv(174) @ 2855000: uvm_test_top.env.slave_agent.drv [ahb_slave_driver] Beat AHB_WRITE addr=0x000054fa resp=AHB_RESP_OKAY waits=0 wdata=0x52014d47
# UVM_INFO ../src/mst/ahb_master_monitor.sv(117) @ 2855000: uvm_test_top.env.master_agent.mon [ahb_master_monitor] Beat[120] addr=0x000054fa wdata=0x52014d47 resp=AHB_RESP_OKAY
# UVM_INFO ../src/mst/ahb_master_driver.sv(309) @ 2875000: uvm_test_top.env.master_agent.drv [ahb_master_driver] Beat[121/256] addr=0x000054fb trans=AHB_TRANS_SEQ resp=AHB_RESP_OKAY wdata=0xafd81ea2
# UVM_INFO ../src/slv/ahb_slave_driver.sv(174) @ 2875000: uvm_test_top.env.slave_agent.drv [ahb_slave_driver] Beat AHB_WRITE addr=0x000054fb resp=AHB_RESP_OKAY waits=1 wdata=0xafd81ea2
# UVM_INFO ../src/mst/ahb_master_monitor.sv(117) @ 2875000: uvm_test_top.env.master_agent.mon [ahb_master_monitor] Beat[121] addr=0x000054fb wdata=0xafd81ea2 resp=AHB_RESP_OKAY
# UVM_INFO ../src/mst/ahb_master_driver.sv(309) @ 2905000: uvm_test_top.env.master_agent.drv [ahb_master_driver] Beat[122/256] addr=0x000054fc trans=AHB_TRANS_SEQ resp=AHB_RESP_OKAY wdata=0x0256743b
# UVM_INFO ../src/slv/ahb_slave_driver.sv(174) @ 2905000: uvm_test_top.env.slave_agent.drv [ahb_slave_driver] Beat AHB_WRITE addr=0x000054fc resp=AHB_RESP_OKAY waits=2 wdata=0x0256743b
# UVM_INFO ../src/mst/ahb_master_monitor.sv(117) @ 2905000: uvm_test_top.env.master_agent.mon [ahb_master_monitor] Beat[122] addr=0x000054fc wdata=0x0256743b resp=AHB_RESP_OKAY
# UVM_INFO ../src/mst/ahb_master_driver.sv(309) @ 2925000: uvm_test_top.env.master_agent.drv [ahb_master_driver] Beat[123/256] addr=0x000054fd trans=AHB_TRANS_SEQ resp=AHB_RESP_OKAY wdata=0xd8c68656
# UVM_INFO ../src/slv/ahb_slave_driver.sv(174) @ 2925000: uvm_test_top.env.slave_agent.drv [ahb_slave_driver] Beat AHB_WRITE addr=0x000054fd resp=AHB_RESP_OKAY waits=1 wdata=0xd8c68656
# UVM_INFO ../src/mst/ahb_master_monitor.sv(117) @ 2925000: uvm_test_top.env.master_agent.mon [ahb_master_monitor] Beat[123] addr=0x000054fd wdata=0xd8c68656 resp=AHB_RESP_OKAY
# UVM_INFO ../src/mst/ahb_master_driver.sv(309) @ 2945000: uvm_test_top.env.master_agent.drv [ahb_master_driver] Beat[124/256] addr=0x000054fe trans=AHB_TRANS_SEQ resp=AHB_RESP_OKAY wdata=0x4e66559b
# UVM_INFO ../src/slv/ahb_slave_driver.sv(174) @ 2945000: uvm_test_top.env.slave_agent.drv [ahb_slave_driver] Beat AHB_WRITE addr=0x000054fe resp=AHB_RESP_OKAY waits=1 wdata=0x4e66559b
# UVM_INFO ../src/mst/ahb_master_monitor.sv(117) @ 2945000: uvm_test_top.env.master_agent.mon [ahb_master_monitor] Beat[124] addr=0x000054fe wdata=0x4e66559b resp=AHB_RESP_OKAY
# UVM_INFO ../src/mst/ahb_master_driver.sv(309) @ 2955000: uvm_test_top.env.master_agent.drv [ahb_master_driver] Beat[125/256] addr=0x000054ff trans=AHB_TRANS_SEQ resp=AHB_RESP_OKAY wdata=0xb7e8f192
# UVM_INFO ../src/slv/ahb_slave_driver.sv(174) @ 2955000: uvm_test_top.env.slave_agent.drv [ahb_slave_driver] Beat AHB_WRITE addr=0x000054ff resp=AHB_RESP_OKAY waits=0 wdata=0xb7e8f192
# UVM_INFO ../src/mst/ahb_master_monitor.sv(117) @ 2955000: uvm_test_top.env.master_agent.mon [ahb_master_monitor] Beat[125] addr=0x000054ff wdata=0xb7e8f192 resp=AHB_RESP_OKAY
# UVM_INFO ../src/mst/ahb_master_driver.sv(309) @ 2985000: uvm_test_top.env.master_agent.drv [ahb_master_driver] Beat[126/256] addr=0x00005500 trans=AHB_TRANS_SEQ resp=AHB_RESP_OKAY wdata=0x65acdfc0
# UVM_INFO ../src/slv/ahb_slave_driver.sv(174) @ 2985000: uvm_test_top.env.slave_agent.drv [ahb_slave_driver] Beat AHB_WRITE addr=0x00005500 resp=AHB_RESP_OKAY waits=2 wdata=0x65acdfc0
# UVM_INFO ../src/mst/ahb_master_monitor.sv(117) @ 2985000: uvm_test_top.env.master_agent.mon [ahb_master_monitor] Beat[126] addr=0x00005500 wdata=0x65acdfc0 resp=AHB_RESP_OKAY
# UVM_INFO ../src/mst/ahb_master_driver.sv(309) @ 2995000: uvm_test_top.env.master_agent.drv [ahb_master_driver] Beat[127/256] addr=0x00005501 trans=AHB_TRANS_SEQ resp=AHB_RESP_OKAY wdata=0xa1e7b8c8
# UVM_INFO ../src/slv/ahb_slave_driver.sv(174) @ 2995000: uvm_test_top.env.slave_agent.drv [ahb_slave_driver] Beat AHB_WRITE addr=0x00005501 resp=AHB_RESP_OKAY waits=0 wdata=0xa1e7b8c8
# UVM_INFO ../src/mst/ahb_master_monitor.sv(117) @ 2995000: uvm_test_top.env.master_agent.mon [ahb_master_monitor] Beat[127] addr=0x00005501 wdata=0xa1e7b8c8 resp=AHB_RESP_OKAY
# UVM_INFO ../src/mst/ahb_master_driver.sv(309) @ 3035000: uvm_test_top.env.master_agent.drv [ahb_master_driver] Beat[128/256] addr=0x00005502 trans=AHB_TRANS_SEQ resp=AHB_RESP_OKAY wdata=0xc1aecb44
# UVM_INFO ../src/slv/ahb_slave_driver.sv(174) @ 3035000: uvm_test_top.env.slave_agent.drv [ahb_slave_driver] Beat AHB_WRITE addr=0x00005502 resp=AHB_RESP_OKAY waits=2 wdata=0xc1aecb44
# UVM_INFO ../src/mst/ahb_master_monitor.sv(117) @ 3035000: uvm_test_top.env.master_agent.mon [ahb_master_monitor] Beat[128] addr=0x00005502 wdata=0xc1aecb44 resp=AHB_RESP_OKAY
# UVM_INFO ../src/mst/ahb_master_driver.sv(309) @ 3045000: uvm_test_top.env.master_agent.drv [ahb_master_driver] Beat[129/256] addr=0x00005503 trans=AHB_TRANS_SEQ resp=AHB_RESP_OKAY wdata=0x1c90cf11
# UVM_INFO ../src/slv/ahb_slave_driver.sv(174) @ 3045000: uvm_test_top.env.slave_agent.drv [ahb_slave_driver] Beat AHB_WRITE addr=0x00005503 resp=AHB_RESP_OKAY waits=0 wdata=0x1c90cf11
# UVM_INFO ../src/mst/ahb_master_monitor.sv(117) @ 3045000: uvm_test_top.env.master_agent.mon [ahb_master_monitor] Beat[129] addr=0x00005503 wdata=0x1c90cf11 resp=AHB_RESP_OKAY
# UVM_INFO ../src/mst/ahb_master_driver.sv(309) @ 3065000: uvm_test_top.env.master_agent.drv [ahb_master_driver] Beat[130/256] addr=0x00005504 trans=AHB_TRANS_SEQ resp=AHB_RESP_OKAY wdata=0x5849ae1a
# UVM_INFO ../src/slv/ahb_slave_driver.sv(174) @ 3065000: uvm_test_top.env.slave_agent.drv [ahb_slave_driver] Beat AHB_WRITE addr=0x00005504 resp=AHB_RESP_OKAY waits=1 wdata=0x5849ae1a
# UVM_INFO ../src/mst/ahb_master_monitor.sv(117) @ 3065000: uvm_test_top.env.master_agent.mon [ahb_master_monitor] Beat[130] addr=0x00005504 wdata=0x5849ae1a resp=AHB_RESP_OKAY
# UVM_INFO ../src/mst/ahb_master_driver.sv(309) @ 3075000: uvm_test_top.env.master_agent.drv [ahb_master_driver] Beat[131/256] addr=0x00005505 trans=AHB_TRANS_SEQ resp=AHB_RESP_OKAY wdata=0x333ba057
# UVM_INFO ../src/slv/ahb_slave_driver.sv(174) @ 3075000: uvm_test_top.env.slave_agent.drv [ahb_slave_driver] Beat AHB_WRITE addr=0x00005505 resp=AHB_RESP_OKAY waits=0 wdata=0x333ba057
# UVM_INFO ../src/mst/ahb_master_monitor.sv(117) @ 3075000: uvm_test_top.env.master_agent.mon [ahb_master_monitor] Beat[131] addr=0x00005505 wdata=0x333ba057 resp=AHB_RESP_OKAY
# UVM_INFO ../src/mst/ahb_master_driver.sv(309) @ 3085000: uvm_test_top.env.master_agent.drv [ahb_master_driver] Beat[132/256] addr=0x00005506 trans=AHB_TRANS_SEQ resp=AHB_RESP_OKAY wdata=0xd39bf0d6
# UVM_INFO ../src/slv/ahb_slave_driver.sv(174) @ 3085000: uvm_test_top.env.slave_agent.drv [ahb_slave_driver] Beat AHB_WRITE addr=0x00005506 resp=AHB_RESP_OKAY waits=0 wdata=0xd39bf0d6
# UVM_INFO ../src/mst/ahb_master_monitor.sv(117) @ 3085000: uvm_test_top.env.master_agent.mon [ahb_master_monitor] Beat[132] addr=0x00005506 wdata=0xd39bf0d6 resp=AHB_RESP_OKAY
# UVM_INFO ../src/mst/ahb_master_driver.sv(309) @ 3105000: uvm_test_top.env.master_agent.drv [ahb_master_driver] Beat[133/256] addr=0x00005507 trans=AHB_TRANS_SEQ resp=AHB_RESP_OKAY wdata=0x13dd7c6f
# UVM_INFO ../src/slv/ahb_slave_driver.sv(174) @ 3105000: uvm_test_top.env.slave_agent.drv [ahb_slave_driver] Beat AHB_WRITE addr=0x00005507 resp=AHB_RESP_OKAY waits=1 wdata=0x13dd7c6f
# UVM_INFO ../src/mst/ahb_master_monitor.sv(117) @ 3105000: uvm_test_top.env.master_agent.mon [ahb_master_monitor] Beat[133] addr=0x00005507 wdata=0x13dd7c6f resp=AHB_RESP_OKAY
# UVM_INFO ../src/mst/ahb_master_driver.sv(309) @ 3125000: uvm_test_top.env.master_agent.drv [ahb_master_driver] Beat[134/256] addr=0x00005508 trans=AHB_TRANS_SEQ resp=AHB_RESP_OKAY wdata=0x504960e8
# UVM_INFO ../src/slv/ahb_slave_driver.sv(174) @ 3125000: uvm_test_top.env.slave_agent.drv [ahb_slave_driver] Beat AHB_WRITE addr=0x00005508 resp=AHB_RESP_OKAY waits=1 wdata=0x504960e8
# UVM_INFO ../src/mst/ahb_master_monitor.sv(117) @ 3125000: uvm_test_top.env.master_agent.mon [ahb_master_monitor] Beat[134] addr=0x00005508 wdata=0x504960e8 resp=AHB_RESP_OKAY
# UVM_INFO ../src/mst/ahb_master_driver.sv(309) @ 3155000: uvm_test_top.env.master_agent.drv [ahb_master_driver] Beat[135/256] addr=0x00005509 trans=AHB_TRANS_SEQ resp=AHB_RESP_OKAY wdata=0x7dac222b
# UVM_INFO ../src/slv/ahb_slave_driver.sv(174) @ 3155000: uvm_test_top.env.slave_agent.drv [ahb_slave_driver] Beat AHB_WRITE addr=0x00005509 resp=AHB_RESP_OKAY waits=2 wdata=0x7dac222b
# UVM_INFO ../src/mst/ahb_master_monitor.sv(117) @ 3155000: uvm_test_top.env.master_agent.mon [ahb_master_monitor] Beat[135] addr=0x00005509 wdata=0x7dac222b resp=AHB_RESP_OKAY
# UVM_INFO ../src/mst/ahb_master_driver.sv(309) @ 3185000: uvm_test_top.env.master_agent.drv [ahb_master_driver] Beat[136/256] addr=0x0000550a trans=AHB_TRANS_SEQ resp=AHB_RESP_OKAY wdata=0xf670f9fe
# UVM_INFO ../src/slv/ahb_slave_driver.sv(174) @ 3185000: uvm_test_top.env.slave_agent.drv [ahb_slave_driver] Beat AHB_WRITE addr=0x0000550a resp=AHB_RESP_OKAY waits=0 wdata=0xf670f9fe
# UVM_INFO ../src/mst/ahb_master_monitor.sv(117) @ 3185000: uvm_test_top.env.master_agent.mon [ahb_master_monitor] Beat[136] addr=0x0000550a wdata=0xf670f9fe resp=AHB_RESP_OKAY
# UVM_INFO ../src/mst/ahb_master_driver.sv(309) @ 3195000: uvm_test_top.env.master_agent.drv [ahb_master_driver] Beat[137/256] addr=0x0000550b trans=AHB_TRANS_SEQ resp=AHB_RESP_OKAY wdata=0xf9311d05
# UVM_INFO ../src/slv/ahb_slave_driver.sv(174) @ 3195000: uvm_test_top.env.slave_agent.drv [ahb_slave_driver] Beat AHB_WRITE addr=0x0000550b resp=AHB_RESP_OKAY waits=0 wdata=0xf9311d05
# UVM_INFO ../src/mst/ahb_master_monitor.sv(117) @ 3195000: uvm_test_top.env.master_agent.mon [ahb_master_monitor] Beat[137] addr=0x0000550b wdata=0xf9311d05 resp=AHB_RESP_OKAY
# UVM_INFO ../src/mst/ahb_master_driver.sv(309) @ 3205000: uvm_test_top.env.master_agent.drv [ahb_master_driver] Beat[138/256] addr=0x0000550c trans=AHB_TRANS_SEQ resp=AHB_RESP_OKAY wdata=0x918c11d0
# UVM_INFO ../src/slv/ahb_slave_driver.sv(174) @ 3205000: uvm_test_top.env.slave_agent.drv [ahb_slave_driver] Beat AHB_WRITE addr=0x0000550c resp=AHB_RESP_OKAY waits=0 wdata=0x918c11d0
# UVM_INFO ../src/mst/ahb_master_monitor.sv(117) @ 3205000: uvm_test_top.env.master_agent.mon [ahb_master_monitor] Beat[138] addr=0x0000550c wdata=0x918c11d0 resp=AHB_RESP_OKAY
# UVM_INFO ../src/mst/ahb_master_driver.sv(309) @ 3215000: uvm_test_top.env.master_agent.drv [ahb_master_driver] Beat[139/256] addr=0x0000550d trans=AHB_TRANS_SEQ resp=AHB_RESP_OKAY wdata=0x304d5a6b
# UVM_INFO ../src/slv/ahb_slave_driver.sv(174) @ 3215000: uvm_test_top.env.slave_agent.drv [ahb_slave_driver] Beat AHB_WRITE addr=0x0000550d resp=AHB_RESP_OKAY waits=0 wdata=0x304d5a6b
# UVM_INFO ../src/mst/ahb_master_monitor.sv(117) @ 3215000: uvm_test_top.env.master_agent.mon [ahb_master_monitor] Beat[139] addr=0x0000550d wdata=0x304d5a6b resp=AHB_RESP_OKAY
# UVM_INFO ../src/mst/ahb_master_driver.sv(309) @ 3245000: uvm_test_top.env.master_agent.drv [ahb_master_driver] Beat[140/256] addr=0x0000550e trans=AHB_TRANS_SEQ resp=AHB_RESP_OKAY wdata=0x4dceb260
# UVM_INFO ../src/slv/ahb_slave_driver.sv(174) @ 3245000: uvm_test_top.env.slave_agent.drv [ahb_slave_driver] Beat AHB_WRITE addr=0x0000550e resp=AHB_RESP_OKAY waits=2 wdata=0x4dceb260
# UVM_INFO ../src/mst/ahb_master_monitor.sv(117) @ 3245000: uvm_test_top.env.master_agent.mon [ahb_master_monitor] Beat[140] addr=0x0000550e wdata=0x4dceb260 resp=AHB_RESP_OKAY
# UVM_INFO ../src/mst/ahb_master_driver.sv(309) @ 3265000: uvm_test_top.env.master_agent.drv [ahb_master_driver] Beat[141/256] addr=0x0000550f trans=AHB_TRANS_SEQ resp=AHB_RESP_OKAY wdata=0xe92ade87
# UVM_INFO ../src/slv/ahb_slave_driver.sv(174) @ 3265000: uvm_test_top.env.slave_agent.drv [ahb_slave_driver] Beat AHB_WRITE addr=0x0000550f resp=AHB_RESP_OKAY waits=1 wdata=0xe92ade87
# UVM_INFO ../src/mst/ahb_master_monitor.sv(117) @ 3265000: uvm_test_top.env.master_agent.mon [ahb_master_monitor] Beat[141] addr=0x0000550f wdata=0xe92ade87 resp=AHB_RESP_OKAY
# UVM_INFO ../src/mst/ahb_master_driver.sv(309) @ 3285000: uvm_test_top.env.master_agent.drv [ahb_master_driver] Beat[142/256] addr=0x00005510 trans=AHB_TRANS_SEQ resp=AHB_RESP_OKAY wdata=0xb3d9fcbb
# UVM_INFO ../src/slv/ahb_slave_driver.sv(174) @ 3285000: uvm_test_top.env.slave_agent.drv [ahb_slave_driver] Beat AHB_WRITE addr=0x00005510 resp=AHB_RESP_OKAY waits=1 wdata=0xb3d9fcbb
# UVM_INFO ../src/mst/ahb_master_monitor.sv(117) @ 3285000: uvm_test_top.env.master_agent.mon [ahb_master_monitor] Beat[142] addr=0x00005510 wdata=0xb3d9fcbb resp=AHB_RESP_OKAY
# UVM_INFO ../src/mst/ahb_master_driver.sv(309) @ 3305000: uvm_test_top.env.master_agent.drv [ahb_master_driver] Beat[143/256] addr=0x00005511 trans=AHB_TRANS_SEQ resp=AHB_RESP_OKAY wdata=0xd4c54c42
# UVM_INFO ../src/slv/ahb_slave_driver.sv(174) @ 3305000: uvm_test_top.env.slave_agent.drv [ahb_slave_driver] Beat AHB_WRITE addr=0x00005511 resp=AHB_RESP_OKAY waits=1 wdata=0xd4c54c42
# UVM_INFO ../src/mst/ahb_master_monitor.sv(117) @ 3305000: uvm_test_top.env.master_agent.mon [ahb_master_monitor] Beat[143] addr=0x00005511 wdata=0xd4c54c42 resp=AHB_RESP_OKAY
# UVM_INFO ../src/mst/ahb_master_driver.sv(309) @ 3355000: uvm_test_top.env.master_agent.drv [ahb_master_driver] Beat[144/256] addr=0x00005512 trans=AHB_TRANS_SEQ resp=AHB_RESP_OKAY wdata=0x03973506
# UVM_INFO ../src/slv/ahb_slave_driver.sv(174) @ 3355000: uvm_test_top.env.slave_agent.drv [ahb_slave_driver] Beat AHB_WRITE addr=0x00005512 resp=AHB_RESP_OKAY waits=2 wdata=0x03973506
# UVM_INFO ../src/mst/ahb_master_monitor.sv(117) @ 3355000: uvm_test_top.env.master_agent.mon [ahb_master_monitor] Beat[144] addr=0x00005512 wdata=0x03973506 resp=AHB_RESP_OKAY
# UVM_INFO ../src/mst/ahb_master_driver.sv(309) @ 3375000: uvm_test_top.env.master_agent.drv [ahb_master_driver] Beat[145/256] addr=0x00005513 trans=AHB_TRANS_SEQ resp=AHB_RESP_OKAY wdata=0x362afdd3
# UVM_INFO ../src/slv/ahb_slave_driver.sv(174) @ 3375000: uvm_test_top.env.slave_agent.drv [ahb_slave_driver] Beat AHB_WRITE addr=0x00005513 resp=AHB_RESP_OKAY waits=1 wdata=0x362afdd3
# UVM_INFO ../src/mst/ahb_master_monitor.sv(117) @ 3375000: uvm_test_top.env.master_agent.mon [ahb_master_monitor] Beat[145] addr=0x00005513 wdata=0x362afdd3 resp=AHB_RESP_OKAY
# UVM_INFO ../src/mst/ahb_master_driver.sv(309) @ 3395000: uvm_test_top.env.master_agent.drv [ahb_master_driver] Beat[146/256] addr=0x00005514 trans=AHB_TRANS_SEQ resp=AHB_RESP_OKAY wdata=0x7f1c3bdc
# UVM_INFO ../src/slv/ahb_slave_driver.sv(174) @ 3395000: uvm_test_top.env.slave_agent.drv [ahb_slave_driver] Beat AHB_WRITE addr=0x00005514 resp=AHB_RESP_OKAY waits=1 wdata=0x7f1c3bdc
# UVM_INFO ../src/mst/ahb_master_monitor.sv(117) @ 3395000: uvm_test_top.env.master_agent.mon [ahb_master_monitor] Beat[146] addr=0x00005514 wdata=0x7f1c3bdc resp=AHB_RESP_OKAY
# UVM_INFO ../src/mst/ahb_master_driver.sv(309) @ 3415000: uvm_test_top.env.master_agent.drv [ahb_master_driver] Beat[147/256] addr=0x00005515 trans=AHB_TRANS_SEQ resp=AHB_RESP_OKAY wdata=0xe67b5a99
# UVM_INFO ../src/slv/ahb_slave_driver.sv(174) @ 3415000: uvm_test_top.env.slave_agent.drv [ahb_slave_driver] Beat AHB_WRITE addr=0x00005515 resp=AHB_RESP_OKAY waits=1 wdata=0xe67b5a99
# UVM_INFO ../src/mst/ahb_master_monitor.sv(117) @ 3415000: uvm_test_top.env.master_agent.mon [ahb_master_monitor] Beat[147] addr=0x00005515 wdata=0xe67b5a99 resp=AHB_RESP_OKAY
# UVM_INFO ../src/mst/ahb_master_driver.sv(309) @ 3425000: uvm_test_top.env.master_agent.drv [ahb_master_driver] Beat[148/256] addr=0x00005516 trans=AHB_TRANS_SEQ resp=AHB_RESP_OKAY wdata=0x3f29a0f9
# UVM_INFO ../src/slv/ahb_slave_driver.sv(174) @ 3425000: uvm_test_top.env.slave_agent.drv [ahb_slave_driver] Beat AHB_WRITE addr=0x00005516 resp=AHB_RESP_OKAY waits=0 wdata=0x3f29a0f9
# UVM_INFO ../src/mst/ahb_master_monitor.sv(117) @ 3425000: uvm_test_top.env.master_agent.mon [ahb_master_monitor] Beat[148] addr=0x00005516 wdata=0x3f29a0f9 resp=AHB_RESP_OKAY
# UVM_INFO ../src/mst/ahb_master_driver.sv(309) @ 3445000: uvm_test_top.env.master_agent.drv [ahb_master_driver] Beat[149/256] addr=0x00005517 trans=AHB_TRANS_SEQ resp=AHB_RESP_OKAY wdata=0x7f0c42a1
# UVM_INFO ../src/slv/ahb_slave_driver.sv(174) @ 3445000: uvm_test_top.env.slave_agent.drv [ahb_slave_driver] Beat AHB_WRITE addr=0x00005517 resp=AHB_RESP_OKAY waits=1 wdata=0x7f0c42a1
# UVM_INFO ../src/mst/ahb_master_monitor.sv(117) @ 3445000: uvm_test_top.env.master_agent.mon [ahb_master_monitor] Beat[149] addr=0x00005517 wdata=0x7f0c42a1 resp=AHB_RESP_OKAY
# UVM_INFO ../src/mst/ahb_master_driver.sv(309) @ 3465000: uvm_test_top.env.master_agent.drv [ahb_master_driver] Beat[150/256] addr=0x00005518 trans=AHB_TRANS_SEQ resp=AHB_RESP_OKAY wdata=0x7c5be657
# UVM_INFO ../src/slv/ahb_slave_driver.sv(174) @ 3465000: uvm_test_top.env.slave_agent.drv [ahb_slave_driver] Beat AHB_WRITE addr=0x00005518 resp=AHB_RESP_OKAY waits=1 wdata=0x7c5be657
# UVM_INFO ../src/mst/ahb_master_monitor.sv(117) @ 3465000: uvm_test_top.env.master_agent.mon [ahb_master_monitor] Beat[150] addr=0x00005518 wdata=0x7c5be657 resp=AHB_RESP_OKAY
# UVM_INFO ../src/mst/ahb_master_driver.sv(309) @ 3475000: uvm_test_top.env.master_agent.drv [ahb_master_driver] Beat[151/256] addr=0x00005519 trans=AHB_TRANS_SEQ resp=AHB_RESP_OKAY wdata=0x3b104243
# UVM_INFO ../src/slv/ahb_slave_driver.sv(174) @ 3475000: uvm_test_top.env.slave_agent.drv [ahb_slave_driver] Beat AHB_WRITE addr=0x00005519 resp=AHB_RESP_OKAY waits=0 wdata=0x3b104243
# UVM_INFO ../src/mst/ahb_master_monitor.sv(117) @ 3475000: uvm_test_top.env.master_agent.mon [ahb_master_monitor] Beat[151] addr=0x00005519 wdata=0x3b104243 resp=AHB_RESP_OKAY
# UVM_INFO ../src/mst/ahb_master_driver.sv(309) @ 3515000: uvm_test_top.env.master_agent.drv [ahb_master_driver] Beat[152/256] addr=0x0000551a trans=AHB_TRANS_SEQ resp=AHB_RESP_OKAY wdata=0xc8eef49e
# UVM_INFO ../src/slv/ahb_slave_driver.sv(174) @ 3515000: uvm_test_top.env.slave_agent.drv [ahb_slave_driver] Beat AHB_WRITE addr=0x0000551a resp=AHB_RESP_OKAY waits=2 wdata=0xc8eef49e
# UVM_INFO ../src/mst/ahb_master_monitor.sv(117) @ 3515000: uvm_test_top.env.master_agent.mon [ahb_master_monitor] Beat[152] addr=0x0000551a wdata=0xc8eef49e resp=AHB_RESP_OKAY
# UVM_INFO ../src/mst/ahb_master_driver.sv(309) @ 3525000: uvm_test_top.env.master_agent.drv [ahb_master_driver] Beat[153/256] addr=0x0000551b trans=AHB_TRANS_SEQ resp=AHB_RESP_OKAY wdata=0x42b34717
# UVM_INFO ../src/slv/ahb_slave_driver.sv(174) @ 3525000: uvm_test_top.env.slave_agent.drv [ahb_slave_driver] Beat AHB_WRITE addr=0x0000551b resp=AHB_RESP_OKAY waits=0 wdata=0x42b34717
# UVM_INFO ../src/mst/ahb_master_monitor.sv(117) @ 3525000: uvm_test_top.env.master_agent.mon [ahb_master_monitor] Beat[153] addr=0x0000551b wdata=0x42b34717 resp=AHB_RESP_OKAY
# UVM_INFO ../src/mst/ahb_master_driver.sv(309) @ 3545000: uvm_test_top.env.master_agent.drv [ahb_master_driver] Beat[154/256] addr=0x0000551c trans=AHB_TRANS_SEQ resp=AHB_RESP_OKAY wdata=0x2dc97cc2
# UVM_INFO ../src/slv/ahb_slave_driver.sv(174) @ 3545000: uvm_test_top.env.slave_agent.drv [ahb_slave_driver] Beat AHB_WRITE addr=0x0000551c resp=AHB_RESP_OKAY waits=1 wdata=0x2dc97cc2
# UVM_INFO ../src/mst/ahb_master_monitor.sv(117) @ 3545000: uvm_test_top.env.master_agent.mon [ahb_master_monitor] Beat[154] addr=0x0000551c wdata=0x2dc97cc2 resp=AHB_RESP_OKAY
# UVM_INFO ../src/mst/ahb_master_driver.sv(309) @ 3565000: uvm_test_top.env.master_agent.drv [ahb_master_driver] Beat[155/256] addr=0x0000551d trans=AHB_TRANS_SEQ resp=AHB_RESP_OKAY wdata=0x42f9737f
# UVM_INFO ../src/slv/ahb_slave_driver.sv(174) @ 3565000: uvm_test_top.env.slave_agent.drv [ahb_slave_driver] Beat AHB_WRITE addr=0x0000551d resp=AHB_RESP_OKAY waits=1 wdata=0x42f9737f
# UVM_INFO ../src/mst/ahb_master_monitor.sv(117) @ 3565000: uvm_test_top.env.master_agent.mon [ahb_master_monitor] Beat[155] addr=0x0000551d wdata=0x42f9737f resp=AHB_RESP_OKAY
# UVM_INFO ../src/mst/ahb_master_driver.sv(309) @ 3595000: uvm_test_top.env.master_agent.drv [ahb_master_driver] Beat[156/256] addr=0x0000551e trans=AHB_TRANS_SEQ resp=AHB_RESP_OKAY wdata=0x113570a3
