# vsim -c -coverage -sv_seed 31163416 "+UVM_TESTNAME=ahb_reset_test" "+UVM_VERBOSITY=UVM_HIGH" "+DUMP_VCD" -l ./report/logs/ahb_reset_test_run_4_seed_31163416.log -do "coverage save -onexit ./report/coverage/ahb_reset_test_run_4_seed_31163416.ucdb; run -all; quit -f" opt_tb_top 
# Start time: 12:20:41 on Aug 06,2026
# //  Questa Sim-64
# //  Version 10.6b linux_x86_64 May 25 2017
# //
# //  Copyright 1991-2017 Mentor Graphics Corporation
# //  All Rights Reserved.
# //
# //  QuestaSim and its associated documentation contain trade
# //  secrets and commercial or financial information that are the property of
# //  Mentor Graphics Corporation and are privileged, confidential,
# //  and exempt from disclosure under the Freedom of Information Act,
# //  5 U.S.C. Section 552. Furthermore, this information
# //  is prohibited from disclosure under the Trade Secrets Act,
# //  18 U.S.C. Section 1905.
# //
# Loading sv_std.std
# Loading work.ahb_if(fast)
# Loading mtiUvm.uvm_pkg
# Loading work.ahb_pkg(fast)
# Loading work.ahb_seq_pkg(fast)
# Loading work.ahb_test_pkg(fast)
# Loading work.tb_top(fast)
# Loading work.ahb_if(fast)
# Loading work.ahb_sva(fast)
# Loading mtiUvm.questa_uvm_pkg(fast)
# Loading /cadtools/mentor/Questa_10.6b/questasim/uvm-1.1d/linux_x86_64/uvm_dpi.so
# coverage save -onexit ./report/coverage/ahb_reset_test_run_4_seed_31163416.ucdb
#  run -all
# ----------------------------------------------------------------
# UVM-1.1d
# (C) 2007-2013 Mentor Graphics Corporation
# (C) 2007-2013 Cadence Design Systems, Inc.
# (C) 2006-2013 Synopsys, Inc.
# (C) 2011-2013 Cypress Semiconductor Corp.
# ----------------------------------------------------------------
# 
#   ***********       IMPORTANT RELEASE NOTES         ************
# 
#   You are using a version of the UVM library that has been compiled
#   with `UVM_NO_DEPRECATED undefined.
#   See http://www.eda.org/svdb/view.php?id=3313 for more details.
# 
#   You are using a version of the UVM library that has been compiled
#   with `UVM_OBJECT_MUST_HAVE_CONSTRUCTOR undefined.
#   See http://www.eda.org/svdb/view.php?id=3770 for more details.
# 
#       (Specify +UVM_NO_RELNOTES to turn off this notice)
# 
# UVM_INFO verilog_src/questa_uvm_pkg-1.2/src/questa_uvm_pkg.sv(215) @ 0: reporter [Questa UVM] QUESTA_UVM-1.2.3
# UVM_INFO verilog_src/questa_uvm_pkg-1.2/src/questa_uvm_pkg.sv(217) @ 0: reporter [Questa UVM]  questa_uvm::init(+struct)
# UVM_INFO ../src/tb_top.sv(126) @ 0: reporter [TB_TOP] Virtual interface set in config_db
# UVM_INFO @ 0: reporter [RNTST] Running test ahb_reset_test...
# UVM_INFO ../src/tb_top.sv(140) @ 0: reporter [TB_TOP] Waveform VCD dumping enabled (ahb_lite_vip.vcd)
# UVM_INFO ../src/env/ahb_vip_env.sv(64) @ 0: uvm_test_top.env [ahb_vip_env] slave_vif not set - reusing master_vif (passthrough mode)
# UVM_INFO ../src/env/ahb_vip_env.sv(72) @ 0: uvm_test_top.env [ahb_vip_env] Scoreboard created
# UVM_INFO ../src/env/ahb_vip_env.sv(78) @ 0: uvm_test_top.env [ahb_vip_env] Coverage collectors created
# UVM_INFO ../src/mst/ahb_master_agent.sv(61) @ 0: uvm_test_top.env.master_agent [ahb_master_agent] ACTIVE mode - driver + sequencer created
# UVM_INFO ../src/slv/ahb_slave_agent.sv(64) @ 0: uvm_test_top.env.slave_agent [ahb_slave_agent] ACTIVE mode - driver + sequencer created (    auto responses)
# UVM_INFO ../src/env/ahb_vip_env.sv(92) @ 0: uvm_test_top.env [ahb_vip_env] Scoreboard connected: master_mon.ap -> scb, slave_mon.ap -> scb
# UVM_INFO ../src/env/ahb_vip_env.sv(102) @ 0: uvm_test_top.env [ahb_vip_env] Coverage connected: master_mon.ap/trans_ap -> master_cov, slave_mon.ap/trans_ap -> slave_cov
# UVM_INFO @ 0: reporter [UVMTOP] UVM testbench topology:
# ---------------------------------------------------------------
# Name                       Type                     Size  Value
# ---------------------------------------------------------------
# uvm_test_top               ahb_reset_test           -     @475 
#   env                      ahb_vip_env              -     @490 
#     master_agent           ahb_master_agent         -     @505 
#       drv                  ahb_master_driver        -     @570 
#         rsp_port           uvm_analysis_port        -     @585 
#         seq_item_port      uvm_seq_item_pull_port   -     @577 
#       mon                  ahb_master_monitor       -     @563 
#         ap                 uvm_analysis_port        -     @704 
#         trans_ap           uvm_analysis_port        -     @712 
#       sqr                  ahb_master_sequencer     -     @593 
#         rsp_export         uvm_analysis_export      -     @600 
#         seq_item_export    uvm_seq_item_pull_imp    -     @694 
#         arbitration_queue  array                    0     -    
#         lock_queue         array                    0     -    
#         num_last_reqs      integral                 32    'd1  
#         num_last_rsps      integral                 32    'd1  
#     master_cov             ahb_coverage             -     @526 
#       analysis_imp         uvm_analysis_imp         -     @533 
#       trans_export         uvm_analysis_imp_trans   -     @726 
#     scb                    ahb_scoreboard           -     @519 
#       master_export        uvm_analysis_imp_master  -     @734 
#       slave_export         uvm_analysis_imp_slave   -     @742 
#     slave_agent            ahb_slave_agent          -     @512 
#       drv                  ahb_slave_driver         -     @764 
#         rsp_port           uvm_analysis_port        -     @779 
#         seq_item_port      uvm_seq_item_pull_port   -     @771 
#       mon                  ahb_slave_monitor        -     @757 
#         ap                 uvm_analysis_port        -     @898 
#         trans_ap           uvm_analysis_port        -     @906 
#       sqr                  ahb_slave_sequencer      -     @787 
#         rsp_export         uvm_analysis_export      -     @794 
#         seq_item_export    uvm_seq_item_pull_imp    -     @888 
#         arbitration_queue  array                    0     -    
#         lock_queue         array                    0     -    
#         num_last_reqs      integral                 32    'd1  
#         num_last_rsps      integral                 32    'd1  
#     slave_cov              ahb_coverage             -     @541 
#       analysis_imp         uvm_analysis_imp         -     @548 
#       trans_export         uvm_analysis_imp_trans   -     @920 
# ---------------------------------------------------------------
# 
# UVM_INFO verilog_src/questa_uvm_pkg-1.2/src/questa_uvm_pkg.sv(277) @ 0: reporter [Questa UVM] End Of Elaboration
# UVM_INFO ../src/mst_seq/ahb_reset_seq.sv(64) @ 0: uvm_test_top.env.master_agent.sqr@@seq [ahb_reset_seq] Reset phase: 18 bursts, reset on every 3th
# UVM_INFO ../src/mst/ahb_master_driver.sv(183) @ 5000: uvm_test_top.env.master_agent.drv [ahb_master_driver] Flushed pending transactions (reset)
# UVM_INFO ../src/tb_top.sv(48) @ 95000: reporter [TB_TOP] Reset de-asserted
# UVM_INFO ../src/slv/ahb_slave_driver.sv(63) @ 95000: uvm_test_top.env.slave_agent.drv [ahb_slave_driver] Reset deasserted - slave driver active (    auto mode)
# UVM_INFO ../src/mst/ahb_master_driver.sv(72) @ 95000: uvm_test_top.env.master_agent.drv [ahb_master_driver] Reset deasserted - master driver active
# UVM_INFO ../src/mst/ahb_master_monitor.sv(81) @ 95000: uvm_test_top.env.master_agent.mon [ahb_master_monitor] Reset deasserted - master monitor active
# UVM_INFO ../src/slv/ahb_slave_monitor.sv(79) @ 95000: uvm_test_top.env.slave_agent.mon [ahb_slave_monitor] Reset deasserted - slave monitor active
# UVM_INFO ../src/mst/ahb_master_driver.sv(85) @ 95000: uvm_test_top.env.master_agent.drv [ahb_master_driver] Queueing [AHB_WRITE]: HADDR=0x0000a000, HBURST=AHB_BURST_INCR16, HSIZE=AHB_SIZE_32B, 16 beats
# UVM_INFO ../src/mst/ahb_master_driver.sv(127) @ 95000: uvm_test_top.env.master_agent.drv [ahb_master_driver] Driving [AHB_WRITE]: HADDR=0x0000a000, HBURST=AHB_BURST_INCR16, HSIZE=AHB_SIZE_32B, 16 beats               
# UVM_INFO ../src/mst/ahb_master_driver.sv(332) @ 135000: uvm_test_top.env.master_agent.drv [ahb_master_driver] Beat[0/16] addr=0x0000a000 trans=AHB_TRANS_NONSEQ resp=AHB_RESP_OKAY wdata=0xce2f5651
# UVM_INFO ../src/slv/ahb_slave_driver.sv(184) @ 135000: uvm_test_top.env.slave_agent.drv [ahb_slave_driver] Beat AHB_WRITE addr=0x0000a000 resp=AHB_RESP_OKAY waits=2 wdata=0xce2f5651
# UVM_INFO ../src/mst/ahb_master_monitor.sv(128) @ 135000: uvm_test_top.env.master_agent.mon [ahb_master_monitor] Beat[0] addr=0x0000a000 wdata=0xce2f5651 resp=AHB_RESP_OKAY
# UVM_INFO ../src/mst/ahb_master_driver.sv(332) @ 155000: uvm_test_top.env.master_agent.drv [ahb_master_driver] Beat[1/16] addr=0x0000a004 trans=AHB_TRANS_SEQ resp=AHB_RESP_OKAY wdata=0x1987d941
# UVM_INFO ../src/slv/ahb_slave_driver.sv(184) @ 155000: uvm_test_top.env.slave_agent.drv [ahb_slave_driver] Beat AHB_WRITE addr=0x0000a004 resp=AHB_RESP_OKAY waits=1 wdata=0x1987d941
# UVM_INFO ../src/mst/ahb_master_monitor.sv(128) @ 155000: uvm_test_top.env.master_agent.mon [ahb_master_monitor] Beat[1] addr=0x0000a004 wdata=0x1987d941 resp=AHB_RESP_OKAY
# UVM_INFO ../src/mst/ahb_master_driver.sv(332) @ 165000: uvm_test_top.env.master_agent.drv [ahb_master_driver] Beat[2/16] addr=0x0000a008 trans=AHB_TRANS_SEQ resp=AHB_RESP_OKAY wdata=0x64ebaba5
# UVM_INFO ../src/slv/ahb_slave_driver.sv(184) @ 165000: uvm_test_top.env.slave_agent.drv [ahb_slave_driver] Beat AHB_WRITE addr=0x0000a008 resp=AHB_RESP_OKAY waits=0 wdata=0x64ebaba5
# UVM_INFO ../src/mst/ahb_master_monitor.sv(128) @ 165000: uvm_test_top.env.master_agent.mon [ahb_master_monitor] Beat[2] addr=0x0000a008 wdata=0x64ebaba5 resp=AHB_RESP_OKAY
# UVM_INFO ../src/mst/ahb_master_driver.sv(332) @ 185000: uvm_test_top.env.master_agent.drv [ahb_master_driver] Beat[3/16] addr=0x0000a00c trans=AHB_TRANS_SEQ resp=AHB_RESP_OKAY wdata=0x125861d1
# UVM_INFO ../src/slv/ahb_slave_driver.sv(184) @ 185000: uvm_test_top.env.slave_agent.drv [ahb_slave_driver] Beat AHB_WRITE addr=0x0000a00c resp=AHB_RESP_OKAY waits=1 wdata=0x125861d1
# UVM_INFO ../src/mst/ahb_master_monitor.sv(128) @ 185000: uvm_test_top.env.master_agent.mon [ahb_master_monitor] Beat[3] addr=0x0000a00c wdata=0x125861d1 resp=AHB_RESP_OKAY
# UVM_INFO ../src/mst/ahb_master_driver.sv(332) @ 195000: uvm_test_top.env.master_agent.drv [ahb_master_driver] Beat[4/16] addr=0x0000a010 trans=AHB_TRANS_SEQ resp=AHB_RESP_OKAY wdata=0x32c069a7
# UVM_INFO ../src/slv/ahb_slave_driver.sv(184) @ 195000: uvm_test_top.env.slave_agent.drv [ahb_slave_driver] Beat AHB_WRITE addr=0x0000a010 resp=AHB_RESP_OKAY waits=0 wdata=0x32c069a7
# UVM_INFO ../src/mst/ahb_master_monitor.sv(128) @ 195000: uvm_test_top.env.master_agent.mon [ahb_master_monitor] Beat[4] addr=0x0000a010 wdata=0x32c069a7 resp=AHB_RESP_OKAY
# UVM_INFO ../src/mst/ahb_master_driver.sv(332) @ 205000: uvm_test_top.env.master_agent.drv [ahb_master_driver] Beat[5/16] addr=0x0000a014 trans=AHB_TRANS_SEQ resp=AHB_RESP_OKAY wdata=0xd0bd9872
# UVM_INFO ../src/slv/ahb_slave_driver.sv(184) @ 205000: uvm_test_top.env.slave_agent.drv [ahb_slave_driver] Beat AHB_WRITE addr=0x0000a014 resp=AHB_RESP_OKAY waits=0 wdata=0xd0bd9872
# UVM_INFO ../src/mst/ahb_master_monitor.sv(128) @ 205000: uvm_test_top.env.master_agent.mon [ahb_master_monitor] Beat[5] addr=0x0000a014 wdata=0xd0bd9872 resp=AHB_RESP_OKAY
# UVM_INFO ../src/mst/ahb_master_driver.sv(332) @ 225000: uvm_test_top.env.master_agent.drv [ahb_master_driver] Beat[6/16] addr=0x0000a018 trans=AHB_TRANS_SEQ resp=AHB_RESP_OKAY wdata=0xed14d3c6
# UVM_INFO ../src/slv/ahb_slave_driver.sv(184) @ 225000: uvm_test_top.env.slave_agent.drv [ahb_slave_driver] Beat AHB_WRITE addr=0x0000a018 resp=AHB_RESP_OKAY waits=1 wdata=0xed14d3c6
# UVM_INFO ../src/mst/ahb_master_monitor.sv(128) @ 225000: uvm_test_top.env.master_agent.mon [ahb_master_monitor] Beat[6] addr=0x0000a018 wdata=0xed14d3c6 resp=AHB_RESP_OKAY
# UVM_INFO ../src/mst/ahb_master_driver.sv(332) @ 235000: uvm_test_top.env.master_agent.drv [ahb_master_driver] Beat[7/16] addr=0x0000a01c trans=AHB_TRANS_SEQ resp=AHB_RESP_OKAY wdata=0x328955bb
# UVM_INFO ../src/slv/ahb_slave_driver.sv(184) @ 235000: uvm_test_top.env.slave_agent.drv [ahb_slave_driver] Beat AHB_WRITE addr=0x0000a01c resp=AHB_RESP_OKAY waits=0 wdata=0x328955bb
# UVM_INFO ../src/mst/ahb_master_monitor.sv(128) @ 235000: uvm_test_top.env.master_agent.mon [ahb_master_monitor] Beat[7] addr=0x0000a01c wdata=0x328955bb resp=AHB_RESP_OKAY
# UVM_INFO ../src/mst/ahb_master_driver.sv(332) @ 265000: uvm_test_top.env.master_agent.drv [ahb_master_driver] Beat[8/16] addr=0x0000a020 trans=AHB_TRANS_SEQ resp=AHB_RESP_OKAY wdata=0x5bdf2e80
# UVM_INFO ../src/slv/ahb_slave_driver.sv(184) @ 265000: uvm_test_top.env.slave_agent.drv [ahb_slave_driver] Beat AHB_WRITE addr=0x0000a020 resp=AHB_RESP_OKAY waits=2 wdata=0x5bdf2e80
# UVM_INFO ../src/mst/ahb_master_monitor.sv(128) @ 265000: uvm_test_top.env.master_agent.mon [ahb_master_monitor] Beat[8] addr=0x0000a020 wdata=0x5bdf2e80 resp=AHB_RESP_OKAY
# UVM_INFO ../src/mst/ahb_master_driver.sv(332) @ 285000: uvm_test_top.env.master_agent.drv [ahb_master_driver] Beat[9/16] addr=0x0000a024 trans=AHB_TRANS_SEQ resp=AHB_RESP_OKAY wdata=0xdb04257b
# UVM_INFO ../src/slv/ahb_slave_driver.sv(184) @ 285000: uvm_test_top.env.slave_agent.drv [ahb_slave_driver] Beat AHB_WRITE addr=0x0000a024 resp=AHB_RESP_OKAY waits=1 wdata=0xdb04257b
# UVM_INFO ../src/mst/ahb_master_monitor.sv(128) @ 285000: uvm_test_top.env.master_agent.mon [ahb_master_monitor] Beat[9] addr=0x0000a024 wdata=0xdb04257b resp=AHB_RESP_OKAY
# UVM_INFO ../src/mst/ahb_master_driver.sv(332) @ 315000: uvm_test_top.env.master_agent.drv [ahb_master_driver] Beat[10/16] addr=0x0000a028 trans=AHB_TRANS_SEQ resp=AHB_RESP_OKAY wdata=0x72d28cae
# UVM_INFO ../src/slv/ahb_slave_driver.sv(184) @ 315000: uvm_test_top.env.slave_agent.drv [ahb_slave_driver] Beat AHB_WRITE addr=0x0000a028 resp=AHB_RESP_OKAY waits=2 wdata=0x72d28cae
# UVM_INFO ../src/mst/ahb_master_monitor.sv(128) @ 315000: uvm_test_top.env.master_agent.mon [ahb_master_monitor] Beat[10] addr=0x0000a028 wdata=0x72d28cae resp=AHB_RESP_OKAY
# UVM_INFO ../src/mst/ahb_master_driver.sv(332) @ 335000: uvm_test_top.env.master_agent.drv [ahb_master_driver] Beat[11/16] addr=0x0000a02c trans=AHB_TRANS_SEQ resp=AHB_RESP_OKAY wdata=0x678676be
# UVM_INFO ../src/slv/ahb_slave_driver.sv(184) @ 335000: uvm_test_top.env.slave_agent.drv [ahb_slave_driver] Beat AHB_WRITE addr=0x0000a02c resp=AHB_RESP_OKAY waits=1 wdata=0x678676be
# UVM_INFO ../src/mst/ahb_master_monitor.sv(128) @ 335000: uvm_test_top.env.master_agent.mon [ahb_master_monitor] Beat[11] addr=0x0000a02c wdata=0x678676be resp=AHB_RESP_OKAY
# UVM_INFO ../src/mst/ahb_master_driver.sv(332) @ 365000: uvm_test_top.env.master_agent.drv [ahb_master_driver] Beat[12/16] addr=0x0000a030 trans=AHB_TRANS_SEQ resp=AHB_RESP_OKAY wdata=0x0a20ec61
# UVM_INFO ../src/slv/ahb_slave_driver.sv(184) @ 365000: uvm_test_top.env.slave_agent.drv [ahb_slave_driver] Beat AHB_WRITE addr=0x0000a030 resp=AHB_RESP_OKAY waits=2 wdata=0x0a20ec61
# UVM_INFO ../src/mst/ahb_master_monitor.sv(128) @ 365000: uvm_test_top.env.master_agent.mon [ahb_master_monitor] Beat[12] addr=0x0000a030 wdata=0x0a20ec61 resp=AHB_RESP_OKAY
# UVM_INFO ../src/mst/ahb_master_driver.sv(332) @ 385000: uvm_test_top.env.master_agent.drv [ahb_master_driver] Beat[13/16] addr=0x0000a034 trans=AHB_TRANS_SEQ resp=AHB_RESP_OKAY wdata=0x1d7a7dda
# UVM_INFO ../src/slv/ahb_slave_driver.sv(184) @ 385000: uvm_test_top.env.slave_agent.drv [ahb_slave_driver] Beat AHB_WRITE addr=0x0000a034 resp=AHB_RESP_OKAY waits=1 wdata=0x1d7a7dda
# UVM_INFO ../src/mst/ahb_master_monitor.sv(128) @ 385000: uvm_test_top.env.master_agent.mon [ahb_master_monitor] Beat[13] addr=0x0000a034 wdata=0x1d7a7dda resp=AHB_RESP_OKAY
# UVM_INFO ../src/mst/ahb_master_driver.sv(332) @ 415000: uvm_test_top.env.master_agent.drv [ahb_master_driver] Beat[14/16] addr=0x0000a038 trans=AHB_TRANS_SEQ resp=AHB_RESP_OKAY wdata=0xc7f0a127
# UVM_INFO ../src/slv/ahb_slave_driver.sv(184) @ 415000: uvm_test_top.env.slave_agent.drv [ahb_slave_driver] Beat AHB_WRITE addr=0x0000a038 resp=AHB_RESP_OKAY waits=2 wdata=0xc7f0a127
# UVM_INFO ../src/mst/ahb_master_monitor.sv(128) @ 415000: uvm_test_top.env.master_agent.mon [ahb_master_monitor] Beat[14] addr=0x0000a038 wdata=0xc7f0a127 resp=AHB_RESP_OKAY
# UVM_INFO ../src/mst/ahb_master_driver.sv(332) @ 435000: uvm_test_top.env.master_agent.drv [ahb_master_driver] Beat[15/16] addr=0x0000a03c trans=AHB_TRANS_SEQ resp=AHB_RESP_OKAY wdata=0x55c23608
# UVM_INFO ../src/mst/ahb_master_driver.sv(376) @ 435000: uvm_test_top.env.master_agent.drv [ahb_master_driver] Transaction complete: AHB_WRITE 0x0000a000, 16 beats, burst=AHB_BURST_INCR16
# UVM_INFO ../src/slv/ahb_slave_driver.sv(184) @ 435000: uvm_test_top.env.slave_agent.drv [ahb_slave_driver] Beat AHB_WRITE addr=0x0000a03c resp=AHB_RESP_OKAY waits=1 wdata=0x55c23608
# UVM_INFO ../src/slv/ahb_slave_monitor.sv(212) @ 435000: uvm_test_top.env.slave_agent.mon [ahb_slave_monitor] Observed [AHB_WRITE]: HADDR=0x0000a000, HBURST=AHB_BURST_INCR16, HSIZE=AHB_SIZE_32B, 16 beats
# UVM_INFO ../src/env/ahb_coverage.sv(174) @ 435000: uvm_test_top.env.slave_cov [ahb_coverage] Sampled [AHB_WRITE]: burst=AHB_BURST_INCR16 size=AHB_SIZE_32B beats=16 error=0
# UVM_INFO ../src/mst/ahb_master_monitor.sv(128) @ 435000: uvm_test_top.env.master_agent.mon [ahb_master_monitor] Beat[15] addr=0x0000a03c wdata=0x55c23608 resp=AHB_RESP_OKAY
# UVM_INFO ../src/mst/ahb_master_monitor.sv(231) @ 435000: uvm_test_top.env.master_agent.mon [ahb_master_monitor] Observed [AHB_WRITE]: HADDR=0x0000a000, HBURST=AHB_BURST_INCR16, HSIZE=AHB_SIZE_32B, 16 beats
# UVM_INFO ../src/env/ahb_coverage.sv(174) @ 435000: uvm_test_top.env.master_cov [ahb_coverage] Sampled [AHB_WRITE]: burst=AHB_BURST_INCR16 size=AHB_SIZE_32B beats=16 error=0
# UVM_INFO ../src/env/ahb_scoreboard.sv(104) @ 435000: uvm_test_top.env.scb [ahb_scoreboard] MATCH #1: [AHB_WRITE] HADDR=0x0000a000 AHB_BURST_INCR16 16 beats
# UVM_INFO ../src/mst/ahb_master_driver.sv(85) @ 435000: uvm_test_top.env.master_agent.drv [ahb_master_driver] Queueing [AHB_WRITE]: HADDR=0x0000a040, HBURST=AHB_BURST_INCR16, HSIZE=AHB_SIZE_32B, 16 beats
# UVM_INFO ../src/mst/ahb_master_driver.sv(127) @ 435000: uvm_test_top.env.master_agent.drv [ahb_master_driver] Driving [AHB_WRITE]: HADDR=0x0000a040, HBURST=AHB_BURST_INCR16, HSIZE=AHB_SIZE_32B, 16 beats               
# UVM_INFO ../src/mst/ahb_master_driver.sv(332) @ 465000: uvm_test_top.env.master_agent.drv [ahb_master_driver] Beat[0/16] addr=0x0000a040 trans=AHB_TRANS_NONSEQ resp=AHB_RESP_OKAY wdata=0x468ec540
# UVM_INFO ../src/slv/ahb_slave_driver.sv(184) @ 465000: uvm_test_top.env.slave_agent.drv [ahb_slave_driver] Beat AHB_WRITE addr=0x0000a040 resp=AHB_RESP_OKAY waits=0 wdata=0x468ec540
# UVM_INFO ../src/mst/ahb_master_monitor.sv(128) @ 465000: uvm_test_top.env.master_agent.mon [ahb_master_monitor] Beat[0] addr=0x0000a040 wdata=0x468ec540 resp=AHB_RESP_OKAY
# UVM_INFO ../src/mst/ahb_master_driver.sv(332) @ 495000: uvm_test_top.env.master_agent.drv [ahb_master_driver] Beat[1/16] addr=0x0000a044 trans=AHB_TRANS_SEQ resp=AHB_RESP_OKAY wdata=0x09d18d73
# UVM_INFO ../src/slv/ahb_slave_driver.sv(184) @ 495000: uvm_test_top.env.slave_agent.drv [ahb_slave_driver] Beat AHB_WRITE addr=0x0000a044 resp=AHB_RESP_OKAY waits=2 wdata=0x09d18d73
# UVM_INFO ../src/mst/ahb_master_monitor.sv(128) @ 495000: uvm_test_top.env.master_agent.mon [ahb_master_monitor] Beat[1] addr=0x0000a044 wdata=0x09d18d73 resp=AHB_RESP_OKAY
# UVM_INFO ../src/mst/ahb_master_driver.sv(332) @ 505000: uvm_test_top.env.master_agent.drv [ahb_master_driver] Beat[2/16] addr=0x0000a048 trans=AHB_TRANS_SEQ resp=AHB_RESP_OKAY wdata=0xbf6e5b94
# UVM_INFO ../src/slv/ahb_slave_driver.sv(184) @ 505000: uvm_test_top.env.slave_agent.drv [ahb_slave_driver] Beat AHB_WRITE addr=0x0000a048 resp=AHB_RESP_OKAY waits=0 wdata=0xbf6e5b94
# UVM_INFO ../src/mst/ahb_master_monitor.sv(128) @ 505000: uvm_test_top.env.master_agent.mon [ahb_master_monitor] Beat[2] addr=0x0000a048 wdata=0xbf6e5b94 resp=AHB_RESP_OKAY
# UVM_INFO ../src/mst/ahb_master_driver.sv(332) @ 535000: uvm_test_top.env.master_agent.drv [ahb_master_driver] Beat[3/16] addr=0x0000a04c trans=AHB_TRANS_SEQ resp=AHB_RESP_OKAY wdata=0xd679424b
# UVM_INFO ../src/slv/ahb_slave_driver.sv(184) @ 535000: uvm_test_top.env.slave_agent.drv [ahb_slave_driver] Beat AHB_WRITE addr=0x0000a04c resp=AHB_RESP_OKAY waits=2 wdata=0xd679424b
# UVM_INFO ../src/mst/ahb_master_monitor.sv(128) @ 535000: uvm_test_top.env.master_agent.mon [ahb_master_monitor] Beat[3] addr=0x0000a04c wdata=0xd679424b resp=AHB_RESP_OKAY
# UVM_INFO ../src/mst/ahb_master_driver.sv(332) @ 545000: uvm_test_top.env.master_agent.drv [ahb_master_driver] Beat[4/16] addr=0x0000a050 trans=AHB_TRANS_SEQ resp=AHB_RESP_OKAY wdata=0xe49fa070
# UVM_INFO ../src/slv/ahb_slave_driver.sv(184) @ 545000: uvm_test_top.env.slave_agent.drv [ahb_slave_driver] Beat AHB_WRITE addr=0x0000a050 resp=AHB_RESP_OKAY waits=0 wdata=0xe49fa070
# UVM_INFO ../src/mst/ahb_master_monitor.sv(128) @ 545000: uvm_test_top.env.master_agent.mon [ahb_master_monitor] Beat[4] addr=0x0000a050 wdata=0xe49fa070 resp=AHB_RESP_OKAY
# UVM_INFO ../src/mst/ahb_master_driver.sv(332) @ 575000: uvm_test_top.env.master_agent.drv [ahb_master_driver] Beat[5/16] addr=0x0000a054 trans=AHB_TRANS_SEQ resp=AHB_RESP_OKAY wdata=0xaa66f20f
# UVM_INFO ../src/slv/ahb_slave_driver.sv(184) @ 575000: uvm_test_top.env.slave_agent.drv [ahb_slave_driver] Beat AHB_WRITE addr=0x0000a054 resp=AHB_RESP_OKAY waits=2 wdata=0xaa66f20f
# UVM_INFO ../src/mst/ahb_master_monitor.sv(128) @ 575000: uvm_test_top.env.master_agent.mon [ahb_master_monitor] Beat[5] addr=0x0000a054 wdata=0xaa66f20f resp=AHB_RESP_OKAY
# UVM_INFO ../src/mst/ahb_master_driver.sv(332) @ 585000: uvm_test_top.env.master_agent.drv [ahb_master_driver] Beat[6/16] addr=0x0000a058 trans=AHB_TRANS_SEQ resp=AHB_RESP_OKAY wdata=0xbac664c3
# UVM_INFO ../src/slv/ahb_slave_driver.sv(184) @ 585000: uvm_test_top.env.slave_agent.drv [ahb_slave_driver] Beat AHB_WRITE addr=0x0000a058 resp=AHB_RESP_OKAY waits=0 wdata=0xbac664c3
# UVM_INFO ../src/mst/ahb_master_monitor.sv(128) @ 585000: uvm_test_top.env.master_agent.mon [ahb_master_monitor] Beat[6] addr=0x0000a058 wdata=0xbac664c3 resp=AHB_RESP_OKAY
# UVM_INFO ../src/mst/ahb_master_driver.sv(332) @ 605000: uvm_test_top.env.master_agent.drv [ahb_master_driver] Beat[7/16] addr=0x0000a05c trans=AHB_TRANS_SEQ resp=AHB_RESP_OKAY wdata=0xf4ed56bc
# UVM_INFO ../src/slv/ahb_slave_driver.sv(184) @ 605000: uvm_test_top.env.slave_agent.drv [ahb_slave_driver] Beat AHB_WRITE addr=0x0000a05c resp=AHB_RESP_OKAY waits=1 wdata=0xf4ed56bc
# UVM_INFO ../src/mst/ahb_master_monitor.sv(128) @ 605000: uvm_test_top.env.master_agent.mon [ahb_master_monitor] Beat[7] addr=0x0000a05c wdata=0xf4ed56bc resp=AHB_RESP_OKAY
# UVM_INFO ../src/mst/ahb_master_driver.sv(332) @ 635000: uvm_test_top.env.master_agent.drv [ahb_master_driver] Beat[8/16] addr=0x0000a060 trans=AHB_TRANS_SEQ resp=AHB_RESP_OKAY wdata=0x8d2cadfb
# UVM_INFO ../src/slv/ahb_slave_driver.sv(184) @ 635000: uvm_test_top.env.slave_agent.drv [ahb_slave_driver] Beat AHB_WRITE addr=0x0000a060 resp=AHB_RESP_OKAY waits=2 wdata=0x8d2cadfb
# UVM_INFO ../src/mst/ahb_master_monitor.sv(128) @ 635000: uvm_test_top.env.master_agent.mon [ahb_master_monitor] Beat[8] addr=0x0000a060 wdata=0x8d2cadfb resp=AHB_RESP_OKAY
# UVM_INFO ../src/mst/ahb_master_driver.sv(332) @ 645000: uvm_test_top.env.master_agent.drv [ahb_master_driver] Beat[9/16] addr=0x0000a064 trans=AHB_TRANS_SEQ resp=AHB_RESP_OKAY wdata=0xd2732b6d
# UVM_INFO ../src/slv/ahb_slave_driver.sv(184) @ 645000: uvm_test_top.env.slave_agent.drv [ahb_slave_driver] Beat AHB_WRITE addr=0x0000a064 resp=AHB_RESP_OKAY waits=0 wdata=0xd2732b6d
# UVM_INFO ../src/mst/ahb_master_monitor.sv(128) @ 645000: uvm_test_top.env.master_agent.mon [ahb_master_monitor] Beat[9] addr=0x0000a064 wdata=0xd2732b6d resp=AHB_RESP_OKAY
# UVM_INFO ../src/mst/ahb_master_driver.sv(332) @ 665000: uvm_test_top.env.master_agent.drv [ahb_master_driver] Beat[10/16] addr=0x0000a068 trans=AHB_TRANS_SEQ resp=AHB_RESP_OKAY wdata=0xe9d05115
# UVM_INFO ../src/slv/ahb_slave_driver.sv(184) @ 665000: uvm_test_top.env.slave_agent.drv [ahb_slave_driver] Beat AHB_WRITE addr=0x0000a068 resp=AHB_RESP_OKAY waits=1 wdata=0xe9d05115
# UVM_INFO ../src/mst/ahb_master_monitor.sv(128) @ 665000: uvm_test_top.env.master_agent.mon [ahb_master_monitor] Beat[10] addr=0x0000a068 wdata=0xe9d05115 resp=AHB_RESP_OKAY
# UVM_INFO ../src/mst/ahb_master_driver.sv(332) @ 675000: uvm_test_top.env.master_agent.drv [ahb_master_driver] Beat[11/16] addr=0x0000a06c trans=AHB_TRANS_SEQ resp=AHB_RESP_OKAY wdata=0xc8621b3e
# UVM_INFO ../src/slv/ahb_slave_driver.sv(184) @ 675000: uvm_test_top.env.slave_agent.drv [ahb_slave_driver] Beat AHB_WRITE addr=0x0000a06c resp=AHB_RESP_OKAY waits=0 wdata=0xc8621b3e
# UVM_INFO ../src/mst/ahb_master_monitor.sv(128) @ 675000: uvm_test_top.env.master_agent.mon [ahb_master_monitor] Beat[11] addr=0x0000a06c wdata=0xc8621b3e resp=AHB_RESP_OKAY
# UVM_INFO ../src/mst/ahb_master_driver.sv(332) @ 705000: uvm_test_top.env.master_agent.drv [ahb_master_driver] Beat[12/16] addr=0x0000a070 trans=AHB_TRANS_SEQ resp=AHB_RESP_OKAY wdata=0x57850f66
# UVM_INFO ../src/slv/ahb_slave_driver.sv(184) @ 705000: uvm_test_top.env.slave_agent.drv [ahb_slave_driver] Beat AHB_WRITE addr=0x0000a070 resp=AHB_RESP_OKAY waits=2 wdata=0x57850f66
# UVM_INFO ../src/mst/ahb_master_monitor.sv(128) @ 705000: uvm_test_top.env.master_agent.mon [ahb_master_monitor] Beat[12] addr=0x0000a070 wdata=0x57850f66 resp=AHB_RESP_OKAY
# UVM_INFO ../src/mst/ahb_master_driver.sv(332) @ 725000: uvm_test_top.env.master_agent.drv [ahb_master_driver] Beat[13/16] addr=0x0000a074 trans=AHB_TRANS_SEQ resp=AHB_RESP_OKAY wdata=0x902552a1
# UVM_INFO ../src/slv/ahb_slave_driver.sv(184) @ 725000: uvm_test_top.env.slave_agent.drv [ahb_slave_driver] Beat AHB_WRITE addr=0x0000a074 resp=AHB_RESP_OKAY waits=1 wdata=0x902552a1
# UVM_INFO ../src/mst/ahb_master_monitor.sv(128) @ 725000: uvm_test_top.env.master_agent.mon [ahb_master_monitor] Beat[13] addr=0x0000a074 wdata=0x902552a1 resp=AHB_RESP_OKAY
# UVM_INFO ../src/mst/ahb_master_driver.sv(332) @ 735000: uvm_test_top.env.master_agent.drv [ahb_master_driver] Beat[14/16] addr=0x0000a078 trans=AHB_TRANS_SEQ resp=AHB_RESP_OKAY wdata=0x5ea0e581
# UVM_INFO ../src/slv/ahb_slave_driver.sv(184) @ 735000: uvm_test_top.env.slave_agent.drv [ahb_slave_driver] Beat AHB_WRITE addr=0x0000a078 resp=AHB_RESP_OKAY waits=0 wdata=0x5ea0e581
# UVM_INFO ../src/mst/ahb_master_monitor.sv(128) @ 735000: uvm_test_top.env.master_agent.mon [ahb_master_monitor] Beat[14] addr=0x0000a078 wdata=0x5ea0e581 resp=AHB_RESP_OKAY
# UVM_INFO ../src/mst/ahb_master_driver.sv(332) @ 765000: uvm_test_top.env.master_agent.drv [ahb_master_driver] Beat[15/16] addr=0x0000a07c trans=AHB_TRANS_SEQ resp=AHB_RESP_OKAY wdata=0x9a087a21
# UVM_INFO ../src/mst/ahb_master_driver.sv(376) @ 765000: uvm_test_top.env.master_agent.drv [ahb_master_driver] Transaction complete: AHB_WRITE 0x0000a040, 16 beats, burst=AHB_BURST_INCR16
# UVM_INFO ../src/slv/ahb_slave_driver.sv(184) @ 765000: uvm_test_top.env.slave_agent.drv [ahb_slave_driver] Beat AHB_WRITE addr=0x0000a07c resp=AHB_RESP_OKAY waits=2 wdata=0x9a087a21
# UVM_INFO ../src/mst/ahb_master_monitor.sv(128) @ 765000: uvm_test_top.env.master_agent.mon [ahb_master_monitor] Beat[15] addr=0x0000a07c wdata=0x9a087a21 resp=AHB_RESP_OKAY
# UVM_INFO ../src/mst/ahb_master_monitor.sv(231) @ 765000: uvm_test_top.env.master_agent.mon [ahb_master_monitor] Observed [AHB_WRITE]: HADDR=0x0000a040, HBURST=AHB_BURST_INCR16, HSIZE=AHB_SIZE_32B, 16 beats
# UVM_INFO ../src/env/ahb_coverage.sv(174) @ 765000: uvm_test_top.env.master_cov [ahb_coverage] Sampled [AHB_WRITE]: burst=AHB_BURST_INCR16 size=AHB_SIZE_32B beats=16 error=0
# UVM_INFO ../src/slv/ahb_slave_monitor.sv(212) @ 765000: uvm_test_top.env.slave_agent.mon [ahb_slave_monitor] Observed [AHB_WRITE]: HADDR=0x0000a040, HBURST=AHB_BURST_INCR16, HSIZE=AHB_SIZE_32B, 16 beats
# UVM_INFO ../src/env/ahb_scoreboard.sv(104) @ 765000: uvm_test_top.env.scb [ahb_scoreboard] MATCH #2: [AHB_WRITE] HADDR=0x0000a040 AHB_BURST_INCR16 16 beats
# UVM_INFO ../src/env/ahb_coverage.sv(174) @ 765000: uvm_test_top.env.slave_cov [ahb_coverage] Sampled [AHB_WRITE]: burst=AHB_BURST_INCR16 size=AHB_SIZE_32B beats=16 error=0
# UVM_INFO ../src/mst/ahb_master_driver.sv(85) @ 765000: uvm_test_top.env.master_agent.drv [ahb_master_driver] Queueing [AHB_WRITE]: HADDR=0x0000a080, HBURST=AHB_BURST_INCR16, HSIZE=AHB_SIZE_32B, 16 beats
# UVM_INFO ../src/mst/ahb_master_driver.sv(127) @ 765000: uvm_test_top.env.master_agent.drv [ahb_master_driver] Driving [AHB_WRITE]: HADDR=0x0000a080, HBURST=AHB_BURST_INCR16, HSIZE=AHB_SIZE_32B, 16 beats               
# UVM_INFO ../src/mst/ahb_master_driver.sv(332) @ 815000: uvm_test_top.env.master_agent.drv [ahb_master_driver] Beat[0/16] addr=0x0000a080 trans=AHB_TRANS_NONSEQ resp=AHB_RESP_OKAY wdata=0xfad97bee
# UVM_INFO ../src/slv/ahb_slave_driver.sv(184) @ 815000: uvm_test_top.env.slave_agent.drv [ahb_slave_driver] Beat AHB_WRITE addr=0x0000a080 resp=AHB_RESP_OKAY waits=2 wdata=0xfad97bee
# UVM_INFO ../src/mst/ahb_master_monitor.sv(128) @ 815000: uvm_test_top.env.master_agent.mon [ahb_master_monitor] Beat[0] addr=0x0000a080 wdata=0xfad97bee resp=AHB_RESP_OKAY
# UVM_INFO ../src/mst/ahb_master_driver.sv(332) @ 845000: uvm_test_top.env.master_agent.drv [ahb_master_driver] Beat[1/16] addr=0x0000a084 trans=AHB_TRANS_SEQ resp=AHB_RESP_OKAY wdata=0x6ad32b8d
# UVM_INFO ../src/slv/ahb_slave_driver.sv(184) @ 845000: uvm_test_top.env.slave_agent.drv [ahb_slave_driver] Beat AHB_WRITE addr=0x0000a084 resp=AHB_RESP_OKAY waits=2 wdata=0x6ad32b8d
# UVM_INFO ../src/mst/ahb_master_monitor.sv(128) @ 845000: uvm_test_top.env.master_agent.mon [ahb_master_monitor] Beat[1] addr=0x0000a084 wdata=0x6ad32b8d resp=AHB_RESP_OKAY
# UVM_INFO ../src/mst/ahb_master_driver.sv(332) @ 855000: uvm_test_top.env.master_agent.drv [ahb_master_driver] Beat[2/16] addr=0x0000a088 trans=AHB_TRANS_SEQ resp=AHB_RESP_OKAY wdata=0x16713a79
# UVM_INFO ../src/slv/ahb_slave_driver.sv(184) @ 855000: uvm_test_top.env.slave_agent.drv [ahb_slave_driver] Beat AHB_WRITE addr=0x0000a088 resp=AHB_RESP_OKAY waits=0 wdata=0x16713a79
# UVM_INFO ../src/mst/ahb_master_monitor.sv(128) @ 855000: uvm_test_top.env.master_agent.mon [ahb_master_monitor] Beat[2] addr=0x0000a088 wdata=0x16713a79 resp=AHB_RESP_OKAY
# UVM_INFO ../src/mst/ahb_master_driver.sv(332) @ 875000: uvm_test_top.env.master_agent.drv [ahb_master_driver] Beat[3/16] addr=0x0000a08c trans=AHB_TRANS_SEQ resp=AHB_RESP_OKAY wdata=0xa3f588d5
# UVM_INFO ../src/slv/ahb_slave_driver.sv(184) @ 875000: uvm_test_top.env.slave_agent.drv [ahb_slave_driver] Beat AHB_WRITE addr=0x0000a08c resp=AHB_RESP_OKAY waits=1 wdata=0xa3f588d5
# UVM_INFO ../src/mst/ahb_master_monitor.sv(128) @ 875000: uvm_test_top.env.master_agent.mon [ahb_master_monitor] Beat[3] addr=0x0000a08c wdata=0xa3f588d5 resp=AHB_RESP_OKAY
# UVM_INFO ../src/mst_seq/ahb_reset_seq.sv(85) @ 895000: uvm_test_top.env.master_agent.sqr@@seq [ahb_reset_seq] Asserting reset 130 ns into burst 2
# UVM_INFO ../src/tb_top.sv(59) @ 895000: reporter [TB_TOP] Mid-sim reset requested - asserting rst_n
# UVM_INFO ../src/slv/ahb_slave_monitor.sv(85) @ 895000: uvm_test_top.env.slave_agent.mon [ahb_slave_monitor] Reset asserted - discarding partial transaction
# UVM_INFO ../src/slv/ahb_slave_monitor.sv(242) @ 895000: uvm_test_top.env.slave_agent.mon [ahb_slave_monitor] Discarding partial burst at reset (5 beats accepted)
# UVM_INFO ../src/mst/ahb_master_monitor.sv(88) @ 895000: uvm_test_top.env.master_agent.mon [ahb_master_monitor] Reset asserted - discarding partial transaction
# UVM_INFO ../src/mst/ahb_master_monitor.sv(260) @ 895000: uvm_test_top.env.master_agent.mon [ahb_master_monitor] Discarding partial burst at reset (5 beats accepted)
# UVM_INFO ../src/mst/ahb_master_driver.sv(97) @ 895000: uvm_test_top.env.master_agent.drv [ahb_master_driver] Reset asserted - aborting transaction
# UVM_INFO ../src/slv/ahb_slave_driver.sv(69) @ 895000: uvm_test_top.env.slave_agent.drv [ahb_slave_driver] Reset asserted - slave driver idle
# UVM_INFO ../src/mst/ahb_master_driver.sv(183) @ 895000: uvm_test_top.env.master_agent.drv [ahb_master_driver] Flushed pending transactions (reset)
# UVM_INFO ../src/mst_seq/ahb_base_seq.sv(51) @ 895000: uvm_test_top.env.master_agent.sqr@@seq [ahb_reset_seq] Transaction aborted by reset: AHB_WRITE 0x0000a080
# UVM_INFO ../src/tb_top.sv(63) @ 975000: reporter [TB_TOP] Mid-sim reset pulse complete - rst_n deasserted
# UVM_INFO ../src/slv/ahb_slave_driver.sv(63) @ 975000: uvm_test_top.env.slave_agent.drv [ahb_slave_driver] Reset deasserted - slave driver active (    auto mode)
# UVM_INFO ../src/mst/ahb_master_driver.sv(72) @ 975000: uvm_test_top.env.master_agent.drv [ahb_master_driver] Reset deasserted - master driver active
# UVM_INFO ../src/mst/ahb_master_monitor.sv(81) @ 975000: uvm_test_top.env.master_agent.mon [ahb_master_monitor] Reset deasserted - master monitor active
# UVM_INFO ../src/slv/ahb_slave_monitor.sv(79) @ 975000: uvm_test_top.env.slave_agent.mon [ahb_slave_monitor] Reset deasserted - slave monitor active
# UVM_INFO ../src/mst/ahb_master_driver.sv(85) @ 975000: uvm_test_top.env.master_agent.drv [ahb_master_driver] Queueing [AHB_WRITE]: HADDR=0x0000a0c0, HBURST=AHB_BURST_INCR16, HSIZE=AHB_SIZE_32B, 16 beats
# UVM_INFO ../src/mst/ahb_master_driver.sv(127) @ 975000: uvm_test_top.env.master_agent.drv [ahb_master_driver] Driving [AHB_WRITE]: HADDR=0x0000a0c0, HBURST=AHB_BURST_INCR16, HSIZE=AHB_SIZE_32B, 16 beats               
# UVM_INFO ../src/mst/ahb_master_driver.sv(332) @ 1015000: uvm_test_top.env.master_agent.drv [ahb_master_driver] Beat[0/16] addr=0x0000a0c0 trans=AHB_TRANS_NONSEQ resp=AHB_RESP_OKAY wdata=0xb32a2d00
# UVM_INFO ../src/slv/ahb_slave_driver.sv(184) @ 1015000: uvm_test_top.env.slave_agent.drv [ahb_slave_driver] Beat AHB_WRITE addr=0x0000a0c0 resp=AHB_RESP_OKAY waits=2 wdata=0xb32a2d00
# UVM_INFO ../src/mst/ahb_master_monitor.sv(128) @ 1015000: uvm_test_top.env.master_agent.mon [ahb_master_monitor] Beat[0] addr=0x0000a0c0 wdata=0xb32a2d00 resp=AHB_RESP_OKAY
# UVM_INFO ../src/mst/ahb_master_driver.sv(332) @ 1045000: uvm_test_top.env.master_agent.drv [ahb_master_driver] Beat[1/16] addr=0x0000a0c4 trans=AHB_TRANS_SEQ resp=AHB_RESP_OKAY wdata=0xc7183611
# UVM_INFO ../src/slv/ahb_slave_driver.sv(184) @ 1045000: uvm_test_top.env.slave_agent.drv [ahb_slave_driver] Beat AHB_WRITE addr=0x0000a0c4 resp=AHB_RESP_OKAY waits=2 wdata=0xc7183611
# UVM_INFO ../src/mst/ahb_master_monitor.sv(128) @ 1045000: uvm_test_top.env.master_agent.mon [ahb_master_monitor] Beat[1] addr=0x0000a0c4 wdata=0xc7183611 resp=AHB_RESP_OKAY
# UVM_INFO ../src/mst/ahb_master_driver.sv(332) @ 1075000: uvm_test_top.env.master_agent.drv [ahb_master_driver] Beat[2/16] addr=0x0000a0c8 trans=AHB_TRANS_SEQ resp=AHB_RESP_OKAY wdata=0xe2e51446
# UVM_INFO ../src/slv/ahb_slave_driver.sv(184) @ 1075000: uvm_test_top.env.slave_agent.drv [ahb_slave_driver] Beat AHB_WRITE addr=0x0000a0c8 resp=AHB_RESP_OKAY waits=2 wdata=0xe2e51446
# UVM_INFO ../src/mst/ahb_master_monitor.sv(128) @ 1075000: uvm_test_top.env.master_agent.mon [ahb_master_monitor] Beat[2] addr=0x0000a0c8 wdata=0xe2e51446 resp=AHB_RESP_OKAY
# UVM_INFO ../src/mst/ahb_master_driver.sv(332) @ 1085000: uvm_test_top.env.master_agent.drv [ahb_master_driver] Beat[3/16] addr=0x0000a0cc trans=AHB_TRANS_SEQ resp=AHB_RESP_OKAY wdata=0xa0430982
# UVM_INFO ../src/slv/ahb_slave_driver.sv(184) @ 1085000: uvm_test_top.env.slave_agent.drv [ahb_slave_driver] Beat AHB_WRITE addr=0x0000a0cc resp=AHB_RESP_OKAY waits=0 wdata=0xa0430982
# UVM_INFO ../src/mst/ahb_master_monitor.sv(128) @ 1085000: uvm_test_top.env.master_agent.mon [ahb_master_monitor] Beat[3] addr=0x0000a0cc wdata=0xa0430982 resp=AHB_RESP_OKAY
# UVM_INFO ../src/mst/ahb_master_driver.sv(332) @ 1115000: uvm_test_top.env.master_agent.drv [ahb_master_driver] Beat[4/16] addr=0x0000a0d0 trans=AHB_TRANS_SEQ resp=AHB_RESP_OKAY wdata=0xe11be471
# UVM_INFO ../src/slv/ahb_slave_driver.sv(184) @ 1115000: uvm_test_top.env.slave_agent.drv [ahb_slave_driver] Beat AHB_WRITE addr=0x0000a0d0 resp=AHB_RESP_OKAY waits=2 wdata=0xe11be471
# UVM_INFO ../src/mst/ahb_master_monitor.sv(128) @ 1115000: uvm_test_top.env.master_agent.mon [ahb_master_monitor] Beat[4] addr=0x0000a0d0 wdata=0xe11be471 resp=AHB_RESP_OKAY
# UVM_INFO ../src/mst/ahb_master_driver.sv(332) @ 1125000: uvm_test_top.env.master_agent.drv [ahb_master_driver] Beat[5/16] addr=0x0000a0d4 trans=AHB_TRANS_SEQ resp=AHB_RESP_OKAY wdata=0x3f591c54
# UVM_INFO ../src/slv/ahb_slave_driver.sv(184) @ 1125000: uvm_test_top.env.slave_agent.drv [ahb_slave_driver] Beat AHB_WRITE addr=0x0000a0d4 resp=AHB_RESP_OKAY waits=0 wdata=0x3f591c54
# UVM_INFO ../src/mst/ahb_master_monitor.sv(128) @ 1125000: uvm_test_top.env.master_agent.mon [ahb_master_monitor] Beat[5] addr=0x0000a0d4 wdata=0x3f591c54 resp=AHB_RESP_OKAY
# UVM_INFO ../src/mst/ahb_master_driver.sv(332) @ 1135000: uvm_test_top.env.master_agent.drv [ahb_master_driver] Beat[6/16] addr=0x0000a0d8 trans=AHB_TRANS_SEQ resp=AHB_RESP_OKAY wdata=0x21be9554
# UVM_INFO ../src/slv/ahb_slave_driver.sv(184) @ 1135000: uvm_test_top.env.slave_agent.drv [ahb_slave_driver] Beat AHB_WRITE addr=0x0000a0d8 resp=AHB_RESP_OKAY waits=0 wdata=0x21be9554
# UVM_INFO ../src/mst/ahb_master_monitor.sv(128) @ 1135000: uvm_test_top.env.master_agent.mon [ahb_master_monitor] Beat[6] addr=0x0000a0d8 wdata=0x21be9554 resp=AHB_RESP_OKAY
# UVM_INFO ../src/mst/ahb_master_driver.sv(332) @ 1155000: uvm_test_top.env.master_agent.drv [ahb_master_driver] Beat[7/16] addr=0x0000a0dc trans=AHB_TRANS_SEQ resp=AHB_RESP_OKAY wdata=0xc9b124c2
# UVM_INFO ../src/slv/ahb_slave_driver.sv(184) @ 1155000: uvm_test_top.env.slave_agent.drv [ahb_slave_driver] Beat AHB_WRITE addr=0x0000a0dc resp=AHB_RESP_OKAY waits=1 wdata=0xc9b124c2
# UVM_INFO ../src/mst/ahb_master_monitor.sv(128) @ 1155000: uvm_test_top.env.master_agent.mon [ahb_master_monitor] Beat[7] addr=0x0000a0dc wdata=0xc9b124c2 resp=AHB_RESP_OKAY
# UVM_INFO ../src/mst/ahb_master_driver.sv(332) @ 1185000: uvm_test_top.env.master_agent.drv [ahb_master_driver] Beat[8/16] addr=0x0000a0e0 trans=AHB_TRANS_SEQ resp=AHB_RESP_OKAY wdata=0xf16334a0
# UVM_INFO ../src/slv/ahb_slave_driver.sv(184) @ 1185000: uvm_test_top.env.slave_agent.drv [ahb_slave_driver] Beat AHB_WRITE addr=0x0000a0e0 resp=AHB_RESP_OKAY waits=2 wdata=0xf16334a0
# UVM_INFO ../src/mst/ahb_master_monitor.sv(128) @ 1185000: uvm_test_top.env.master_agent.mon [ahb_master_monitor] Beat[8] addr=0x0000a0e0 wdata=0xf16334a0 resp=AHB_RESP_OKAY
# UVM_INFO ../src/mst/ahb_master_driver.sv(332) @ 1215000: uvm_test_top.env.master_agent.drv [ahb_master_driver] Beat[9/16] addr=0x0000a0e4 trans=AHB_TRANS_SEQ resp=AHB_RESP_OKAY wdata=0xbfa2300c
# UVM_INFO ../src/slv/ahb_slave_driver.sv(184) @ 1215000: uvm_test_top.env.slave_agent.drv [ahb_slave_driver] Beat AHB_WRITE addr=0x0000a0e4 resp=AHB_RESP_OKAY waits=2 wdata=0xbfa2300c
# UVM_INFO ../src/mst/ahb_master_monitor.sv(128) @ 1215000: uvm_test_top.env.master_agent.mon [ahb_master_monitor] Beat[9] addr=0x0000a0e4 wdata=0xbfa2300c resp=AHB_RESP_OKAY
# UVM_INFO ../src/mst/ahb_master_driver.sv(332) @ 1245000: uvm_test_top.env.master_agent.drv [ahb_master_driver] Beat[10/16] addr=0x0000a0e8 trans=AHB_TRANS_SEQ resp=AHB_RESP_OKAY wdata=0x83573f8d
# UVM_INFO ../src/slv/ahb_slave_driver.sv(184) @ 1245000: uvm_test_top.env.slave_agent.drv [ahb_slave_driver] Beat AHB_WRITE addr=0x0000a0e8 resp=AHB_RESP_OKAY waits=2 wdata=0x83573f8d
# UVM_INFO ../src/mst/ahb_master_monitor.sv(128) @ 1245000: uvm_test_top.env.master_agent.mon [ahb_master_monitor] Beat[10] addr=0x0000a0e8 wdata=0x83573f8d resp=AHB_RESP_OKAY
# UVM_INFO ../src/mst/ahb_master_driver.sv(332) @ 1265000: uvm_test_top.env.master_agent.drv [ahb_master_driver] Beat[11/16] addr=0x0000a0ec trans=AHB_TRANS_SEQ resp=AHB_RESP_OKAY wdata=0xa3afbeee
# UVM_INFO ../src/slv/ahb_slave_driver.sv(184) @ 1265000: uvm_test_top.env.slave_agent.drv [ahb_slave_driver] Beat AHB_WRITE addr=0x0000a0ec resp=AHB_RESP_OKAY waits=1 wdata=0xa3afbeee
# UVM_INFO ../src/mst/ahb_master_monitor.sv(128) @ 1265000: uvm_test_top.env.master_agent.mon [ahb_master_monitor] Beat[11] addr=0x0000a0ec wdata=0xa3afbeee resp=AHB_RESP_OKAY
# UVM_INFO ../src/mst/ahb_master_driver.sv(332) @ 1275000: uvm_test_top.env.master_agent.drv [ahb_master_driver] Beat[12/16] addr=0x0000a0f0 trans=AHB_TRANS_SEQ resp=AHB_RESP_OKAY wdata=0xfc6ad016
# UVM_INFO ../src/slv/ahb_slave_driver.sv(184) @ 1275000: uvm_test_top.env.slave_agent.drv [ahb_slave_driver] Beat AHB_WRITE addr=0x0000a0f0 resp=AHB_RESP_OKAY waits=0 wdata=0xfc6ad016
# UVM_INFO ../src/mst/ahb_master_monitor.sv(128) @ 1275000: uvm_test_top.env.master_agent.mon [ahb_master_monitor] Beat[12] addr=0x0000a0f0 wdata=0xfc6ad016 resp=AHB_RESP_OKAY
# UVM_INFO ../src/mst/ahb_master_driver.sv(332) @ 1285000: uvm_test_top.env.master_agent.drv [ahb_master_driver] Beat[13/16] addr=0x0000a0f4 trans=AHB_TRANS_SEQ resp=AHB_RESP_OKAY wdata=0x5ec1104f
# UVM_INFO ../src/slv/ahb_slave_driver.sv(184) @ 1285000: uvm_test_top.env.slave_agent.drv [ahb_slave_driver] Beat AHB_WRITE addr=0x0000a0f4 resp=AHB_RESP_OKAY waits=0 wdata=0x5ec1104f
# UVM_INFO ../src/mst/ahb_master_monitor.sv(128) @ 1285000: uvm_test_top.env.master_agent.mon [ahb_master_monitor] Beat[13] addr=0x0000a0f4 wdata=0x5ec1104f resp=AHB_RESP_OKAY
# UVM_INFO ../src/mst/ahb_master_driver.sv(332) @ 1305000: uvm_test_top.env.master_agent.drv [ahb_master_driver] Beat[14/16] addr=0x0000a0f8 trans=AHB_TRANS_SEQ resp=AHB_RESP_OKAY wdata=0x3cf5a2a2
# UVM_INFO ../src/slv/ahb_slave_driver.sv(184) @ 1305000: uvm_test_top.env.slave_agent.drv [ahb_slave_driver] Beat AHB_WRITE addr=0x0000a0f8 resp=AHB_RESP_OKAY waits=1 wdata=0x3cf5a2a2
# UVM_INFO ../src/mst/ahb_master_monitor.sv(128) @ 1305000: uvm_test_top.env.master_agent.mon [ahb_master_monitor] Beat[14] addr=0x0000a0f8 wdata=0x3cf5a2a2 resp=AHB_RESP_OKAY
# UVM_INFO ../src/mst/ahb_master_driver.sv(332) @ 1315000: uvm_test_top.env.master_agent.drv [ahb_master_driver] Beat[15/16] addr=0x0000a0fc trans=AHB_TRANS_SEQ resp=AHB_RESP_OKAY wdata=0x57941484
# UVM_INFO ../src/mst/ahb_master_driver.sv(376) @ 1315000: uvm_test_top.env.master_agent.drv [ahb_master_driver] Transaction complete: AHB_WRITE 0x0000a0c0, 16 beats, burst=AHB_BURST_INCR16
# UVM_INFO ../src/slv/ahb_slave_driver.sv(184) @ 1315000: uvm_test_top.env.slave_agent.drv [ahb_slave_driver] Beat AHB_WRITE addr=0x0000a0fc resp=AHB_RESP_OKAY waits=0 wdata=0x57941484
# UVM_INFO ../src/slv/ahb_slave_monitor.sv(212) @ 1315000: uvm_test_top.env.slave_agent.mon [ahb_slave_monitor] Observed [AHB_WRITE]: HADDR=0x0000a0c0, HBURST=AHB_BURST_INCR16, HSIZE=AHB_SIZE_32B, 16 beats
# UVM_INFO ../src/env/ahb_coverage.sv(174) @ 1315000: uvm_test_top.env.slave_cov [ahb_coverage] Sampled [AHB_WRITE]: burst=AHB_BURST_INCR16 size=AHB_SIZE_32B beats=16 error=0
# UVM_INFO ../src/mst/ahb_master_monitor.sv(128) @ 1315000: uvm_test_top.env.master_agent.mon [ahb_master_monitor] Beat[15] addr=0x0000a0fc wdata=0x57941484 resp=AHB_RESP_OKAY
# UVM_INFO ../src/mst/ahb_master_monitor.sv(231) @ 1315000: uvm_test_top.env.master_agent.mon [ahb_master_monitor] Observed [AHB_WRITE]: HADDR=0x0000a0c0, HBURST=AHB_BURST_INCR16, HSIZE=AHB_SIZE_32B, 16 beats
# UVM_INFO ../src/env/ahb_coverage.sv(174) @ 1315000: uvm_test_top.env.master_cov [ahb_coverage] Sampled [AHB_WRITE]: burst=AHB_BURST_INCR16 size=AHB_SIZE_32B beats=16 error=0
# UVM_INFO ../src/env/ahb_scoreboard.sv(104) @ 1315000: uvm_test_top.env.scb [ahb_scoreboard] MATCH #3: [AHB_WRITE] HADDR=0x0000a0c0 AHB_BURST_INCR16 16 beats
# UVM_INFO ../src/mst/ahb_master_driver.sv(85) @ 1315000: uvm_test_top.env.master_agent.drv [ahb_master_driver] Queueing [AHB_WRITE]: HADDR=0x0000a100, HBURST=AHB_BURST_INCR16, HSIZE=AHB_SIZE_32B, 16 beats
# UVM_INFO ../src/mst/ahb_master_driver.sv(127) @ 1315000: uvm_test_top.env.master_agent.drv [ahb_master_driver] Driving [AHB_WRITE]: HADDR=0x0000a100, HBURST=AHB_BURST_INCR16, HSIZE=AHB_SIZE_32B, 16 beats               
# UVM_INFO ../src/mst/ahb_master_driver.sv(332) @ 1365000: uvm_test_top.env.master_agent.drv [ahb_master_driver] Beat[0/16] addr=0x0000a100 trans=AHB_TRANS_NONSEQ resp=AHB_RESP_OKAY wdata=0x4bb39b19
# UVM_INFO ../src/slv/ahb_slave_driver.sv(184) @ 1365000: uvm_test_top.env.slave_agent.drv [ahb_slave_driver] Beat AHB_WRITE addr=0x0000a100 resp=AHB_RESP_OKAY waits=2 wdata=0x4bb39b19
# UVM_INFO ../src/mst/ahb_master_monitor.sv(128) @ 1365000: uvm_test_top.env.master_agent.mon [ahb_master_monitor] Beat[0] addr=0x0000a100 wdata=0x4bb39b19 resp=AHB_RESP_OKAY
# UVM_INFO ../src/mst/ahb_master_driver.sv(332) @ 1395000: uvm_test_top.env.master_agent.drv [ahb_master_driver] Beat[1/16] addr=0x0000a104 trans=AHB_TRANS_SEQ resp=AHB_RESP_OKAY wdata=0xb02a1cee
# UVM_INFO ../src/slv/ahb_slave_driver.sv(184) @ 1395000: uvm_test_top.env.slave_agent.drv [ahb_slave_driver] Beat AHB_WRITE addr=0x0000a104 resp=AHB_RESP_OKAY waits=2 wdata=0xb02a1cee
# UVM_INFO ../src/mst/ahb_master_monitor.sv(128) @ 1395000: uvm_test_top.env.master_agent.mon [ahb_master_monitor] Beat[1] addr=0x0000a104 wdata=0xb02a1cee resp=AHB_RESP_OKAY
# UVM_INFO ../src/mst/ahb_master_driver.sv(332) @ 1415000: uvm_test_top.env.master_agent.drv [ahb_master_driver] Beat[2/16] addr=0x0000a108 trans=AHB_TRANS_SEQ resp=AHB_RESP_OKAY wdata=0xaf5eacbb
# UVM_INFO ../src/slv/ahb_slave_driver.sv(184) @ 1415000: uvm_test_top.env.slave_agent.drv [ahb_slave_driver] Beat AHB_WRITE addr=0x0000a108 resp=AHB_RESP_OKAY waits=1 wdata=0xaf5eacbb
# UVM_INFO ../src/mst/ahb_master_monitor.sv(128) @ 1415000: uvm_test_top.env.master_agent.mon [ahb_master_monitor] Beat[2] addr=0x0000a108 wdata=0xaf5eacbb resp=AHB_RESP_OKAY
# UVM_INFO ../src/mst/ahb_master_driver.sv(332) @ 1435000: uvm_test_top.env.master_agent.drv [ahb_master_driver] Beat[3/16] addr=0x0000a10c trans=AHB_TRANS_SEQ resp=AHB_RESP_OKAY wdata=0xc38895ab
# UVM_INFO ../src/slv/ahb_slave_driver.sv(184) @ 1435000: uvm_test_top.env.slave_agent.drv [ahb_slave_driver] Beat AHB_WRITE addr=0x0000a10c resp=AHB_RESP_OKAY waits=1 wdata=0xc38895ab
# UVM_INFO ../src/mst/ahb_master_monitor.sv(128) @ 1435000: uvm_test_top.env.master_agent.mon [ahb_master_monitor] Beat[3] addr=0x0000a10c wdata=0xc38895ab resp=AHB_RESP_OKAY
# UVM_INFO ../src/mst/ahb_master_driver.sv(332) @ 1455000: uvm_test_top.env.master_agent.drv [ahb_master_driver] Beat[4/16] addr=0x0000a110 trans=AHB_TRANS_SEQ resp=AHB_RESP_OKAY wdata=0xe0a59c9f
# UVM_INFO ../src/slv/ahb_slave_driver.sv(184) @ 1455000: uvm_test_top.env.slave_agent.drv [ahb_slave_driver] Beat AHB_WRITE addr=0x0000a110 resp=AHB_RESP_OKAY waits=1 wdata=0xe0a59c9f
# UVM_INFO ../src/mst/ahb_master_monitor.sv(128) @ 1455000: uvm_test_top.env.master_agent.mon [ahb_master_monitor] Beat[4] addr=0x0000a110 wdata=0xe0a59c9f resp=AHB_RESP_OKAY
# UVM_INFO ../src/mst/ahb_master_driver.sv(332) @ 1465000: uvm_test_top.env.master_agent.drv [ahb_master_driver] Beat[5/16] addr=0x0000a114 trans=AHB_TRANS_SEQ resp=AHB_RESP_OKAY wdata=0xef106991
# UVM_INFO ../src/slv/ahb_slave_driver.sv(184) @ 1465000: uvm_test_top.env.slave_agent.drv [ahb_slave_driver] Beat AHB_WRITE addr=0x0000a114 resp=AHB_RESP_OKAY waits=0 wdata=0xef106991
# UVM_INFO ../src/mst/ahb_master_monitor.sv(128) @ 1465000: uvm_test_top.env.master_agent.mon [ahb_master_monitor] Beat[5] addr=0x0000a114 wdata=0xef106991 resp=AHB_RESP_OKAY
# UVM_INFO ../src/mst/ahb_master_driver.sv(332) @ 1475000: uvm_test_top.env.master_agent.drv [ahb_master_driver] Beat[6/16] addr=0x0000a118 trans=AHB_TRANS_SEQ resp=AHB_RESP_OKAY wdata=0x3bdfb9f2
# UVM_INFO ../src/slv/ahb_slave_driver.sv(184) @ 1475000: uvm_test_top.env.slave_agent.drv [ahb_slave_driver] Beat AHB_WRITE addr=0x0000a118 resp=AHB_RESP_OKAY waits=0 wdata=0x3bdfb9f2
# UVM_INFO ../src/mst/ahb_master_monitor.sv(128) @ 1475000: uvm_test_top.env.master_agent.mon [ahb_master_monitor] Beat[6] addr=0x0000a118 wdata=0x3bdfb9f2 resp=AHB_RESP_OKAY
# UVM_INFO ../src/mst/ahb_master_driver.sv(332) @ 1485000: uvm_test_top.env.master_agent.drv [ahb_master_driver] Beat[7/16] addr=0x0000a11c trans=AHB_TRANS_SEQ resp=AHB_RESP_OKAY wdata=0xb24e06a2
# UVM_INFO ../src/slv/ahb_slave_driver.sv(184) @ 1485000: uvm_test_top.env.slave_agent.drv [ahb_slave_driver] Beat AHB_WRITE addr=0x0000a11c resp=AHB_RESP_OKAY waits=0 wdata=0xb24e06a2
# UVM_INFO ../src/mst/ahb_master_monitor.sv(128) @ 1485000: uvm_test_top.env.master_agent.mon [ahb_master_monitor] Beat[7] addr=0x0000a11c wdata=0xb24e06a2 resp=AHB_RESP_OKAY
# UVM_INFO ../src/mst/ahb_master_driver.sv(332) @ 1515000: uvm_test_top.env.master_agent.drv [ahb_master_driver] Beat[8/16] addr=0x0000a120 trans=AHB_TRANS_SEQ resp=AHB_RESP_OKAY wdata=0x46d10f67
# UVM_INFO ../src/slv/ahb_slave_driver.sv(184) @ 1515000: uvm_test_top.env.slave_agent.drv [ahb_slave_driver] Beat AHB_WRITE addr=0x0000a120 resp=AHB_RESP_OKAY waits=2 wdata=0x46d10f67
# UVM_INFO ../src/mst/ahb_master_monitor.sv(128) @ 1515000: uvm_test_top.env.master_agent.mon [ahb_master_monitor] Beat[8] addr=0x0000a120 wdata=0x46d10f67 resp=AHB_RESP_OKAY
# UVM_INFO ../src/mst/ahb_master_driver.sv(332) @ 1535000: uvm_test_top.env.master_agent.drv [ahb_master_driver] Beat[9/16] addr=0x0000a124 trans=AHB_TRANS_SEQ resp=AHB_RESP_OKAY wdata=0x58113074
# UVM_INFO ../src/slv/ahb_slave_driver.sv(184) @ 1535000: uvm_test_top.env.slave_agent.drv [ahb_slave_driver] Beat AHB_WRITE addr=0x0000a124 resp=AHB_RESP_OKAY waits=1 wdata=0x58113074
# UVM_INFO ../src/mst/ahb_master_monitor.sv(128) @ 1535000: uvm_test_top.env.master_agent.mon [ahb_master_monitor] Beat[9] addr=0x0000a124 wdata=0x58113074 resp=AHB_RESP_OKAY
# UVM_INFO ../src/mst/ahb_master_driver.sv(332) @ 1555000: uvm_test_top.env.master_agent.drv [ahb_master_driver] Beat[10/16] addr=0x0000a128 trans=AHB_TRANS_SEQ resp=AHB_RESP_OKAY wdata=0xeb6e557c
# UVM_INFO ../src/slv/ahb_slave_driver.sv(184) @ 1555000: uvm_test_top.env.slave_agent.drv [ahb_slave_driver] Beat AHB_WRITE addr=0x0000a128 resp=AHB_RESP_OKAY waits=1 wdata=0xeb6e557c
# UVM_INFO ../src/mst/ahb_master_monitor.sv(128) @ 1555000: uvm_test_top.env.master_agent.mon [ahb_master_monitor] Beat[10] addr=0x0000a128 wdata=0xeb6e557c resp=AHB_RESP_OKAY
# UVM_INFO ../src/mst/ahb_master_driver.sv(332) @ 1565000: uvm_test_top.env.master_agent.drv [ahb_master_driver] Beat[11/16] addr=0x0000a12c trans=AHB_TRANS_SEQ resp=AHB_RESP_OKAY wdata=0x0524d9cc
# UVM_INFO ../src/slv/ahb_slave_driver.sv(184) @ 1565000: uvm_test_top.env.slave_agent.drv [ahb_slave_driver] Beat AHB_WRITE addr=0x0000a12c resp=AHB_RESP_OKAY waits=0 wdata=0x0524d9cc
# UVM_INFO ../src/mst/ahb_master_monitor.sv(128) @ 1565000: uvm_test_top.env.master_agent.mon [ahb_master_monitor] Beat[11] addr=0x0000a12c wdata=0x0524d9cc resp=AHB_RESP_OKAY
# UVM_INFO ../src/mst/ahb_master_driver.sv(332) @ 1595000: uvm_test_top.env.master_agent.drv [ahb_master_driver] Beat[12/16] addr=0x0000a130 trans=AHB_TRANS_SEQ resp=AHB_RESP_OKAY wdata=0x5e53bb9c
# UVM_INFO ../src/slv/ahb_slave_driver.sv(184) @ 1595000: uvm_test_top.env.slave_agent.drv [ahb_slave_driver] Beat AHB_WRITE addr=0x0000a130 resp=AHB_RESP_OKAY waits=2 wdata=0x5e53bb9c
# UVM_INFO ../src/mst/ahb_master_monitor.sv(128) @ 1595000: uvm_test_top.env.master_agent.mon [ahb_master_monitor] Beat[12] addr=0x0000a130 wdata=0x5e53bb9c resp=AHB_RESP_OKAY
# UVM_INFO ../src/mst/ahb_master_driver.sv(332) @ 1605000: uvm_test_top.env.master_agent.drv [ahb_master_driver] Beat[13/16] addr=0x0000a134 trans=AHB_TRANS_SEQ resp=AHB_RESP_OKAY wdata=0x260b4f64
# UVM_INFO ../src/slv/ahb_slave_driver.sv(184) @ 1605000: uvm_test_top.env.slave_agent.drv [ahb_slave_driver] Beat AHB_WRITE addr=0x0000a134 resp=AHB_RESP_OKAY waits=0 wdata=0x260b4f64
# UVM_INFO ../src/mst/ahb_master_monitor.sv(128) @ 1605000: uvm_test_top.env.master_agent.mon [ahb_master_monitor] Beat[13] addr=0x0000a134 wdata=0x260b4f64 resp=AHB_RESP_OKAY
# UVM_INFO ../src/mst/ahb_master_driver.sv(332) @ 1635000: uvm_test_top.env.master_agent.drv [ahb_master_driver] Beat[14/16] addr=0x0000a138 trans=AHB_TRANS_SEQ resp=AHB_RESP_OKAY wdata=0x4e30a115
# UVM_INFO ../src/slv/ahb_slave_driver.sv(184) @ 1635000: uvm_test_top.env.slave_agent.drv [ahb_slave_driver] Beat AHB_WRITE addr=0x0000a138 resp=AHB_RESP_OKAY waits=2 wdata=0x4e30a115
# UVM_INFO ../src/mst/ahb_master_monitor.sv(128) @ 1635000: uvm_test_top.env.master_agent.mon [ahb_master_monitor] Beat[14] addr=0x0000a138 wdata=0x4e30a115 resp=AHB_RESP_OKAY
# UVM_INFO ../src/mst/ahb_master_driver.sv(332) @ 1665000: uvm_test_top.env.master_agent.drv [ahb_master_driver] Beat[15/16] addr=0x0000a13c trans=AHB_TRANS_SEQ resp=AHB_RESP_OKAY wdata=0x71a58d77
# UVM_INFO ../src/mst/ahb_master_driver.sv(376) @ 1665000: uvm_test_top.env.master_agent.drv [ahb_master_driver] Transaction complete: AHB_WRITE 0x0000a100, 16 beats, burst=AHB_BURST_INCR16
# UVM_INFO ../src/slv/ahb_slave_driver.sv(184) @ 1665000: uvm_test_top.env.slave_agent.drv [ahb_slave_driver] Beat AHB_WRITE addr=0x0000a13c resp=AHB_RESP_OKAY waits=2 wdata=0x71a58d77
# UVM_INFO ../src/mst/ahb_master_monitor.sv(128) @ 1665000: uvm_test_top.env.master_agent.mon [ahb_master_monitor] Beat[15] addr=0x0000a13c wdata=0x71a58d77 resp=AHB_RESP_OKAY
# UVM_INFO ../src/mst/ahb_master_monitor.sv(231) @ 1665000: uvm_test_top.env.master_agent.mon [ahb_master_monitor] Observed [AHB_WRITE]: HADDR=0x0000a100, HBURST=AHB_BURST_INCR16, HSIZE=AHB_SIZE_32B, 16 beats
# UVM_INFO ../src/env/ahb_coverage.sv(174) @ 1665000: uvm_test_top.env.master_cov [ahb_coverage] Sampled [AHB_WRITE]: burst=AHB_BURST_INCR16 size=AHB_SIZE_32B beats=16 error=0
# UVM_INFO ../src/slv/ahb_slave_monitor.sv(212) @ 1665000: uvm_test_top.env.slave_agent.mon [ahb_slave_monitor] Observed [AHB_WRITE]: HADDR=0x0000a100, HBURST=AHB_BURST_INCR16, HSIZE=AHB_SIZE_32B, 16 beats
# UVM_INFO ../src/env/ahb_scoreboard.sv(104) @ 1665000: uvm_test_top.env.scb [ahb_scoreboard] MATCH #4: [AHB_WRITE] HADDR=0x0000a100 AHB_BURST_INCR16 16 beats
# UVM_INFO ../src/env/ahb_coverage.sv(174) @ 1665000: uvm_test_top.env.slave_cov [ahb_coverage] Sampled [AHB_WRITE]: burst=AHB_BURST_INCR16 size=AHB_SIZE_32B beats=16 error=0
# UVM_INFO ../src/mst/ahb_master_driver.sv(85) @ 1665000: uvm_test_top.env.master_agent.drv [ahb_master_driver] Queueing [AHB_WRITE]: HADDR=0x0000a140, HBURST=AHB_BURST_INCR16, HSIZE=AHB_SIZE_32B, 16 beats
# UVM_INFO ../src/mst/ahb_master_driver.sv(127) @ 1665000: uvm_test_top.env.master_agent.drv [ahb_master_driver] Driving [AHB_WRITE]: HADDR=0x0000a140, HBURST=AHB_BURST_INCR16, HSIZE=AHB_SIZE_32B, 16 beats               
# UVM_INFO ../src/mst/ahb_master_driver.sv(332) @ 1705000: uvm_test_top.env.master_agent.drv [ahb_master_driver] Beat[0/16] addr=0x0000a140 trans=AHB_TRANS_NONSEQ resp=AHB_RESP_OKAY wdata=0xc666b0e9
# UVM_INFO ../src/slv/ahb_slave_driver.sv(184) @ 1705000: uvm_test_top.env.slave_agent.drv [ahb_slave_driver] Beat AHB_WRITE addr=0x0000a140 resp=AHB_RESP_OKAY waits=1 wdata=0xc666b0e9
# UVM_INFO ../src/mst/ahb_master_monitor.sv(128) @ 1705000: uvm_test_top.env.master_agent.mon [ahb_master_monitor] Beat[0] addr=0x0000a140 wdata=0xc666b0e9 resp=AHB_RESP_OKAY
# UVM_INFO ../src/mst/ahb_master_driver.sv(332) @ 1725000: uvm_test_top.env.master_agent.drv [ahb_master_driver] Beat[1/16] addr=0x0000a144 trans=AHB_TRANS_SEQ resp=AHB_RESP_OKAY wdata=0x80d3f887
# UVM_INFO ../src/slv/ahb_slave_driver.sv(184) @ 1725000: uvm_test_top.env.slave_agent.drv [ahb_slave_driver] Beat AHB_WRITE addr=0x0000a144 resp=AHB_RESP_OKAY waits=1 wdata=0x80d3f887
# UVM_INFO ../src/mst/ahb_master_monitor.sv(128) @ 1725000: uvm_test_top.env.master_agent.mon [ahb_master_monitor] Beat[1] addr=0x0000a144 wdata=0x80d3f887 resp=AHB_RESP_OKAY
# UVM_INFO ../src/mst/ahb_master_driver.sv(332) @ 1745000: uvm_test_top.env.master_agent.drv [ahb_master_driver] Beat[2/16] addr=0x0000a148 trans=AHB_TRANS_SEQ resp=AHB_RESP_OKAY wdata=0x0780ca9a
# UVM_INFO ../src/slv/ahb_slave_driver.sv(184) @ 1745000: uvm_test_top.env.slave_agent.drv [ahb_slave_driver] Beat AHB_WRITE addr=0x0000a148 resp=AHB_RESP_OKAY waits=1 wdata=0x0780ca9a
# UVM_INFO ../src/mst/ahb_master_monitor.sv(128) @ 1745000: uvm_test_top.env.master_agent.mon [ahb_master_monitor] Beat[2] addr=0x0000a148 wdata=0x0780ca9a resp=AHB_RESP_OKAY
# UVM_INFO ../src/mst/ahb_master_driver.sv(332) @ 1765000: uvm_test_top.env.master_agent.drv [ahb_master_driver] Beat[3/16] addr=0x0000a14c trans=AHB_TRANS_SEQ resp=AHB_RESP_OKAY wdata=0x562677d7
# UVM_INFO ../src/slv/ahb_slave_driver.sv(184) @ 1765000: uvm_test_top.env.slave_agent.drv [ahb_slave_driver] Beat AHB_WRITE addr=0x0000a14c resp=AHB_RESP_OKAY waits=1 wdata=0x562677d7
# UVM_INFO ../src/mst/ahb_master_monitor.sv(128) @ 1765000: uvm_test_top.env.master_agent.mon [ahb_master_monitor] Beat[3] addr=0x0000a14c wdata=0x562677d7 resp=AHB_RESP_OKAY
# UVM_INFO ../src/mst_seq/ahb_reset_seq.sv(85) @ 1780000: uvm_test_top.env.master_agent.sqr@@seq [ahb_reset_seq] Asserting reset 115 ns into burst 5
# UVM_INFO ../src/tb_top.sv(59) @ 1780000: reporter [TB_TOP] Mid-sim reset requested - asserting rst_n
# UVM_INFO ../src/slv/ahb_slave_monitor.sv(85) @ 1780000: uvm_test_top.env.slave_agent.mon [ahb_slave_monitor] Reset asserted - discarding partial transaction
# UVM_INFO ../src/slv/ahb_slave_monitor.sv(242) @ 1780000: uvm_test_top.env.slave_agent.mon [ahb_slave_monitor] Discarding partial burst at reset (5 beats accepted)
# UVM_INFO ../src/mst/ahb_master_monitor.sv(88) @ 1780000: uvm_test_top.env.master_agent.mon [ahb_master_monitor] Reset asserted - discarding partial transaction
# UVM_INFO ../src/mst/ahb_master_monitor.sv(260) @ 1780000: uvm_test_top.env.master_agent.mon [ahb_master_monitor] Discarding partial burst at reset (5 beats accepted)
# UVM_INFO ../src/mst/ahb_master_driver.sv(97) @ 1780000: uvm_test_top.env.master_agent.drv [ahb_master_driver] Reset asserted - aborting transaction
# UVM_INFO ../src/slv/ahb_slave_driver.sv(69) @ 1780000: uvm_test_top.env.slave_agent.drv [ahb_slave_driver] Reset asserted - slave driver idle
# UVM_INFO ../src/mst/ahb_master_driver.sv(183) @ 1785000: uvm_test_top.env.master_agent.drv [ahb_master_driver] Flushed pending transactions (reset)
# UVM_INFO ../src/mst_seq/ahb_base_seq.sv(51) @ 1785000: uvm_test_top.env.master_agent.sqr@@seq [ahb_reset_seq] Transaction aborted by reset: AHB_WRITE 0x0000a140
# UVM_INFO ../src/tb_top.sv(63) @ 1855000: reporter [TB_TOP] Mid-sim reset pulse complete - rst_n deasserted
# UVM_INFO ../src/slv/ahb_slave_driver.sv(63) @ 1855000: uvm_test_top.env.slave_agent.drv [ahb_slave_driver] Reset deasserted - slave driver active (    auto mode)
# UVM_INFO ../src/mst/ahb_master_driver.sv(72) @ 1855000: uvm_test_top.env.master_agent.drv [ahb_master_driver] Reset deasserted - master driver active
# UVM_INFO ../src/mst/ahb_master_monitor.sv(81) @ 1855000: uvm_test_top.env.master_agent.mon [ahb_master_monitor] Reset deasserted - master monitor active
# UVM_INFO ../src/slv/ahb_slave_monitor.sv(79) @ 1855000: uvm_test_top.env.slave_agent.mon [ahb_slave_monitor] Reset deasserted - slave monitor active
# UVM_INFO ../src/mst/ahb_master_driver.sv(85) @ 1855000: uvm_test_top.env.master_agent.drv [ahb_master_driver] Queueing [AHB_WRITE]: HADDR=0x0000a180, HBURST=AHB_BURST_INCR16, HSIZE=AHB_SIZE_32B, 16 beats
# UVM_INFO ../src/mst/ahb_master_driver.sv(127) @ 1855000: uvm_test_top.env.master_agent.drv [ahb_master_driver] Driving [AHB_WRITE]: HADDR=0x0000a180, HBURST=AHB_BURST_INCR16, HSIZE=AHB_SIZE_32B, 16 beats               
# UVM_INFO ../src/mst/ahb_master_driver.sv(332) @ 1885000: uvm_test_top.env.master_agent.drv [ahb_master_driver] Beat[0/16] addr=0x0000a180 trans=AHB_TRANS_NONSEQ resp=AHB_RESP_OKAY wdata=0x494dcb58
# UVM_INFO ../src/slv/ahb_slave_driver.sv(184) @ 1885000: uvm_test_top.env.slave_agent.drv [ahb_slave_driver] Beat AHB_WRITE addr=0x0000a180 resp=AHB_RESP_OKAY waits=1 wdata=0x494dcb58
# UVM_INFO ../src/mst/ahb_master_monitor.sv(128) @ 1885000: uvm_test_top.env.master_agent.mon [ahb_master_monitor] Beat[0] addr=0x0000a180 wdata=0x494dcb58 resp=AHB_RESP_OKAY
# UVM_INFO ../src/mst/ahb_master_driver.sv(332) @ 1905000: uvm_test_top.env.master_agent.drv [ahb_master_driver] Beat[1/16] addr=0x0000a184 trans=AHB_TRANS_SEQ resp=AHB_RESP_OKAY wdata=0xb8ab77b9
# UVM_INFO ../src/slv/ahb_slave_driver.sv(184) @ 1905000: uvm_test_top.env.slave_agent.drv [ahb_slave_driver] Beat AHB_WRITE addr=0x0000a184 resp=AHB_RESP_OKAY waits=1 wdata=0xb8ab77b9
# UVM_INFO ../src/mst/ahb_master_monitor.sv(128) @ 1905000: uvm_test_top.env.master_agent.mon [ahb_master_monitor] Beat[1] addr=0x0000a184 wdata=0xb8ab77b9 resp=AHB_RESP_OKAY
# UVM_INFO ../src/mst/ahb_master_driver.sv(332) @ 1925000: uvm_test_top.env.master_agent.drv [ahb_master_driver] Beat[2/16] addr=0x0000a188 trans=AHB_TRANS_SEQ resp=AHB_RESP_OKAY wdata=0x6e12a91d
# UVM_INFO ../src/slv/ahb_slave_driver.sv(184) @ 1925000: uvm_test_top.env.slave_agent.drv [ahb_slave_driver] Beat AHB_WRITE addr=0x0000a188 resp=AHB_RESP_OKAY waits=1 wdata=0x6e12a91d
# UVM_INFO ../src/mst/ahb_master_monitor.sv(128) @ 1925000: uvm_test_top.env.master_agent.mon [ahb_master_monitor] Beat[2] addr=0x0000a188 wdata=0x6e12a91d resp=AHB_RESP_OKAY
# UVM_INFO ../src/mst/ahb_master_driver.sv(332) @ 1945000: uvm_test_top.env.master_agent.drv [ahb_master_driver] Beat[3/16] addr=0x0000a18c trans=AHB_TRANS_SEQ resp=AHB_RESP_OKAY wdata=0xe6d7121d
# UVM_INFO ../src/slv/ahb_slave_driver.sv(184) @ 1945000: uvm_test_top.env.slave_agent.drv [ahb_slave_driver] Beat AHB_WRITE addr=0x0000a18c resp=AHB_RESP_OKAY waits=1 wdata=0xe6d7121d
# UVM_INFO ../src/mst/ahb_master_monitor.sv(128) @ 1945000: uvm_test_top.env.master_agent.mon [ahb_master_monitor] Beat[3] addr=0x0000a18c wdata=0xe6d7121d resp=AHB_RESP_OKAY
# UVM_INFO ../src/mst/ahb_master_driver.sv(332) @ 1965000: uvm_test_top.env.master_agent.drv [ahb_master_driver] Beat[4/16] addr=0x0000a190 trans=AHB_TRANS_SEQ resp=AHB_RESP_OKAY wdata=0x0c790678
# UVM_INFO ../src/slv/ahb_slave_driver.sv(184) @ 1965000: uvm_test_top.env.slave_agent.drv [ahb_slave_driver] Beat AHB_WRITE addr=0x0000a190 resp=AHB_RESP_OKAY waits=1 wdata=0x0c790678
# UVM_INFO ../src/mst/ahb_master_monitor.sv(128) @ 1965000: uvm_test_top.env.master_agent.mon [ahb_master_monitor] Beat[4] addr=0x0000a190 wdata=0x0c790678 resp=AHB_RESP_OKAY
# UVM_INFO ../src/mst/ahb_master_driver.sv(332) @ 1995000: uvm_test_top.env.master_agent.drv [ahb_master_driver] Beat[5/16] addr=0x0000a194 trans=AHB_TRANS_SEQ resp=AHB_RESP_OKAY wdata=0x8883c589
# UVM_INFO ../src/slv/ahb_slave_driver.sv(184) @ 1995000: uvm_test_top.env.slave_agent.drv [ahb_slave_driver] Beat AHB_WRITE addr=0x0000a194 resp=AHB_RESP_OKAY waits=2 wdata=0x8883c589
# UVM_INFO ../src/mst/ahb_master_monitor.sv(128) @ 1995000: uvm_test_top.env.master_agent.mon [ahb_master_monitor] Beat[5] addr=0x0000a194 wdata=0x8883c589 resp=AHB_RESP_OKAY
# UVM_INFO ../src/mst/ahb_master_driver.sv(332) @ 2025000: uvm_test_top.env.master_agent.drv [ahb_master_driver] Beat[6/16] addr=0x0000a198 trans=AHB_TRANS_SEQ resp=AHB_RESP_OKAY wdata=0xdd7eb760
# UVM_INFO ../src/slv/ahb_slave_driver.sv(184) @ 2025000: uvm_test_top.env.slave_agent.drv [ahb_slave_driver] Beat AHB_WRITE addr=0x0000a198 resp=AHB_RESP_OKAY waits=2 wdata=0xdd7eb760
# UVM_INFO ../src/mst/ahb_master_monitor.sv(128) @ 2025000: uvm_test_top.env.master_agent.mon [ahb_master_monitor] Beat[6] addr=0x0000a198 wdata=0xdd7eb760 resp=AHB_RESP_OKAY
# UVM_INFO ../src/mst/ahb_master_driver.sv(332) @ 2035000: uvm_test_top.env.master_agent.drv [ahb_master_driver] Beat[7/16] addr=0x0000a19c trans=AHB_TRANS_SEQ resp=AHB_RESP_OKAY wdata=0x2fc20d28
# UVM_INFO ../src/slv/ahb_slave_driver.sv(184) @ 2035000: uvm_test_top.env.slave_agent.drv [ahb_slave_driver] Beat AHB_WRITE addr=0x0000a19c resp=AHB_RESP_OKAY waits=0 wdata=0x2fc20d28
# UVM_INFO ../src/mst/ahb_master_monitor.sv(128) @ 2035000: uvm_test_top.env.master_agent.mon [ahb_master_monitor] Beat[7] addr=0x0000a19c wdata=0x2fc20d28 resp=AHB_RESP_OKAY
# UVM_INFO ../src/mst/ahb_master_driver.sv(332) @ 2045000: uvm_test_top.env.master_agent.drv [ahb_master_driver] Beat[8/16] addr=0x0000a1a0 trans=AHB_TRANS_SEQ resp=AHB_RESP_OKAY wdata=0x3aaf160b
# UVM_INFO ../src/slv/ahb_slave_driver.sv(184) @ 2045000: uvm_test_top.env.slave_agent.drv [ahb_slave_driver] Beat AHB_WRITE addr=0x0000a1a0 resp=AHB_RESP_OKAY waits=0 wdata=0x3aaf160b
# UVM_INFO ../src/mst/ahb_master_monitor.sv(128) @ 2045000: uvm_test_top.env.master_agent.mon [ahb_master_monitor] Beat[8] addr=0x0000a1a0 wdata=0x3aaf160b resp=AHB_RESP_OKAY
# UVM_INFO ../src/mst/ahb_master_driver.sv(332) @ 2055000: uvm_test_top.env.master_agent.drv [ahb_master_driver] Beat[9/16] addr=0x0000a1a4 trans=AHB_TRANS_SEQ resp=AHB_RESP_OKAY wdata=0xd83efea9
# UVM_INFO ../src/slv/ahb_slave_driver.sv(184) @ 2055000: uvm_test_top.env.slave_agent.drv [ahb_slave_driver] Beat AHB_WRITE addr=0x0000a1a4 resp=AHB_RESP_OKAY waits=0 wdata=0xd83efea9
# UVM_INFO ../src/mst/ahb_master_monitor.sv(128) @ 2055000: uvm_test_top.env.master_agent.mon [ahb_master_monitor] Beat[9] addr=0x0000a1a4 wdata=0xd83efea9 resp=AHB_RESP_OKAY
# UVM_INFO ../src/mst/ahb_master_driver.sv(332) @ 2075000: uvm_test_top.env.master_agent.drv [ahb_master_driver] Beat[10/16] addr=0x0000a1a8 trans=AHB_TRANS_SEQ resp=AHB_RESP_OKAY wdata=0xfcf64513
# UVM_INFO ../src/slv/ahb_slave_driver.sv(184) @ 2075000: uvm_test_top.env.slave_agent.drv [ahb_slave_driver] Beat AHB_WRITE addr=0x0000a1a8 resp=AHB_RESP_OKAY waits=1 wdata=0xfcf64513
# UVM_INFO ../src/mst/ahb_master_monitor.sv(128) @ 2075000: uvm_test_top.env.master_agent.mon [ahb_master_monitor] Beat[10] addr=0x0000a1a8 wdata=0xfcf64513 resp=AHB_RESP_OKAY
# UVM_INFO ../src/mst/ahb_master_driver.sv(332) @ 2105000: uvm_test_top.env.master_agent.drv [ahb_master_driver] Beat[11/16] addr=0x0000a1ac trans=AHB_TRANS_SEQ resp=AHB_RESP_OKAY wdata=0x422ab312
# UVM_INFO ../src/slv/ahb_slave_driver.sv(184) @ 2105000: uvm_test_top.env.slave_agent.drv [ahb_slave_driver] Beat AHB_WRITE addr=0x0000a1ac resp=AHB_RESP_OKAY waits=2 wdata=0x422ab312
# UVM_INFO ../src/mst/ahb_master_monitor.sv(128) @ 2105000: uvm_test_top.env.master_agent.mon [ahb_master_monitor] Beat[11] addr=0x0000a1ac wdata=0x422ab312 resp=AHB_RESP_OKAY
# UVM_INFO ../src/mst/ahb_master_driver.sv(332) @ 2125000: uvm_test_top.env.master_agent.drv [ahb_master_driver] Beat[12/16] addr=0x0000a1b0 trans=AHB_TRANS_SEQ resp=AHB_RESP_OKAY wdata=0x2baec88e
# UVM_INFO ../src/slv/ahb_slave_driver.sv(184) @ 2125000: uvm_test_top.env.slave_agent.drv [ahb_slave_driver] Beat AHB_WRITE addr=0x0000a1b0 resp=AHB_RESP_OKAY waits=1 wdata=0x2baec88e
# UVM_INFO ../src/mst/ahb_master_monitor.sv(128) @ 2125000: uvm_test_top.env.master_agent.mon [ahb_master_monitor] Beat[12] addr=0x0000a1b0 wdata=0x2baec88e resp=AHB_RESP_OKAY
# UVM_INFO ../src/mst/ahb_master_driver.sv(332) @ 2135000: uvm_test_top.env.master_agent.drv [ahb_master_driver] Beat[13/16] addr=0x0000a1b4 trans=AHB_TRANS_SEQ resp=AHB_RESP_OKAY wdata=0x54aac42a
# UVM_INFO ../src/slv/ahb_slave_driver.sv(184) @ 2135000: uvm_test_top.env.slave_agent.drv [ahb_slave_driver] Beat AHB_WRITE addr=0x0000a1b4 resp=AHB_RESP_OKAY waits=0 wdata=0x54aac42a
# UVM_INFO ../src/mst/ahb_master_monitor.sv(128) @ 2135000: uvm_test_top.env.master_agent.mon [ahb_master_monitor] Beat[13] addr=0x0000a1b4 wdata=0x54aac42a resp=AHB_RESP_OKAY
# UVM_INFO ../src/mst/ahb_master_driver.sv(332) @ 2165000: uvm_test_top.env.master_agent.drv [ahb_master_driver] Beat[14/16] addr=0x0000a1b8 trans=AHB_TRANS_SEQ resp=AHB_RESP_OKAY wdata=0x13fa3be3
# UVM_INFO ../src/slv/ahb_slave_driver.sv(184) @ 2165000: uvm_test_top.env.slave_agent.drv [ahb_slave_driver] Beat AHB_WRITE addr=0x0000a1b8 resp=AHB_RESP_OKAY waits=2 wdata=0x13fa3be3
# UVM_INFO ../src/mst/ahb_master_monitor.sv(128) @ 2165000: uvm_test_top.env.master_agent.mon [ahb_master_monitor] Beat[14] addr=0x0000a1b8 wdata=0x13fa3be3 resp=AHB_RESP_OKAY
# UVM_INFO ../src/mst/ahb_master_driver.sv(332) @ 2175000: uvm_test_top.env.master_agent.drv [ahb_master_driver] Beat[15/16] addr=0x0000a1bc trans=AHB_TRANS_SEQ resp=AHB_RESP_OKAY wdata=0x4ab15ee1
# UVM_INFO ../src/mst/ahb_master_driver.sv(376) @ 2175000: uvm_test_top.env.master_agent.drv [ahb_master_driver] Transaction complete: AHB_WRITE 0x0000a180, 16 beats, burst=AHB_BURST_INCR16
# UVM_INFO ../src/slv/ahb_slave_driver.sv(184) @ 2175000: uvm_test_top.env.slave_agent.drv [ahb_slave_driver] Beat AHB_WRITE addr=0x0000a1bc resp=AHB_RESP_OKAY waits=0 wdata=0x4ab15ee1
# UVM_INFO ../src/slv/ahb_slave_monitor.sv(212) @ 2175000: uvm_test_top.env.slave_agent.mon [ahb_slave_monitor] Observed [AHB_WRITE]: HADDR=0x0000a180, HBURST=AHB_BURST_INCR16, HSIZE=AHB_SIZE_32B, 16 beats
# UVM_INFO ../src/env/ahb_coverage.sv(174) @ 2175000: uvm_test_top.env.slave_cov [ahb_coverage] Sampled [AHB_WRITE]: burst=AHB_BURST_INCR16 size=AHB_SIZE_32B beats=16 error=0
# UVM_INFO ../src/mst/ahb_master_monitor.sv(128) @ 2175000: uvm_test_top.env.master_agent.mon [ahb_master_monitor] Beat[15] addr=0x0000a1bc wdata=0x4ab15ee1 resp=AHB_RESP_OKAY
# UVM_INFO ../src/mst/ahb_master_monitor.sv(231) @ 2175000: uvm_test_top.env.master_agent.mon [ahb_master_monitor] Observed [AHB_WRITE]: HADDR=0x0000a180, HBURST=AHB_BURST_INCR16, HSIZE=AHB_SIZE_32B, 16 beats
# UVM_INFO ../src/env/ahb_coverage.sv(174) @ 2175000: uvm_test_top.env.master_cov [ahb_coverage] Sampled [AHB_WRITE]: burst=AHB_BURST_INCR16 size=AHB_SIZE_32B beats=16 error=0
# UVM_INFO ../src/env/ahb_scoreboard.sv(104) @ 2175000: uvm_test_top.env.scb [ahb_scoreboard] MATCH #5: [AHB_WRITE] HADDR=0x0000a180 AHB_BURST_INCR16 16 beats
# UVM_INFO ../src/mst/ahb_master_driver.sv(85) @ 2175000: uvm_test_top.env.master_agent.drv [ahb_master_driver] Queueing [AHB_WRITE]: HADDR=0x0000a1c0, HBURST=AHB_BURST_INCR16, HSIZE=AHB_SIZE_32B, 16 beats
# UVM_INFO ../src/mst/ahb_master_driver.sv(127) @ 2175000: uvm_test_top.env.master_agent.drv [ahb_master_driver] Driving [AHB_WRITE]: HADDR=0x0000a1c0, HBURST=AHB_BURST_INCR16, HSIZE=AHB_SIZE_32B, 16 beats               
# UVM_INFO ../src/mst/ahb_master_driver.sv(332) @ 2225000: uvm_test_top.env.master_agent.drv [ahb_master_driver] Beat[0/16] addr=0x0000a1c0 trans=AHB_TRANS_NONSEQ resp=AHB_RESP_OKAY wdata=0x00ee4081
# UVM_INFO ../src/slv/ahb_slave_driver.sv(184) @ 2225000: uvm_test_top.env.slave_agent.drv [ahb_slave_driver] Beat AHB_WRITE addr=0x0000a1c0 resp=AHB_RESP_OKAY waits=2 wdata=0x00ee4081
# UVM_INFO ../src/mst/ahb_master_monitor.sv(128) @ 2225000: uvm_test_top.env.master_agent.mon [ahb_master_monitor] Beat[0] addr=0x0000a1c0 wdata=0x00ee4081 resp=AHB_RESP_OKAY
# UVM_INFO ../src/mst/ahb_master_driver.sv(332) @ 2235000: uvm_test_top.env.master_agent.drv [ahb_master_driver] Beat[1/16] addr=0x0000a1c4 trans=AHB_TRANS_SEQ resp=AHB_RESP_OKAY wdata=0x279a8f9b
# UVM_INFO ../src/slv/ahb_slave_driver.sv(184) @ 2235000: uvm_test_top.env.slave_agent.drv [ahb_slave_driver] Beat AHB_WRITE addr=0x0000a1c4 resp=AHB_RESP_OKAY waits=0 wdata=0x279a8f9b
# UVM_INFO ../src/mst/ahb_master_monitor.sv(128) @ 2235000: uvm_test_top.env.master_agent.mon [ahb_master_monitor] Beat[1] addr=0x0000a1c4 wdata=0x279a8f9b resp=AHB_RESP_OKAY
# UVM_INFO ../src/mst/ahb_master_driver.sv(332) @ 2265000: uvm_test_top.env.master_agent.drv [ahb_master_driver] Beat[2/16] addr=0x0000a1c8 trans=AHB_TRANS_SEQ resp=AHB_RESP_OKAY wdata=0xcab6e043
# UVM_INFO ../src/slv/ahb_slave_driver.sv(184) @ 2265000: uvm_test_top.env.slave_agent.drv [ahb_slave_driver] Beat AHB_WRITE addr=0x0000a1c8 resp=AHB_RESP_OKAY waits=2 wdata=0xcab6e043
# UVM_INFO ../src/mst/ahb_master_monitor.sv(128) @ 2265000: uvm_test_top.env.master_agent.mon [ahb_master_monitor] Beat[2] addr=0x0000a1c8 wdata=0xcab6e043 resp=AHB_RESP_OKAY
# UVM_INFO ../src/mst/ahb_master_driver.sv(332) @ 2295000: uvm_test_top.env.master_agent.drv [ahb_master_driver] Beat[3/16] addr=0x0000a1cc trans=AHB_TRANS_SEQ resp=AHB_RESP_OKAY wdata=0xd7431737
# UVM_INFO ../src/slv/ahb_slave_driver.sv(184) @ 2295000: uvm_test_top.env.slave_agent.drv [ahb_slave_driver] Beat AHB_WRITE addr=0x0000a1cc resp=AHB_RESP_OKAY waits=2 wdata=0xd7431737
# UVM_INFO ../src/mst/ahb_master_monitor.sv(128) @ 2295000: uvm_test_top.env.master_agent.mon [ahb_master_monitor] Beat[3] addr=0x0000a1cc wdata=0xd7431737 resp=AHB_RESP_OKAY
# UVM_INFO ../src/mst/ahb_master_driver.sv(332) @ 2315000: uvm_test_top.env.master_agent.drv [ahb_master_driver] Beat[4/16] addr=0x0000a1d0 trans=AHB_TRANS_SEQ resp=AHB_RESP_OKAY wdata=0x59f5fbeb
# UVM_INFO ../src/slv/ahb_slave_driver.sv(184) @ 2315000: uvm_test_top.env.slave_agent.drv [ahb_slave_driver] Beat AHB_WRITE addr=0x0000a1d0 resp=AHB_RESP_OKAY waits=1 wdata=0x59f5fbeb
# UVM_INFO ../src/mst/ahb_master_monitor.sv(128) @ 2315000: uvm_test_top.env.master_agent.mon [ahb_master_monitor] Beat[4] addr=0x0000a1d0 wdata=0x59f5fbeb resp=AHB_RESP_OKAY
# UVM_INFO ../src/mst/ahb_master_driver.sv(332) @ 2335000: uvm_test_top.env.master_agent.drv [ahb_master_driver] Beat[5/16] addr=0x0000a1d4 trans=AHB_TRANS_SEQ resp=AHB_RESP_OKAY wdata=0x21aa4430
# UVM_INFO ../src/slv/ahb_slave_driver.sv(184) @ 2335000: uvm_test_top.env.slave_agent.drv [ahb_slave_driver] Beat AHB_WRITE addr=0x0000a1d4 resp=AHB_RESP_OKAY waits=1 wdata=0x21aa4430
# UVM_INFO ../src/mst/ahb_master_monitor.sv(128) @ 2335000: uvm_test_top.env.master_agent.mon [ahb_master_monitor] Beat[5] addr=0x0000a1d4 wdata=0x21aa4430 resp=AHB_RESP_OKAY
# UVM_INFO ../src/mst/ahb_master_driver.sv(332) @ 2365000: uvm_test_top.env.master_agent.drv [ahb_master_driver] Beat[6/16] addr=0x0000a1d8 trans=AHB_TRANS_SEQ resp=AHB_RESP_OKAY wdata=0x642972bd
# UVM_INFO ../src/slv/ahb_slave_driver.sv(184) @ 2365000: uvm_test_top.env.slave_agent.drv [ahb_slave_driver] Beat AHB_WRITE addr=0x0000a1d8 resp=AHB_RESP_OKAY waits=2 wdata=0x642972bd
# UVM_INFO ../src/mst/ahb_master_monitor.sv(128) @ 2365000: uvm_test_top.env.master_agent.mon [ahb_master_monitor] Beat[6] addr=0x0000a1d8 wdata=0x642972bd resp=AHB_RESP_OKAY
# UVM_INFO ../src/mst/ahb_master_driver.sv(332) @ 2375000: uvm_test_top.env.master_agent.drv [ahb_master_driver] Beat[7/16] addr=0x0000a1dc trans=AHB_TRANS_SEQ resp=AHB_RESP_OKAY wdata=0x51659673
# UVM_INFO ../src/slv/ahb_slave_driver.sv(184) @ 2375000: uvm_test_top.env.slave_agent.drv [ahb_slave_driver] Beat AHB_WRITE addr=0x0000a1dc resp=AHB_RESP_OKAY waits=0 wdata=0x51659673
# UVM_INFO ../src/mst/ahb_master_monitor.sv(128) @ 2375000: uvm_test_top.env.master_agent.mon [ahb_master_monitor] Beat[7] addr=0x0000a1dc wdata=0x51659673 resp=AHB_RESP_OKAY
# UVM_INFO ../src/mst/ahb_master_driver.sv(332) @ 2405000: uvm_test_top.env.master_agent.drv [ahb_master_driver] Beat[8/16] addr=0x0000a1e0 trans=AHB_TRANS_SEQ resp=AHB_RESP_OKAY wdata=0x81f9d9dd
# UVM_INFO ../src/slv/ahb_slave_driver.sv(184) @ 2405000: uvm_test_top.env.slave_agent.drv [ahb_slave_driver] Beat AHB_WRITE addr=0x0000a1e0 resp=AHB_RESP_OKAY waits=2 wdata=0x81f9d9dd
# UVM_INFO ../src/mst/ahb_master_monitor.sv(128) @ 2405000: uvm_test_top.env.master_agent.mon [ahb_master_monitor] Beat[8] addr=0x0000a1e0 wdata=0x81f9d9dd resp=AHB_RESP_OKAY
# UVM_INFO ../src/mst/ahb_master_driver.sv(332) @ 2435000: uvm_test_top.env.master_agent.drv [ahb_master_driver] Beat[9/16] addr=0x0000a1e4 trans=AHB_TRANS_SEQ resp=AHB_RESP_OKAY wdata=0xb88c30df
# UVM_INFO ../src/slv/ahb_slave_driver.sv(184) @ 2435000: uvm_test_top.env.slave_agent.drv [ahb_slave_driver] Beat AHB_WRITE addr=0x0000a1e4 resp=AHB_RESP_OKAY waits=2 wdata=0xb88c30df
# UVM_INFO ../src/mst/ahb_master_monitor.sv(128) @ 2435000: uvm_test_top.env.master_agent.mon [ahb_master_monitor] Beat[9] addr=0x0000a1e4 wdata=0xb88c30df resp=AHB_RESP_OKAY
# UVM_INFO ../src/mst/ahb_master_driver.sv(332) @ 2445000: uvm_test_top.env.master_agent.drv [ahb_master_driver] Beat[10/16] addr=0x0000a1e8 trans=AHB_TRANS_SEQ resp=AHB_RESP_OKAY wdata=0xa9f374b4
# UVM_INFO ../src/slv/ahb_slave_driver.sv(184) @ 2445000: uvm_test_top.env.slave_agent.drv [ahb_slave_driver] Beat AHB_WRITE addr=0x0000a1e8 resp=AHB_RESP_OKAY waits=0 wdata=0xa9f374b4
# UVM_INFO ../src/mst/ahb_master_monitor.sv(128) @ 2445000: uvm_test_top.env.master_agent.mon [ahb_master_monitor] Beat[10] addr=0x0000a1e8 wdata=0xa9f374b4 resp=AHB_RESP_OKAY
# UVM_INFO ../src/mst/ahb_master_driver.sv(332) @ 2465000: uvm_test_top.env.master_agent.drv [ahb_master_driver] Beat[11/16] addr=0x0000a1ec trans=AHB_TRANS_SEQ resp=AHB_RESP_OKAY wdata=0xdfaf71d2
# UVM_INFO ../src/slv/ahb_slave_driver.sv(184) @ 2465000: uvm_test_top.env.slave_agent.drv [ahb_slave_driver] Beat AHB_WRITE addr=0x0000a1ec resp=AHB_RESP_OKAY waits=1 wdata=0xdfaf71d2
# UVM_INFO ../src/mst/ahb_master_monitor.sv(128) @ 2465000: uvm_test_top.env.master_agent.mon [ahb_master_monitor] Beat[11] addr=0x0000a1ec wdata=0xdfaf71d2 resp=AHB_RESP_OKAY
# UVM_INFO ../src/mst/ahb_master_driver.sv(332) @ 2485000: uvm_test_top.env.master_agent.drv [ahb_master_driver] Beat[12/16] addr=0x0000a1f0 trans=AHB_TRANS_SEQ resp=AHB_RESP_OKAY wdata=0xbfbda546
# UVM_INFO ../src/slv/ahb_slave_driver.sv(184) @ 2485000: uvm_test_top.env.slave_agent.drv [ahb_slave_driver] Beat AHB_WRITE addr=0x0000a1f0 resp=AHB_RESP_OKAY waits=1 wdata=0xbfbda546
# UVM_INFO ../src/mst/ahb_master_monitor.sv(128) @ 2485000: uvm_test_top.env.master_agent.mon [ahb_master_monitor] Beat[12] addr=0x0000a1f0 wdata=0xbfbda546 resp=AHB_RESP_OKAY
# UVM_INFO ../src/mst/ahb_master_driver.sv(332) @ 2515000: uvm_test_top.env.master_agent.drv [ahb_master_driver] Beat[13/16] addr=0x0000a1f4 trans=AHB_TRANS_SEQ resp=AHB_RESP_OKAY wdata=0x817b351e
# UVM_INFO ../src/slv/ahb_slave_driver.sv(184) @ 2515000: uvm_test_top.env.slave_agent.drv [ahb_slave_driver] Beat AHB_WRITE addr=0x0000a1f4 resp=AHB_RESP_OKAY waits=2 wdata=0x817b351e
# UVM_INFO ../src/mst/ahb_master_monitor.sv(128) @ 2515000: uvm_test_top.env.master_agent.mon [ahb_master_monitor] Beat[13] addr=0x0000a1f4 wdata=0x817b351e resp=AHB_RESP_OKAY
# UVM_INFO ../src/mst/ahb_master_driver.sv(332) @ 2525000: uvm_test_top.env.master_agent.drv [ahb_master_driver] Beat[14/16] addr=0x0000a1f8 trans=AHB_TRANS_SEQ resp=AHB_RESP_OKAY wdata=0x3b627891
# UVM_INFO ../src/slv/ahb_slave_driver.sv(184) @ 2525000: uvm_test_top.env.slave_agent.drv [ahb_slave_driver] Beat AHB_WRITE addr=0x0000a1f8 resp=AHB_RESP_OKAY waits=0 wdata=0x3b627891
# UVM_INFO ../src/mst/ahb_master_monitor.sv(128) @ 2525000: uvm_test_top.env.master_agent.mon [ahb_master_monitor] Beat[14] addr=0x0000a1f8 wdata=0x3b627891 resp=AHB_RESP_OKAY
# UVM_INFO ../src/mst/ahb_master_driver.sv(332) @ 2555000: uvm_test_top.env.master_agent.drv [ahb_master_driver] Beat[15/16] addr=0x0000a1fc trans=AHB_TRANS_SEQ resp=AHB_RESP_OKAY wdata=0xfd07867b
# UVM_INFO ../src/mst/ahb_master_driver.sv(376) @ 2555000: uvm_test_top.env.master_agent.drv [ahb_master_driver] Transaction complete: AHB_WRITE 0x0000a1c0, 16 beats, burst=AHB_BURST_INCR16
# UVM_INFO ../src/slv/ahb_slave_driver.sv(184) @ 2555000: uvm_test_top.env.slave_agent.drv [ahb_slave_driver] Beat AHB_WRITE addr=0x0000a1fc resp=AHB_RESP_OKAY waits=2 wdata=0xfd07867b
# UVM_INFO ../src/slv/ahb_slave_monitor.sv(212) @ 2555000: uvm_test_top.env.slave_agent.mon [ahb_slave_monitor] Observed [AHB_WRITE]: HADDR=0x0000a1c0, HBURST=AHB_BURST_INCR16, HSIZE=AHB_SIZE_32B, 16 beats
# UVM_INFO ../src/env/ahb_coverage.sv(174) @ 2555000: uvm_test_top.env.slave_cov [ahb_coverage] Sampled [AHB_WRITE]: burst=AHB_BURST_INCR16 size=AHB_SIZE_32B beats=16 error=0
# UVM_INFO ../src/mst/ahb_master_monitor.sv(128) @ 2555000: uvm_test_top.env.master_agent.mon [ahb_master_monitor] Beat[15] addr=0x0000a1fc wdata=0xfd07867b resp=AHB_RESP_OKAY
# UVM_INFO ../src/mst/ahb_master_monitor.sv(231) @ 2555000: uvm_test_top.env.master_agent.mon [ahb_master_monitor] Observed [AHB_WRITE]: HADDR=0x0000a1c0, HBURST=AHB_BURST_INCR16, HSIZE=AHB_SIZE_32B, 16 beats
# UVM_INFO ../src/env/ahb_coverage.sv(174) @ 2555000: uvm_test_top.env.master_cov [ahb_coverage] Sampled [AHB_WRITE]: burst=AHB_BURST_INCR16 size=AHB_SIZE_32B beats=16 error=0
# UVM_INFO ../src/env/ahb_scoreboard.sv(104) @ 2555000: uvm_test_top.env.scb [ahb_scoreboard] MATCH #6: [AHB_WRITE] HADDR=0x0000a1c0 AHB_BURST_INCR16 16 beats
# UVM_INFO ../src/mst/ahb_master_driver.sv(85) @ 2555000: uvm_test_top.env.master_agent.drv [ahb_master_driver] Queueing [AHB_WRITE]: HADDR=0x0000a200, HBURST=AHB_BURST_INCR16, HSIZE=AHB_SIZE_32B, 16 beats
# UVM_INFO ../src/mst/ahb_master_driver.sv(127) @ 2555000: uvm_test_top.env.master_agent.drv [ahb_master_driver] Driving [AHB_WRITE]: HADDR=0x0000a200, HBURST=AHB_BURST_INCR16, HSIZE=AHB_SIZE_32B, 16 beats               
# UVM_INFO ../src/mst/ahb_master_driver.sv(332) @ 2585000: uvm_test_top.env.master_agent.drv [ahb_master_driver] Beat[0/16] addr=0x0000a200 trans=AHB_TRANS_NONSEQ resp=AHB_RESP_OKAY wdata=0xc92aec69
# UVM_INFO ../src/slv/ahb_slave_driver.sv(184) @ 2585000: uvm_test_top.env.slave_agent.drv [ahb_slave_driver] Beat AHB_WRITE addr=0x0000a200 resp=AHB_RESP_OKAY waits=0 wdata=0xc92aec69
# UVM_INFO ../src/mst/ahb_master_monitor.sv(128) @ 2585000: uvm_test_top.env.master_agent.mon [ahb_master_monitor] Beat[0] addr=0x0000a200 wdata=0xc92aec69 resp=AHB_RESP_OKAY
# UVM_INFO ../src/mst/ahb_master_driver.sv(332) @ 2615000: uvm_test_top.env.master_agent.drv [ahb_master_driver] Beat[1/16] addr=0x0000a204 trans=AHB_TRANS_SEQ resp=AHB_RESP_OKAY wdata=0x645dde49
# UVM_INFO ../src/slv/ahb_slave_driver.sv(184) @ 2615000: uvm_test_top.env.slave_agent.drv [ahb_slave_driver] Beat AHB_WRITE addr=0x0000a204 resp=AHB_RESP_OKAY waits=2 wdata=0x645dde49
# UVM_INFO ../src/mst/ahb_master_monitor.sv(128) @ 2615000: uvm_test_top.env.master_agent.mon [ahb_master_monitor] Beat[1] addr=0x0000a204 wdata=0x645dde49 resp=AHB_RESP_OKAY
# UVM_INFO ../src/mst_seq/ahb_reset_seq.sv(85) @ 2616000: uvm_test_top.env.master_agent.sqr@@seq [ahb_reset_seq] Asserting reset 61 ns into burst 8
# UVM_INFO ../src/tb_top.sv(59) @ 2616000: reporter [TB_TOP] Mid-sim reset requested - asserting rst_n
# UVM_INFO ../src/slv/ahb_slave_monitor.sv(85) @ 2616000: uvm_test_top.env.slave_agent.mon [ahb_slave_monitor] Reset asserted - discarding partial transaction
# UVM_INFO ../src/slv/ahb_slave_monitor.sv(242) @ 2616000: uvm_test_top.env.slave_agent.mon [ahb_slave_monitor] Discarding partial burst at reset (3 beats accepted)
# UVM_INFO ../src/mst/ahb_master_monitor.sv(88) @ 2616000: uvm_test_top.env.master_agent.mon [ahb_master_monitor] Reset asserted - discarding partial transaction
# UVM_INFO ../src/mst/ahb_master_monitor.sv(260) @ 2616000: uvm_test_top.env.master_agent.mon [ahb_master_monitor] Discarding partial burst at reset (3 beats accepted)
# UVM_INFO ../src/mst/ahb_master_driver.sv(97) @ 2616000: uvm_test_top.env.master_agent.drv [ahb_master_driver] Reset asserted - aborting transaction
# UVM_INFO ../src/slv/ahb_slave_driver.sv(69) @ 2616000: uvm_test_top.env.slave_agent.drv [ahb_slave_driver] Reset asserted - slave driver idle
# UVM_INFO ../src/mst/ahb_master_driver.sv(183) @ 2625000: uvm_test_top.env.master_agent.drv [ahb_master_driver] Flushed pending transactions (reset)
# UVM_INFO ../src/mst_seq/ahb_base_seq.sv(51) @ 2625000: uvm_test_top.env.master_agent.sqr@@seq [ahb_reset_seq] Transaction aborted by reset: AHB_WRITE 0x0000a200
# UVM_INFO ../src/tb_top.sv(63) @ 2695000: reporter [TB_TOP] Mid-sim reset pulse complete - rst_n deasserted
# UVM_INFO ../src/slv/ahb_slave_driver.sv(63) @ 2695000: uvm_test_top.env.slave_agent.drv [ahb_slave_driver] Reset deasserted - slave driver active (    auto mode)
# UVM_INFO ../src/mst/ahb_master_driver.sv(72) @ 2695000: uvm_test_top.env.master_agent.drv [ahb_master_driver] Reset deasserted - master driver active
# UVM_INFO ../src/mst/ahb_master_monitor.sv(81) @ 2695000: uvm_test_top.env.master_agent.mon [ahb_master_monitor] Reset deasserted - master monitor active
# UVM_INFO ../src/slv/ahb_slave_monitor.sv(79) @ 2695000: uvm_test_top.env.slave_agent.mon [ahb_slave_monitor] Reset deasserted - slave monitor active
# UVM_INFO ../src/mst/ahb_master_driver.sv(85) @ 2695000: uvm_test_top.env.master_agent.drv [ahb_master_driver] Queueing [AHB_WRITE]: HADDR=0x0000a240, HBURST=AHB_BURST_INCR16, HSIZE=AHB_SIZE_32B, 16 beats
# UVM_INFO ../src/mst/ahb_master_driver.sv(127) @ 2695000: uvm_test_top.env.master_agent.drv [ahb_master_driver] Driving [AHB_WRITE]: HADDR=0x0000a240, HBURST=AHB_BURST_INCR16, HSIZE=AHB_SIZE_32B, 16 beats               
# UVM_INFO ../src/mst/ahb_master_driver.sv(332) @ 2735000: uvm_test_top.env.master_agent.drv [ahb_master_driver] Beat[0/16] addr=0x0000a240 trans=AHB_TRANS_NONSEQ resp=AHB_RESP_OKAY wdata=0x7c01a381
# UVM_INFO ../src/slv/ahb_slave_driver.sv(184) @ 2735000: uvm_test_top.env.slave_agent.drv [ahb_slave_driver] Beat AHB_WRITE addr=0x0000a240 resp=AHB_RESP_OKAY waits=2 wdata=0x7c01a381
# UVM_INFO ../src/mst/ahb_master_monitor.sv(128) @ 2735000: uvm_test_top.env.master_agent.mon [ahb_master_monitor] Beat[0] addr=0x0000a240 wdata=0x7c01a381 resp=AHB_RESP_OKAY
# UVM_INFO ../src/mst/ahb_master_driver.sv(332) @ 2765000: uvm_test_top.env.master_agent.drv [ahb_master_driver] Beat[1/16] addr=0x0000a244 trans=AHB_TRANS_SEQ resp=AHB_RESP_OKAY wdata=0x76613c19
# UVM_INFO ../src/slv/ahb_slave_driver.sv(184) @ 2765000: uvm_test_top.env.slave_agent.drv [ahb_slave_driver] Beat AHB_WRITE addr=0x0000a244 resp=AHB_RESP_OKAY waits=2 wdata=0x76613c19
# UVM_INFO ../src/mst/ahb_master_monitor.sv(128) @ 2765000: uvm_test_top.env.master_agent.mon [ahb_master_monitor] Beat[1] addr=0x0000a244 wdata=0x76613c19 resp=AHB_RESP_OKAY
# UVM_INFO ../src/mst/ahb_master_driver.sv(332) @ 2775000: uvm_test_top.env.master_agent.drv [ahb_master_driver] Beat[2/16] addr=0x0000a248 trans=AHB_TRANS_SEQ resp=AHB_RESP_OKAY wdata=0xa580c0cf
# UVM_INFO ../src/slv/ahb_slave_driver.sv(184) @ 2775000: uvm_test_top.env.slave_agent.drv [ahb_slave_driver] Beat AHB_WRITE addr=0x0000a248 resp=AHB_RESP_OKAY waits=0 wdata=0xa580c0cf
# UVM_INFO ../src/mst/ahb_master_monitor.sv(128) @ 2775000: uvm_test_top.env.master_agent.mon [ahb_master_monitor] Beat[2] addr=0x0000a248 wdata=0xa580c0cf resp=AHB_RESP_OKAY
# UVM_INFO ../src/mst/ahb_master_driver.sv(332) @ 2785000: uvm_test_top.env.master_agent.drv [ahb_master_driver] Beat[3/16] addr=0x0000a24c trans=AHB_TRANS_SEQ resp=AHB_RESP_OKAY wdata=0x058cc7d1
# UVM_INFO ../src/slv/ahb_slave_driver.sv(184) @ 2785000: uvm_test_top.env.slave_agent.drv [ahb_slave_driver] Beat AHB_WRITE addr=0x0000a24c resp=AHB_RESP_OKAY waits=0 wdata=0x058cc7d1
# UVM_INFO ../src/mst/ahb_master_monitor.sv(128) @ 2785000: uvm_test_top.env.master_agent.mon [ahb_master_monitor] Beat[3] addr=0x0000a24c wdata=0x058cc7d1 resp=AHB_RESP_OKAY
# UVM_INFO ../src/mst/ahb_master_driver.sv(332) @ 2805000: uvm_test_top.env.master_agent.drv [ahb_master_driver] Beat[4/16] addr=0x0000a250 trans=AHB_TRANS_SEQ resp=AHB_RESP_OKAY wdata=0xce00df5f
# UVM_INFO ../src/slv/ahb_slave_driver.sv(184) @ 2805000: uvm_test_top.env.slave_agent.drv [ahb_slave_driver] Beat AHB_WRITE addr=0x0000a250 resp=AHB_RESP_OKAY waits=1 wdata=0xce00df5f
# UVM_INFO ../src/mst/ahb_master_monitor.sv(128) @ 2805000: uvm_test_top.env.master_agent.mon [ahb_master_monitor] Beat[4] addr=0x0000a250 wdata=0xce00df5f resp=AHB_RESP_OKAY
# UVM_INFO ../src/mst/ahb_master_driver.sv(332) @ 2815000: uvm_test_top.env.master_agent.drv [ahb_master_driver] Beat[5/16] addr=0x0000a254 trans=AHB_TRANS_SEQ resp=AHB_RESP_OKAY wdata=0x3f3fda3b
# UVM_INFO ../src/slv/ahb_slave_driver.sv(184) @ 2815000: uvm_test_top.env.slave_agent.drv [ahb_slave_driver] Beat AHB_WRITE addr=0x0000a254 resp=AHB_RESP_OKAY waits=0 wdata=0x3f3fda3b
# UVM_INFO ../src/mst/ahb_master_monitor.sv(128) @ 2815000: uvm_test_top.env.master_agent.mon [ahb_master_monitor] Beat[5] addr=0x0000a254 wdata=0x3f3fda3b resp=AHB_RESP_OKAY
# UVM_INFO ../src/mst/ahb_master_driver.sv(332) @ 2825000: uvm_test_top.env.master_agent.drv [ahb_master_driver] Beat[6/16] addr=0x0000a258 trans=AHB_TRANS_SEQ resp=AHB_RESP_OKAY wdata=0x25abaec5
# UVM_INFO ../src/slv/ahb_slave_driver.sv(184) @ 2825000: uvm_test_top.env.slave_agent.drv [ahb_slave_driver] Beat AHB_WRITE addr=0x0000a258 resp=AHB_RESP_OKAY waits=0 wdata=0x25abaec5
# UVM_INFO ../src/mst/ahb_master_monitor.sv(128) @ 2825000: uvm_test_top.env.master_agent.mon [ahb_master_monitor] Beat[6] addr=0x0000a258 wdata=0x25abaec5 resp=AHB_RESP_OKAY
# UVM_INFO ../src/mst/ahb_master_driver.sv(332) @ 2835000: uvm_test_top.env.master_agent.drv [ahb_master_driver] Beat[7/16] addr=0x0000a25c trans=AHB_TRANS_SEQ resp=AHB_RESP_OKAY wdata=0x9a7e8177
# UVM_INFO ../src/slv/ahb_slave_driver.sv(184) @ 2835000: uvm_test_top.env.slave_agent.drv [ahb_slave_driver] Beat AHB_WRITE addr=0x0000a25c resp=AHB_RESP_OKAY waits=0 wdata=0x9a7e8177
# UVM_INFO ../src/mst/ahb_master_monitor.sv(128) @ 2835000: uvm_test_top.env.master_agent.mon [ahb_master_monitor] Beat[7] addr=0x0000a25c wdata=0x9a7e8177 resp=AHB_RESP_OKAY
# UVM_INFO ../src/mst/ahb_master_driver.sv(332) @ 2845000: uvm_test_top.env.master_agent.drv [ahb_master_driver] Beat[8/16] addr=0x0000a260 trans=AHB_TRANS_SEQ resp=AHB_RESP_OKAY wdata=0xce5f4777
# UVM_INFO ../src/slv/ahb_slave_driver.sv(184) @ 2845000: uvm_test_top.env.slave_agent.drv [ahb_slave_driver] Beat AHB_WRITE addr=0x0000a260 resp=AHB_RESP_OKAY waits=0 wdata=0xce5f4777
# UVM_INFO ../src/mst/ahb_master_monitor.sv(128) @ 2845000: uvm_test_top.env.master_agent.mon [ahb_master_monitor] Beat[8] addr=0x0000a260 wdata=0xce5f4777 resp=AHB_RESP_OKAY
# UVM_INFO ../src/mst/ahb_master_driver.sv(332) @ 2855000: uvm_test_top.env.master_agent.drv [ahb_master_driver] Beat[9/16] addr=0x0000a264 trans=AHB_TRANS_SEQ resp=AHB_RESP_OKAY wdata=0x75437965
# UVM_INFO ../src/slv/ahb_slave_driver.sv(184) @ 2855000: uvm_test_top.env.slave_agent.drv [ahb_slave_driver] Beat AHB_WRITE addr=0x0000a264 resp=AHB_RESP_OKAY waits=0 wdata=0x75437965
# UVM_INFO ../src/mst/ahb_master_monitor.sv(128) @ 2855000: uvm_test_top.env.master_agent.mon [ahb_master_monitor] Beat[9] addr=0x0000a264 wdata=0x75437965 resp=AHB_RESP_OKAY
# UVM_INFO ../src/mst/ahb_master_driver.sv(332) @ 2875000: uvm_test_top.env.master_agent.drv [ahb_master_driver] Beat[10/16] addr=0x0000a268 trans=AHB_TRANS_SEQ resp=AHB_RESP_OKAY wdata=0xa6d070b5
# UVM_INFO ../src/slv/ahb_slave_driver.sv(184) @ 2875000: uvm_test_top.env.slave_agent.drv [ahb_slave_driver] Beat AHB_WRITE addr=0x0000a268 resp=AHB_RESP_OKAY waits=1 wdata=0xa6d070b5
# UVM_INFO ../src/mst/ahb_master_monitor.sv(128) @ 2875000: uvm_test_top.env.master_agent.mon [ahb_master_monitor] Beat[10] addr=0x0000a268 wdata=0xa6d070b5 resp=AHB_RESP_OKAY
# UVM_INFO ../src/mst/ahb_master_driver.sv(332) @ 2885000: uvm_test_top.env.master_agent.drv [ahb_master_driver] Beat[11/16] addr=0x0000a26c trans=AHB_TRANS_SEQ resp=AHB_RESP_OKAY wdata=0x5ce0ea36
# UVM_INFO ../src/slv/ahb_slave_driver.sv(184) @ 2885000: uvm_test_top.env.slave_agent.drv [ahb_slave_driver] Beat AHB_WRITE addr=0x0000a26c resp=AHB_RESP_OKAY waits=0 wdata=0x5ce0ea36
# UVM_INFO ../src/mst/ahb_master_monitor.sv(128) @ 2885000: uvm_test_top.env.master_agent.mon [ahb_master_monitor] Beat[11] addr=0x0000a26c wdata=0x5ce0ea36 resp=AHB_RESP_OKAY
# UVM_INFO ../src/mst/ahb_master_driver.sv(332) @ 2905000: uvm_test_top.env.master_agent.drv [ahb_master_driver] Beat[12/16] addr=0x0000a270 trans=AHB_TRANS_SEQ resp=AHB_RESP_OKAY wdata=0xd70b9cc7
# UVM_INFO ../src/slv/ahb_slave_driver.sv(184) @ 2905000: uvm_test_top.env.slave_agent.drv [ahb_slave_driver] Beat AHB_WRITE addr=0x0000a270 resp=AHB_RESP_OKAY waits=1 wdata=0xd70b9cc7
# UVM_INFO ../src/mst/ahb_master_monitor.sv(128) @ 2905000: uvm_test_top.env.master_agent.mon [ahb_master_monitor] Beat[12] addr=0x0000a270 wdata=0xd70b9cc7 resp=AHB_RESP_OKAY
# UVM_INFO ../src/mst/ahb_master_driver.sv(332) @ 2925000: uvm_test_top.env.master_agent.drv [ahb_master_driver] Beat[13/16] addr=0x0000a274 trans=AHB_TRANS_SEQ resp=AHB_RESP_OKAY wdata=0x52a83c09
# UVM_INFO ../src/slv/ahb_slave_driver.sv(184) @ 2925000: uvm_test_top.env.slave_agent.drv [ahb_slave_driver] Beat AHB_WRITE addr=0x0000a274 resp=AHB_RESP_OKAY waits=1 wdata=0x52a83c09
# UVM_INFO ../src/mst/ahb_master_monitor.sv(128) @ 2925000: uvm_test_top.env.master_agent.mon [ahb_master_monitor] Beat[13] addr=0x0000a274 wdata=0x52a83c09 resp=AHB_RESP_OKAY
# UVM_INFO ../src/mst/ahb_master_driver.sv(332) @ 2945000: uvm_test_top.env.master_agent.drv [ahb_master_driver] Beat[14/16] addr=0x0000a278 trans=AHB_TRANS_SEQ resp=AHB_RESP_OKAY wdata=0x72333934
# UVM_INFO ../src/slv/ahb_slave_driver.sv(184) @ 2945000: uvm_test_top.env.slave_agent.drv [ahb_slave_driver] Beat AHB_WRITE addr=0x0000a278 resp=AHB_RESP_OKAY waits=1 wdata=0x72333934
# UVM_INFO ../src/mst/ahb_master_monitor.sv(128) @ 2945000: uvm_test_top.env.master_agent.mon [ahb_master_monitor] Beat[14] addr=0x0000a278 wdata=0x72333934 resp=AHB_RESP_OKAY
# UVM_INFO ../src/mst/ahb_master_driver.sv(332) @ 2955000: uvm_test_top.env.master_agent.drv [ahb_master_driver] Beat[15/16] addr=0x0000a27c trans=AHB_TRANS_SEQ resp=AHB_RESP_OKAY wdata=0x4d0defcf
# UVM_INFO ../src/mst/ahb_master_driver.sv(376) @ 2955000: uvm_test_top.env.master_agent.drv [ahb_master_driver] Transaction complete: AHB_WRITE 0x0000a240, 16 beats, burst=AHB_BURST_INCR16
# UVM_INFO ../src/slv/ahb_slave_driver.sv(184) @ 2955000: uvm_test_top.env.slave_agent.drv [ahb_slave_driver] Beat AHB_WRITE addr=0x0000a27c resp=AHB_RESP_OKAY waits=0 wdata=0x4d0defcf
# UVM_INFO ../src/slv/ahb_slave_monitor.sv(212) @ 2955000: uvm_test_top.env.slave_agent.mon [ahb_slave_monitor] Observed [AHB_WRITE]: HADDR=0x0000a240, HBURST=AHB_BURST_INCR16, HSIZE=AHB_SIZE_32B, 16 beats
# UVM_INFO ../src/env/ahb_coverage.sv(174) @ 2955000: uvm_test_top.env.slave_cov [ahb_coverage] Sampled [AHB_WRITE]: burst=AHB_BURST_INCR16 size=AHB_SIZE_32B beats=16 error=0
# UVM_INFO ../src/mst/ahb_master_monitor.sv(128) @ 2955000: uvm_test_top.env.master_agent.mon [ahb_master_monitor] Beat[15] addr=0x0000a27c wdata=0x4d0defcf resp=AHB_RESP_OKAY
# UVM_INFO ../src/mst/ahb_master_monitor.sv(231) @ 2955000: uvm_test_top.env.master_agent.mon [ahb_master_monitor] Observed [AHB_WRITE]: HADDR=0x0000a240, HBURST=AHB_BURST_INCR16, HSIZE=AHB_SIZE_32B, 16 beats
# UVM_INFO ../src/env/ahb_coverage.sv(174) @ 2955000: uvm_test_top.env.master_cov [ahb_coverage] Sampled [AHB_WRITE]: burst=AHB_BURST_INCR16 size=AHB_SIZE_32B beats=16 error=0
# UVM_INFO ../src/env/ahb_scoreboard.sv(104) @ 2955000: uvm_test_top.env.scb [ahb_scoreboard] MATCH #7: [AHB_WRITE] HADDR=0x0000a240 AHB_BURST_INCR16 16 beats
# UVM_INFO ../src/mst/ahb_master_driver.sv(85) @ 2955000: uvm_test_top.env.master_agent.drv [ahb_master_driver] Queueing [AHB_WRITE]: HADDR=0x0000a280, HBURST=AHB_BURST_INCR16, HSIZE=AHB_SIZE_32B, 16 beats
# UVM_INFO ../src/mst/ahb_master_driver.sv(127) @ 2955000: uvm_test_top.env.master_agent.drv [ahb_master_driver] Driving [AHB_WRITE]: HADDR=0x0000a280, HBURST=AHB_BURST_INCR16, HSIZE=AHB_SIZE_32B, 16 beats               
# UVM_INFO ../src/mst/ahb_master_driver.sv(332) @ 3005000: uvm_test_top.env.master_agent.drv [ahb_master_driver] Beat[0/16] addr=0x0000a280 trans=AHB_TRANS_NONSEQ resp=AHB_RESP_OKAY wdata=0xdbf6a16a
# UVM_INFO ../src/slv/ahb_slave_driver.sv(184) @ 3005000: uvm_test_top.env.slave_agent.drv [ahb_slave_driver] Beat AHB_WRITE addr=0x0000a280 resp=AHB_RESP_OKAY waits=2 wdata=0xdbf6a16a
# UVM_INFO ../src/mst/ahb_master_monitor.sv(128) @ 3005000: uvm_test_top.env.master_agent.mon [ahb_master_monitor] Beat[0] addr=0x0000a280 wdata=0xdbf6a16a resp=AHB_RESP_OKAY
# UVM_INFO ../src/mst/ahb_master_driver.sv(332) @ 3015000: uvm_test_top.env.master_agent.drv [ahb_master_driver] Beat[1/16] addr=0x0000a284 trans=AHB_TRANS_SEQ resp=AHB_RESP_OKAY wdata=0x4158411e
# UVM_INFO ../src/slv/ahb_slave_driver.sv(184) @ 3015000: uvm_test_top.env.slave_agent.drv [ahb_slave_driver] Beat AHB_WRITE addr=0x0000a284 resp=AHB_RESP_OKAY waits=0 wdata=0x4158411e
# UVM_INFO ../src/mst/ahb_master_monitor.sv(128) @ 3015000: uvm_test_top.env.master_agent.mon [ahb_master_monitor] Beat[1] addr=0x0000a284 wdata=0x4158411e resp=AHB_RESP_OKAY
# UVM_INFO ../src/mst/ahb_master_driver.sv(332) @ 3025000: uvm_test_top.env.master_agent.drv [ahb_master_driver] Beat[2/16] addr=0x0000a288 trans=AHB_TRANS_SEQ resp=AHB_RESP_OKAY wdata=0x1f2e6e56
# UVM_INFO ../src/slv/ahb_slave_driver.sv(184) @ 3025000: uvm_test_top.env.slave_agent.drv [ahb_slave_driver] Beat AHB_WRITE addr=0x0000a288 resp=AHB_RESP_OKAY waits=0 wdata=0x1f2e6e56
# UVM_INFO ../src/mst/ahb_master_monitor.sv(128) @ 3025000: uvm_test_top.env.master_agent.mon [ahb_master_monitor] Beat[2] addr=0x0000a288 wdata=0x1f2e6e56 resp=AHB_RESP_OKAY
# UVM_INFO ../src/mst/ahb_master_driver.sv(332) @ 3045000: uvm_test_top.env.master_agent.drv [ahb_master_driver] Beat[3/16] addr=0x0000a28c trans=AHB_TRANS_SEQ resp=AHB_RESP_OKAY wdata=0x63e73c32
# UVM_INFO ../src/slv/ahb_slave_driver.sv(184) @ 3045000: uvm_test_top.env.slave_agent.drv [ahb_slave_driver] Beat AHB_WRITE addr=0x0000a28c resp=AHB_RESP_OKAY waits=1 wdata=0x63e73c32
# UVM_INFO ../src/mst/ahb_master_monitor.sv(128) @ 3045000: uvm_test_top.env.master_agent.mon [ahb_master_monitor] Beat[3] addr=0x0000a28c wdata=0x63e73c32 resp=AHB_RESP_OKAY
# UVM_INFO ../src/mst/ahb_master_driver.sv(332) @ 3075000: uvm_test_top.env.master_agent.drv [ahb_master_driver] Beat[4/16] addr=0x0000a290 trans=AHB_TRANS_SEQ resp=AHB_RESP_OKAY wdata=0xa3b80371
# UVM_INFO ../src/slv/ahb_slave_driver.sv(184) @ 3075000: uvm_test_top.env.slave_agent.drv [ahb_slave_driver] Beat AHB_WRITE addr=0x0000a290 resp=AHB_RESP_OKAY waits=2 wdata=0xa3b80371
# UVM_INFO ../src/mst/ahb_master_monitor.sv(128) @ 3075000: uvm_test_top.env.master_agent.mon [ahb_master_monitor] Beat[4] addr=0x0000a290 wdata=0xa3b80371 resp=AHB_RESP_OKAY
# UVM_INFO ../src/mst/ahb_master_driver.sv(332) @ 3105000: uvm_test_top.env.master_agent.drv [ahb_master_driver] Beat[5/16] addr=0x0000a294 trans=AHB_TRANS_SEQ resp=AHB_RESP_OKAY wdata=0x68b29b53
# UVM_INFO ../src/slv/ahb_slave_driver.sv(184) @ 3105000: uvm_test_top.env.slave_agent.drv [ahb_slave_driver] Beat AHB_WRITE addr=0x0000a294 resp=AHB_RESP_OKAY waits=2 wdata=0x68b29b53
# UVM_INFO ../src/mst/ahb_master_monitor.sv(128) @ 3105000: uvm_test_top.env.master_agent.mon [ahb_master_monitor] Beat[5] addr=0x0000a294 wdata=0x68b29b53 resp=AHB_RESP_OKAY
# UVM_INFO ../src/mst/ahb_master_driver.sv(332) @ 3115000: uvm_test_top.env.master_agent.drv [ahb_master_driver] Beat[6/16] addr=0x0000a298 trans=AHB_TRANS_SEQ resp=AHB_RESP_OKAY wdata=0x956eccc0
# UVM_INFO ../src/slv/ahb_slave_driver.sv(184) @ 3115000: uvm_test_top.env.slave_agent.drv [ahb_slave_driver] Beat AHB_WRITE addr=0x0000a298 resp=AHB_RESP_OKAY waits=0 wdata=0x956eccc0
# UVM_INFO ../src/mst/ahb_master_monitor.sv(128) @ 3115000: uvm_test_top.env.master_agent.mon [ahb_master_monitor] Beat[6] addr=0x0000a298 wdata=0x956eccc0 resp=AHB_RESP_OKAY
# UVM_INFO ../src/mst/ahb_master_driver.sv(332) @ 3125000: uvm_test_top.env.master_agent.drv [ahb_master_driver] Beat[7/16] addr=0x0000a29c trans=AHB_TRANS_SEQ resp=AHB_RESP_OKAY wdata=0x348a3bae
# UVM_INFO ../src/slv/ahb_slave_driver.sv(184) @ 3125000: uvm_test_top.env.slave_agent.drv [ahb_slave_driver] Beat AHB_WRITE addr=0x0000a29c resp=AHB_RESP_OKAY waits=0 wdata=0x348a3bae
# UVM_INFO ../src/mst/ahb_master_monitor.sv(128) @ 3125000: uvm_test_top.env.master_agent.mon [ahb_master_monitor] Beat[7] addr=0x0000a29c wdata=0x348a3bae resp=AHB_RESP_OKAY
# UVM_INFO ../src/mst/ahb_master_driver.sv(332) @ 3145000: uvm_test_top.env.master_agent.drv [ahb_master_driver] Beat[8/16] addr=0x0000a2a0 trans=AHB_TRANS_SEQ resp=AHB_RESP_OKAY wdata=0xef2e2250
# UVM_INFO ../src/slv/ahb_slave_driver.sv(184) @ 3145000: uvm_test_top.env.slave_agent.drv [ahb_slave_driver] Beat AHB_WRITE addr=0x0000a2a0 resp=AHB_RESP_OKAY waits=1 wdata=0xef2e2250
# UVM_INFO ../src/mst/ahb_master_monitor.sv(128) @ 3145000: uvm_test_top.env.master_agent.mon [ahb_master_monitor] Beat[8] addr=0x0000a2a0 wdata=0xef2e2250 resp=AHB_RESP_OKAY
# UVM_INFO ../src/mst/ahb_master_driver.sv(332) @ 3175000: uvm_test_top.env.master_agent.drv [ahb_master_driver] Beat[9/16] addr=0x0000a2a4 trans=AHB_TRANS_SEQ resp=AHB_RESP_OKAY wdata=0xeab57d97
