# vsim -c -coverage -sv_seed 97607688 "+UVM_TESTNAME=ahb_wait_state_test" "+UVM_VERBOSITY=UVM_HIGH" "+DUMP_VCD" -l ./report/logs/ahb_wait_state_test_run_1_seed_97607688.log -do "coverage save -onexit ./report/coverage/ahb_wait_state_test_run_1_seed_97607688.ucdb; run -all; quit -f" opt_tb_top 
# Start time: 11:01:31 on Aug 05,2026
# //  Questa Sim-64
# //  Version 10.6b linux_x86_64 May 25 2017
# //
# //  Copyright 1991-2017 Mentor Graphics Corporation
# //  All Rights Reserved.
# //
# //  QuestaSim and its associated documentation contain trade
# //  secrets and commercial or financial information that are the property of
# //  Mentor Graphics Corporation and are privileged, confidential,
# //  and exempt from disclosure under the Freedom of Information Act,
# //  5 U.S.C. Section 552. Furthermore, this information
# //  is prohibited from disclosure under the Trade Secrets Act,
# //  18 U.S.C. Section 1905.
# //
# Loading sv_std.std
# Loading work.ahb_if(fast)
# Loading mtiUvm.uvm_pkg
# Loading work.ahb_pkg(fast)
# Loading work.ahb_seq_pkg(fast)
# Loading work.ahb_test_pkg(fast)
# Loading work.tb_top(fast)
# Loading work.ahb_if(fast)
# Loading work.ahb_sva(fast)
# Loading mtiUvm.questa_uvm_pkg(fast)
# Loading /cadtools/mentor/Questa_10.6b/questasim/uvm-1.1d/linux_x86_64/uvm_dpi.so
# coverage save -onexit ./report/coverage/ahb_wait_state_test_run_1_seed_97607688.ucdb
#  run -all
# ----------------------------------------------------------------
# UVM-1.1d
# (C) 2007-2013 Mentor Graphics Corporation
# (C) 2007-2013 Cadence Design Systems, Inc.
# (C) 2006-2013 Synopsys, Inc.
# (C) 2011-2013 Cypress Semiconductor Corp.
# ----------------------------------------------------------------
# 
#   ***********       IMPORTANT RELEASE NOTES         ************
# 
#   You are using a version of the UVM library that has been compiled
#   with `UVM_NO_DEPRECATED undefined.
#   See http://www.eda.org/svdb/view.php?id=3313 for more details.
# 
#   You are using a version of the UVM library that has been compiled
#   with `UVM_OBJECT_MUST_HAVE_CONSTRUCTOR undefined.
#   See http://www.eda.org/svdb/view.php?id=3770 for more details.
# 
#       (Specify +UVM_NO_RELNOTES to turn off this notice)
# 
# UVM_INFO verilog_src/questa_uvm_pkg-1.2/src/questa_uvm_pkg.sv(215) @ 0: reporter [Questa UVM] QUESTA_UVM-1.2.3
# UVM_INFO verilog_src/questa_uvm_pkg-1.2/src/questa_uvm_pkg.sv(217) @ 0: reporter [Questa UVM]  questa_uvm::init(+struct)
# UVM_INFO ../src/tb_top.sv(126) @ 0: reporter [TB_TOP] Virtual interface set in config_db
# UVM_INFO @ 0: reporter [RNTST] Running test ahb_wait_state_test...
# UVM_INFO ../src/tb_top.sv(140) @ 0: reporter [TB_TOP] Waveform VCD dumping enabled (ahb_lite_vip.vcd)
# UVM_INFO ../src/env/ahb_vip_env.sv(64) @ 0: uvm_test_top.env [ahb_vip_env] slave_vif not set - reusing master_vif (passthrough mode)
# UVM_INFO ../src/env/ahb_vip_env.sv(72) @ 0: uvm_test_top.env [ahb_vip_env] Scoreboard created
# UVM_INFO ../src/env/ahb_vip_env.sv(78) @ 0: uvm_test_top.env [ahb_vip_env] Coverage collectors created
# UVM_INFO ../src/mst/ahb_master_agent.sv(61) @ 0: uvm_test_top.env.master_agent [ahb_master_agent] ACTIVE mode - driver + sequencer created
# UVM_INFO ../src/slv/ahb_slave_agent.sv(64) @ 0: uvm_test_top.env.slave_agent [ahb_slave_agent] ACTIVE mode - driver + sequencer created (    auto responses)
# UVM_INFO ../src/env/ahb_vip_env.sv(92) @ 0: uvm_test_top.env [ahb_vip_env] Scoreboard connected: master_mon.ap -> scb, slave_mon.ap -> scb
# UVM_INFO ../src/env/ahb_vip_env.sv(99) @ 0: uvm_test_top.env [ahb_vip_env] Coverage connected: master_mon.ap -> master_cov, slave_mon.ap -> slave_cov
# UVM_INFO @ 0: reporter [UVMTOP] UVM testbench topology:
# ---------------------------------------------------------------
# Name                       Type                     Size  Value
# ---------------------------------------------------------------
# uvm_test_top               ahb_wait_state_test      -     @475 
#   env                      ahb_vip_env              -     @490 
#     master_agent           ahb_master_agent         -     @505 
#       drv                  ahb_master_driver        -     @570 
#         rsp_port           uvm_analysis_port        -     @585 
#         seq_item_port      uvm_seq_item_pull_port   -     @577 
#       mon                  ahb_master_monitor       -     @563 
#         ap                 uvm_analysis_port        -     @704 
#       sqr                  ahb_master_sequencer     -     @593 
#         rsp_export         uvm_analysis_export      -     @600 
#         seq_item_export    uvm_seq_item_pull_imp    -     @694 
#         arbitration_queue  array                    0     -    
#         lock_queue         array                    0     -    
#         num_last_reqs      integral                 32    'd1  
#         num_last_rsps      integral                 32    'd1  
#     master_cov             ahb_coverage             -     @526 
#       analysis_imp         uvm_analysis_imp         -     @533 
#     scb                    ahb_scoreboard           -     @519 
#       master_export        uvm_analysis_imp_master  -     @718 
#       slave_export         uvm_analysis_imp_slave   -     @726 
#     slave_agent            ahb_slave_agent          -     @512 
#       drv                  ahb_slave_driver         -     @748 
#         rsp_port           uvm_analysis_port        -     @763 
#         seq_item_port      uvm_seq_item_pull_port   -     @755 
#       mon                  ahb_slave_monitor        -     @741 
#         ap                 uvm_analysis_port        -     @882 
#       sqr                  ahb_slave_sequencer      -     @771 
#         rsp_export         uvm_analysis_export      -     @778 
#         seq_item_export    uvm_seq_item_pull_imp    -     @872 
#         arbitration_queue  array                    0     -    
#         lock_queue         array                    0     -    
#         num_last_reqs      integral                 32    'd1  
#         num_last_rsps      integral                 32    'd1  
#     slave_cov              ahb_coverage             -     @541 
#       analysis_imp         uvm_analysis_imp         -     @548 
# ---------------------------------------------------------------
# 
# UVM_INFO verilog_src/questa_uvm_pkg-1.2/src/questa_uvm_pkg.sv(277) @ 0: reporter [Questa UVM] End Of Elaboration
# UVM_INFO ../src/mst_seq/ahb_wait_state_seq.sv(113) @ 0: uvm_test_top.env.master_agent.sqr@@seq [ahb_wait_state_seq] Starting wait-state sweep: 24 bursts from 0x0000d000, up to 16 wait states per beat
# UVM_INFO ../src/mst_seq/ahb_wait_state_seq.sv(166) @ 0: uvm_test_top.env.master_agent.sqr@@seq [ahb_wait_state_seq] AHB_BURST_INCR4 AHB_SIZE_8B @0x0000d006, 4 beats, waits=0:0, pipelined=0
# UVM_INFO ../src/mst/ahb_master_driver.sv(183) @ 5000: uvm_test_top.env.master_agent.drv [ahb_master_driver] Flushed pending transactions (reset)
# UVM_INFO ../src/tb_top.sv(48) @ 95000: reporter [TB_TOP] Reset de-asserted
# UVM_INFO ../src/slv/ahb_slave_driver.sv(63) @ 95000: uvm_test_top.env.slave_agent.drv [ahb_slave_driver] Reset deasserted - slave driver active (    auto mode)
# UVM_INFO ../src/mst/ahb_master_driver.sv(72) @ 95000: uvm_test_top.env.master_agent.drv [ahb_master_driver] Reset deasserted - master driver active
# UVM_INFO ../src/mst/ahb_master_monitor.sv(75) @ 95000: uvm_test_top.env.master_agent.mon [ahb_master_monitor] Reset deasserted - master monitor active
# UVM_INFO ../src/slv/ahb_slave_monitor.sv(69) @ 95000: uvm_test_top.env.slave_agent.mon [ahb_slave_monitor] Reset deasserted - slave monitor active
# UVM_INFO ../src/mst/ahb_master_driver.sv(85) @ 95000: uvm_test_top.env.master_agent.drv [ahb_master_driver] Queueing [AHB_WRITE]: HADDR=0x0000d006, HBURST=AHB_BURST_INCR4, HSIZE=AHB_SIZE_8B, 4 beats
# UVM_INFO ../src/mst/ahb_master_driver.sv(127) @ 95000: uvm_test_top.env.master_agent.drv [ahb_master_driver] Driving [AHB_WRITE]: HADDR=0x0000d006, HBURST=AHB_BURST_INCR4, HSIZE=AHB_SIZE_8B, 4 beats               
# UVM_INFO ../src/mst/ahb_master_driver.sv(332) @ 115000: uvm_test_top.env.master_agent.drv [ahb_master_driver] Beat[0/4] addr=0x0000d006 trans=AHB_TRANS_NONSEQ resp=AHB_RESP_OKAY wdata=0x573ef0df
# UVM_INFO ../src/slv/ahb_slave_driver.sv(184) @ 115000: uvm_test_top.env.slave_agent.drv [ahb_slave_driver] Beat AHB_WRITE addr=0x0000d006 resp=AHB_RESP_OKAY waits=0 wdata=0x573ef0df
# UVM_INFO ../src/mst/ahb_master_monitor.sv(117) @ 115000: uvm_test_top.env.master_agent.mon [ahb_master_monitor] Beat[0] addr=0x0000d006 wdata=0x573ef0df resp=AHB_RESP_OKAY
# UVM_INFO ../src/mst/ahb_master_driver.sv(332) @ 125000: uvm_test_top.env.master_agent.drv [ahb_master_driver] Beat[1/4] addr=0x0000d007 trans=AHB_TRANS_SEQ resp=AHB_RESP_OKAY wdata=0xfd77e388
# UVM_INFO ../src/slv/ahb_slave_driver.sv(184) @ 125000: uvm_test_top.env.slave_agent.drv [ahb_slave_driver] Beat AHB_WRITE addr=0x0000d007 resp=AHB_RESP_OKAY waits=0 wdata=0xfd77e388
# UVM_INFO ../src/mst/ahb_master_monitor.sv(117) @ 125000: uvm_test_top.env.master_agent.mon [ahb_master_monitor] Beat[1] addr=0x0000d007 wdata=0xfd77e388 resp=AHB_RESP_OKAY
# UVM_INFO ../src/mst/ahb_master_driver.sv(332) @ 135000: uvm_test_top.env.master_agent.drv [ahb_master_driver] Beat[2/4] addr=0x0000d008 trans=AHB_TRANS_SEQ resp=AHB_RESP_OKAY wdata=0x0bdf36b1
# UVM_INFO ../src/slv/ahb_slave_driver.sv(184) @ 135000: uvm_test_top.env.slave_agent.drv [ahb_slave_driver] Beat AHB_WRITE addr=0x0000d008 resp=AHB_RESP_OKAY waits=0 wdata=0x0bdf36b1
# UVM_INFO ../src/mst/ahb_master_monitor.sv(117) @ 135000: uvm_test_top.env.master_agent.mon [ahb_master_monitor] Beat[2] addr=0x0000d008 wdata=0x0bdf36b1 resp=AHB_RESP_OKAY
# UVM_INFO ../src/mst/ahb_master_driver.sv(332) @ 145000: uvm_test_top.env.master_agent.drv [ahb_master_driver] Beat[3/4] addr=0x0000d009 trans=AHB_TRANS_SEQ resp=AHB_RESP_OKAY wdata=0x34af3315
# UVM_INFO ../src/mst/ahb_master_driver.sv(376) @ 145000: uvm_test_top.env.master_agent.drv [ahb_master_driver] Transaction complete: AHB_WRITE 0x0000d006, 4 beats, burst=AHB_BURST_INCR4
# UVM_INFO ../src/slv/ahb_slave_driver.sv(184) @ 145000: uvm_test_top.env.slave_agent.drv [ahb_slave_driver] Beat AHB_WRITE addr=0x0000d009 resp=AHB_RESP_OKAY waits=0 wdata=0x34af3315
# UVM_INFO ../src/mst/ahb_master_monitor.sv(117) @ 145000: uvm_test_top.env.master_agent.mon [ahb_master_monitor] Beat[3] addr=0x0000d009 wdata=0x34af3315 resp=AHB_RESP_OKAY
# UVM_INFO ../src/mst/ahb_master_monitor.sv(220) @ 145000: uvm_test_top.env.master_agent.mon [ahb_master_monitor] Observed [AHB_WRITE]: HADDR=0x0000d006, HBURST=AHB_BURST_INCR4, HSIZE=AHB_SIZE_8B, 4 beats
# UVM_INFO ../src/env/ahb_coverage.sv(126) @ 145000: uvm_test_top.env.master_cov [ahb_coverage] Sampled [AHB_WRITE]: burst=AHB_BURST_INCR4 size=AHB_SIZE_8B beats=4 error=0
# UVM_INFO ../src/slv/ahb_slave_monitor.sv(197) @ 145000: uvm_test_top.env.slave_agent.mon [ahb_slave_monitor] Observed [AHB_WRITE]: HADDR=0x0000d006, HBURST=AHB_BURST_INCR4, HSIZE=AHB_SIZE_8B, 4 beats
# UVM_INFO ../src/env/ahb_scoreboard.sv(104) @ 145000: uvm_test_top.env.scb [ahb_scoreboard] MATCH #1: [AHB_WRITE] HADDR=0x0000d006 AHB_BURST_INCR4 4 beats
# UVM_INFO ../src/env/ahb_coverage.sv(126) @ 145000: uvm_test_top.env.slave_cov [ahb_coverage] Sampled [AHB_WRITE]: burst=AHB_BURST_INCR4 size=AHB_SIZE_8B beats=4 error=0
# UVM_INFO ../src/mst/ahb_master_driver.sv(85) @ 145000: uvm_test_top.env.master_agent.drv [ahb_master_driver] Queueing [AHB_READ]: HADDR=0x0000d006, HBURST=AHB_BURST_INCR4, HSIZE=AHB_SIZE_8B, 4 beats
# UVM_INFO ../src/mst/ahb_master_driver.sv(127) @ 145000: uvm_test_top.env.master_agent.drv [ahb_master_driver] Driving [AHB_READ]: HADDR=0x0000d006, HBURST=AHB_BURST_INCR4, HSIZE=AHB_SIZE_8B, 4 beats               
# UVM_INFO ../src/mst/ahb_master_driver.sv(332) @ 175000: uvm_test_top.env.master_agent.drv [ahb_master_driver] Beat[0/4] addr=0x0000d006 trans=AHB_TRANS_NONSEQ resp=AHB_RESP_OKAY rdata=0x573ef0df
# UVM_INFO ../src/slv/ahb_slave_driver.sv(184) @ 175000: uvm_test_top.env.slave_agent.drv [ahb_slave_driver] Beat AHB_READ addr=0x0000d006 resp=AHB_RESP_OKAY waits=0 rdata=0x573ef0df
# UVM_INFO ../src/mst/ahb_master_monitor.sv(117) @ 175000: uvm_test_top.env.master_agent.mon [ahb_master_monitor] Beat[0] addr=0x0000d006 rdata=0x573ef0df resp=AHB_RESP_OKAY
# UVM_INFO ../src/mst/ahb_master_driver.sv(332) @ 185000: uvm_test_top.env.master_agent.drv [ahb_master_driver] Beat[1/4] addr=0x0000d007 trans=AHB_TRANS_SEQ resp=AHB_RESP_OKAY rdata=0xfd77e388
# UVM_INFO ../src/slv/ahb_slave_driver.sv(184) @ 185000: uvm_test_top.env.slave_agent.drv [ahb_slave_driver] Beat AHB_READ addr=0x0000d007 resp=AHB_RESP_OKAY waits=0 rdata=0xfd77e388
# UVM_INFO ../src/mst/ahb_master_monitor.sv(117) @ 185000: uvm_test_top.env.master_agent.mon [ahb_master_monitor] Beat[1] addr=0x0000d007 rdata=0xfd77e388 resp=AHB_RESP_OKAY
# UVM_INFO ../src/mst/ahb_master_driver.sv(332) @ 195000: uvm_test_top.env.master_agent.drv [ahb_master_driver] Beat[2/4] addr=0x0000d008 trans=AHB_TRANS_SEQ resp=AHB_RESP_OKAY rdata=0x0bdf36b1
# UVM_INFO ../src/slv/ahb_slave_driver.sv(184) @ 195000: uvm_test_top.env.slave_agent.drv [ahb_slave_driver] Beat AHB_READ addr=0x0000d008 resp=AHB_RESP_OKAY waits=0 rdata=0x0bdf36b1
# UVM_INFO ../src/mst/ahb_master_monitor.sv(117) @ 195000: uvm_test_top.env.master_agent.mon [ahb_master_monitor] Beat[2] addr=0x0000d008 rdata=0x0bdf36b1 resp=AHB_RESP_OKAY
# UVM_INFO ../src/mst/ahb_master_driver.sv(332) @ 205000: uvm_test_top.env.master_agent.drv [ahb_master_driver] Beat[3/4] addr=0x0000d009 trans=AHB_TRANS_SEQ resp=AHB_RESP_OKAY rdata=0x34af3315
# UVM_INFO ../src/mst/ahb_master_driver.sv(376) @ 205000: uvm_test_top.env.master_agent.drv [ahb_master_driver] Transaction complete: AHB_READ 0x0000d006, 4 beats, burst=AHB_BURST_INCR4
# UVM_INFO ../src/slv/ahb_slave_driver.sv(184) @ 205000: uvm_test_top.env.slave_agent.drv [ahb_slave_driver] Beat AHB_READ addr=0x0000d009 resp=AHB_RESP_OKAY waits=0 rdata=0x34af3315
# UVM_INFO ../src/mst/ahb_master_monitor.sv(117) @ 205000: uvm_test_top.env.master_agent.mon [ahb_master_monitor] Beat[3] addr=0x0000d009 rdata=0x34af3315 resp=AHB_RESP_OKAY
# UVM_INFO ../src/mst/ahb_master_monitor.sv(220) @ 205000: uvm_test_top.env.master_agent.mon [ahb_master_monitor] Observed [AHB_READ]: HADDR=0x0000d006, HBURST=AHB_BURST_INCR4, HSIZE=AHB_SIZE_8B, 4 beats
# UVM_INFO ../src/env/ahb_coverage.sv(126) @ 205000: uvm_test_top.env.master_cov [ahb_coverage] Sampled [AHB_READ]: burst=AHB_BURST_INCR4 size=AHB_SIZE_8B beats=4 error=0
# UVM_INFO ../src/slv/ahb_slave_monitor.sv(197) @ 205000: uvm_test_top.env.slave_agent.mon [ahb_slave_monitor] Observed [AHB_READ]: HADDR=0x0000d006, HBURST=AHB_BURST_INCR4, HSIZE=AHB_SIZE_8B, 4 beats
# UVM_INFO ../src/env/ahb_scoreboard.sv(104) @ 205000: uvm_test_top.env.scb [ahb_scoreboard] MATCH #2: [AHB_READ] HADDR=0x0000d006 AHB_BURST_INCR4 4 beats
# UVM_INFO ../src/env/ahb_coverage.sv(126) @ 205000: uvm_test_top.env.slave_cov [ahb_coverage] Sampled [AHB_READ]: burst=AHB_BURST_INCR4 size=AHB_SIZE_8B beats=4 error=0
# UVM_INFO ../src/mst_seq/ahb_base_seq.sv(157) @ 205000: uvm_test_top.env.master_agent.sqr@@seq [ahb_wait_state_seq] AHB_BURST_INCR4 AHB_SIZE_8B beat 0 @0x0000d006 ok
# UVM_INFO ../src/mst_seq/ahb_base_seq.sv(157) @ 205000: uvm_test_top.env.master_agent.sqr@@seq [ahb_wait_state_seq] AHB_BURST_INCR4 AHB_SIZE_8B beat 1 @0x0000d007 ok
# UVM_INFO ../src/mst_seq/ahb_base_seq.sv(157) @ 205000: uvm_test_top.env.master_agent.sqr@@seq [ahb_wait_state_seq] AHB_BURST_INCR4 AHB_SIZE_8B beat 2 @0x0000d008 ok
# UVM_INFO ../src/mst_seq/ahb_base_seq.sv(157) @ 205000: uvm_test_top.env.master_agent.sqr@@seq [ahb_wait_state_seq] AHB_BURST_INCR4 AHB_SIZE_8B beat 3 @0x0000d009 ok
# UVM_INFO ../src/mst_seq/ahb_wait_state_seq.sv(166) @ 205000: uvm_test_top.env.master_agent.sqr@@seq [ahb_wait_state_seq] AHB_BURST_INCR4 AHB_SIZE_32B @0x0000d05c, 4 beats, waits=1:1, pipelined=1
# UVM_INFO ../src/mst/ahb_master_driver.sv(85) @ 205000: uvm_test_top.env.master_agent.drv [ahb_master_driver] Queueing [AHB_WRITE]: HADDR=0x0000d05c, HBURST=AHB_BURST_INCR4, HSIZE=AHB_SIZE_32B, 4 beats
# UVM_INFO ../src/mst/ahb_master_driver.sv(127) @ 205000: uvm_test_top.env.master_agent.drv [ahb_master_driver] Driving [AHB_WRITE]: HADDR=0x0000d05c, HBURST=AHB_BURST_INCR4, HSIZE=AHB_SIZE_32B, 4 beats               
# UVM_INFO ../src/mst/ahb_master_driver.sv(85) @ 205000: uvm_test_top.env.master_agent.drv [ahb_master_driver] Queueing [AHB_READ]: HADDR=0x0000d05c, HBURST=AHB_BURST_INCR4, HSIZE=AHB_SIZE_32B, 4 beats
# UVM_INFO ../src/mst/ahb_master_driver.sv(332) @ 245000: uvm_test_top.env.master_agent.drv [ahb_master_driver] Beat[0/4] addr=0x0000d05c trans=AHB_TRANS_NONSEQ resp=AHB_RESP_OKAY wdata=0x8f3f3da1
# UVM_INFO ../src/slv/ahb_slave_driver.sv(184) @ 245000: uvm_test_top.env.slave_agent.drv [ahb_slave_driver] Beat AHB_WRITE addr=0x0000d05c resp=AHB_RESP_OKAY waits=1 wdata=0x8f3f3da1
# UVM_INFO ../src/mst/ahb_master_monitor.sv(117) @ 245000: uvm_test_top.env.master_agent.mon [ahb_master_monitor] Beat[0] addr=0x0000d05c wdata=0x8f3f3da1 resp=AHB_RESP_OKAY
# UVM_INFO ../src/mst/ahb_master_driver.sv(332) @ 265000: uvm_test_top.env.master_agent.drv [ahb_master_driver] Beat[1/4] addr=0x0000d060 trans=AHB_TRANS_SEQ resp=AHB_RESP_OKAY wdata=0x516f6057
# UVM_INFO ../src/slv/ahb_slave_driver.sv(184) @ 265000: uvm_test_top.env.slave_agent.drv [ahb_slave_driver] Beat AHB_WRITE addr=0x0000d060 resp=AHB_RESP_OKAY waits=1 wdata=0x516f6057
# UVM_INFO ../src/mst/ahb_master_monitor.sv(117) @ 265000: uvm_test_top.env.master_agent.mon [ahb_master_monitor] Beat[1] addr=0x0000d060 wdata=0x516f6057 resp=AHB_RESP_OKAY
# UVM_INFO ../src/mst/ahb_master_driver.sv(332) @ 285000: uvm_test_top.env.master_agent.drv [ahb_master_driver] Beat[2/4] addr=0x0000d064 trans=AHB_TRANS_SEQ resp=AHB_RESP_OKAY wdata=0x4cc25c5a
# UVM_INFO ../src/slv/ahb_slave_driver.sv(184) @ 285000: uvm_test_top.env.slave_agent.drv [ahb_slave_driver] Beat AHB_WRITE addr=0x0000d064 resp=AHB_RESP_OKAY waits=1 wdata=0x4cc25c5a
# UVM_INFO ../src/mst/ahb_master_monitor.sv(117) @ 285000: uvm_test_top.env.master_agent.mon [ahb_master_monitor] Beat[2] addr=0x0000d064 wdata=0x4cc25c5a resp=AHB_RESP_OKAY
# UVM_INFO ../src/mst/ahb_master_driver.sv(332) @ 305000: uvm_test_top.env.master_agent.drv [ahb_master_driver] Beat[3/4] addr=0x0000d068 trans=AHB_TRANS_SEQ resp=AHB_RESP_OKAY wdata=0x85464d10
# UVM_INFO ../src/mst/ahb_master_driver.sv(376) @ 305000: uvm_test_top.env.master_agent.drv [ahb_master_driver] Transaction complete: AHB_WRITE 0x0000d05c, 4 beats, burst=AHB_BURST_INCR4
# UVM_INFO ../src/mst/ahb_master_driver.sv(127) @ 305000: uvm_test_top.env.master_agent.drv [ahb_master_driver] Driving [AHB_READ]: HADDR=0x0000d05c, HBURST=AHB_BURST_INCR4, HSIZE=AHB_SIZE_32B, 4 beats (back-to-back)
# UVM_INFO ../src/slv/ahb_slave_driver.sv(184) @ 305000: uvm_test_top.env.slave_agent.drv [ahb_slave_driver] Beat AHB_WRITE addr=0x0000d068 resp=AHB_RESP_OKAY waits=1 wdata=0x85464d10
# UVM_INFO ../src/mst/ahb_master_monitor.sv(117) @ 305000: uvm_test_top.env.master_agent.mon [ahb_master_monitor] Beat[3] addr=0x0000d068 wdata=0x85464d10 resp=AHB_RESP_OKAY
# UVM_INFO ../src/mst/ahb_master_monitor.sv(220) @ 305000: uvm_test_top.env.master_agent.mon [ahb_master_monitor] Observed [AHB_WRITE]: HADDR=0x0000d05c, HBURST=AHB_BURST_INCR4, HSIZE=AHB_SIZE_32B, 4 beats
# UVM_INFO ../src/env/ahb_coverage.sv(126) @ 305000: uvm_test_top.env.master_cov [ahb_coverage] Sampled [AHB_WRITE]: burst=AHB_BURST_INCR4 size=AHB_SIZE_32B beats=4 error=0
# UVM_INFO ../src/slv/ahb_slave_monitor.sv(197) @ 305000: uvm_test_top.env.slave_agent.mon [ahb_slave_monitor] Observed [AHB_WRITE]: HADDR=0x0000d05c, HBURST=AHB_BURST_INCR4, HSIZE=AHB_SIZE_32B, 4 beats
# UVM_INFO ../src/env/ahb_scoreboard.sv(104) @ 305000: uvm_test_top.env.scb [ahb_scoreboard] MATCH #3: [AHB_WRITE] HADDR=0x0000d05c AHB_BURST_INCR4 4 beats
# UVM_INFO ../src/env/ahb_coverage.sv(126) @ 305000: uvm_test_top.env.slave_cov [ahb_coverage] Sampled [AHB_WRITE]: burst=AHB_BURST_INCR4 size=AHB_SIZE_32B beats=4 error=0
# UVM_INFO ../src/mst/ahb_master_driver.sv(332) @ 325000: uvm_test_top.env.master_agent.drv [ahb_master_driver] Beat[0/4] addr=0x0000d05c trans=AHB_TRANS_NONSEQ resp=AHB_RESP_OKAY rdata=0x8f3f3da1
# UVM_INFO ../src/slv/ahb_slave_driver.sv(184) @ 325000: uvm_test_top.env.slave_agent.drv [ahb_slave_driver] Beat AHB_READ addr=0x0000d05c resp=AHB_RESP_OKAY waits=1 rdata=0x8f3f3da1
# UVM_INFO ../src/mst/ahb_master_monitor.sv(117) @ 325000: uvm_test_top.env.master_agent.mon [ahb_master_monitor] Beat[0] addr=0x0000d05c rdata=0x8f3f3da1 resp=AHB_RESP_OKAY
# UVM_INFO ../src/mst/ahb_master_driver.sv(332) @ 345000: uvm_test_top.env.master_agent.drv [ahb_master_driver] Beat[1/4] addr=0x0000d060 trans=AHB_TRANS_SEQ resp=AHB_RESP_OKAY rdata=0x516f6057
# UVM_INFO ../src/slv/ahb_slave_driver.sv(184) @ 345000: uvm_test_top.env.slave_agent.drv [ahb_slave_driver] Beat AHB_READ addr=0x0000d060 resp=AHB_RESP_OKAY waits=1 rdata=0x516f6057
# UVM_INFO ../src/mst/ahb_master_monitor.sv(117) @ 345000: uvm_test_top.env.master_agent.mon [ahb_master_monitor] Beat[1] addr=0x0000d060 rdata=0x516f6057 resp=AHB_RESP_OKAY
# UVM_INFO ../src/mst/ahb_master_driver.sv(332) @ 365000: uvm_test_top.env.master_agent.drv [ahb_master_driver] Beat[2/4] addr=0x0000d064 trans=AHB_TRANS_SEQ resp=AHB_RESP_OKAY rdata=0x4cc25c5a
# UVM_INFO ../src/slv/ahb_slave_driver.sv(184) @ 365000: uvm_test_top.env.slave_agent.drv [ahb_slave_driver] Beat AHB_READ addr=0x0000d064 resp=AHB_RESP_OKAY waits=1 rdata=0x4cc25c5a
# UVM_INFO ../src/mst/ahb_master_monitor.sv(117) @ 365000: uvm_test_top.env.master_agent.mon [ahb_master_monitor] Beat[2] addr=0x0000d064 rdata=0x4cc25c5a resp=AHB_RESP_OKAY
# UVM_INFO ../src/mst/ahb_master_driver.sv(332) @ 385000: uvm_test_top.env.master_agent.drv [ahb_master_driver] Beat[3/4] addr=0x0000d068 trans=AHB_TRANS_SEQ resp=AHB_RESP_OKAY rdata=0x85464d10
# UVM_INFO ../src/mst/ahb_master_driver.sv(376) @ 385000: uvm_test_top.env.master_agent.drv [ahb_master_driver] Transaction complete: AHB_READ 0x0000d05c, 4 beats, burst=AHB_BURST_INCR4
# UVM_INFO ../src/slv/ahb_slave_driver.sv(184) @ 385000: uvm_test_top.env.slave_agent.drv [ahb_slave_driver] Beat AHB_READ addr=0x0000d068 resp=AHB_RESP_OKAY waits=1 rdata=0x85464d10
# UVM_INFO ../src/mst/ahb_master_monitor.sv(117) @ 385000: uvm_test_top.env.master_agent.mon [ahb_master_monitor] Beat[3] addr=0x0000d068 rdata=0x85464d10 resp=AHB_RESP_OKAY
# UVM_INFO ../src/mst/ahb_master_monitor.sv(220) @ 385000: uvm_test_top.env.master_agent.mon [ahb_master_monitor] Observed [AHB_READ]: HADDR=0x0000d05c, HBURST=AHB_BURST_INCR4, HSIZE=AHB_SIZE_32B, 4 beats
# UVM_INFO ../src/env/ahb_coverage.sv(126) @ 385000: uvm_test_top.env.master_cov [ahb_coverage] Sampled [AHB_READ]: burst=AHB_BURST_INCR4 size=AHB_SIZE_32B beats=4 error=0
# UVM_INFO ../src/slv/ahb_slave_monitor.sv(197) @ 385000: uvm_test_top.env.slave_agent.mon [ahb_slave_monitor] Observed [AHB_READ]: HADDR=0x0000d05c, HBURST=AHB_BURST_INCR4, HSIZE=AHB_SIZE_32B, 4 beats
# UVM_INFO ../src/env/ahb_scoreboard.sv(104) @ 385000: uvm_test_top.env.scb [ahb_scoreboard] MATCH #4: [AHB_READ] HADDR=0x0000d05c AHB_BURST_INCR4 4 beats
# UVM_INFO ../src/env/ahb_coverage.sv(126) @ 385000: uvm_test_top.env.slave_cov [ahb_coverage] Sampled [AHB_READ]: burst=AHB_BURST_INCR4 size=AHB_SIZE_32B beats=4 error=0
# UVM_INFO ../src/mst_seq/ahb_base_seq.sv(157) @ 385000: uvm_test_top.env.master_agent.sqr@@seq [ahb_wait_state_seq] AHB_BURST_INCR4 AHB_SIZE_32B beat 0 @0x0000d05c ok
# UVM_INFO ../src/mst_seq/ahb_base_seq.sv(157) @ 385000: uvm_test_top.env.master_agent.sqr@@seq [ahb_wait_state_seq] AHB_BURST_INCR4 AHB_SIZE_32B beat 1 @0x0000d060 ok
# UVM_INFO ../src/mst_seq/ahb_base_seq.sv(157) @ 385000: uvm_test_top.env.master_agent.sqr@@seq [ahb_wait_state_seq] AHB_BURST_INCR4 AHB_SIZE_32B beat 2 @0x0000d064 ok
# UVM_INFO ../src/mst_seq/ahb_base_seq.sv(157) @ 385000: uvm_test_top.env.master_agent.sqr@@seq [ahb_wait_state_seq] AHB_BURST_INCR4 AHB_SIZE_32B beat 3 @0x0000d068 ok
# UVM_INFO ../src/mst_seq/ahb_wait_state_seq.sv(166) @ 385000: uvm_test_top.env.master_agent.sqr@@seq [ahb_wait_state_seq] AHB_BURST_SINGLE AHB_SIZE_16B @0x0000d09a, 1 beats, waits=2:2, pipelined=0
# UVM_INFO ../src/mst/ahb_master_driver.sv(85) @ 385000: uvm_test_top.env.master_agent.drv [ahb_master_driver] Queueing [AHB_WRITE]: HADDR=0x0000d09a, HBURST=AHB_BURST_SINGLE, HSIZE=AHB_SIZE_16B, 1 beats
# UVM_INFO ../src/mst/ahb_master_driver.sv(127) @ 385000: uvm_test_top.env.master_agent.drv [ahb_master_driver] Driving [AHB_WRITE]: HADDR=0x0000d09a, HBURST=AHB_BURST_SINGLE, HSIZE=AHB_SIZE_16B, 1 beats               
# UVM_INFO ../src/mst/ahb_master_driver.sv(332) @ 435000: uvm_test_top.env.master_agent.drv [ahb_master_driver] Beat[0/1] addr=0x0000d09a trans=AHB_TRANS_NONSEQ resp=AHB_RESP_OKAY wdata=0x780eb337
# UVM_INFO ../src/mst/ahb_master_driver.sv(376) @ 435000: uvm_test_top.env.master_agent.drv [ahb_master_driver] Transaction complete: AHB_WRITE 0x0000d09a, 1 beats, burst=AHB_BURST_SINGLE
# UVM_INFO ../src/slv/ahb_slave_driver.sv(184) @ 435000: uvm_test_top.env.slave_agent.drv [ahb_slave_driver] Beat AHB_WRITE addr=0x0000d09a resp=AHB_RESP_OKAY waits=2 wdata=0x780eb337
# UVM_INFO ../src/slv/ahb_slave_monitor.sv(197) @ 435000: uvm_test_top.env.slave_agent.mon [ahb_slave_monitor] Observed [AHB_WRITE]: HADDR=0x0000d09a, HBURST=AHB_BURST_SINGLE, HSIZE=AHB_SIZE_16B, 1 beats
# UVM_INFO ../src/env/ahb_coverage.sv(126) @ 435000: uvm_test_top.env.slave_cov [ahb_coverage] Sampled [AHB_WRITE]: burst=AHB_BURST_SINGLE size=AHB_SIZE_16B beats=1 error=0
# UVM_INFO ../src/mst/ahb_master_monitor.sv(117) @ 435000: uvm_test_top.env.master_agent.mon [ahb_master_monitor] Beat[0] addr=0x0000d09a wdata=0x780eb337 resp=AHB_RESP_OKAY
# UVM_INFO ../src/mst/ahb_master_monitor.sv(220) @ 435000: uvm_test_top.env.master_agent.mon [ahb_master_monitor] Observed [AHB_WRITE]: HADDR=0x0000d09a, HBURST=AHB_BURST_SINGLE, HSIZE=AHB_SIZE_16B, 1 beats
# UVM_INFO ../src/env/ahb_coverage.sv(126) @ 435000: uvm_test_top.env.master_cov [ahb_coverage] Sampled [AHB_WRITE]: burst=AHB_BURST_SINGLE size=AHB_SIZE_16B beats=1 error=0
# UVM_INFO ../src/env/ahb_scoreboard.sv(104) @ 435000: uvm_test_top.env.scb [ahb_scoreboard] MATCH #5: [AHB_WRITE] HADDR=0x0000d09a AHB_BURST_SINGLE 1 beats
# UVM_INFO ../src/mst/ahb_master_driver.sv(85) @ 435000: uvm_test_top.env.master_agent.drv [ahb_master_driver] Queueing [AHB_READ]: HADDR=0x0000d09a, HBURST=AHB_BURST_SINGLE, HSIZE=AHB_SIZE_16B, 1 beats
# UVM_INFO ../src/mst/ahb_master_driver.sv(127) @ 435000: uvm_test_top.env.master_agent.drv [ahb_master_driver] Driving [AHB_READ]: HADDR=0x0000d09a, HBURST=AHB_BURST_SINGLE, HSIZE=AHB_SIZE_16B, 1 beats               
# UVM_INFO ../src/mst/ahb_master_driver.sv(332) @ 485000: uvm_test_top.env.master_agent.drv [ahb_master_driver] Beat[0/1] addr=0x0000d09a trans=AHB_TRANS_NONSEQ resp=AHB_RESP_OKAY rdata=0x780eb337
# UVM_INFO ../src/mst/ahb_master_driver.sv(376) @ 485000: uvm_test_top.env.master_agent.drv [ahb_master_driver] Transaction complete: AHB_READ 0x0000d09a, 1 beats, burst=AHB_BURST_SINGLE
# UVM_INFO ../src/slv/ahb_slave_driver.sv(184) @ 485000: uvm_test_top.env.slave_agent.drv [ahb_slave_driver] Beat AHB_READ addr=0x0000d09a resp=AHB_RESP_OKAY waits=2 rdata=0x780eb337
# UVM_INFO ../src/mst/ahb_master_monitor.sv(117) @ 485000: uvm_test_top.env.master_agent.mon [ahb_master_monitor] Beat[0] addr=0x0000d09a rdata=0x780eb337 resp=AHB_RESP_OKAY
# UVM_INFO ../src/mst/ahb_master_monitor.sv(220) @ 485000: uvm_test_top.env.master_agent.mon [ahb_master_monitor] Observed [AHB_READ]: HADDR=0x0000d09a, HBURST=AHB_BURST_SINGLE, HSIZE=AHB_SIZE_16B, 1 beats
# UVM_INFO ../src/env/ahb_coverage.sv(126) @ 485000: uvm_test_top.env.master_cov [ahb_coverage] Sampled [AHB_READ]: burst=AHB_BURST_SINGLE size=AHB_SIZE_16B beats=1 error=0
# UVM_INFO ../src/slv/ahb_slave_monitor.sv(197) @ 485000: uvm_test_top.env.slave_agent.mon [ahb_slave_monitor] Observed [AHB_READ]: HADDR=0x0000d09a, HBURST=AHB_BURST_SINGLE, HSIZE=AHB_SIZE_16B, 1 beats
# UVM_INFO ../src/env/ahb_scoreboard.sv(104) @ 485000: uvm_test_top.env.scb [ahb_scoreboard] MATCH #6: [AHB_READ] HADDR=0x0000d09a AHB_BURST_SINGLE 1 beats
# UVM_INFO ../src/env/ahb_coverage.sv(126) @ 485000: uvm_test_top.env.slave_cov [ahb_coverage] Sampled [AHB_READ]: burst=AHB_BURST_SINGLE size=AHB_SIZE_16B beats=1 error=0
# UVM_INFO ../src/mst_seq/ahb_base_seq.sv(157) @ 485000: uvm_test_top.env.master_agent.sqr@@seq [ahb_wait_state_seq] AHB_BURST_SINGLE AHB_SIZE_16B beat 0 @0x0000d09a ok
# UVM_INFO ../src/mst_seq/ahb_wait_state_seq.sv(166) @ 485000: uvm_test_top.env.master_agent.sqr@@seq [ahb_wait_state_seq] AHB_BURST_SINGLE AHB_SIZE_32B @0x0000d0e8, 1 beats, waits=3:3, pipelined=1
# UVM_INFO ../src/mst/ahb_master_driver.sv(85) @ 485000: uvm_test_top.env.master_agent.drv [ahb_master_driver] Queueing [AHB_WRITE]: HADDR=0x0000d0e8, HBURST=AHB_BURST_SINGLE, HSIZE=AHB_SIZE_32B, 1 beats
# UVM_INFO ../src/mst/ahb_master_driver.sv(127) @ 485000: uvm_test_top.env.master_agent.drv [ahb_master_driver] Driving [AHB_WRITE]: HADDR=0x0000d0e8, HBURST=AHB_BURST_SINGLE, HSIZE=AHB_SIZE_32B, 1 beats               
# UVM_INFO ../src/mst/ahb_master_driver.sv(85) @ 485000: uvm_test_top.env.master_agent.drv [ahb_master_driver] Queueing [AHB_READ]: HADDR=0x0000d0e8, HBURST=AHB_BURST_SINGLE, HSIZE=AHB_SIZE_32B, 1 beats
# UVM_INFO ../src/mst/ahb_master_driver.sv(332) @ 545000: uvm_test_top.env.master_agent.drv [ahb_master_driver] Beat[0/1] addr=0x0000d0e8 trans=AHB_TRANS_NONSEQ resp=AHB_RESP_OKAY wdata=0x603ebdd9
# UVM_INFO ../src/mst/ahb_master_driver.sv(376) @ 545000: uvm_test_top.env.master_agent.drv [ahb_master_driver] Transaction complete: AHB_WRITE 0x0000d0e8, 1 beats, burst=AHB_BURST_SINGLE
# UVM_INFO ../src/mst/ahb_master_driver.sv(127) @ 545000: uvm_test_top.env.master_agent.drv [ahb_master_driver] Driving [AHB_READ]: HADDR=0x0000d0e8, HBURST=AHB_BURST_SINGLE, HSIZE=AHB_SIZE_32B, 1 beats (back-to-back)
# UVM_INFO ../src/slv/ahb_slave_driver.sv(184) @ 545000: uvm_test_top.env.slave_agent.drv [ahb_slave_driver] Beat AHB_WRITE addr=0x0000d0e8 resp=AHB_RESP_OKAY waits=3 wdata=0x603ebdd9
# UVM_INFO ../src/mst/ahb_master_monitor.sv(117) @ 545000: uvm_test_top.env.master_agent.mon [ahb_master_monitor] Beat[0] addr=0x0000d0e8 wdata=0x603ebdd9 resp=AHB_RESP_OKAY
# UVM_INFO ../src/mst/ahb_master_monitor.sv(220) @ 545000: uvm_test_top.env.master_agent.mon [ahb_master_monitor] Observed [AHB_WRITE]: HADDR=0x0000d0e8, HBURST=AHB_BURST_SINGLE, HSIZE=AHB_SIZE_32B, 1 beats
# UVM_INFO ../src/env/ahb_coverage.sv(126) @ 545000: uvm_test_top.env.master_cov [ahb_coverage] Sampled [AHB_WRITE]: burst=AHB_BURST_SINGLE size=AHB_SIZE_32B beats=1 error=0
# UVM_INFO ../src/slv/ahb_slave_monitor.sv(197) @ 545000: uvm_test_top.env.slave_agent.mon [ahb_slave_monitor] Observed [AHB_WRITE]: HADDR=0x0000d0e8, HBURST=AHB_BURST_SINGLE, HSIZE=AHB_SIZE_32B, 1 beats
# UVM_INFO ../src/env/ahb_scoreboard.sv(104) @ 545000: uvm_test_top.env.scb [ahb_scoreboard] MATCH #7: [AHB_WRITE] HADDR=0x0000d0e8 AHB_BURST_SINGLE 1 beats
# UVM_INFO ../src/env/ahb_coverage.sv(126) @ 545000: uvm_test_top.env.slave_cov [ahb_coverage] Sampled [AHB_WRITE]: burst=AHB_BURST_SINGLE size=AHB_SIZE_32B beats=1 error=0
# UVM_INFO ../src/mst/ahb_master_driver.sv(332) @ 585000: uvm_test_top.env.master_agent.drv [ahb_master_driver] Beat[0/1] addr=0x0000d0e8 trans=AHB_TRANS_NONSEQ resp=AHB_RESP_OKAY rdata=0x603ebdd9
# UVM_INFO ../src/mst/ahb_master_driver.sv(376) @ 585000: uvm_test_top.env.master_agent.drv [ahb_master_driver] Transaction complete: AHB_READ 0x0000d0e8, 1 beats, burst=AHB_BURST_SINGLE
# UVM_INFO ../src/slv/ahb_slave_driver.sv(184) @ 585000: uvm_test_top.env.slave_agent.drv [ahb_slave_driver] Beat AHB_READ addr=0x0000d0e8 resp=AHB_RESP_OKAY waits=3 rdata=0x603ebdd9
# UVM_INFO ../src/mst/ahb_master_monitor.sv(117) @ 585000: uvm_test_top.env.master_agent.mon [ahb_master_monitor] Beat[0] addr=0x0000d0e8 rdata=0x603ebdd9 resp=AHB_RESP_OKAY
# UVM_INFO ../src/mst/ahb_master_monitor.sv(220) @ 585000: uvm_test_top.env.master_agent.mon [ahb_master_monitor] Observed [AHB_READ]: HADDR=0x0000d0e8, HBURST=AHB_BURST_SINGLE, HSIZE=AHB_SIZE_32B, 1 beats
# UVM_INFO ../src/env/ahb_coverage.sv(126) @ 585000: uvm_test_top.env.master_cov [ahb_coverage] Sampled [AHB_READ]: burst=AHB_BURST_SINGLE size=AHB_SIZE_32B beats=1 error=0
# UVM_INFO ../src/slv/ahb_slave_monitor.sv(197) @ 585000: uvm_test_top.env.slave_agent.mon [ahb_slave_monitor] Observed [AHB_READ]: HADDR=0x0000d0e8, HBURST=AHB_BURST_SINGLE, HSIZE=AHB_SIZE_32B, 1 beats
# UVM_INFO ../src/env/ahb_scoreboard.sv(104) @ 585000: uvm_test_top.env.scb [ahb_scoreboard] MATCH #8: [AHB_READ] HADDR=0x0000d0e8 AHB_BURST_SINGLE 1 beats
# UVM_INFO ../src/env/ahb_coverage.sv(126) @ 585000: uvm_test_top.env.slave_cov [ahb_coverage] Sampled [AHB_READ]: burst=AHB_BURST_SINGLE size=AHB_SIZE_32B beats=1 error=0
# UVM_INFO ../src/mst_seq/ahb_base_seq.sv(157) @ 585000: uvm_test_top.env.master_agent.sqr@@seq [ahb_wait_state_seq] AHB_BURST_SINGLE AHB_SIZE_32B beat 0 @0x0000d0e8 ok
# UVM_INFO ../src/mst_seq/ahb_wait_state_seq.sv(166) @ 585000: uvm_test_top.env.master_agent.sqr@@seq [ahb_wait_state_seq] AHB_BURST_SINGLE AHB_SIZE_16B @0x0000d124, 1 beats, waits=1:7, pipelined=0
# UVM_INFO ../src/mst/ahb_master_driver.sv(85) @ 585000: uvm_test_top.env.master_agent.drv [ahb_master_driver] Queueing [AHB_WRITE]: HADDR=0x0000d124, HBURST=AHB_BURST_SINGLE, HSIZE=AHB_SIZE_16B, 1 beats
# UVM_INFO ../src/mst/ahb_master_driver.sv(127) @ 585000: uvm_test_top.env.master_agent.drv [ahb_master_driver] Driving [AHB_WRITE]: HADDR=0x0000d124, HBURST=AHB_BURST_SINGLE, HSIZE=AHB_SIZE_16B, 1 beats               
# UVM_INFO ../src/mst/ahb_master_driver.sv(332) @ 675000: uvm_test_top.env.master_agent.drv [ahb_master_driver] Beat[0/1] addr=0x0000d124 trans=AHB_TRANS_NONSEQ resp=AHB_RESP_OKAY wdata=0x0eaf36f4
# UVM_INFO ../src/mst/ahb_master_driver.sv(376) @ 675000: uvm_test_top.env.master_agent.drv [ahb_master_driver] Transaction complete: AHB_WRITE 0x0000d124, 1 beats, burst=AHB_BURST_SINGLE
# UVM_INFO ../src/slv/ahb_slave_driver.sv(184) @ 675000: uvm_test_top.env.slave_agent.drv [ahb_slave_driver] Beat AHB_WRITE addr=0x0000d124 resp=AHB_RESP_OKAY waits=6 wdata=0x0eaf36f4
# UVM_INFO ../src/slv/ahb_slave_monitor.sv(197) @ 675000: uvm_test_top.env.slave_agent.mon [ahb_slave_monitor] Observed [AHB_WRITE]: HADDR=0x0000d124, HBURST=AHB_BURST_SINGLE, HSIZE=AHB_SIZE_16B, 1 beats
# UVM_INFO ../src/env/ahb_coverage.sv(126) @ 675000: uvm_test_top.env.slave_cov [ahb_coverage] Sampled [AHB_WRITE]: burst=AHB_BURST_SINGLE size=AHB_SIZE_16B beats=1 error=0
# UVM_INFO ../src/mst/ahb_master_monitor.sv(117) @ 675000: uvm_test_top.env.master_agent.mon [ahb_master_monitor] Beat[0] addr=0x0000d124 wdata=0x0eaf36f4 resp=AHB_RESP_OKAY
# UVM_INFO ../src/mst/ahb_master_monitor.sv(220) @ 675000: uvm_test_top.env.master_agent.mon [ahb_master_monitor] Observed [AHB_WRITE]: HADDR=0x0000d124, HBURST=AHB_BURST_SINGLE, HSIZE=AHB_SIZE_16B, 1 beats
# UVM_INFO ../src/env/ahb_coverage.sv(126) @ 675000: uvm_test_top.env.master_cov [ahb_coverage] Sampled [AHB_WRITE]: burst=AHB_BURST_SINGLE size=AHB_SIZE_16B beats=1 error=0
# UVM_INFO ../src/env/ahb_scoreboard.sv(104) @ 675000: uvm_test_top.env.scb [ahb_scoreboard] MATCH #9: [AHB_WRITE] HADDR=0x0000d124 AHB_BURST_SINGLE 1 beats
# UVM_INFO ../src/mst/ahb_master_driver.sv(85) @ 675000: uvm_test_top.env.master_agent.drv [ahb_master_driver] Queueing [AHB_READ]: HADDR=0x0000d124, HBURST=AHB_BURST_SINGLE, HSIZE=AHB_SIZE_16B, 1 beats
# UVM_INFO ../src/mst/ahb_master_driver.sv(127) @ 675000: uvm_test_top.env.master_agent.drv [ahb_master_driver] Driving [AHB_READ]: HADDR=0x0000d124, HBURST=AHB_BURST_SINGLE, HSIZE=AHB_SIZE_16B, 1 beats               
# UVM_INFO ../src/mst/ahb_master_driver.sv(332) @ 725000: uvm_test_top.env.master_agent.drv [ahb_master_driver] Beat[0/1] addr=0x0000d124 trans=AHB_TRANS_NONSEQ resp=AHB_RESP_OKAY rdata=0x0eaf36f4
# UVM_INFO ../src/mst/ahb_master_driver.sv(376) @ 725000: uvm_test_top.env.master_agent.drv [ahb_master_driver] Transaction complete: AHB_READ 0x0000d124, 1 beats, burst=AHB_BURST_SINGLE
# UVM_INFO ../src/slv/ahb_slave_driver.sv(184) @ 725000: uvm_test_top.env.slave_agent.drv [ahb_slave_driver] Beat AHB_READ addr=0x0000d124 resp=AHB_RESP_OKAY waits=2 rdata=0x0eaf36f4
# UVM_INFO ../src/mst/ahb_master_monitor.sv(117) @ 725000: uvm_test_top.env.master_agent.mon [ahb_master_monitor] Beat[0] addr=0x0000d124 rdata=0x0eaf36f4 resp=AHB_RESP_OKAY
# UVM_INFO ../src/mst/ahb_master_monitor.sv(220) @ 725000: uvm_test_top.env.master_agent.mon [ahb_master_monitor] Observed [AHB_READ]: HADDR=0x0000d124, HBURST=AHB_BURST_SINGLE, HSIZE=AHB_SIZE_16B, 1 beats
# UVM_INFO ../src/env/ahb_coverage.sv(126) @ 725000: uvm_test_top.env.master_cov [ahb_coverage] Sampled [AHB_READ]: burst=AHB_BURST_SINGLE size=AHB_SIZE_16B beats=1 error=0
# UVM_INFO ../src/slv/ahb_slave_monitor.sv(197) @ 725000: uvm_test_top.env.slave_agent.mon [ahb_slave_monitor] Observed [AHB_READ]: HADDR=0x0000d124, HBURST=AHB_BURST_SINGLE, HSIZE=AHB_SIZE_16B, 1 beats
# UVM_INFO ../src/env/ahb_scoreboard.sv(104) @ 725000: uvm_test_top.env.scb [ahb_scoreboard] MATCH #10: [AHB_READ] HADDR=0x0000d124 AHB_BURST_SINGLE 1 beats
# UVM_INFO ../src/env/ahb_coverage.sv(126) @ 725000: uvm_test_top.env.slave_cov [ahb_coverage] Sampled [AHB_READ]: burst=AHB_BURST_SINGLE size=AHB_SIZE_16B beats=1 error=0
# UVM_INFO ../src/mst_seq/ahb_base_seq.sv(157) @ 725000: uvm_test_top.env.master_agent.sqr@@seq [ahb_wait_state_seq] AHB_BURST_SINGLE AHB_SIZE_16B beat 0 @0x0000d124 ok
# UVM_INFO ../src/mst_seq/ahb_wait_state_seq.sv(166) @ 725000: uvm_test_top.env.master_agent.sqr@@seq [ahb_wait_state_seq] AHB_BURST_INCR4 AHB_SIZE_32B @0x0000d150, 4 beats, waits=8:15, pipelined=1
# UVM_INFO ../src/mst/ahb_master_driver.sv(85) @ 725000: uvm_test_top.env.master_agent.drv [ahb_master_driver] Queueing [AHB_WRITE]: HADDR=0x0000d150, HBURST=AHB_BURST_INCR4, HSIZE=AHB_SIZE_32B, 4 beats
# UVM_INFO ../src/mst/ahb_master_driver.sv(127) @ 725000: uvm_test_top.env.master_agent.drv [ahb_master_driver] Driving [AHB_WRITE]: HADDR=0x0000d150, HBURST=AHB_BURST_INCR4, HSIZE=AHB_SIZE_32B, 4 beats               
# UVM_INFO ../src/mst/ahb_master_driver.sv(85) @ 725000: uvm_test_top.env.master_agent.drv [ahb_master_driver] Queueing [AHB_READ]: HADDR=0x0000d150, HBURST=AHB_BURST_INCR4, HSIZE=AHB_SIZE_32B, 4 beats
# UVM_INFO ../src/mst/ahb_master_driver.sv(332) @ 855000: uvm_test_top.env.master_agent.drv [ahb_master_driver] Beat[0/4] addr=0x0000d150 trans=AHB_TRANS_NONSEQ resp=AHB_RESP_OKAY wdata=0x6fde84f6
# UVM_INFO ../src/slv/ahb_slave_driver.sv(184) @ 855000: uvm_test_top.env.slave_agent.drv [ahb_slave_driver] Beat AHB_WRITE addr=0x0000d150 resp=AHB_RESP_OKAY waits=10 wdata=0x6fde84f6
# UVM_INFO ../src/mst/ahb_master_monitor.sv(117) @ 855000: uvm_test_top.env.master_agent.mon [ahb_master_monitor] Beat[0] addr=0x0000d150 wdata=0x6fde84f6 resp=AHB_RESP_OKAY
# UVM_INFO ../src/mst/ahb_master_driver.sv(332) @ 995000: uvm_test_top.env.master_agent.drv [ahb_master_driver] Beat[1/4] addr=0x0000d154 trans=AHB_TRANS_SEQ resp=AHB_RESP_OKAY wdata=0xb48d0d29
# UVM_INFO ../src/slv/ahb_slave_driver.sv(184) @ 995000: uvm_test_top.env.slave_agent.drv [ahb_slave_driver] Beat AHB_WRITE addr=0x0000d154 resp=AHB_RESP_OKAY waits=13 wdata=0xb48d0d29
# UVM_INFO ../src/mst/ahb_master_monitor.sv(117) @ 995000: uvm_test_top.env.master_agent.mon [ahb_master_monitor] Beat[1] addr=0x0000d154 wdata=0xb48d0d29 resp=AHB_RESP_OKAY
# UVM_INFO ../src/mst/ahb_master_driver.sv(332) @ 1085000: uvm_test_top.env.master_agent.drv [ahb_master_driver] Beat[2/4] addr=0x0000d158 trans=AHB_TRANS_SEQ resp=AHB_RESP_OKAY wdata=0x5f324277
# UVM_INFO ../src/slv/ahb_slave_driver.sv(184) @ 1085000: uvm_test_top.env.slave_agent.drv [ahb_slave_driver] Beat AHB_WRITE addr=0x0000d158 resp=AHB_RESP_OKAY waits=8 wdata=0x5f324277
# UVM_INFO ../src/mst/ahb_master_monitor.sv(117) @ 1085000: uvm_test_top.env.master_agent.mon [ahb_master_monitor] Beat[2] addr=0x0000d158 wdata=0x5f324277 resp=AHB_RESP_OKAY
# UVM_INFO ../src/mst/ahb_master_driver.sv(332) @ 1235000: uvm_test_top.env.master_agent.drv [ahb_master_driver] Beat[3/4] addr=0x0000d15c trans=AHB_TRANS_SEQ resp=AHB_RESP_OKAY wdata=0x7dfef5bd
# UVM_INFO ../src/mst/ahb_master_driver.sv(376) @ 1235000: uvm_test_top.env.master_agent.drv [ahb_master_driver] Transaction complete: AHB_WRITE 0x0000d150, 4 beats, burst=AHB_BURST_INCR4
# UVM_INFO ../src/mst/ahb_master_driver.sv(127) @ 1235000: uvm_test_top.env.master_agent.drv [ahb_master_driver] Driving [AHB_READ]: HADDR=0x0000d150, HBURST=AHB_BURST_INCR4, HSIZE=AHB_SIZE_32B, 4 beats (back-to-back)
# UVM_INFO ../src/slv/ahb_slave_driver.sv(184) @ 1235000: uvm_test_top.env.slave_agent.drv [ahb_slave_driver] Beat AHB_WRITE addr=0x0000d15c resp=AHB_RESP_OKAY waits=14 wdata=0x7dfef5bd
# UVM_INFO ../src/slv/ahb_slave_monitor.sv(197) @ 1235000: uvm_test_top.env.slave_agent.mon [ahb_slave_monitor] Observed [AHB_WRITE]: HADDR=0x0000d150, HBURST=AHB_BURST_INCR4, HSIZE=AHB_SIZE_32B, 4 beats
# UVM_INFO ../src/env/ahb_coverage.sv(126) @ 1235000: uvm_test_top.env.slave_cov [ahb_coverage] Sampled [AHB_WRITE]: burst=AHB_BURST_INCR4 size=AHB_SIZE_32B beats=4 error=0
# UVM_INFO ../src/mst/ahb_master_monitor.sv(117) @ 1235000: uvm_test_top.env.master_agent.mon [ahb_master_monitor] Beat[3] addr=0x0000d15c wdata=0x7dfef5bd resp=AHB_RESP_OKAY
# UVM_INFO ../src/mst/ahb_master_monitor.sv(220) @ 1235000: uvm_test_top.env.master_agent.mon [ahb_master_monitor] Observed [AHB_WRITE]: HADDR=0x0000d150, HBURST=AHB_BURST_INCR4, HSIZE=AHB_SIZE_32B, 4 beats
# UVM_INFO ../src/env/ahb_coverage.sv(126) @ 1235000: uvm_test_top.env.master_cov [ahb_coverage] Sampled [AHB_WRITE]: burst=AHB_BURST_INCR4 size=AHB_SIZE_32B beats=4 error=0
# UVM_INFO ../src/env/ahb_scoreboard.sv(104) @ 1235000: uvm_test_top.env.scb [ahb_scoreboard] MATCH #11: [AHB_WRITE] HADDR=0x0000d150 AHB_BURST_INCR4 4 beats
# UVM_INFO ../src/mst/ahb_master_driver.sv(332) @ 1335000: uvm_test_top.env.master_agent.drv [ahb_master_driver] Beat[0/4] addr=0x0000d150 trans=AHB_TRANS_NONSEQ resp=AHB_RESP_OKAY rdata=0x6fde84f6
# UVM_INFO ../src/slv/ahb_slave_driver.sv(184) @ 1335000: uvm_test_top.env.slave_agent.drv [ahb_slave_driver] Beat AHB_READ addr=0x0000d150 resp=AHB_RESP_OKAY waits=9 rdata=0x6fde84f6
# UVM_INFO ../src/mst/ahb_master_monitor.sv(117) @ 1335000: uvm_test_top.env.master_agent.mon [ahb_master_monitor] Beat[0] addr=0x0000d150 rdata=0x6fde84f6 resp=AHB_RESP_OKAY
# UVM_INFO ../src/mst/ahb_master_driver.sv(332) @ 1445000: uvm_test_top.env.master_agent.drv [ahb_master_driver] Beat[1/4] addr=0x0000d154 trans=AHB_TRANS_SEQ resp=AHB_RESP_OKAY rdata=0xb48d0d29
# UVM_INFO ../src/slv/ahb_slave_driver.sv(184) @ 1445000: uvm_test_top.env.slave_agent.drv [ahb_slave_driver] Beat AHB_READ addr=0x0000d154 resp=AHB_RESP_OKAY waits=10 rdata=0xb48d0d29
# UVM_INFO ../src/mst/ahb_master_monitor.sv(117) @ 1445000: uvm_test_top.env.master_agent.mon [ahb_master_monitor] Beat[1] addr=0x0000d154 rdata=0xb48d0d29 resp=AHB_RESP_OKAY
# UVM_INFO ../src/mst/ahb_master_driver.sv(332) @ 1535000: uvm_test_top.env.master_agent.drv [ahb_master_driver] Beat[2/4] addr=0x0000d158 trans=AHB_TRANS_SEQ resp=AHB_RESP_OKAY rdata=0x5f324277
# UVM_INFO ../src/slv/ahb_slave_driver.sv(184) @ 1535000: uvm_test_top.env.slave_agent.drv [ahb_slave_driver] Beat AHB_READ addr=0x0000d158 resp=AHB_RESP_OKAY waits=8 rdata=0x5f324277
# UVM_INFO ../src/mst/ahb_master_monitor.sv(117) @ 1535000: uvm_test_top.env.master_agent.mon [ahb_master_monitor] Beat[2] addr=0x0000d158 rdata=0x5f324277 resp=AHB_RESP_OKAY
# UVM_INFO ../src/mst/ahb_master_driver.sv(332) @ 1645000: uvm_test_top.env.master_agent.drv [ahb_master_driver] Beat[3/4] addr=0x0000d15c trans=AHB_TRANS_SEQ resp=AHB_RESP_OKAY rdata=0x7dfef5bd
# UVM_INFO ../src/mst/ahb_master_driver.sv(376) @ 1645000: uvm_test_top.env.master_agent.drv [ahb_master_driver] Transaction complete: AHB_READ 0x0000d150, 4 beats, burst=AHB_BURST_INCR4
# UVM_INFO ../src/slv/ahb_slave_driver.sv(184) @ 1645000: uvm_test_top.env.slave_agent.drv [ahb_slave_driver] Beat AHB_READ addr=0x0000d15c resp=AHB_RESP_OKAY waits=10 rdata=0x7dfef5bd
# UVM_INFO ../src/mst/ahb_master_monitor.sv(117) @ 1645000: uvm_test_top.env.master_agent.mon [ahb_master_monitor] Beat[3] addr=0x0000d15c rdata=0x7dfef5bd resp=AHB_RESP_OKAY
# UVM_INFO ../src/mst/ahb_master_monitor.sv(220) @ 1645000: uvm_test_top.env.master_agent.mon [ahb_master_monitor] Observed [AHB_READ]: HADDR=0x0000d150, HBURST=AHB_BURST_INCR4, HSIZE=AHB_SIZE_32B, 4 beats
# UVM_INFO ../src/env/ahb_coverage.sv(126) @ 1645000: uvm_test_top.env.master_cov [ahb_coverage] Sampled [AHB_READ]: burst=AHB_BURST_INCR4 size=AHB_SIZE_32B beats=4 error=0
# UVM_INFO ../src/slv/ahb_slave_monitor.sv(197) @ 1645000: uvm_test_top.env.slave_agent.mon [ahb_slave_monitor] Observed [AHB_READ]: HADDR=0x0000d150, HBURST=AHB_BURST_INCR4, HSIZE=AHB_SIZE_32B, 4 beats
# UVM_INFO ../src/env/ahb_scoreboard.sv(104) @ 1645000: uvm_test_top.env.scb [ahb_scoreboard] MATCH #12: [AHB_READ] HADDR=0x0000d150 AHB_BURST_INCR4 4 beats
# UVM_INFO ../src/env/ahb_coverage.sv(126) @ 1645000: uvm_test_top.env.slave_cov [ahb_coverage] Sampled [AHB_READ]: burst=AHB_BURST_INCR4 size=AHB_SIZE_32B beats=4 error=0
# UVM_INFO ../src/mst_seq/ahb_base_seq.sv(157) @ 1645000: uvm_test_top.env.master_agent.sqr@@seq [ahb_wait_state_seq] AHB_BURST_INCR4 AHB_SIZE_32B beat 0 @0x0000d150 ok
# UVM_INFO ../src/mst_seq/ahb_base_seq.sv(157) @ 1645000: uvm_test_top.env.master_agent.sqr@@seq [ahb_wait_state_seq] AHB_BURST_INCR4 AHB_SIZE_32B beat 1 @0x0000d154 ok
# UVM_INFO ../src/mst_seq/ahb_base_seq.sv(157) @ 1645000: uvm_test_top.env.master_agent.sqr@@seq [ahb_wait_state_seq] AHB_BURST_INCR4 AHB_SIZE_32B beat 2 @0x0000d158 ok
# UVM_INFO ../src/mst_seq/ahb_base_seq.sv(157) @ 1645000: uvm_test_top.env.master_agent.sqr@@seq [ahb_wait_state_seq] AHB_BURST_INCR4 AHB_SIZE_32B beat 3 @0x0000d15c ok
# UVM_INFO ../src/mst_seq/ahb_wait_state_seq.sv(166) @ 1645000: uvm_test_top.env.master_agent.sqr@@seq [ahb_wait_state_seq] AHB_BURST_SINGLE AHB_SIZE_8B @0x0000d1b8, 1 beats, waits=16:16, pipelined=0
# UVM_INFO ../src/mst/ahb_master_driver.sv(85) @ 1645000: uvm_test_top.env.master_agent.drv [ahb_master_driver] Queueing [AHB_WRITE]: HADDR=0x0000d1b8, HBURST=AHB_BURST_SINGLE, HSIZE=AHB_SIZE_8B, 1 beats
# UVM_INFO ../src/mst/ahb_master_driver.sv(127) @ 1645000: uvm_test_top.env.master_agent.drv [ahb_master_driver] Driving [AHB_WRITE]: HADDR=0x0000d1b8, HBURST=AHB_BURST_SINGLE, HSIZE=AHB_SIZE_8B, 1 beats               
# UVM_INFO ../src/mst/ahb_master_driver.sv(332) @ 1835000: uvm_test_top.env.master_agent.drv [ahb_master_driver] Beat[0/1] addr=0x0000d1b8 trans=AHB_TRANS_NONSEQ resp=AHB_RESP_OKAY wdata=0xba79ae45
# UVM_INFO ../src/mst/ahb_master_driver.sv(376) @ 1835000: uvm_test_top.env.master_agent.drv [ahb_master_driver] Transaction complete: AHB_WRITE 0x0000d1b8, 1 beats, burst=AHB_BURST_SINGLE
# UVM_INFO ../src/slv/ahb_slave_driver.sv(184) @ 1835000: uvm_test_top.env.slave_agent.drv [ahb_slave_driver] Beat AHB_WRITE addr=0x0000d1b8 resp=AHB_RESP_OKAY waits=16 wdata=0xba79ae45
# UVM_INFO ../src/slv/ahb_slave_monitor.sv(197) @ 1835000: uvm_test_top.env.slave_agent.mon [ahb_slave_monitor] Observed [AHB_WRITE]: HADDR=0x0000d1b8, HBURST=AHB_BURST_SINGLE, HSIZE=AHB_SIZE_8B, 1 beats
# UVM_INFO ../src/env/ahb_coverage.sv(126) @ 1835000: uvm_test_top.env.slave_cov [ahb_coverage] Sampled [AHB_WRITE]: burst=AHB_BURST_SINGLE size=AHB_SIZE_8B beats=1 error=0
# UVM_INFO ../src/mst/ahb_master_monitor.sv(117) @ 1835000: uvm_test_top.env.master_agent.mon [ahb_master_monitor] Beat[0] addr=0x0000d1b8 wdata=0xba79ae45 resp=AHB_RESP_OKAY
# UVM_INFO ../src/mst/ahb_master_monitor.sv(220) @ 1835000: uvm_test_top.env.master_agent.mon [ahb_master_monitor] Observed [AHB_WRITE]: HADDR=0x0000d1b8, HBURST=AHB_BURST_SINGLE, HSIZE=AHB_SIZE_8B, 1 beats
# UVM_INFO ../src/env/ahb_coverage.sv(126) @ 1835000: uvm_test_top.env.master_cov [ahb_coverage] Sampled [AHB_WRITE]: burst=AHB_BURST_SINGLE size=AHB_SIZE_8B beats=1 error=0
# UVM_INFO ../src/env/ahb_scoreboard.sv(104) @ 1835000: uvm_test_top.env.scb [ahb_scoreboard] MATCH #13: [AHB_WRITE] HADDR=0x0000d1b8 AHB_BURST_SINGLE 1 beats
# UVM_INFO ../src/mst/ahb_master_driver.sv(85) @ 1835000: uvm_test_top.env.master_agent.drv [ahb_master_driver] Queueing [AHB_READ]: HADDR=0x0000d1b8, HBURST=AHB_BURST_SINGLE, HSIZE=AHB_SIZE_8B, 1 beats
# UVM_INFO ../src/mst/ahb_master_driver.sv(127) @ 1835000: uvm_test_top.env.master_agent.drv [ahb_master_driver] Driving [AHB_READ]: HADDR=0x0000d1b8, HBURST=AHB_BURST_SINGLE, HSIZE=AHB_SIZE_8B, 1 beats               
# UVM_INFO ../src/mst/ahb_master_driver.sv(332) @ 2025000: uvm_test_top.env.master_agent.drv [ahb_master_driver] Beat[0/1] addr=0x0000d1b8 trans=AHB_TRANS_NONSEQ resp=AHB_RESP_OKAY rdata=0xba79ae45
# UVM_INFO ../src/mst/ahb_master_driver.sv(376) @ 2025000: uvm_test_top.env.master_agent.drv [ahb_master_driver] Transaction complete: AHB_READ 0x0000d1b8, 1 beats, burst=AHB_BURST_SINGLE
# UVM_INFO ../src/slv/ahb_slave_driver.sv(184) @ 2025000: uvm_test_top.env.slave_agent.drv [ahb_slave_driver] Beat AHB_READ addr=0x0000d1b8 resp=AHB_RESP_OKAY waits=16 rdata=0xba79ae45
# UVM_INFO ../src/mst/ahb_master_monitor.sv(117) @ 2025000: uvm_test_top.env.master_agent.mon [ahb_master_monitor] Beat[0] addr=0x0000d1b8 rdata=0xba79ae45 resp=AHB_RESP_OKAY
# UVM_INFO ../src/mst/ahb_master_monitor.sv(220) @ 2025000: uvm_test_top.env.master_agent.mon [ahb_master_monitor] Observed [AHB_READ]: HADDR=0x0000d1b8, HBURST=AHB_BURST_SINGLE, HSIZE=AHB_SIZE_8B, 1 beats
# UVM_INFO ../src/env/ahb_coverage.sv(126) @ 2025000: uvm_test_top.env.master_cov [ahb_coverage] Sampled [AHB_READ]: burst=AHB_BURST_SINGLE size=AHB_SIZE_8B beats=1 error=0
# UVM_INFO ../src/slv/ahb_slave_monitor.sv(197) @ 2025000: uvm_test_top.env.slave_agent.mon [ahb_slave_monitor] Observed [AHB_READ]: HADDR=0x0000d1b8, HBURST=AHB_BURST_SINGLE, HSIZE=AHB_SIZE_8B, 1 beats
# UVM_INFO ../src/env/ahb_scoreboard.sv(104) @ 2025000: uvm_test_top.env.scb [ahb_scoreboard] MATCH #14: [AHB_READ] HADDR=0x0000d1b8 AHB_BURST_SINGLE 1 beats
# UVM_INFO ../src/env/ahb_coverage.sv(126) @ 2025000: uvm_test_top.env.slave_cov [ahb_coverage] Sampled [AHB_READ]: burst=AHB_BURST_SINGLE size=AHB_SIZE_8B beats=1 error=0
# UVM_INFO ../src/mst_seq/ahb_base_seq.sv(157) @ 2025000: uvm_test_top.env.master_agent.sqr@@seq [ahb_wait_state_seq] AHB_BURST_SINGLE AHB_SIZE_8B beat 0 @0x0000d1b8 ok
# UVM_INFO ../src/mst_seq/ahb_wait_state_seq.sv(166) @ 2025000: uvm_test_top.env.master_agent.sqr@@seq [ahb_wait_state_seq] AHB_BURST_SINGLE AHB_SIZE_16B @0x0000d1ec, 1 beats, waits=0:16, pipelined=1
# UVM_INFO ../src/mst/ahb_master_driver.sv(85) @ 2025000: uvm_test_top.env.master_agent.drv [ahb_master_driver] Queueing [AHB_WRITE]: HADDR=0x0000d1ec, HBURST=AHB_BURST_SINGLE, HSIZE=AHB_SIZE_16B, 1 beats
# UVM_INFO ../src/mst/ahb_master_driver.sv(127) @ 2025000: uvm_test_top.env.master_agent.drv [ahb_master_driver] Driving [AHB_WRITE]: HADDR=0x0000d1ec, HBURST=AHB_BURST_SINGLE, HSIZE=AHB_SIZE_16B, 1 beats               
# UVM_INFO ../src/mst/ahb_master_driver.sv(85) @ 2025000: uvm_test_top.env.master_agent.drv [ahb_master_driver] Queueing [AHB_READ]: HADDR=0x0000d1ec, HBURST=AHB_BURST_SINGLE, HSIZE=AHB_SIZE_16B, 1 beats
# UVM_INFO ../src/mst/ahb_master_driver.sv(332) @ 2135000: uvm_test_top.env.master_agent.drv [ahb_master_driver] Beat[0/1] addr=0x0000d1ec trans=AHB_TRANS_NONSEQ resp=AHB_RESP_OKAY wdata=0x63b73d0f
# UVM_INFO ../src/mst/ahb_master_driver.sv(376) @ 2135000: uvm_test_top.env.master_agent.drv [ahb_master_driver] Transaction complete: AHB_WRITE 0x0000d1ec, 1 beats, burst=AHB_BURST_SINGLE
# UVM_INFO ../src/mst/ahb_master_driver.sv(127) @ 2135000: uvm_test_top.env.master_agent.drv [ahb_master_driver] Driving [AHB_READ]: HADDR=0x0000d1ec, HBURST=AHB_BURST_SINGLE, HSIZE=AHB_SIZE_16B, 1 beats (back-to-back)
# UVM_INFO ../src/slv/ahb_slave_driver.sv(184) @ 2135000: uvm_test_top.env.slave_agent.drv [ahb_slave_driver] Beat AHB_WRITE addr=0x0000d1ec resp=AHB_RESP_OKAY waits=8 wdata=0x63b73d0f
# UVM_INFO ../src/slv/ahb_slave_monitor.sv(197) @ 2135000: uvm_test_top.env.slave_agent.mon [ahb_slave_monitor] Observed [AHB_WRITE]: HADDR=0x0000d1ec, HBURST=AHB_BURST_SINGLE, HSIZE=AHB_SIZE_16B, 1 beats
# UVM_INFO ../src/env/ahb_coverage.sv(126) @ 2135000: uvm_test_top.env.slave_cov [ahb_coverage] Sampled [AHB_WRITE]: burst=AHB_BURST_SINGLE size=AHB_SIZE_16B beats=1 error=0
# UVM_INFO ../src/mst/ahb_master_monitor.sv(117) @ 2135000: uvm_test_top.env.master_agent.mon [ahb_master_monitor] Beat[0] addr=0x0000d1ec wdata=0x63b73d0f resp=AHB_RESP_OKAY
# UVM_INFO ../src/mst/ahb_master_monitor.sv(220) @ 2135000: uvm_test_top.env.master_agent.mon [ahb_master_monitor] Observed [AHB_WRITE]: HADDR=0x0000d1ec, HBURST=AHB_BURST_SINGLE, HSIZE=AHB_SIZE_16B, 1 beats
# UVM_INFO ../src/env/ahb_coverage.sv(126) @ 2135000: uvm_test_top.env.master_cov [ahb_coverage] Sampled [AHB_WRITE]: burst=AHB_BURST_SINGLE size=AHB_SIZE_16B beats=1 error=0
# UVM_INFO ../src/env/ahb_scoreboard.sv(104) @ 2135000: uvm_test_top.env.scb [ahb_scoreboard] MATCH #15: [AHB_WRITE] HADDR=0x0000d1ec AHB_BURST_SINGLE 1 beats
# UVM_INFO ../src/mst/ahb_master_driver.sv(332) @ 2175000: uvm_test_top.env.master_agent.drv [ahb_master_driver] Beat[0/1] addr=0x0000d1ec trans=AHB_TRANS_NONSEQ resp=AHB_RESP_OKAY rdata=0x63b73d0f
# UVM_INFO ../src/mst/ahb_master_driver.sv(376) @ 2175000: uvm_test_top.env.master_agent.drv [ahb_master_driver] Transaction complete: AHB_READ 0x0000d1ec, 1 beats, burst=AHB_BURST_SINGLE
# UVM_INFO ../src/slv/ahb_slave_driver.sv(184) @ 2175000: uvm_test_top.env.slave_agent.drv [ahb_slave_driver] Beat AHB_READ addr=0x0000d1ec resp=AHB_RESP_OKAY waits=3 rdata=0x63b73d0f
# UVM_INFO ../src/slv/ahb_slave_monitor.sv(197) @ 2175000: uvm_test_top.env.slave_agent.mon [ahb_slave_monitor] Observed [AHB_READ]: HADDR=0x0000d1ec, HBURST=AHB_BURST_SINGLE, HSIZE=AHB_SIZE_16B, 1 beats
# UVM_INFO ../src/env/ahb_coverage.sv(126) @ 2175000: uvm_test_top.env.slave_cov [ahb_coverage] Sampled [AHB_READ]: burst=AHB_BURST_SINGLE size=AHB_SIZE_16B beats=1 error=0
# UVM_INFO ../src/mst/ahb_master_monitor.sv(117) @ 2175000: uvm_test_top.env.master_agent.mon [ahb_master_monitor] Beat[0] addr=0x0000d1ec rdata=0x63b73d0f resp=AHB_RESP_OKAY
# UVM_INFO ../src/mst/ahb_master_monitor.sv(220) @ 2175000: uvm_test_top.env.master_agent.mon [ahb_master_monitor] Observed [AHB_READ]: HADDR=0x0000d1ec, HBURST=AHB_BURST_SINGLE, HSIZE=AHB_SIZE_16B, 1 beats
# UVM_INFO ../src/env/ahb_coverage.sv(126) @ 2175000: uvm_test_top.env.master_cov [ahb_coverage] Sampled [AHB_READ]: burst=AHB_BURST_SINGLE size=AHB_SIZE_16B beats=1 error=0
# UVM_INFO ../src/env/ahb_scoreboard.sv(104) @ 2175000: uvm_test_top.env.scb [ahb_scoreboard] MATCH #16: [AHB_READ] HADDR=0x0000d1ec AHB_BURST_SINGLE 1 beats
# UVM_INFO ../src/mst_seq/ahb_base_seq.sv(157) @ 2175000: uvm_test_top.env.master_agent.sqr@@seq [ahb_wait_state_seq] AHB_BURST_SINGLE AHB_SIZE_16B beat 0 @0x0000d1ec ok
# UVM_INFO ../src/mst_seq/ahb_wait_state_seq.sv(166) @ 2175000: uvm_test_top.env.master_agent.sqr@@seq [ahb_wait_state_seq] AHB_BURST_SINGLE AHB_SIZE_16B @0x0000d20e, 1 beats, waits=0:0, pipelined=0
# UVM_INFO ../src/mst/ahb_master_driver.sv(85) @ 2175000: uvm_test_top.env.master_agent.drv [ahb_master_driver] Queueing [AHB_WRITE]: HADDR=0x0000d20e, HBURST=AHB_BURST_SINGLE, HSIZE=AHB_SIZE_16B, 1 beats
# UVM_INFO ../src/mst/ahb_master_driver.sv(127) @ 2175000: uvm_test_top.env.master_agent.drv [ahb_master_driver] Driving [AHB_WRITE]: HADDR=0x0000d20e, HBURST=AHB_BURST_SINGLE, HSIZE=AHB_SIZE_16B, 1 beats               
# UVM_INFO ../src/mst/ahb_master_driver.sv(332) @ 2205000: uvm_test_top.env.master_agent.drv [ahb_master_driver] Beat[0/1] addr=0x0000d20e trans=AHB_TRANS_NONSEQ resp=AHB_RESP_OKAY wdata=0x27ac9c09
# UVM_INFO ../src/mst/ahb_master_driver.sv(376) @ 2205000: uvm_test_top.env.master_agent.drv [ahb_master_driver] Transaction complete: AHB_WRITE 0x0000d20e, 1 beats, burst=AHB_BURST_SINGLE
# UVM_INFO ../src/slv/ahb_slave_driver.sv(184) @ 2205000: uvm_test_top.env.slave_agent.drv [ahb_slave_driver] Beat AHB_WRITE addr=0x0000d20e resp=AHB_RESP_OKAY waits=0 wdata=0x27ac9c09
# UVM_INFO ../src/mst/ahb_master_monitor.sv(117) @ 2205000: uvm_test_top.env.master_agent.mon [ahb_master_monitor] Beat[0] addr=0x0000d20e wdata=0x27ac9c09 resp=AHB_RESP_OKAY
# UVM_INFO ../src/mst/ahb_master_monitor.sv(220) @ 2205000: uvm_test_top.env.master_agent.mon [ahb_master_monitor] Observed [AHB_WRITE]: HADDR=0x0000d20e, HBURST=AHB_BURST_SINGLE, HSIZE=AHB_SIZE_16B, 1 beats
# UVM_INFO ../src/env/ahb_coverage.sv(126) @ 2205000: uvm_test_top.env.master_cov [ahb_coverage] Sampled [AHB_WRITE]: burst=AHB_BURST_SINGLE size=AHB_SIZE_16B beats=1 error=0
# UVM_INFO ../src/slv/ahb_slave_monitor.sv(197) @ 2205000: uvm_test_top.env.slave_agent.mon [ahb_slave_monitor] Observed [AHB_WRITE]: HADDR=0x0000d20e, HBURST=AHB_BURST_SINGLE, HSIZE=AHB_SIZE_16B, 1 beats
# UVM_INFO ../src/env/ahb_scoreboard.sv(104) @ 2205000: uvm_test_top.env.scb [ahb_scoreboard] MATCH #17: [AHB_WRITE] HADDR=0x0000d20e AHB_BURST_SINGLE 1 beats
# UVM_INFO ../src/env/ahb_coverage.sv(126) @ 2205000: uvm_test_top.env.slave_cov [ahb_coverage] Sampled [AHB_WRITE]: burst=AHB_BURST_SINGLE size=AHB_SIZE_16B beats=1 error=0
# UVM_INFO ../src/mst/ahb_master_driver.sv(85) @ 2205000: uvm_test_top.env.master_agent.drv [ahb_master_driver] Queueing [AHB_READ]: HADDR=0x0000d20e, HBURST=AHB_BURST_SINGLE, HSIZE=AHB_SIZE_16B, 1 beats
# UVM_INFO ../src/mst/ahb_master_driver.sv(127) @ 2205000: uvm_test_top.env.master_agent.drv [ahb_master_driver] Driving [AHB_READ]: HADDR=0x0000d20e, HBURST=AHB_BURST_SINGLE, HSIZE=AHB_SIZE_16B, 1 beats               
# UVM_INFO ../src/mst/ahb_master_driver.sv(332) @ 2235000: uvm_test_top.env.master_agent.drv [ahb_master_driver] Beat[0/1] addr=0x0000d20e trans=AHB_TRANS_NONSEQ resp=AHB_RESP_OKAY rdata=0x27ac9c09
# UVM_INFO ../src/mst/ahb_master_driver.sv(376) @ 2235000: uvm_test_top.env.master_agent.drv [ahb_master_driver] Transaction complete: AHB_READ 0x0000d20e, 1 beats, burst=AHB_BURST_SINGLE
# UVM_INFO ../src/slv/ahb_slave_driver.sv(184) @ 2235000: uvm_test_top.env.slave_agent.drv [ahb_slave_driver] Beat AHB_READ addr=0x0000d20e resp=AHB_RESP_OKAY waits=0 rdata=0x27ac9c09
# UVM_INFO ../src/slv/ahb_slave_monitor.sv(197) @ 2235000: uvm_test_top.env.slave_agent.mon [ahb_slave_monitor] Observed [AHB_READ]: HADDR=0x0000d20e, HBURST=AHB_BURST_SINGLE, HSIZE=AHB_SIZE_16B, 1 beats
# UVM_INFO ../src/env/ahb_coverage.sv(126) @ 2235000: uvm_test_top.env.slave_cov [ahb_coverage] Sampled [AHB_READ]: burst=AHB_BURST_SINGLE size=AHB_SIZE_16B beats=1 error=0
# UVM_INFO ../src/mst/ahb_master_monitor.sv(117) @ 2235000: uvm_test_top.env.master_agent.mon [ahb_master_monitor] Beat[0] addr=0x0000d20e rdata=0x27ac9c09 resp=AHB_RESP_OKAY
# UVM_INFO ../src/mst/ahb_master_monitor.sv(220) @ 2235000: uvm_test_top.env.master_agent.mon [ahb_master_monitor] Observed [AHB_READ]: HADDR=0x0000d20e, HBURST=AHB_BURST_SINGLE, HSIZE=AHB_SIZE_16B, 1 beats
# UVM_INFO ../src/env/ahb_coverage.sv(126) @ 2235000: uvm_test_top.env.master_cov [ahb_coverage] Sampled [AHB_READ]: burst=AHB_BURST_SINGLE size=AHB_SIZE_16B beats=1 error=0
# UVM_INFO ../src/env/ahb_scoreboard.sv(104) @ 2235000: uvm_test_top.env.scb [ahb_scoreboard] MATCH #18: [AHB_READ] HADDR=0x0000d20e AHB_BURST_SINGLE 1 beats
# UVM_INFO ../src/mst_seq/ahb_base_seq.sv(157) @ 2235000: uvm_test_top.env.master_agent.sqr@@seq [ahb_wait_state_seq] AHB_BURST_SINGLE AHB_SIZE_16B beat 0 @0x0000d20e ok
# UVM_INFO ../src/mst_seq/ahb_wait_state_seq.sv(166) @ 2235000: uvm_test_top.env.master_agent.sqr@@seq [ahb_wait_state_seq] AHB_BURST_INCR4 AHB_SIZE_8B @0x0000d27b, 4 beats, waits=1:1, pipelined=1
# UVM_INFO ../src/mst/ahb_master_driver.sv(85) @ 2235000: uvm_test_top.env.master_agent.drv [ahb_master_driver] Queueing [AHB_WRITE]: HADDR=0x0000d27b, HBURST=AHB_BURST_INCR4, HSIZE=AHB_SIZE_8B, 4 beats
# UVM_INFO ../src/mst/ahb_master_driver.sv(127) @ 2235000: uvm_test_top.env.master_agent.drv [ahb_master_driver] Driving [AHB_WRITE]: HADDR=0x0000d27b, HBURST=AHB_BURST_INCR4, HSIZE=AHB_SIZE_8B, 4 beats               
# UVM_INFO ../src/mst/ahb_master_driver.sv(85) @ 2235000: uvm_test_top.env.master_agent.drv [ahb_master_driver] Queueing [AHB_READ]: HADDR=0x0000d27b, HBURST=AHB_BURST_INCR4, HSIZE=AHB_SIZE_8B, 4 beats
# UVM_INFO ../src/mst/ahb_master_driver.sv(332) @ 2275000: uvm_test_top.env.master_agent.drv [ahb_master_driver] Beat[0/4] addr=0x0000d27b trans=AHB_TRANS_NONSEQ resp=AHB_RESP_OKAY wdata=0xdd6b3325
# UVM_INFO ../src/slv/ahb_slave_driver.sv(184) @ 2275000: uvm_test_top.env.slave_agent.drv [ahb_slave_driver] Beat AHB_WRITE addr=0x0000d27b resp=AHB_RESP_OKAY waits=1 wdata=0xdd6b3325
# UVM_INFO ../src/mst/ahb_master_monitor.sv(117) @ 2275000: uvm_test_top.env.master_agent.mon [ahb_master_monitor] Beat[0] addr=0x0000d27b wdata=0xdd6b3325 resp=AHB_RESP_OKAY
# UVM_INFO ../src/mst/ahb_master_driver.sv(332) @ 2295000: uvm_test_top.env.master_agent.drv [ahb_master_driver] Beat[1/4] addr=0x0000d27c trans=AHB_TRANS_SEQ resp=AHB_RESP_OKAY wdata=0x07459fc7
# UVM_INFO ../src/slv/ahb_slave_driver.sv(184) @ 2295000: uvm_test_top.env.slave_agent.drv [ahb_slave_driver] Beat AHB_WRITE addr=0x0000d27c resp=AHB_RESP_OKAY waits=1 wdata=0x07459fc7
# UVM_INFO ../src/mst/ahb_master_monitor.sv(117) @ 2295000: uvm_test_top.env.master_agent.mon [ahb_master_monitor] Beat[1] addr=0x0000d27c wdata=0x07459fc7 resp=AHB_RESP_OKAY
# UVM_INFO ../src/mst/ahb_master_driver.sv(332) @ 2315000: uvm_test_top.env.master_agent.drv [ahb_master_driver] Beat[2/4] addr=0x0000d27d trans=AHB_TRANS_SEQ resp=AHB_RESP_OKAY wdata=0x52dd7520
# UVM_INFO ../src/slv/ahb_slave_driver.sv(184) @ 2315000: uvm_test_top.env.slave_agent.drv [ahb_slave_driver] Beat AHB_WRITE addr=0x0000d27d resp=AHB_RESP_OKAY waits=1 wdata=0x52dd7520
# UVM_INFO ../src/mst/ahb_master_monitor.sv(117) @ 2315000: uvm_test_top.env.master_agent.mon [ahb_master_monitor] Beat[2] addr=0x0000d27d wdata=0x52dd7520 resp=AHB_RESP_OKAY
# UVM_INFO ../src/mst/ahb_master_driver.sv(332) @ 2335000: uvm_test_top.env.master_agent.drv [ahb_master_driver] Beat[3/4] addr=0x0000d27e trans=AHB_TRANS_SEQ resp=AHB_RESP_OKAY wdata=0xc26afb3b
# UVM_INFO ../src/mst/ahb_master_driver.sv(376) @ 2335000: uvm_test_top.env.master_agent.drv [ahb_master_driver] Transaction complete: AHB_WRITE 0x0000d27b, 4 beats, burst=AHB_BURST_INCR4
# UVM_INFO ../src/mst/ahb_master_driver.sv(127) @ 2335000: uvm_test_top.env.master_agent.drv [ahb_master_driver] Driving [AHB_READ]: HADDR=0x0000d27b, HBURST=AHB_BURST_INCR4, HSIZE=AHB_SIZE_8B, 4 beats (back-to-back)
# UVM_INFO ../src/slv/ahb_slave_driver.sv(184) @ 2335000: uvm_test_top.env.slave_agent.drv [ahb_slave_driver] Beat AHB_WRITE addr=0x0000d27e resp=AHB_RESP_OKAY waits=1 wdata=0xc26afb3b
# UVM_INFO ../src/slv/ahb_slave_monitor.sv(197) @ 2335000: uvm_test_top.env.slave_agent.mon [ahb_slave_monitor] Observed [AHB_WRITE]: HADDR=0x0000d27b, HBURST=AHB_BURST_INCR4, HSIZE=AHB_SIZE_8B, 4 beats
# UVM_INFO ../src/env/ahb_coverage.sv(126) @ 2335000: uvm_test_top.env.slave_cov [ahb_coverage] Sampled [AHB_WRITE]: burst=AHB_BURST_INCR4 size=AHB_SIZE_8B beats=4 error=0
# UVM_INFO ../src/mst/ahb_master_monitor.sv(117) @ 2335000: uvm_test_top.env.master_agent.mon [ahb_master_monitor] Beat[3] addr=0x0000d27e wdata=0xc26afb3b resp=AHB_RESP_OKAY
# UVM_INFO ../src/mst/ahb_master_monitor.sv(220) @ 2335000: uvm_test_top.env.master_agent.mon [ahb_master_monitor] Observed [AHB_WRITE]: HADDR=0x0000d27b, HBURST=AHB_BURST_INCR4, HSIZE=AHB_SIZE_8B, 4 beats
# UVM_INFO ../src/env/ahb_coverage.sv(126) @ 2335000: uvm_test_top.env.master_cov [ahb_coverage] Sampled [AHB_WRITE]: burst=AHB_BURST_INCR4 size=AHB_SIZE_8B beats=4 error=0
# UVM_INFO ../src/env/ahb_scoreboard.sv(104) @ 2335000: uvm_test_top.env.scb [ahb_scoreboard] MATCH #19: [AHB_WRITE] HADDR=0x0000d27b AHB_BURST_INCR4 4 beats
# UVM_INFO ../src/mst/ahb_master_driver.sv(332) @ 2355000: uvm_test_top.env.master_agent.drv [ahb_master_driver] Beat[0/4] addr=0x0000d27b trans=AHB_TRANS_NONSEQ resp=AHB_RESP_OKAY rdata=0xdd6b3325
# UVM_INFO ../src/slv/ahb_slave_driver.sv(184) @ 2355000: uvm_test_top.env.slave_agent.drv [ahb_slave_driver] Beat AHB_READ addr=0x0000d27b resp=AHB_RESP_OKAY waits=1 rdata=0xdd6b3325
# UVM_INFO ../src/mst/ahb_master_monitor.sv(117) @ 2355000: uvm_test_top.env.master_agent.mon [ahb_master_monitor] Beat[0] addr=0x0000d27b rdata=0xdd6b3325 resp=AHB_RESP_OKAY
# UVM_INFO ../src/mst/ahb_master_driver.sv(332) @ 2375000: uvm_test_top.env.master_agent.drv [ahb_master_driver] Beat[1/4] addr=0x0000d27c trans=AHB_TRANS_SEQ resp=AHB_RESP_OKAY rdata=0x07459fc7
# UVM_INFO ../src/slv/ahb_slave_driver.sv(184) @ 2375000: uvm_test_top.env.slave_agent.drv [ahb_slave_driver] Beat AHB_READ addr=0x0000d27c resp=AHB_RESP_OKAY waits=1 rdata=0x07459fc7
# UVM_INFO ../src/mst/ahb_master_monitor.sv(117) @ 2375000: uvm_test_top.env.master_agent.mon [ahb_master_monitor] Beat[1] addr=0x0000d27c rdata=0x07459fc7 resp=AHB_RESP_OKAY
# UVM_INFO ../src/mst/ahb_master_driver.sv(332) @ 2395000: uvm_test_top.env.master_agent.drv [ahb_master_driver] Beat[2/4] addr=0x0000d27d trans=AHB_TRANS_SEQ resp=AHB_RESP_OKAY rdata=0x52dd7520
# UVM_INFO ../src/slv/ahb_slave_driver.sv(184) @ 2395000: uvm_test_top.env.slave_agent.drv [ahb_slave_driver] Beat AHB_READ addr=0x0000d27d resp=AHB_RESP_OKAY waits=1 rdata=0x52dd7520
# UVM_INFO ../src/mst/ahb_master_monitor.sv(117) @ 2395000: uvm_test_top.env.master_agent.mon [ahb_master_monitor] Beat[2] addr=0x0000d27d rdata=0x52dd7520 resp=AHB_RESP_OKAY
# UVM_INFO ../src/mst/ahb_master_driver.sv(332) @ 2415000: uvm_test_top.env.master_agent.drv [ahb_master_driver] Beat[3/4] addr=0x0000d27e trans=AHB_TRANS_SEQ resp=AHB_RESP_OKAY rdata=0xc26afb3b
# UVM_INFO ../src/mst/ahb_master_driver.sv(376) @ 2415000: uvm_test_top.env.master_agent.drv [ahb_master_driver] Transaction complete: AHB_READ 0x0000d27b, 4 beats, burst=AHB_BURST_INCR4
# UVM_INFO ../src/slv/ahb_slave_driver.sv(184) @ 2415000: uvm_test_top.env.slave_agent.drv [ahb_slave_driver] Beat AHB_READ addr=0x0000d27e resp=AHB_RESP_OKAY waits=1 rdata=0xc26afb3b
# UVM_INFO ../src/slv/ahb_slave_monitor.sv(197) @ 2415000: uvm_test_top.env.slave_agent.mon [ahb_slave_monitor] Observed [AHB_READ]: HADDR=0x0000d27b, HBURST=AHB_BURST_INCR4, HSIZE=AHB_SIZE_8B, 4 beats
# UVM_INFO ../src/env/ahb_coverage.sv(126) @ 2415000: uvm_test_top.env.slave_cov [ahb_coverage] Sampled [AHB_READ]: burst=AHB_BURST_INCR4 size=AHB_SIZE_8B beats=4 error=0
# UVM_INFO ../src/mst/ahb_master_monitor.sv(117) @ 2415000: uvm_test_top.env.master_agent.mon [ahb_master_monitor] Beat[3] addr=0x0000d27e rdata=0xc26afb3b resp=AHB_RESP_OKAY
# UVM_INFO ../src/mst/ahb_master_monitor.sv(220) @ 2415000: uvm_test_top.env.master_agent.mon [ahb_master_monitor] Observed [AHB_READ]: HADDR=0x0000d27b, HBURST=AHB_BURST_INCR4, HSIZE=AHB_SIZE_8B, 4 beats
# UVM_INFO ../src/env/ahb_coverage.sv(126) @ 2415000: uvm_test_top.env.master_cov [ahb_coverage] Sampled [AHB_READ]: burst=AHB_BURST_INCR4 size=AHB_SIZE_8B beats=4 error=0
# UVM_INFO ../src/env/ahb_scoreboard.sv(104) @ 2415000: uvm_test_top.env.scb [ahb_scoreboard] MATCH #20: [AHB_READ] HADDR=0x0000d27b AHB_BURST_INCR4 4 beats
# UVM_INFO ../src/mst_seq/ahb_base_seq.sv(157) @ 2415000: uvm_test_top.env.master_agent.sqr@@seq [ahb_wait_state_seq] AHB_BURST_INCR4 AHB_SIZE_8B beat 0 @0x0000d27b ok
# UVM_INFO ../src/mst_seq/ahb_base_seq.sv(157) @ 2415000: uvm_test_top.env.master_agent.sqr@@seq [ahb_wait_state_seq] AHB_BURST_INCR4 AHB_SIZE_8B beat 1 @0x0000d27c ok
# UVM_INFO ../src/mst_seq/ahb_base_seq.sv(157) @ 2415000: uvm_test_top.env.master_agent.sqr@@seq [ahb_wait_state_seq] AHB_BURST_INCR4 AHB_SIZE_8B beat 2 @0x0000d27d ok
# UVM_INFO ../src/mst_seq/ahb_base_seq.sv(157) @ 2415000: uvm_test_top.env.master_agent.sqr@@seq [ahb_wait_state_seq] AHB_BURST_INCR4 AHB_SIZE_8B beat 3 @0x0000d27e ok
# UVM_INFO ../src/mst_seq/ahb_wait_state_seq.sv(166) @ 2415000: uvm_test_top.env.master_agent.sqr@@seq [ahb_wait_state_seq] AHB_BURST_SINGLE AHB_SIZE_8B @0x0000d28b, 1 beats, waits=2:2, pipelined=0
# UVM_INFO ../src/mst/ahb_master_driver.sv(85) @ 2415000: uvm_test_top.env.master_agent.drv [ahb_master_driver] Queueing [AHB_WRITE]: HADDR=0x0000d28b, HBURST=AHB_BURST_SINGLE, HSIZE=AHB_SIZE_8B, 1 beats
# UVM_INFO ../src/mst/ahb_master_driver.sv(127) @ 2415000: uvm_test_top.env.master_agent.drv [ahb_master_driver] Driving [AHB_WRITE]: HADDR=0x0000d28b, HBURST=AHB_BURST_SINGLE, HSIZE=AHB_SIZE_8B, 1 beats               
# UVM_INFO ../src/mst/ahb_master_driver.sv(332) @ 2465000: uvm_test_top.env.master_agent.drv [ahb_master_driver] Beat[0/1] addr=0x0000d28b trans=AHB_TRANS_NONSEQ resp=AHB_RESP_OKAY wdata=0x86120ce0
# UVM_INFO ../src/mst/ahb_master_driver.sv(376) @ 2465000: uvm_test_top.env.master_agent.drv [ahb_master_driver] Transaction complete: AHB_WRITE 0x0000d28b, 1 beats, burst=AHB_BURST_SINGLE
# UVM_INFO ../src/slv/ahb_slave_driver.sv(184) @ 2465000: uvm_test_top.env.slave_agent.drv [ahb_slave_driver] Beat AHB_WRITE addr=0x0000d28b resp=AHB_RESP_OKAY waits=2 wdata=0x86120ce0
# UVM_INFO ../src/mst/ahb_master_monitor.sv(117) @ 2465000: uvm_test_top.env.master_agent.mon [ahb_master_monitor] Beat[0] addr=0x0000d28b wdata=0x86120ce0 resp=AHB_RESP_OKAY
# UVM_INFO ../src/mst/ahb_master_monitor.sv(220) @ 2465000: uvm_test_top.env.master_agent.mon [ahb_master_monitor] Observed [AHB_WRITE]: HADDR=0x0000d28b, HBURST=AHB_BURST_SINGLE, HSIZE=AHB_SIZE_8B, 1 beats
# UVM_INFO ../src/env/ahb_coverage.sv(126) @ 2465000: uvm_test_top.env.master_cov [ahb_coverage] Sampled [AHB_WRITE]: burst=AHB_BURST_SINGLE size=AHB_SIZE_8B beats=1 error=0
# UVM_INFO ../src/slv/ahb_slave_monitor.sv(197) @ 2465000: uvm_test_top.env.slave_agent.mon [ahb_slave_monitor] Observed [AHB_WRITE]: HADDR=0x0000d28b, HBURST=AHB_BURST_SINGLE, HSIZE=AHB_SIZE_8B, 1 beats
# UVM_INFO ../src/env/ahb_scoreboard.sv(104) @ 2465000: uvm_test_top.env.scb [ahb_scoreboard] MATCH #21: [AHB_WRITE] HADDR=0x0000d28b AHB_BURST_SINGLE 1 beats
# UVM_INFO ../src/env/ahb_coverage.sv(126) @ 2465000: uvm_test_top.env.slave_cov [ahb_coverage] Sampled [AHB_WRITE]: burst=AHB_BURST_SINGLE size=AHB_SIZE_8B beats=1 error=0
# UVM_INFO ../src/mst/ahb_master_driver.sv(85) @ 2465000: uvm_test_top.env.master_agent.drv [ahb_master_driver] Queueing [AHB_READ]: HADDR=0x0000d28b, HBURST=AHB_BURST_SINGLE, HSIZE=AHB_SIZE_8B, 1 beats
# UVM_INFO ../src/mst/ahb_master_driver.sv(127) @ 2465000: uvm_test_top.env.master_agent.drv [ahb_master_driver] Driving [AHB_READ]: HADDR=0x0000d28b, HBURST=AHB_BURST_SINGLE, HSIZE=AHB_SIZE_8B, 1 beats               
# UVM_INFO ../src/mst/ahb_master_driver.sv(332) @ 2515000: uvm_test_top.env.master_agent.drv [ahb_master_driver] Beat[0/1] addr=0x0000d28b trans=AHB_TRANS_NONSEQ resp=AHB_RESP_OKAY rdata=0x86120ce0
# UVM_INFO ../src/mst/ahb_master_driver.sv(376) @ 2515000: uvm_test_top.env.master_agent.drv [ahb_master_driver] Transaction complete: AHB_READ 0x0000d28b, 1 beats, burst=AHB_BURST_SINGLE
# UVM_INFO ../src/slv/ahb_slave_driver.sv(184) @ 2515000: uvm_test_top.env.slave_agent.drv [ahb_slave_driver] Beat AHB_READ addr=0x0000d28b resp=AHB_RESP_OKAY waits=2 rdata=0x86120ce0
# UVM_INFO ../src/slv/ahb_slave_monitor.sv(197) @ 2515000: uvm_test_top.env.slave_agent.mon [ahb_slave_monitor] Observed [AHB_READ]: HADDR=0x0000d28b, HBURST=AHB_BURST_SINGLE, HSIZE=AHB_SIZE_8B, 1 beats
# UVM_INFO ../src/env/ahb_coverage.sv(126) @ 2515000: uvm_test_top.env.slave_cov [ahb_coverage] Sampled [AHB_READ]: burst=AHB_BURST_SINGLE size=AHB_SIZE_8B beats=1 error=0
# UVM_INFO ../src/mst/ahb_master_monitor.sv(117) @ 2515000: uvm_test_top.env.master_agent.mon [ahb_master_monitor] Beat[0] addr=0x0000d28b rdata=0x86120ce0 resp=AHB_RESP_OKAY
# UVM_INFO ../src/mst/ahb_master_monitor.sv(220) @ 2515000: uvm_test_top.env.master_agent.mon [ahb_master_monitor] Observed [AHB_READ]: HADDR=0x0000d28b, HBURST=AHB_BURST_SINGLE, HSIZE=AHB_SIZE_8B, 1 beats
# UVM_INFO ../src/env/ahb_coverage.sv(126) @ 2515000: uvm_test_top.env.master_cov [ahb_coverage] Sampled [AHB_READ]: burst=AHB_BURST_SINGLE size=AHB_SIZE_8B beats=1 error=0
# UVM_INFO ../src/env/ahb_scoreboard.sv(104) @ 2515000: uvm_test_top.env.scb [ahb_scoreboard] MATCH #22: [AHB_READ] HADDR=0x0000d28b AHB_BURST_SINGLE 1 beats
# UVM_INFO ../src/mst_seq/ahb_base_seq.sv(157) @ 2515000: uvm_test_top.env.master_agent.sqr@@seq [ahb_wait_state_seq] AHB_BURST_SINGLE AHB_SIZE_8B beat 0 @0x0000d28b ok
# UVM_INFO ../src/mst_seq/ahb_wait_state_seq.sv(166) @ 2515000: uvm_test_top.env.master_agent.sqr@@seq [ahb_wait_state_seq] AHB_BURST_WRAP4 AHB_SIZE_8B @0x0000d2d9, 4 beats, waits=3:3, pipelined=1
# UVM_INFO ../src/mst/ahb_master_driver.sv(85) @ 2515000: uvm_test_top.env.master_agent.drv [ahb_master_driver] Queueing [AHB_WRITE]: HADDR=0x0000d2d9, HBURST=AHB_BURST_WRAP4, HSIZE=AHB_SIZE_8B, 4 beats
# UVM_INFO ../src/mst/ahb_master_driver.sv(127) @ 2515000: uvm_test_top.env.master_agent.drv [ahb_master_driver] Driving [AHB_WRITE]: HADDR=0x0000d2d9, HBURST=AHB_BURST_WRAP4, HSIZE=AHB_SIZE_8B, 4 beats               
# UVM_INFO ../src/mst/ahb_master_driver.sv(85) @ 2515000: uvm_test_top.env.master_agent.drv [ahb_master_driver] Queueing [AHB_READ]: HADDR=0x0000d2d9, HBURST=AHB_BURST_WRAP4, HSIZE=AHB_SIZE_8B, 4 beats
# UVM_INFO ../src/mst/ahb_master_driver.sv(332) @ 2575000: uvm_test_top.env.master_agent.drv [ahb_master_driver] Beat[0/4] addr=0x0000d2d9 trans=AHB_TRANS_NONSEQ resp=AHB_RESP_OKAY wdata=0x4104bcb2
# UVM_INFO ../src/slv/ahb_slave_driver.sv(184) @ 2575000: uvm_test_top.env.slave_agent.drv [ahb_slave_driver] Beat AHB_WRITE addr=0x0000d2d9 resp=AHB_RESP_OKAY waits=3 wdata=0x4104bcb2
# UVM_INFO ../src/mst/ahb_master_monitor.sv(117) @ 2575000: uvm_test_top.env.master_agent.mon [ahb_master_monitor] Beat[0] addr=0x0000d2d9 wdata=0x4104bcb2 resp=AHB_RESP_OKAY
# UVM_INFO ../src/mst/ahb_master_driver.sv(332) @ 2615000: uvm_test_top.env.master_agent.drv [ahb_master_driver] Beat[1/4] addr=0x0000d2da trans=AHB_TRANS_SEQ resp=AHB_RESP_OKAY wdata=0xc5b83cec
# UVM_INFO ../src/slv/ahb_slave_driver.sv(184) @ 2615000: uvm_test_top.env.slave_agent.drv [ahb_slave_driver] Beat AHB_WRITE addr=0x0000d2da resp=AHB_RESP_OKAY waits=3 wdata=0xc5b83cec
# UVM_INFO ../src/mst/ahb_master_monitor.sv(117) @ 2615000: uvm_test_top.env.master_agent.mon [ahb_master_monitor] Beat[1] addr=0x0000d2da wdata=0xc5b83cec resp=AHB_RESP_OKAY
# UVM_INFO ../src/mst/ahb_master_driver.sv(332) @ 2655000: uvm_test_top.env.master_agent.drv [ahb_master_driver] Beat[2/4] addr=0x0000d2db trans=AHB_TRANS_SEQ resp=AHB_RESP_OKAY wdata=0xbb773ca9
# UVM_INFO ../src/slv/ahb_slave_driver.sv(184) @ 2655000: uvm_test_top.env.slave_agent.drv [ahb_slave_driver] Beat AHB_WRITE addr=0x0000d2db resp=AHB_RESP_OKAY waits=3 wdata=0xbb773ca9
# UVM_INFO ../src/mst/ahb_master_monitor.sv(117) @ 2655000: uvm_test_top.env.master_agent.mon [ahb_master_monitor] Beat[2] addr=0x0000d2db wdata=0xbb773ca9 resp=AHB_RESP_OKAY
# UVM_INFO ../src/mst/ahb_master_driver.sv(332) @ 2695000: uvm_test_top.env.master_agent.drv [ahb_master_driver] Beat[3/4] addr=0x0000d2d8 trans=AHB_TRANS_SEQ resp=AHB_RESP_OKAY wdata=0x0ee8115d
# UVM_INFO ../src/mst/ahb_master_driver.sv(376) @ 2695000: uvm_test_top.env.master_agent.drv [ahb_master_driver] Transaction complete: AHB_WRITE 0x0000d2d9, 4 beats, burst=AHB_BURST_WRAP4
# UVM_INFO ../src/mst/ahb_master_driver.sv(127) @ 2695000: uvm_test_top.env.master_agent.drv [ahb_master_driver] Driving [AHB_READ]: HADDR=0x0000d2d9, HBURST=AHB_BURST_WRAP4, HSIZE=AHB_SIZE_8B, 4 beats (back-to-back)
# UVM_INFO ../src/slv/ahb_slave_driver.sv(184) @ 2695000: uvm_test_top.env.slave_agent.drv [ahb_slave_driver] Beat AHB_WRITE addr=0x0000d2d8 resp=AHB_RESP_OKAY waits=3 wdata=0x0ee8115d
# UVM_INFO ../src/slv/ahb_slave_monitor.sv(197) @ 2695000: uvm_test_top.env.slave_agent.mon [ahb_slave_monitor] Observed [AHB_WRITE]: HADDR=0x0000d2d9, HBURST=AHB_BURST_WRAP4, HSIZE=AHB_SIZE_8B, 4 beats
# UVM_INFO ../src/env/ahb_coverage.sv(126) @ 2695000: uvm_test_top.env.slave_cov [ahb_coverage] Sampled [AHB_WRITE]: burst=AHB_BURST_WRAP4 size=AHB_SIZE_8B beats=4 error=0
# UVM_INFO ../src/mst/ahb_master_monitor.sv(117) @ 2695000: uvm_test_top.env.master_agent.mon [ahb_master_monitor] Beat[3] addr=0x0000d2d8 wdata=0x0ee8115d resp=AHB_RESP_OKAY
# UVM_INFO ../src/mst/ahb_master_monitor.sv(220) @ 2695000: uvm_test_top.env.master_agent.mon [ahb_master_monitor] Observed [AHB_WRITE]: HADDR=0x0000d2d9, HBURST=AHB_BURST_WRAP4, HSIZE=AHB_SIZE_8B, 4 beats
# UVM_INFO ../src/env/ahb_coverage.sv(126) @ 2695000: uvm_test_top.env.master_cov [ahb_coverage] Sampled [AHB_WRITE]: burst=AHB_BURST_WRAP4 size=AHB_SIZE_8B beats=4 error=0
# UVM_INFO ../src/env/ahb_scoreboard.sv(104) @ 2695000: uvm_test_top.env.scb [ahb_scoreboard] MATCH #23: [AHB_WRITE] HADDR=0x0000d2d9 AHB_BURST_WRAP4 4 beats
# UVM_INFO ../src/mst/ahb_master_driver.sv(332) @ 2735000: uvm_test_top.env.master_agent.drv [ahb_master_driver] Beat[0/4] addr=0x0000d2d9 trans=AHB_TRANS_NONSEQ resp=AHB_RESP_OKAY rdata=0x4104bcb2
# UVM_INFO ../src/slv/ahb_slave_driver.sv(184) @ 2735000: uvm_test_top.env.slave_agent.drv [ahb_slave_driver] Beat AHB_READ addr=0x0000d2d9 resp=AHB_RESP_OKAY waits=3 rdata=0x4104bcb2
# UVM_INFO ../src/mst/ahb_master_monitor.sv(117) @ 2735000: uvm_test_top.env.master_agent.mon [ahb_master_monitor] Beat[0] addr=0x0000d2d9 rdata=0x4104bcb2 resp=AHB_RESP_OKAY
# UVM_INFO ../src/mst/ahb_master_driver.sv(332) @ 2775000: uvm_test_top.env.master_agent.drv [ahb_master_driver] Beat[1/4] addr=0x0000d2da trans=AHB_TRANS_SEQ resp=AHB_RESP_OKAY rdata=0xc5b83cec
# UVM_INFO ../src/slv/ahb_slave_driver.sv(184) @ 2775000: uvm_test_top.env.slave_agent.drv [ahb_slave_driver] Beat AHB_READ addr=0x0000d2da resp=AHB_RESP_OKAY waits=3 rdata=0xc5b83cec
# UVM_INFO ../src/mst/ahb_master_monitor.sv(117) @ 2775000: uvm_test_top.env.master_agent.mon [ahb_master_monitor] Beat[1] addr=0x0000d2da rdata=0xc5b83cec resp=AHB_RESP_OKAY
# UVM_INFO ../src/mst/ahb_master_driver.sv(332) @ 2815000: uvm_test_top.env.master_agent.drv [ahb_master_driver] Beat[2/4] addr=0x0000d2db trans=AHB_TRANS_SEQ resp=AHB_RESP_OKAY rdata=0xbb773ca9
# UVM_INFO ../src/slv/ahb_slave_driver.sv(184) @ 2815000: uvm_test_top.env.slave_agent.drv [ahb_slave_driver] Beat AHB_READ addr=0x0000d2db resp=AHB_RESP_OKAY waits=3 rdata=0xbb773ca9
# UVM_INFO ../src/mst/ahb_master_monitor.sv(117) @ 2815000: uvm_test_top.env.master_agent.mon [ahb_master_monitor] Beat[2] addr=0x0000d2db rdata=0xbb773ca9 resp=AHB_RESP_OKAY
# UVM_INFO ../src/mst/ahb_master_driver.sv(332) @ 2855000: uvm_test_top.env.master_agent.drv [ahb_master_driver] Beat[3/4] addr=0x0000d2d8 trans=AHB_TRANS_SEQ resp=AHB_RESP_OKAY rdata=0x0ee8115d
# UVM_INFO ../src/mst/ahb_master_driver.sv(376) @ 2855000: uvm_test_top.env.master_agent.drv [ahb_master_driver] Transaction complete: AHB_READ 0x0000d2d9, 4 beats, burst=AHB_BURST_WRAP4
# UVM_INFO ../src/slv/ahb_slave_driver.sv(184) @ 2855000: uvm_test_top.env.slave_agent.drv [ahb_slave_driver] Beat AHB_READ addr=0x0000d2d8 resp=AHB_RESP_OKAY waits=3 rdata=0x0ee8115d
# UVM_INFO ../src/slv/ahb_slave_monitor.sv(197) @ 2855000: uvm_test_top.env.slave_agent.mon [ahb_slave_monitor] Observed [AHB_READ]: HADDR=0x0000d2d9, HBURST=AHB_BURST_WRAP4, HSIZE=AHB_SIZE_8B, 4 beats
# UVM_INFO ../src/env/ahb_coverage.sv(126) @ 2855000: uvm_test_top.env.slave_cov [ahb_coverage] Sampled [AHB_READ]: burst=AHB_BURST_WRAP4 size=AHB_SIZE_8B beats=4 error=0
# UVM_INFO ../src/mst/ahb_master_monitor.sv(117) @ 2855000: uvm_test_top.env.master_agent.mon [ahb_master_monitor] Beat[3] addr=0x0000d2d8 rdata=0x0ee8115d resp=AHB_RESP_OKAY
# UVM_INFO ../src/mst/ahb_master_monitor.sv(220) @ 2855000: uvm_test_top.env.master_agent.mon [ahb_master_monitor] Observed [AHB_READ]: HADDR=0x0000d2d9, HBURST=AHB_BURST_WRAP4, HSIZE=AHB_SIZE_8B, 4 beats
# UVM_INFO ../src/env/ahb_coverage.sv(126) @ 2855000: uvm_test_top.env.master_cov [ahb_coverage] Sampled [AHB_READ]: burst=AHB_BURST_WRAP4 size=AHB_SIZE_8B beats=4 error=0
# UVM_INFO ../src/env/ahb_scoreboard.sv(104) @ 2855000: uvm_test_top.env.scb [ahb_scoreboard] MATCH #24: [AHB_READ] HADDR=0x0000d2d9 AHB_BURST_WRAP4 4 beats
# UVM_INFO ../src/mst_seq/ahb_base_seq.sv(157) @ 2855000: uvm_test_top.env.master_agent.sqr@@seq [ahb_wait_state_seq] AHB_BURST_WRAP4 AHB_SIZE_8B beat 0 @0x0000d2d9 ok
# UVM_INFO ../src/mst_seq/ahb_base_seq.sv(157) @ 2855000: uvm_test_top.env.master_agent.sqr@@seq [ahb_wait_state_seq] AHB_BURST_WRAP4 AHB_SIZE_8B beat 1 @0x0000d2da ok
# UVM_INFO ../src/mst_seq/ahb_base_seq.sv(157) @ 2855000: uvm_test_top.env.master_agent.sqr@@seq [ahb_wait_state_seq] AHB_BURST_WRAP4 AHB_SIZE_8B beat 2 @0x0000d2db ok
# UVM_INFO ../src/mst_seq/ahb_base_seq.sv(157) @ 2855000: uvm_test_top.env.master_agent.sqr@@seq [ahb_wait_state_seq] AHB_BURST_WRAP4 AHB_SIZE_8B beat 3 @0x0000d2d8 ok
# UVM_INFO ../src/mst_seq/ahb_wait_state_seq.sv(166) @ 2855000: uvm_test_top.env.master_agent.sqr@@seq [ahb_wait_state_seq] AHB_BURST_INCR8 AHB_SIZE_8B @0x0000d323, 8 beats, waits=1:7, pipelined=0
# UVM_INFO ../src/mst/ahb_master_driver.sv(85) @ 2855000: uvm_test_top.env.master_agent.drv [ahb_master_driver] Queueing [AHB_WRITE]: HADDR=0x0000d323, HBURST=AHB_BURST_INCR8, HSIZE=AHB_SIZE_8B, 8 beats
# UVM_INFO ../src/mst/ahb_master_driver.sv(127) @ 2855000: uvm_test_top.env.master_agent.drv [ahb_master_driver] Driving [AHB_WRITE]: HADDR=0x0000d323, HBURST=AHB_BURST_INCR8, HSIZE=AHB_SIZE_8B, 8 beats               
# UVM_INFO ../src/mst/ahb_master_driver.sv(332) @ 2945000: uvm_test_top.env.master_agent.drv [ahb_master_driver] Beat[0/8] addr=0x0000d323 trans=AHB_TRANS_NONSEQ resp=AHB_RESP_OKAY wdata=0x1dc20684
# UVM_INFO ../src/slv/ahb_slave_driver.sv(184) @ 2945000: uvm_test_top.env.slave_agent.drv [ahb_slave_driver] Beat AHB_WRITE addr=0x0000d323 resp=AHB_RESP_OKAY waits=6 wdata=0x1dc20684
# UVM_INFO ../src/mst/ahb_master_monitor.sv(117) @ 2945000: uvm_test_top.env.master_agent.mon [ahb_master_monitor] Beat[0] addr=0x0000d323 wdata=0x1dc20684 resp=AHB_RESP_OKAY
# UVM_INFO ../src/mst/ahb_master_driver.sv(332) @ 3005000: uvm_test_top.env.master_agent.drv [ahb_master_driver] Beat[1/8] addr=0x0000d324 trans=AHB_TRANS_SEQ resp=AHB_RESP_OKAY wdata=0x8f169a47
# UVM_INFO ../src/slv/ahb_slave_driver.sv(184) @ 3005000: uvm_test_top.env.slave_agent.drv [ahb_slave_driver] Beat AHB_WRITE addr=0x0000d324 resp=AHB_RESP_OKAY waits=5 wdata=0x8f169a47
# UVM_INFO ../src/mst/ahb_master_monitor.sv(117) @ 3005000: uvm_test_top.env.master_agent.mon [ahb_master_monitor] Beat[1] addr=0x0000d324 wdata=0x8f169a47 resp=AHB_RESP_OKAY
# UVM_INFO ../src/mst/ahb_master_driver.sv(332) @ 3085000: uvm_test_top.env.master_agent.drv [ahb_master_driver] Beat[2/8] addr=0x0000d325 trans=AHB_TRANS_SEQ resp=AHB_RESP_OKAY wdata=0xf2a22aec
# UVM_INFO ../src/slv/ahb_slave_driver.sv(184) @ 3085000: uvm_test_top.env.slave_agent.drv [ahb_slave_driver] Beat AHB_WRITE addr=0x0000d325 resp=AHB_RESP_OKAY waits=7 wdata=0xf2a22aec
# UVM_INFO ../src/mst/ahb_master_monitor.sv(117) @ 3085000: uvm_test_top.env.master_agent.mon [ahb_master_monitor] Beat[2] addr=0x0000d325 wdata=0xf2a22aec resp=AHB_RESP_OKAY
# UVM_INFO ../src/mst/ahb_master_driver.sv(332) @ 3125000: uvm_test_top.env.master_agent.drv [ahb_master_driver] Beat[3/8] addr=0x0000d326 trans=AHB_TRANS_SEQ resp=AHB_RESP_OKAY wdata=0x5e06296e
# UVM_INFO ../src/slv/ahb_slave_driver.sv(184) @ 3125000: uvm_test_top.env.slave_agent.drv [ahb_slave_driver] Beat AHB_WRITE addr=0x0000d326 resp=AHB_RESP_OKAY waits=3 wdata=0x5e06296e
# UVM_INFO ../src/mst/ahb_master_monitor.sv(117) @ 3125000: uvm_test_top.env.master_agent.mon [ahb_master_monitor] Beat[3] addr=0x0000d326 wdata=0x5e06296e resp=AHB_RESP_OKAY
# UVM_INFO ../src/mst/ahb_master_driver.sv(332) @ 3205000: uvm_test_top.env.master_agent.drv [ahb_master_driver] Beat[4/8] addr=0x0000d327 trans=AHB_TRANS_SEQ resp=AHB_RESP_OKAY wdata=0xffe709c3
# UVM_INFO ../src/slv/ahb_slave_driver.sv(184) @ 3205000: uvm_test_top.env.slave_agent.drv [ahb_slave_driver] Beat AHB_WRITE addr=0x0000d327 resp=AHB_RESP_OKAY waits=7 wdata=0xffe709c3
# UVM_INFO ../src/mst/ahb_master_monitor.sv(117) @ 3205000: uvm_test_top.env.master_agent.mon [ahb_master_monitor] Beat[4] addr=0x0000d327 wdata=0xffe709c3 resp=AHB_RESP_OKAY
# UVM_INFO ../src/mst/ahb_master_driver.sv(332) @ 3245000: uvm_test_top.env.master_agent.drv [ahb_master_driver] Beat[5/8] addr=0x0000d328 trans=AHB_TRANS_SEQ resp=AHB_RESP_OKAY wdata=0x8c796b7d
# UVM_INFO ../src/slv/ahb_slave_driver.sv(184) @ 3245000: uvm_test_top.env.slave_agent.drv [ahb_slave_driver] Beat AHB_WRITE addr=0x0000d328 resp=AHB_RESP_OKAY waits=3 wdata=0x8c796b7d
# UVM_INFO ../src/mst/ahb_master_monitor.sv(117) @ 3245000: uvm_test_top.env.master_agent.mon [ahb_master_monitor] Beat[5] addr=0x0000d328 wdata=0x8c796b7d resp=AHB_RESP_OKAY
# UVM_INFO ../src/mst/ahb_master_driver.sv(332) @ 3325000: uvm_test_top.env.master_agent.drv [ahb_master_driver] Beat[6/8] addr=0x0000d329 trans=AHB_TRANS_SEQ resp=AHB_RESP_OKAY wdata=0x0f5f898b
# UVM_INFO ../src/slv/ahb_slave_driver.sv(184) @ 3325000: uvm_test_top.env.slave_agent.drv [ahb_slave_driver] Beat AHB_WRITE addr=0x0000d329 resp=AHB_RESP_OKAY waits=7 wdata=0x0f5f898b
# UVM_INFO ../src/mst/ahb_master_monitor.sv(117) @ 3325000: uvm_test_top.env.master_agent.mon [ahb_master_monitor] Beat[6] addr=0x0000d329 wdata=0x0f5f898b resp=AHB_RESP_OKAY
# UVM_INFO ../src/mst/ahb_master_driver.sv(332) @ 3395000: uvm_test_top.env.master_agent.drv [ahb_master_driver] Beat[7/8] addr=0x0000d32a trans=AHB_TRANS_SEQ resp=AHB_RESP_OKAY wdata=0x1fefed32
# UVM_INFO ../src/mst/ahb_master_driver.sv(376) @ 3395000: uvm_test_top.env.master_agent.drv [ahb_master_driver] Transaction complete: AHB_WRITE 0x0000d323, 8 beats, burst=AHB_BURST_INCR8
# UVM_INFO ../src/slv/ahb_slave_driver.sv(184) @ 3395000: uvm_test_top.env.slave_agent.drv [ahb_slave_driver] Beat AHB_WRITE addr=0x0000d32a resp=AHB_RESP_OKAY waits=6 wdata=0x1fefed32
# UVM_INFO ../src/slv/ahb_slave_monitor.sv(197) @ 3395000: uvm_test_top.env.slave_agent.mon [ahb_slave_monitor] Observed [AHB_WRITE]: HADDR=0x0000d323, HBURST=AHB_BURST_INCR8, HSIZE=AHB_SIZE_8B, 8 beats
# UVM_INFO ../src/env/ahb_coverage.sv(126) @ 3395000: uvm_test_top.env.slave_cov [ahb_coverage] Sampled [AHB_WRITE]: burst=AHB_BURST_INCR8 size=AHB_SIZE_8B beats=8 error=0
# UVM_INFO ../src/mst/ahb_master_monitor.sv(117) @ 3395000: uvm_test_top.env.master_agent.mon [ahb_master_monitor] Beat[7] addr=0x0000d32a wdata=0x1fefed32 resp=AHB_RESP_OKAY
# UVM_INFO ../src/mst/ahb_master_monitor.sv(220) @ 3395000: uvm_test_top.env.master_agent.mon [ahb_master_monitor] Observed [AHB_WRITE]: HADDR=0x0000d323, HBURST=AHB_BURST_INCR8, HSIZE=AHB_SIZE_8B, 8 beats
# UVM_INFO ../src/env/ahb_coverage.sv(126) @ 3395000: uvm_test_top.env.master_cov [ahb_coverage] Sampled [AHB_WRITE]: burst=AHB_BURST_INCR8 size=AHB_SIZE_8B beats=8 error=0
# UVM_INFO ../src/env/ahb_scoreboard.sv(104) @ 3395000: uvm_test_top.env.scb [ahb_scoreboard] MATCH #25: [AHB_WRITE] HADDR=0x0000d323 AHB_BURST_INCR8 8 beats
# UVM_INFO ../src/mst/ahb_master_driver.sv(85) @ 3395000: uvm_test_top.env.master_agent.drv [ahb_master_driver] Queueing [AHB_READ]: HADDR=0x0000d323, HBURST=AHB_BURST_INCR8, HSIZE=AHB_SIZE_8B, 8 beats
# UVM_INFO ../src/mst/ahb_master_driver.sv(127) @ 3395000: uvm_test_top.env.master_agent.drv [ahb_master_driver] Driving [AHB_READ]: HADDR=0x0000d323, HBURST=AHB_BURST_INCR8, HSIZE=AHB_SIZE_8B, 8 beats               
# UVM_INFO ../src/mst/ahb_master_driver.sv(332) @ 3465000: uvm_test_top.env.master_agent.drv [ahb_master_driver] Beat[0/8] addr=0x0000d323 trans=AHB_TRANS_NONSEQ resp=AHB_RESP_OKAY rdata=0x1dc20684
# UVM_INFO ../src/slv/ahb_slave_driver.sv(184) @ 3465000: uvm_test_top.env.slave_agent.drv [ahb_slave_driver] Beat AHB_READ addr=0x0000d323 resp=AHB_RESP_OKAY waits=4 rdata=0x1dc20684
# UVM_INFO ../src/mst/ahb_master_monitor.sv(117) @ 3465000: uvm_test_top.env.master_agent.mon [ahb_master_monitor] Beat[0] addr=0x0000d323 rdata=0x1dc20684 resp=AHB_RESP_OKAY
# UVM_INFO ../src/mst/ahb_master_driver.sv(332) @ 3485000: uvm_test_top.env.master_agent.drv [ahb_master_driver] Beat[1/8] addr=0x0000d324 trans=AHB_TRANS_SEQ resp=AHB_RESP_OKAY rdata=0x8f169a47
# UVM_INFO ../src/slv/ahb_slave_driver.sv(184) @ 3485000: uvm_test_top.env.slave_agent.drv [ahb_slave_driver] Beat AHB_READ addr=0x0000d324 resp=AHB_RESP_OKAY waits=1 rdata=0x8f169a47
# UVM_INFO ../src/mst/ahb_master_monitor.sv(117) @ 3485000: uvm_test_top.env.master_agent.mon [ahb_master_monitor] Beat[1] addr=0x0000d324 rdata=0x8f169a47 resp=AHB_RESP_OKAY
# UVM_INFO ../src/mst/ahb_master_driver.sv(332) @ 3565000: uvm_test_top.env.master_agent.drv [ahb_master_driver] Beat[2/8] addr=0x0000d325 trans=AHB_TRANS_SEQ resp=AHB_RESP_OKAY rdata=0xf2a22aec
# UVM_INFO ../src/slv/ahb_slave_driver.sv(184) @ 3565000: uvm_test_top.env.slave_agent.drv [ahb_slave_driver] Beat AHB_READ addr=0x0000d325 resp=AHB_RESP_OKAY waits=7 rdata=0xf2a22aec
# UVM_INFO ../src/mst/ahb_master_monitor.sv(117) @ 3565000: uvm_test_top.env.master_agent.mon [ahb_master_monitor] Beat[2] addr=0x0000d325 rdata=0xf2a22aec resp=AHB_RESP_OKAY
# UVM_INFO ../src/mst/ahb_master_driver.sv(332) @ 3615000: uvm_test_top.env.master_agent.drv [ahb_master_driver] Beat[3/8] addr=0x0000d326 trans=AHB_TRANS_SEQ resp=AHB_RESP_OKAY rdata=0x5e06296e
# UVM_INFO ../src/slv/ahb_slave_driver.sv(184) @ 3615000: uvm_test_top.env.slave_agent.drv [ahb_slave_driver] Beat AHB_READ addr=0x0000d326 resp=AHB_RESP_OKAY waits=4 rdata=0x5e06296e
# UVM_INFO ../src/mst/ahb_master_monitor.sv(117) @ 3615000: uvm_test_top.env.master_agent.mon [ahb_master_monitor] Beat[3] addr=0x0000d326 rdata=0x5e06296e resp=AHB_RESP_OKAY
# UVM_INFO ../src/mst/ahb_master_driver.sv(332) @ 3675000: uvm_test_top.env.master_agent.drv [ahb_master_driver] Beat[4/8] addr=0x0000d327 trans=AHB_TRANS_SEQ resp=AHB_RESP_OKAY rdata=0xffe709c3
# UVM_INFO ../src/slv/ahb_slave_driver.sv(184) @ 3675000: uvm_test_top.env.slave_agent.drv [ahb_slave_driver] Beat AHB_READ addr=0x0000d327 resp=AHB_RESP_OKAY waits=5 rdata=0xffe709c3
# UVM_INFO ../src/mst/ahb_master_monitor.sv(117) @ 3675000: uvm_test_top.env.master_agent.mon [ahb_master_monitor] Beat[4] addr=0x0000d327 rdata=0xffe709c3 resp=AHB_RESP_OKAY
# UVM_INFO ../src/mst/ahb_master_driver.sv(332) @ 3695000: uvm_test_top.env.master_agent.drv [ahb_master_driver] Beat[5/8] addr=0x0000d328 trans=AHB_TRANS_SEQ resp=AHB_RESP_OKAY rdata=0x8c796b7d
# UVM_INFO ../src/slv/ahb_slave_driver.sv(184) @ 3695000: uvm_test_top.env.slave_agent.drv [ahb_slave_driver] Beat AHB_READ addr=0x0000d328 resp=AHB_RESP_OKAY waits=1 rdata=0x8c796b7d
# UVM_INFO ../src/mst/ahb_master_monitor.sv(117) @ 3695000: uvm_test_top.env.master_agent.mon [ahb_master_monitor] Beat[5] addr=0x0000d328 rdata=0x8c796b7d resp=AHB_RESP_OKAY
# UVM_INFO ../src/mst/ahb_master_driver.sv(332) @ 3725000: uvm_test_top.env.master_agent.drv [ahb_master_driver] Beat[6/8] addr=0x0000d329 trans=AHB_TRANS_SEQ resp=AHB_RESP_OKAY rdata=0x0f5f898b
# UVM_INFO ../src/slv/ahb_slave_driver.sv(184) @ 3725000: uvm_test_top.env.slave_agent.drv [ahb_slave_driver] Beat AHB_READ addr=0x0000d329 resp=AHB_RESP_OKAY waits=2 rdata=0x0f5f898b
# UVM_INFO ../src/mst/ahb_master_monitor.sv(117) @ 3725000: uvm_test_top.env.master_agent.mon [ahb_master_monitor] Beat[6] addr=0x0000d329 rdata=0x0f5f898b resp=AHB_RESP_OKAY
# UVM_INFO ../src/mst/ahb_master_driver.sv(332) @ 3785000: uvm_test_top.env.master_agent.drv [ahb_master_driver] Beat[7/8] addr=0x0000d32a trans=AHB_TRANS_SEQ resp=AHB_RESP_OKAY rdata=0x1fefed32
# UVM_INFO ../src/mst/ahb_master_driver.sv(376) @ 3785000: uvm_test_top.env.master_agent.drv [ahb_master_driver] Transaction complete: AHB_READ 0x0000d323, 8 beats, burst=AHB_BURST_INCR8
# UVM_INFO ../src/slv/ahb_slave_driver.sv(184) @ 3785000: uvm_test_top.env.slave_agent.drv [ahb_slave_driver] Beat AHB_READ addr=0x0000d32a resp=AHB_RESP_OKAY waits=5 rdata=0x1fefed32
# UVM_INFO ../src/mst/ahb_master_monitor.sv(117) @ 3785000: uvm_test_top.env.master_agent.mon [ahb_master_monitor] Beat[7] addr=0x0000d32a rdata=0x1fefed32 resp=AHB_RESP_OKAY
# UVM_INFO ../src/mst/ahb_master_monitor.sv(220) @ 3785000: uvm_test_top.env.master_agent.mon [ahb_master_monitor] Observed [AHB_READ]: HADDR=0x0000d323, HBURST=AHB_BURST_INCR8, HSIZE=AHB_SIZE_8B, 8 beats
# UVM_INFO ../src/env/ahb_coverage.sv(126) @ 3785000: uvm_test_top.env.master_cov [ahb_coverage] Sampled [AHB_READ]: burst=AHB_BURST_INCR8 size=AHB_SIZE_8B beats=8 error=0
# UVM_INFO ../src/slv/ahb_slave_monitor.sv(197) @ 3785000: uvm_test_top.env.slave_agent.mon [ahb_slave_monitor] Observed [AHB_READ]: HADDR=0x0000d323, HBURST=AHB_BURST_INCR8, HSIZE=AHB_SIZE_8B, 8 beats
# UVM_INFO ../src/env/ahb_scoreboard.sv(104) @ 3785000: uvm_test_top.env.scb [ahb_scoreboard] MATCH #26: [AHB_READ] HADDR=0x0000d323 AHB_BURST_INCR8 8 beats
# UVM_INFO ../src/env/ahb_coverage.sv(126) @ 3785000: uvm_test_top.env.slave_cov [ahb_coverage] Sampled [AHB_READ]: burst=AHB_BURST_INCR8 size=AHB_SIZE_8B beats=8 error=0
# UVM_INFO ../src/mst_seq/ahb_base_seq.sv(157) @ 3785000: uvm_test_top.env.master_agent.sqr@@seq [ahb_wait_state_seq] AHB_BURST_INCR8 AHB_SIZE_8B beat 0 @0x0000d323 ok
# UVM_INFO ../src/mst_seq/ahb_base_seq.sv(157) @ 3785000: uvm_test_top.env.master_agent.sqr@@seq [ahb_wait_state_seq] AHB_BURST_INCR8 AHB_SIZE_8B beat 1 @0x0000d324 ok
# UVM_INFO ../src/mst_seq/ahb_base_seq.sv(157) @ 3785000: uvm_test_top.env.master_agent.sqr@@seq [ahb_wait_state_seq] AHB_BURST_INCR8 AHB_SIZE_8B beat 2 @0x0000d325 ok
# UVM_INFO ../src/mst_seq/ahb_base_seq.sv(157) @ 3785000: uvm_test_top.env.master_agent.sqr@@seq [ahb_wait_state_seq] AHB_BURST_INCR8 AHB_SIZE_8B beat 3 @0x0000d326 ok
# UVM_INFO ../src/mst_seq/ahb_base_seq.sv(157) @ 3785000: uvm_test_top.env.master_agent.sqr@@seq [ahb_wait_state_seq] AHB_BURST_INCR8 AHB_SIZE_8B beat 4 @0x0000d327 ok
# UVM_INFO ../src/mst_seq/ahb_base_seq.sv(157) @ 3785000: uvm_test_top.env.master_agent.sqr@@seq [ahb_wait_state_seq] AHB_BURST_INCR8 AHB_SIZE_8B beat 5 @0x0000d328 ok
# UVM_INFO ../src/mst_seq/ahb_base_seq.sv(157) @ 3785000: uvm_test_top.env.master_agent.sqr@@seq [ahb_wait_state_seq] AHB_BURST_INCR8 AHB_SIZE_8B beat 6 @0x0000d329 ok
# UVM_INFO ../src/mst_seq/ahb_base_seq.sv(157) @ 3785000: uvm_test_top.env.master_agent.sqr@@seq [ahb_wait_state_seq] AHB_BURST_INCR8 AHB_SIZE_8B beat 7 @0x0000d32a ok
# UVM_INFO ../src/mst_seq/ahb_wait_state_seq.sv(166) @ 3785000: uvm_test_top.env.master_agent.sqr@@seq [ahb_wait_state_seq] AHB_BURST_SINGLE AHB_SIZE_16B @0x0000d36c, 1 beats, waits=8:15, pipelined=1
# UVM_INFO ../src/mst/ahb_master_driver.sv(85) @ 3785000: uvm_test_top.env.master_agent.drv [ahb_master_driver] Queueing [AHB_WRITE]: HADDR=0x0000d36c, HBURST=AHB_BURST_SINGLE, HSIZE=AHB_SIZE_16B, 1 beats
# UVM_INFO ../src/mst/ahb_master_driver.sv(127) @ 3785000: uvm_test_top.env.master_agent.drv [ahb_master_driver] Driving [AHB_WRITE]: HADDR=0x0000d36c, HBURST=AHB_BURST_SINGLE, HSIZE=AHB_SIZE_16B, 1 beats               
# UVM_INFO ../src/mst/ahb_master_driver.sv(85) @ 3785000: uvm_test_top.env.master_agent.drv [ahb_master_driver] Queueing [AHB_READ]: HADDR=0x0000d36c, HBURST=AHB_BURST_SINGLE, HSIZE=AHB_SIZE_16B, 1 beats
# UVM_INFO ../src/mst/ahb_master_driver.sv(332) @ 3915000: uvm_test_top.env.master_agent.drv [ahb_master_driver] Beat[0/1] addr=0x0000d36c trans=AHB_TRANS_NONSEQ resp=AHB_RESP_OKAY wdata=0x3716d1ab
# UVM_INFO ../src/mst/ahb_master_driver.sv(376) @ 3915000: uvm_test_top.env.master_agent.drv [ahb_master_driver] Transaction complete: AHB_WRITE 0x0000d36c, 1 beats, burst=AHB_BURST_SINGLE
# UVM_INFO ../src/mst/ahb_master_driver.sv(127) @ 3915000: uvm_test_top.env.master_agent.drv [ahb_master_driver] Driving [AHB_READ]: HADDR=0x0000d36c, HBURST=AHB_BURST_SINGLE, HSIZE=AHB_SIZE_16B, 1 beats (back-to-back)
# UVM_INFO ../src/slv/ahb_slave_driver.sv(184) @ 3915000: uvm_test_top.env.slave_agent.drv [ahb_slave_driver] Beat AHB_WRITE addr=0x0000d36c resp=AHB_RESP_OKAY waits=10 wdata=0x3716d1ab
# UVM_INFO ../src/slv/ahb_slave_monitor.sv(197) @ 3915000: uvm_test_top.env.slave_agent.mon [ahb_slave_monitor] Observed [AHB_WRITE]: HADDR=0x0000d36c, HBURST=AHB_BURST_SINGLE, HSIZE=AHB_SIZE_16B, 1 beats
# UVM_INFO ../src/env/ahb_coverage.sv(126) @ 3915000: uvm_test_top.env.slave_cov [ahb_coverage] Sampled [AHB_WRITE]: burst=AHB_BURST_SINGLE size=AHB_SIZE_16B beats=1 error=0
# UVM_INFO ../src/mst/ahb_master_monitor.sv(117) @ 3915000: uvm_test_top.env.master_agent.mon [ahb_master_monitor] Beat[0] addr=0x0000d36c wdata=0x3716d1ab resp=AHB_RESP_OKAY
# UVM_INFO ../src/mst/ahb_master_monitor.sv(220) @ 3915000: uvm_test_top.env.master_agent.mon [ahb_master_monitor] Observed [AHB_WRITE]: HADDR=0x0000d36c, HBURST=AHB_BURST_SINGLE, HSIZE=AHB_SIZE_16B, 1 beats
# UVM_INFO ../src/env/ahb_coverage.sv(126) @ 3915000: uvm_test_top.env.master_cov [ahb_coverage] Sampled [AHB_WRITE]: burst=AHB_BURST_SINGLE size=AHB_SIZE_16B beats=1 error=0
# UVM_INFO ../src/env/ahb_scoreboard.sv(104) @ 3915000: uvm_test_top.env.scb [ahb_scoreboard] MATCH #27: [AHB_WRITE] HADDR=0x0000d36c AHB_BURST_SINGLE 1 beats
# UVM_INFO ../src/mst/ahb_master_driver.sv(332) @ 4025000: uvm_test_top.env.master_agent.drv [ahb_master_driver] Beat[0/1] addr=0x0000d36c trans=AHB_TRANS_NONSEQ resp=AHB_RESP_OKAY rdata=0x3716d1ab
# UVM_INFO ../src/mst/ahb_master_driver.sv(376) @ 4025000: uvm_test_top.env.master_agent.drv [ahb_master_driver] Transaction complete: AHB_READ 0x0000d36c, 1 beats, burst=AHB_BURST_SINGLE
# UVM_INFO ../src/slv/ahb_slave_driver.sv(184) @ 4025000: uvm_test_top.env.slave_agent.drv [ahb_slave_driver] Beat AHB_READ addr=0x0000d36c resp=AHB_RESP_OKAY waits=10 rdata=0x3716d1ab
# UVM_INFO ../src/mst/ahb_master_monitor.sv(117) @ 4025000: uvm_test_top.env.master_agent.mon [ahb_master_monitor] Beat[0] addr=0x0000d36c rdata=0x3716d1ab resp=AHB_RESP_OKAY
# UVM_INFO ../src/mst/ahb_master_monitor.sv(220) @ 4025000: uvm_test_top.env.master_agent.mon [ahb_master_monitor] Observed [AHB_READ]: HADDR=0x0000d36c, HBURST=AHB_BURST_SINGLE, HSIZE=AHB_SIZE_16B, 1 beats
# UVM_INFO ../src/env/ahb_coverage.sv(126) @ 4025000: uvm_test_top.env.master_cov [ahb_coverage] Sampled [AHB_READ]: burst=AHB_BURST_SINGLE size=AHB_SIZE_16B beats=1 error=0
# UVM_INFO ../src/slv/ahb_slave_monitor.sv(197) @ 4025000: uvm_test_top.env.slave_agent.mon [ahb_slave_monitor] Observed [AHB_READ]: HADDR=0x0000d36c, HBURST=AHB_BURST_SINGLE, HSIZE=AHB_SIZE_16B, 1 beats
# UVM_INFO ../src/env/ahb_scoreboard.sv(104) @ 4025000: uvm_test_top.env.scb [ahb_scoreboard] MATCH #28: [AHB_READ] HADDR=0x0000d36c AHB_BURST_SINGLE 1 beats
# UVM_INFO ../src/env/ahb_coverage.sv(126) @ 4025000: uvm_test_top.env.slave_cov [ahb_coverage] Sampled [AHB_READ]: burst=AHB_BURST_SINGLE size=AHB_SIZE_16B beats=1 error=0
# UVM_INFO ../src/mst_seq/ahb_base_seq.sv(157) @ 4025000: uvm_test_top.env.master_agent.sqr@@seq [ahb_wait_state_seq] AHB_BURST_SINGLE AHB_SIZE_16B beat 0 @0x0000d36c ok
# UVM_INFO ../src/mst_seq/ahb_wait_state_seq.sv(166) @ 4025000: uvm_test_top.env.master_agent.sqr@@seq [ahb_wait_state_seq] AHB_BURST_INCR4 AHB_SIZE_8B @0x0000d39d, 4 beats, waits=16:16, pipelined=0
# UVM_INFO ../src/mst/ahb_master_driver.sv(85) @ 4025000: uvm_test_top.env.master_agent.drv [ahb_master_driver] Queueing [AHB_WRITE]: HADDR=0x0000d39d, HBURST=AHB_BURST_INCR4, HSIZE=AHB_SIZE_8B, 4 beats
# UVM_INFO ../src/mst/ahb_master_driver.sv(127) @ 4025000: uvm_test_top.env.master_agent.drv [ahb_master_driver] Driving [AHB_WRITE]: HADDR=0x0000d39d, HBURST=AHB_BURST_INCR4, HSIZE=AHB_SIZE_8B, 4 beats               
# UVM_INFO ../src/mst/ahb_master_driver.sv(332) @ 4215000: uvm_test_top.env.master_agent.drv [ahb_master_driver] Beat[0/4] addr=0x0000d39d trans=AHB_TRANS_NONSEQ resp=AHB_RESP_OKAY wdata=0x02b22d68
# UVM_INFO ../src/slv/ahb_slave_driver.sv(184) @ 4215000: uvm_test_top.env.slave_agent.drv [ahb_slave_driver] Beat AHB_WRITE addr=0x0000d39d resp=AHB_RESP_OKAY waits=16 wdata=0x02b22d68
# UVM_INFO ../src/mst/ahb_master_monitor.sv(117) @ 4215000: uvm_test_top.env.master_agent.mon [ahb_master_monitor] Beat[0] addr=0x0000d39d wdata=0x02b22d68 resp=AHB_RESP_OKAY
