# vsim -c -coverage -sv_seed 94206476 "+UVM_TESTNAME=ahb_wait_state_test" "+UVM_VERBOSITY=UVM_HIGH" "+DUMP_VCD" -l ./report/logs/ahb_wait_state_test_run_4_seed_94206476.log -do "coverage save -onexit ./report/coverage/ahb_wait_state_test_run_4_seed_94206476.ucdb; run -all; quit -f" opt_tb_top 
# Start time: 09:00:13 on Aug 06,2026
# //  Questa Sim-64
# //  Version 10.6b linux_x86_64 May 25 2017
# //
# //  Copyright 1991-2017 Mentor Graphics Corporation
# //  All Rights Reserved.
# //
# //  QuestaSim and its associated documentation contain trade
# //  secrets and commercial or financial information that are the property of
# //  Mentor Graphics Corporation and are privileged, confidential,
# //  and exempt from disclosure under the Freedom of Information Act,
# //  5 U.S.C. Section 552. Furthermore, this information
# //  is prohibited from disclosure under the Trade Secrets Act,
# //  18 U.S.C. Section 1905.
# //
# Loading sv_std.std
# Loading work.ahb_if(fast)
# Loading mtiUvm.uvm_pkg
# Loading work.ahb_pkg(fast)
# Loading work.ahb_seq_pkg(fast)
# Loading work.ahb_test_pkg(fast)
# Loading work.tb_top(fast)
# Loading work.ahb_if(fast)
# Loading work.ahb_sva(fast)
# Loading mtiUvm.questa_uvm_pkg(fast)
# Loading /cadtools/mentor/Questa_10.6b/questasim/uvm-1.1d/linux_x86_64/uvm_dpi.so
# coverage save -onexit ./report/coverage/ahb_wait_state_test_run_4_seed_94206476.ucdb
#  run -all
# ----------------------------------------------------------------
# UVM-1.1d
# (C) 2007-2013 Mentor Graphics Corporation
# (C) 2007-2013 Cadence Design Systems, Inc.
# (C) 2006-2013 Synopsys, Inc.
# (C) 2011-2013 Cypress Semiconductor Corp.
# ----------------------------------------------------------------
# 
#   ***********       IMPORTANT RELEASE NOTES         ************
# 
#   You are using a version of the UVM library that has been compiled
#   with `UVM_NO_DEPRECATED undefined.
#   See http://www.eda.org/svdb/view.php?id=3313 for more details.
# 
#   You are using a version of the UVM library that has been compiled
#   with `UVM_OBJECT_MUST_HAVE_CONSTRUCTOR undefined.
#   See http://www.eda.org/svdb/view.php?id=3770 for more details.
# 
#       (Specify +UVM_NO_RELNOTES to turn off this notice)
# 
# UVM_INFO verilog_src/questa_uvm_pkg-1.2/src/questa_uvm_pkg.sv(215) @ 0: reporter [Questa UVM] QUESTA_UVM-1.2.3
# UVM_INFO verilog_src/questa_uvm_pkg-1.2/src/questa_uvm_pkg.sv(217) @ 0: reporter [Questa UVM]  questa_uvm::init(+struct)
# UVM_INFO ../src/tb_top.sv(126) @ 0: reporter [TB_TOP] Virtual interface set in config_db
# UVM_INFO @ 0: reporter [RNTST] Running test ahb_wait_state_test...
# UVM_INFO ../src/tb_top.sv(140) @ 0: reporter [TB_TOP] Waveform VCD dumping enabled (ahb_lite_vip.vcd)
# UVM_INFO ../src/env/ahb_vip_env.sv(64) @ 0: uvm_test_top.env [ahb_vip_env] slave_vif not set - reusing master_vif (passthrough mode)
# UVM_INFO ../src/env/ahb_vip_env.sv(72) @ 0: uvm_test_top.env [ahb_vip_env] Scoreboard created
# UVM_INFO ../src/env/ahb_vip_env.sv(78) @ 0: uvm_test_top.env [ahb_vip_env] Coverage collectors created
# UVM_INFO ../src/mst/ahb_master_agent.sv(61) @ 0: uvm_test_top.env.master_agent [ahb_master_agent] ACTIVE mode - driver + sequencer created
# UVM_INFO ../src/slv/ahb_slave_agent.sv(64) @ 0: uvm_test_top.env.slave_agent [ahb_slave_agent] ACTIVE mode - driver + sequencer created (    auto responses)
# UVM_INFO ../src/env/ahb_vip_env.sv(92) @ 0: uvm_test_top.env [ahb_vip_env] Scoreboard connected: master_mon.ap -> scb, slave_mon.ap -> scb
# UVM_INFO ../src/env/ahb_vip_env.sv(102) @ 0: uvm_test_top.env [ahb_vip_env] Coverage connected: master_mon.ap/trans_ap -> master_cov, slave_mon.ap/trans_ap -> slave_cov
# UVM_INFO @ 0: reporter [UVMTOP] UVM testbench topology:
# ---------------------------------------------------------------
# Name                       Type                     Size  Value
# ---------------------------------------------------------------
# uvm_test_top               ahb_wait_state_test      -     @475 
#   env                      ahb_vip_env              -     @490 
#     master_agent           ahb_master_agent         -     @505 
#       drv                  ahb_master_driver        -     @570 
#         rsp_port           uvm_analysis_port        -     @585 
#         seq_item_port      uvm_seq_item_pull_port   -     @577 
#       mon                  ahb_master_monitor       -     @563 
#         ap                 uvm_analysis_port        -     @704 
#         trans_ap           uvm_analysis_port        -     @712 
#       sqr                  ahb_master_sequencer     -     @593 
#         rsp_export         uvm_analysis_export      -     @600 
#         seq_item_export    uvm_seq_item_pull_imp    -     @694 
#         arbitration_queue  array                    0     -    
#         lock_queue         array                    0     -    
#         num_last_reqs      integral                 32    'd1  
#         num_last_rsps      integral                 32    'd1  
#     master_cov             ahb_coverage             -     @526 
#       analysis_imp         uvm_analysis_imp         -     @533 
#       trans_export         uvm_analysis_imp_trans   -     @726 
#     scb                    ahb_scoreboard           -     @519 
#       master_export        uvm_analysis_imp_master  -     @734 
#       slave_export         uvm_analysis_imp_slave   -     @742 
#     slave_agent            ahb_slave_agent          -     @512 
#       drv                  ahb_slave_driver         -     @764 
#         rsp_port           uvm_analysis_port        -     @779 
#         seq_item_port      uvm_seq_item_pull_port   -     @771 
#       mon                  ahb_slave_monitor        -     @757 
#         ap                 uvm_analysis_port        -     @898 
#         trans_ap           uvm_analysis_port        -     @906 
#       sqr                  ahb_slave_sequencer      -     @787 
#         rsp_export         uvm_analysis_export      -     @794 
#         seq_item_export    uvm_seq_item_pull_imp    -     @888 
#         arbitration_queue  array                    0     -    
#         lock_queue         array                    0     -    
#         num_last_reqs      integral                 32    'd1  
#         num_last_rsps      integral                 32    'd1  
#     slave_cov              ahb_coverage             -     @541 
#       analysis_imp         uvm_analysis_imp         -     @548 
#       trans_export         uvm_analysis_imp_trans   -     @920 
# ---------------------------------------------------------------
# 
# UVM_INFO verilog_src/questa_uvm_pkg-1.2/src/questa_uvm_pkg.sv(277) @ 0: reporter [Questa UVM] End Of Elaboration
# UVM_INFO ../src/mst_seq/ahb_wait_state_seq.sv(113) @ 0: uvm_test_top.env.master_agent.sqr@@seq [ahb_wait_state_seq] Starting wait-state sweep: 24 bursts from 0x0000d000, up to 16 wait states per beat
# UVM_INFO ../src/mst_seq/ahb_wait_state_seq.sv(166) @ 0: uvm_test_top.env.master_agent.sqr@@seq [ahb_wait_state_seq] AHB_BURST_INCR8 AHB_SIZE_8B @0x0000d024, 8 beats, waits=0:0, pipelined=0
# UVM_INFO ../src/mst/ahb_master_driver.sv(183) @ 5000: uvm_test_top.env.master_agent.drv [ahb_master_driver] Flushed pending transactions (reset)
# UVM_INFO ../src/tb_top.sv(48) @ 95000: reporter [TB_TOP] Reset de-asserted
# UVM_INFO ../src/slv/ahb_slave_driver.sv(63) @ 95000: uvm_test_top.env.slave_agent.drv [ahb_slave_driver] Reset deasserted - slave driver active (    auto mode)
# UVM_INFO ../src/mst/ahb_master_driver.sv(72) @ 95000: uvm_test_top.env.master_agent.drv [ahb_master_driver] Reset deasserted - master driver active
# UVM_INFO ../src/mst/ahb_master_monitor.sv(81) @ 95000: uvm_test_top.env.master_agent.mon [ahb_master_monitor] Reset deasserted - master monitor active
# UVM_INFO ../src/slv/ahb_slave_monitor.sv(75) @ 95000: uvm_test_top.env.slave_agent.mon [ahb_slave_monitor] Reset deasserted - slave monitor active
# UVM_INFO ../src/mst/ahb_master_driver.sv(85) @ 95000: uvm_test_top.env.master_agent.drv [ahb_master_driver] Queueing [AHB_WRITE]: HADDR=0x0000d024, HBURST=AHB_BURST_INCR8, HSIZE=AHB_SIZE_8B, 8 beats
# UVM_INFO ../src/mst/ahb_master_driver.sv(127) @ 95000: uvm_test_top.env.master_agent.drv [ahb_master_driver] Driving [AHB_WRITE]: HADDR=0x0000d024, HBURST=AHB_BURST_INCR8, HSIZE=AHB_SIZE_8B, 8 beats               
# UVM_INFO ../src/mst/ahb_master_driver.sv(332) @ 115000: uvm_test_top.env.master_agent.drv [ahb_master_driver] Beat[0/8] addr=0x0000d024 trans=AHB_TRANS_NONSEQ resp=AHB_RESP_OKAY wdata=0xa4da6650
# UVM_INFO ../src/slv/ahb_slave_driver.sv(184) @ 115000: uvm_test_top.env.slave_agent.drv [ahb_slave_driver] Beat AHB_WRITE addr=0x0000d024 resp=AHB_RESP_OKAY waits=0 wdata=0xa4da6650
# UVM_INFO ../src/mst/ahb_master_monitor.sv(128) @ 115000: uvm_test_top.env.master_agent.mon [ahb_master_monitor] Beat[0] addr=0x0000d024 wdata=0xa4da6650 resp=AHB_RESP_OKAY
# UVM_INFO ../src/mst/ahb_master_driver.sv(332) @ 125000: uvm_test_top.env.master_agent.drv [ahb_master_driver] Beat[1/8] addr=0x0000d025 trans=AHB_TRANS_SEQ resp=AHB_RESP_OKAY wdata=0x91dc99a1
# UVM_INFO ../src/slv/ahb_slave_driver.sv(184) @ 125000: uvm_test_top.env.slave_agent.drv [ahb_slave_driver] Beat AHB_WRITE addr=0x0000d025 resp=AHB_RESP_OKAY waits=0 wdata=0x91dc99a1
# UVM_INFO ../src/mst/ahb_master_monitor.sv(128) @ 125000: uvm_test_top.env.master_agent.mon [ahb_master_monitor] Beat[1] addr=0x0000d025 wdata=0x91dc99a1 resp=AHB_RESP_OKAY
# UVM_INFO ../src/mst/ahb_master_driver.sv(332) @ 135000: uvm_test_top.env.master_agent.drv [ahb_master_driver] Beat[2/8] addr=0x0000d026 trans=AHB_TRANS_SEQ resp=AHB_RESP_OKAY wdata=0x96a7e365
# UVM_INFO ../src/slv/ahb_slave_driver.sv(184) @ 135000: uvm_test_top.env.slave_agent.drv [ahb_slave_driver] Beat AHB_WRITE addr=0x0000d026 resp=AHB_RESP_OKAY waits=0 wdata=0x96a7e365
# UVM_INFO ../src/mst/ahb_master_monitor.sv(128) @ 135000: uvm_test_top.env.master_agent.mon [ahb_master_monitor] Beat[2] addr=0x0000d026 wdata=0x96a7e365 resp=AHB_RESP_OKAY
# UVM_INFO ../src/mst/ahb_master_driver.sv(332) @ 145000: uvm_test_top.env.master_agent.drv [ahb_master_driver] Beat[3/8] addr=0x0000d027 trans=AHB_TRANS_SEQ resp=AHB_RESP_OKAY wdata=0x2e5f12c5
# UVM_INFO ../src/slv/ahb_slave_driver.sv(184) @ 145000: uvm_test_top.env.slave_agent.drv [ahb_slave_driver] Beat AHB_WRITE addr=0x0000d027 resp=AHB_RESP_OKAY waits=0 wdata=0x2e5f12c5
# UVM_INFO ../src/mst/ahb_master_monitor.sv(128) @ 145000: uvm_test_top.env.master_agent.mon [ahb_master_monitor] Beat[3] addr=0x0000d027 wdata=0x2e5f12c5 resp=AHB_RESP_OKAY
# UVM_INFO ../src/mst/ahb_master_driver.sv(332) @ 155000: uvm_test_top.env.master_agent.drv [ahb_master_driver] Beat[4/8] addr=0x0000d028 trans=AHB_TRANS_SEQ resp=AHB_RESP_OKAY wdata=0x708642ba
# UVM_INFO ../src/slv/ahb_slave_driver.sv(184) @ 155000: uvm_test_top.env.slave_agent.drv [ahb_slave_driver] Beat AHB_WRITE addr=0x0000d028 resp=AHB_RESP_OKAY waits=0 wdata=0x708642ba
# UVM_INFO ../src/mst/ahb_master_monitor.sv(128) @ 155000: uvm_test_top.env.master_agent.mon [ahb_master_monitor] Beat[4] addr=0x0000d028 wdata=0x708642ba resp=AHB_RESP_OKAY
# UVM_INFO ../src/mst/ahb_master_driver.sv(332) @ 165000: uvm_test_top.env.master_agent.drv [ahb_master_driver] Beat[5/8] addr=0x0000d029 trans=AHB_TRANS_SEQ resp=AHB_RESP_OKAY wdata=0xce05853f
# UVM_INFO ../src/slv/ahb_slave_driver.sv(184) @ 165000: uvm_test_top.env.slave_agent.drv [ahb_slave_driver] Beat AHB_WRITE addr=0x0000d029 resp=AHB_RESP_OKAY waits=0 wdata=0xce05853f
# UVM_INFO ../src/mst/ahb_master_monitor.sv(128) @ 165000: uvm_test_top.env.master_agent.mon [ahb_master_monitor] Beat[5] addr=0x0000d029 wdata=0xce05853f resp=AHB_RESP_OKAY
# UVM_INFO ../src/mst/ahb_master_driver.sv(332) @ 175000: uvm_test_top.env.master_agent.drv [ahb_master_driver] Beat[6/8] addr=0x0000d02a trans=AHB_TRANS_SEQ resp=AHB_RESP_OKAY wdata=0x14a35406
# UVM_INFO ../src/slv/ahb_slave_driver.sv(184) @ 175000: uvm_test_top.env.slave_agent.drv [ahb_slave_driver] Beat AHB_WRITE addr=0x0000d02a resp=AHB_RESP_OKAY waits=0 wdata=0x14a35406
# UVM_INFO ../src/mst/ahb_master_monitor.sv(128) @ 175000: uvm_test_top.env.master_agent.mon [ahb_master_monitor] Beat[6] addr=0x0000d02a wdata=0x14a35406 resp=AHB_RESP_OKAY
# UVM_INFO ../src/mst/ahb_master_driver.sv(332) @ 185000: uvm_test_top.env.master_agent.drv [ahb_master_driver] Beat[7/8] addr=0x0000d02b trans=AHB_TRANS_SEQ resp=AHB_RESP_OKAY wdata=0xf46c92dd
# UVM_INFO ../src/mst/ahb_master_driver.sv(376) @ 185000: uvm_test_top.env.master_agent.drv [ahb_master_driver] Transaction complete: AHB_WRITE 0x0000d024, 8 beats, burst=AHB_BURST_INCR8
# UVM_INFO ../src/slv/ahb_slave_driver.sv(184) @ 185000: uvm_test_top.env.slave_agent.drv [ahb_slave_driver] Beat AHB_WRITE addr=0x0000d02b resp=AHB_RESP_OKAY waits=0 wdata=0xf46c92dd
# UVM_INFO ../src/mst/ahb_master_monitor.sv(128) @ 185000: uvm_test_top.env.master_agent.mon [ahb_master_monitor] Beat[7] addr=0x0000d02b wdata=0xf46c92dd resp=AHB_RESP_OKAY
# UVM_INFO ../src/mst/ahb_master_monitor.sv(231) @ 185000: uvm_test_top.env.master_agent.mon [ahb_master_monitor] Observed [AHB_WRITE]: HADDR=0x0000d024, HBURST=AHB_BURST_INCR8, HSIZE=AHB_SIZE_8B, 8 beats
# UVM_INFO ../src/env/ahb_coverage.sv(174) @ 185000: uvm_test_top.env.master_cov [ahb_coverage] Sampled [AHB_WRITE]: burst=AHB_BURST_INCR8 size=AHB_SIZE_8B beats=8 error=0
# UVM_INFO ../src/slv/ahb_slave_monitor.sv(208) @ 185000: uvm_test_top.env.slave_agent.mon [ahb_slave_monitor] Observed [AHB_WRITE]: HADDR=0x0000d024, HBURST=AHB_BURST_INCR8, HSIZE=AHB_SIZE_8B, 8 beats
# UVM_INFO ../src/env/ahb_scoreboard.sv(104) @ 185000: uvm_test_top.env.scb [ahb_scoreboard] MATCH #1: [AHB_WRITE] HADDR=0x0000d024 AHB_BURST_INCR8 8 beats
# UVM_INFO ../src/env/ahb_coverage.sv(174) @ 185000: uvm_test_top.env.slave_cov [ahb_coverage] Sampled [AHB_WRITE]: burst=AHB_BURST_INCR8 size=AHB_SIZE_8B beats=8 error=0
# UVM_INFO ../src/mst/ahb_master_driver.sv(85) @ 185000: uvm_test_top.env.master_agent.drv [ahb_master_driver] Queueing [AHB_READ]: HADDR=0x0000d024, HBURST=AHB_BURST_INCR8, HSIZE=AHB_SIZE_8B, 8 beats
# UVM_INFO ../src/mst/ahb_master_driver.sv(127) @ 185000: uvm_test_top.env.master_agent.drv [ahb_master_driver] Driving [AHB_READ]: HADDR=0x0000d024, HBURST=AHB_BURST_INCR8, HSIZE=AHB_SIZE_8B, 8 beats               
# UVM_INFO ../src/mst/ahb_master_driver.sv(332) @ 215000: uvm_test_top.env.master_agent.drv [ahb_master_driver] Beat[0/8] addr=0x0000d024 trans=AHB_TRANS_NONSEQ resp=AHB_RESP_OKAY rdata=0xa4da6650
# UVM_INFO ../src/slv/ahb_slave_driver.sv(184) @ 215000: uvm_test_top.env.slave_agent.drv [ahb_slave_driver] Beat AHB_READ addr=0x0000d024 resp=AHB_RESP_OKAY waits=0 rdata=0xa4da6650
# UVM_INFO ../src/mst/ahb_master_monitor.sv(128) @ 215000: uvm_test_top.env.master_agent.mon [ahb_master_monitor] Beat[0] addr=0x0000d024 rdata=0xa4da6650 resp=AHB_RESP_OKAY
# UVM_INFO ../src/mst/ahb_master_driver.sv(332) @ 225000: uvm_test_top.env.master_agent.drv [ahb_master_driver] Beat[1/8] addr=0x0000d025 trans=AHB_TRANS_SEQ resp=AHB_RESP_OKAY rdata=0x91dc99a1
# UVM_INFO ../src/slv/ahb_slave_driver.sv(184) @ 225000: uvm_test_top.env.slave_agent.drv [ahb_slave_driver] Beat AHB_READ addr=0x0000d025 resp=AHB_RESP_OKAY waits=0 rdata=0x91dc99a1
# UVM_INFO ../src/mst/ahb_master_monitor.sv(128) @ 225000: uvm_test_top.env.master_agent.mon [ahb_master_monitor] Beat[1] addr=0x0000d025 rdata=0x91dc99a1 resp=AHB_RESP_OKAY
# UVM_INFO ../src/mst/ahb_master_driver.sv(332) @ 235000: uvm_test_top.env.master_agent.drv [ahb_master_driver] Beat[2/8] addr=0x0000d026 trans=AHB_TRANS_SEQ resp=AHB_RESP_OKAY rdata=0x96a7e365
# UVM_INFO ../src/slv/ahb_slave_driver.sv(184) @ 235000: uvm_test_top.env.slave_agent.drv [ahb_slave_driver] Beat AHB_READ addr=0x0000d026 resp=AHB_RESP_OKAY waits=0 rdata=0x96a7e365
# UVM_INFO ../src/mst/ahb_master_monitor.sv(128) @ 235000: uvm_test_top.env.master_agent.mon [ahb_master_monitor] Beat[2] addr=0x0000d026 rdata=0x96a7e365 resp=AHB_RESP_OKAY
# UVM_INFO ../src/mst/ahb_master_driver.sv(332) @ 245000: uvm_test_top.env.master_agent.drv [ahb_master_driver] Beat[3/8] addr=0x0000d027 trans=AHB_TRANS_SEQ resp=AHB_RESP_OKAY rdata=0x2e5f12c5
# UVM_INFO ../src/slv/ahb_slave_driver.sv(184) @ 245000: uvm_test_top.env.slave_agent.drv [ahb_slave_driver] Beat AHB_READ addr=0x0000d027 resp=AHB_RESP_OKAY waits=0 rdata=0x2e5f12c5
# UVM_INFO ../src/mst/ahb_master_monitor.sv(128) @ 245000: uvm_test_top.env.master_agent.mon [ahb_master_monitor] Beat[3] addr=0x0000d027 rdata=0x2e5f12c5 resp=AHB_RESP_OKAY
# UVM_INFO ../src/mst/ahb_master_driver.sv(332) @ 255000: uvm_test_top.env.master_agent.drv [ahb_master_driver] Beat[4/8] addr=0x0000d028 trans=AHB_TRANS_SEQ resp=AHB_RESP_OKAY rdata=0x708642ba
# UVM_INFO ../src/slv/ahb_slave_driver.sv(184) @ 255000: uvm_test_top.env.slave_agent.drv [ahb_slave_driver] Beat AHB_READ addr=0x0000d028 resp=AHB_RESP_OKAY waits=0 rdata=0x708642ba
# UVM_INFO ../src/mst/ahb_master_monitor.sv(128) @ 255000: uvm_test_top.env.master_agent.mon [ahb_master_monitor] Beat[4] addr=0x0000d028 rdata=0x708642ba resp=AHB_RESP_OKAY
# UVM_INFO ../src/mst/ahb_master_driver.sv(332) @ 265000: uvm_test_top.env.master_agent.drv [ahb_master_driver] Beat[5/8] addr=0x0000d029 trans=AHB_TRANS_SEQ resp=AHB_RESP_OKAY rdata=0xce05853f
# UVM_INFO ../src/slv/ahb_slave_driver.sv(184) @ 265000: uvm_test_top.env.slave_agent.drv [ahb_slave_driver] Beat AHB_READ addr=0x0000d029 resp=AHB_RESP_OKAY waits=0 rdata=0xce05853f
# UVM_INFO ../src/mst/ahb_master_monitor.sv(128) @ 265000: uvm_test_top.env.master_agent.mon [ahb_master_monitor] Beat[5] addr=0x0000d029 rdata=0xce05853f resp=AHB_RESP_OKAY
# UVM_INFO ../src/mst/ahb_master_driver.sv(332) @ 275000: uvm_test_top.env.master_agent.drv [ahb_master_driver] Beat[6/8] addr=0x0000d02a trans=AHB_TRANS_SEQ resp=AHB_RESP_OKAY rdata=0x14a35406
# UVM_INFO ../src/slv/ahb_slave_driver.sv(184) @ 275000: uvm_test_top.env.slave_agent.drv [ahb_slave_driver] Beat AHB_READ addr=0x0000d02a resp=AHB_RESP_OKAY waits=0 rdata=0x14a35406
# UVM_INFO ../src/mst/ahb_master_monitor.sv(128) @ 275000: uvm_test_top.env.master_agent.mon [ahb_master_monitor] Beat[6] addr=0x0000d02a rdata=0x14a35406 resp=AHB_RESP_OKAY
# UVM_INFO ../src/mst/ahb_master_driver.sv(332) @ 285000: uvm_test_top.env.master_agent.drv [ahb_master_driver] Beat[7/8] addr=0x0000d02b trans=AHB_TRANS_SEQ resp=AHB_RESP_OKAY rdata=0xf46c92dd
# UVM_INFO ../src/mst/ahb_master_driver.sv(376) @ 285000: uvm_test_top.env.master_agent.drv [ahb_master_driver] Transaction complete: AHB_READ 0x0000d024, 8 beats, burst=AHB_BURST_INCR8
# UVM_INFO ../src/slv/ahb_slave_driver.sv(184) @ 285000: uvm_test_top.env.slave_agent.drv [ahb_slave_driver] Beat AHB_READ addr=0x0000d02b resp=AHB_RESP_OKAY waits=0 rdata=0xf46c92dd
# UVM_INFO ../src/mst/ahb_master_monitor.sv(128) @ 285000: uvm_test_top.env.master_agent.mon [ahb_master_monitor] Beat[7] addr=0x0000d02b rdata=0xf46c92dd resp=AHB_RESP_OKAY
# UVM_INFO ../src/mst/ahb_master_monitor.sv(231) @ 285000: uvm_test_top.env.master_agent.mon [ahb_master_monitor] Observed [AHB_READ]: HADDR=0x0000d024, HBURST=AHB_BURST_INCR8, HSIZE=AHB_SIZE_8B, 8 beats
# UVM_INFO ../src/env/ahb_coverage.sv(174) @ 285000: uvm_test_top.env.master_cov [ahb_coverage] Sampled [AHB_READ]: burst=AHB_BURST_INCR8 size=AHB_SIZE_8B beats=8 error=0
# UVM_INFO ../src/slv/ahb_slave_monitor.sv(208) @ 285000: uvm_test_top.env.slave_agent.mon [ahb_slave_monitor] Observed [AHB_READ]: HADDR=0x0000d024, HBURST=AHB_BURST_INCR8, HSIZE=AHB_SIZE_8B, 8 beats
# UVM_INFO ../src/env/ahb_scoreboard.sv(104) @ 285000: uvm_test_top.env.scb [ahb_scoreboard] MATCH #2: [AHB_READ] HADDR=0x0000d024 AHB_BURST_INCR8 8 beats
# UVM_INFO ../src/env/ahb_coverage.sv(174) @ 285000: uvm_test_top.env.slave_cov [ahb_coverage] Sampled [AHB_READ]: burst=AHB_BURST_INCR8 size=AHB_SIZE_8B beats=8 error=0
# UVM_INFO ../src/mst_seq/ahb_base_seq.sv(157) @ 285000: uvm_test_top.env.master_agent.sqr@@seq [ahb_wait_state_seq] AHB_BURST_INCR8 AHB_SIZE_8B beat 0 @0x0000d024 ok
# UVM_INFO ../src/mst_seq/ahb_base_seq.sv(157) @ 285000: uvm_test_top.env.master_agent.sqr@@seq [ahb_wait_state_seq] AHB_BURST_INCR8 AHB_SIZE_8B beat 1 @0x0000d025 ok
# UVM_INFO ../src/mst_seq/ahb_base_seq.sv(157) @ 285000: uvm_test_top.env.master_agent.sqr@@seq [ahb_wait_state_seq] AHB_BURST_INCR8 AHB_SIZE_8B beat 2 @0x0000d026 ok
# UVM_INFO ../src/mst_seq/ahb_base_seq.sv(157) @ 285000: uvm_test_top.env.master_agent.sqr@@seq [ahb_wait_state_seq] AHB_BURST_INCR8 AHB_SIZE_8B beat 3 @0x0000d027 ok
# UVM_INFO ../src/mst_seq/ahb_base_seq.sv(157) @ 285000: uvm_test_top.env.master_agent.sqr@@seq [ahb_wait_state_seq] AHB_BURST_INCR8 AHB_SIZE_8B beat 4 @0x0000d028 ok
# UVM_INFO ../src/mst_seq/ahb_base_seq.sv(157) @ 285000: uvm_test_top.env.master_agent.sqr@@seq [ahb_wait_state_seq] AHB_BURST_INCR8 AHB_SIZE_8B beat 5 @0x0000d029 ok
# UVM_INFO ../src/mst_seq/ahb_base_seq.sv(157) @ 285000: uvm_test_top.env.master_agent.sqr@@seq [ahb_wait_state_seq] AHB_BURST_INCR8 AHB_SIZE_8B beat 6 @0x0000d02a ok
# UVM_INFO ../src/mst_seq/ahb_base_seq.sv(157) @ 285000: uvm_test_top.env.master_agent.sqr@@seq [ahb_wait_state_seq] AHB_BURST_INCR8 AHB_SIZE_8B beat 7 @0x0000d02b ok
# UVM_INFO ../src/mst_seq/ahb_wait_state_seq.sv(166) @ 285000: uvm_test_top.env.master_agent.sqr@@seq [ahb_wait_state_seq] AHB_BURST_SINGLE AHB_SIZE_8B @0x0000d06c, 1 beats, waits=1:1, pipelined=1
# UVM_INFO ../src/mst/ahb_master_driver.sv(85) @ 285000: uvm_test_top.env.master_agent.drv [ahb_master_driver] Queueing [AHB_WRITE]: HADDR=0x0000d06c, HBURST=AHB_BURST_SINGLE, HSIZE=AHB_SIZE_8B, 1 beats
# UVM_INFO ../src/mst/ahb_master_driver.sv(127) @ 285000: uvm_test_top.env.master_agent.drv [ahb_master_driver] Driving [AHB_WRITE]: HADDR=0x0000d06c, HBURST=AHB_BURST_SINGLE, HSIZE=AHB_SIZE_8B, 1 beats               
# UVM_INFO ../src/mst/ahb_master_driver.sv(85) @ 285000: uvm_test_top.env.master_agent.drv [ahb_master_driver] Queueing [AHB_READ]: HADDR=0x0000d06c, HBURST=AHB_BURST_SINGLE, HSIZE=AHB_SIZE_8B, 1 beats
# UVM_INFO ../src/mst/ahb_master_driver.sv(332) @ 325000: uvm_test_top.env.master_agent.drv [ahb_master_driver] Beat[0/1] addr=0x0000d06c trans=AHB_TRANS_NONSEQ resp=AHB_RESP_OKAY wdata=0xef6b988c
# UVM_INFO ../src/mst/ahb_master_driver.sv(376) @ 325000: uvm_test_top.env.master_agent.drv [ahb_master_driver] Transaction complete: AHB_WRITE 0x0000d06c, 1 beats, burst=AHB_BURST_SINGLE
# UVM_INFO ../src/mst/ahb_master_driver.sv(127) @ 325000: uvm_test_top.env.master_agent.drv [ahb_master_driver] Driving [AHB_READ]: HADDR=0x0000d06c, HBURST=AHB_BURST_SINGLE, HSIZE=AHB_SIZE_8B, 1 beats (back-to-back)
# UVM_INFO ../src/slv/ahb_slave_driver.sv(184) @ 325000: uvm_test_top.env.slave_agent.drv [ahb_slave_driver] Beat AHB_WRITE addr=0x0000d06c resp=AHB_RESP_OKAY waits=1 wdata=0xef6b988c
# UVM_INFO ../src/mst/ahb_master_monitor.sv(128) @ 325000: uvm_test_top.env.master_agent.mon [ahb_master_monitor] Beat[0] addr=0x0000d06c wdata=0xef6b988c resp=AHB_RESP_OKAY
# UVM_INFO ../src/mst/ahb_master_monitor.sv(231) @ 325000: uvm_test_top.env.master_agent.mon [ahb_master_monitor] Observed [AHB_WRITE]: HADDR=0x0000d06c, HBURST=AHB_BURST_SINGLE, HSIZE=AHB_SIZE_8B, 1 beats
# UVM_INFO ../src/env/ahb_coverage.sv(174) @ 325000: uvm_test_top.env.master_cov [ahb_coverage] Sampled [AHB_WRITE]: burst=AHB_BURST_SINGLE size=AHB_SIZE_8B beats=1 error=0
# UVM_INFO ../src/slv/ahb_slave_monitor.sv(208) @ 325000: uvm_test_top.env.slave_agent.mon [ahb_slave_monitor] Observed [AHB_WRITE]: HADDR=0x0000d06c, HBURST=AHB_BURST_SINGLE, HSIZE=AHB_SIZE_8B, 1 beats
# UVM_INFO ../src/env/ahb_scoreboard.sv(104) @ 325000: uvm_test_top.env.scb [ahb_scoreboard] MATCH #3: [AHB_WRITE] HADDR=0x0000d06c AHB_BURST_SINGLE 1 beats
# UVM_INFO ../src/env/ahb_coverage.sv(174) @ 325000: uvm_test_top.env.slave_cov [ahb_coverage] Sampled [AHB_WRITE]: burst=AHB_BURST_SINGLE size=AHB_SIZE_8B beats=1 error=0
# UVM_INFO ../src/mst/ahb_master_driver.sv(332) @ 345000: uvm_test_top.env.master_agent.drv [ahb_master_driver] Beat[0/1] addr=0x0000d06c trans=AHB_TRANS_NONSEQ resp=AHB_RESP_OKAY rdata=0xef6b988c
# UVM_INFO ../src/mst/ahb_master_driver.sv(376) @ 345000: uvm_test_top.env.master_agent.drv [ahb_master_driver] Transaction complete: AHB_READ 0x0000d06c, 1 beats, burst=AHB_BURST_SINGLE
# UVM_INFO ../src/slv/ahb_slave_driver.sv(184) @ 345000: uvm_test_top.env.slave_agent.drv [ahb_slave_driver] Beat AHB_READ addr=0x0000d06c resp=AHB_RESP_OKAY waits=1 rdata=0xef6b988c
# UVM_INFO ../src/mst/ahb_master_monitor.sv(128) @ 345000: uvm_test_top.env.master_agent.mon [ahb_master_monitor] Beat[0] addr=0x0000d06c rdata=0xef6b988c resp=AHB_RESP_OKAY
# UVM_INFO ../src/mst/ahb_master_monitor.sv(231) @ 345000: uvm_test_top.env.master_agent.mon [ahb_master_monitor] Observed [AHB_READ]: HADDR=0x0000d06c, HBURST=AHB_BURST_SINGLE, HSIZE=AHB_SIZE_8B, 1 beats
# UVM_INFO ../src/env/ahb_coverage.sv(174) @ 345000: uvm_test_top.env.master_cov [ahb_coverage] Sampled [AHB_READ]: burst=AHB_BURST_SINGLE size=AHB_SIZE_8B beats=1 error=0
# UVM_INFO ../src/slv/ahb_slave_monitor.sv(208) @ 345000: uvm_test_top.env.slave_agent.mon [ahb_slave_monitor] Observed [AHB_READ]: HADDR=0x0000d06c, HBURST=AHB_BURST_SINGLE, HSIZE=AHB_SIZE_8B, 1 beats
# UVM_INFO ../src/env/ahb_scoreboard.sv(104) @ 345000: uvm_test_top.env.scb [ahb_scoreboard] MATCH #4: [AHB_READ] HADDR=0x0000d06c AHB_BURST_SINGLE 1 beats
# UVM_INFO ../src/env/ahb_coverage.sv(174) @ 345000: uvm_test_top.env.slave_cov [ahb_coverage] Sampled [AHB_READ]: burst=AHB_BURST_SINGLE size=AHB_SIZE_8B beats=1 error=0
# UVM_INFO ../src/mst_seq/ahb_base_seq.sv(157) @ 345000: uvm_test_top.env.master_agent.sqr@@seq [ahb_wait_state_seq] AHB_BURST_SINGLE AHB_SIZE_8B beat 0 @0x0000d06c ok
# UVM_INFO ../src/mst_seq/ahb_wait_state_seq.sv(166) @ 345000: uvm_test_top.env.master_agent.sqr@@seq [ahb_wait_state_seq] AHB_BURST_INCR AHB_SIZE_8B @0x0000d0a3, 2 beats, waits=2:2, pipelined=0
# UVM_INFO ../src/mst/ahb_master_driver.sv(85) @ 345000: uvm_test_top.env.master_agent.drv [ahb_master_driver] Queueing [AHB_WRITE]: HADDR=0x0000d0a3, HBURST=AHB_BURST_INCR, HSIZE=AHB_SIZE_8B, 2 beats
# UVM_INFO ../src/mst/ahb_master_driver.sv(127) @ 345000: uvm_test_top.env.master_agent.drv [ahb_master_driver] Driving [AHB_WRITE]: HADDR=0x0000d0a3, HBURST=AHB_BURST_INCR, HSIZE=AHB_SIZE_8B, 2 beats               
# UVM_INFO ../src/mst/ahb_master_driver.sv(332) @ 395000: uvm_test_top.env.master_agent.drv [ahb_master_driver] Beat[0/2] addr=0x0000d0a3 trans=AHB_TRANS_NONSEQ resp=AHB_RESP_OKAY wdata=0xc3da12ac
# UVM_INFO ../src/slv/ahb_slave_driver.sv(184) @ 395000: uvm_test_top.env.slave_agent.drv [ahb_slave_driver] Beat AHB_WRITE addr=0x0000d0a3 resp=AHB_RESP_OKAY waits=2 wdata=0xc3da12ac
# UVM_INFO ../src/mst/ahb_master_monitor.sv(128) @ 395000: uvm_test_top.env.master_agent.mon [ahb_master_monitor] Beat[0] addr=0x0000d0a3 wdata=0xc3da12ac resp=AHB_RESP_OKAY
# UVM_INFO ../src/mst/ahb_master_driver.sv(332) @ 425000: uvm_test_top.env.master_agent.drv [ahb_master_driver] Beat[1/2] addr=0x0000d0a4 trans=AHB_TRANS_SEQ resp=AHB_RESP_OKAY wdata=0x0b198ea8
# UVM_INFO ../src/mst/ahb_master_driver.sv(376) @ 425000: uvm_test_top.env.master_agent.drv [ahb_master_driver] Transaction complete: AHB_WRITE 0x0000d0a3, 2 beats, burst=AHB_BURST_INCR
# UVM_INFO ../src/slv/ahb_slave_driver.sv(184) @ 425000: uvm_test_top.env.slave_agent.drv [ahb_slave_driver] Beat AHB_WRITE addr=0x0000d0a4 resp=AHB_RESP_OKAY waits=2 wdata=0x0b198ea8
# UVM_INFO ../src/mst/ahb_master_monitor.sv(128) @ 425000: uvm_test_top.env.master_agent.mon [ahb_master_monitor] Beat[1] addr=0x0000d0a4 wdata=0x0b198ea8 resp=AHB_RESP_OKAY
# UVM_INFO ../src/mst/ahb_master_monitor.sv(231) @ 425000: uvm_test_top.env.master_agent.mon [ahb_master_monitor] Observed [AHB_WRITE]: HADDR=0x0000d0a3, HBURST=AHB_BURST_INCR, HSIZE=AHB_SIZE_8B, 2 beats
# UVM_INFO ../src/env/ahb_coverage.sv(174) @ 425000: uvm_test_top.env.master_cov [ahb_coverage] Sampled [AHB_WRITE]: burst=AHB_BURST_INCR size=AHB_SIZE_8B beats=2 error=0
# UVM_INFO ../src/slv/ahb_slave_monitor.sv(208) @ 425000: uvm_test_top.env.slave_agent.mon [ahb_slave_monitor] Observed [AHB_WRITE]: HADDR=0x0000d0a3, HBURST=AHB_BURST_INCR, HSIZE=AHB_SIZE_8B, 2 beats
# UVM_INFO ../src/env/ahb_scoreboard.sv(104) @ 425000: uvm_test_top.env.scb [ahb_scoreboard] MATCH #5: [AHB_WRITE] HADDR=0x0000d0a3 AHB_BURST_INCR 2 beats
# UVM_INFO ../src/env/ahb_coverage.sv(174) @ 425000: uvm_test_top.env.slave_cov [ahb_coverage] Sampled [AHB_WRITE]: burst=AHB_BURST_INCR size=AHB_SIZE_8B beats=2 error=0
# UVM_INFO ../src/mst/ahb_master_driver.sv(85) @ 425000: uvm_test_top.env.master_agent.drv [ahb_master_driver] Queueing [AHB_READ]: HADDR=0x0000d0a3, HBURST=AHB_BURST_INCR, HSIZE=AHB_SIZE_8B, 2 beats
# UVM_INFO ../src/mst/ahb_master_driver.sv(127) @ 425000: uvm_test_top.env.master_agent.drv [ahb_master_driver] Driving [AHB_READ]: HADDR=0x0000d0a3, HBURST=AHB_BURST_INCR, HSIZE=AHB_SIZE_8B, 2 beats               
# UVM_INFO ../src/mst/ahb_master_driver.sv(332) @ 475000: uvm_test_top.env.master_agent.drv [ahb_master_driver] Beat[0/2] addr=0x0000d0a3 trans=AHB_TRANS_NONSEQ resp=AHB_RESP_OKAY rdata=0xc3da12ac
# UVM_INFO ../src/slv/ahb_slave_driver.sv(184) @ 475000: uvm_test_top.env.slave_agent.drv [ahb_slave_driver] Beat AHB_READ addr=0x0000d0a3 resp=AHB_RESP_OKAY waits=2 rdata=0xc3da12ac
# UVM_INFO ../src/mst/ahb_master_monitor.sv(128) @ 475000: uvm_test_top.env.master_agent.mon [ahb_master_monitor] Beat[0] addr=0x0000d0a3 rdata=0xc3da12ac resp=AHB_RESP_OKAY
# UVM_INFO ../src/mst/ahb_master_driver.sv(332) @ 505000: uvm_test_top.env.master_agent.drv [ahb_master_driver] Beat[1/2] addr=0x0000d0a4 trans=AHB_TRANS_SEQ resp=AHB_RESP_OKAY rdata=0x0b198ea8
# UVM_INFO ../src/mst/ahb_master_driver.sv(376) @ 505000: uvm_test_top.env.master_agent.drv [ahb_master_driver] Transaction complete: AHB_READ 0x0000d0a3, 2 beats, burst=AHB_BURST_INCR
# UVM_INFO ../src/slv/ahb_slave_driver.sv(184) @ 505000: uvm_test_top.env.slave_agent.drv [ahb_slave_driver] Beat AHB_READ addr=0x0000d0a4 resp=AHB_RESP_OKAY waits=2 rdata=0x0b198ea8
# UVM_INFO ../src/mst/ahb_master_monitor.sv(128) @ 505000: uvm_test_top.env.master_agent.mon [ahb_master_monitor] Beat[1] addr=0x0000d0a4 rdata=0x0b198ea8 resp=AHB_RESP_OKAY
# UVM_INFO ../src/mst/ahb_master_monitor.sv(231) @ 505000: uvm_test_top.env.master_agent.mon [ahb_master_monitor] Observed [AHB_READ]: HADDR=0x0000d0a3, HBURST=AHB_BURST_INCR, HSIZE=AHB_SIZE_8B, 2 beats
# UVM_INFO ../src/env/ahb_coverage.sv(174) @ 505000: uvm_test_top.env.master_cov [ahb_coverage] Sampled [AHB_READ]: burst=AHB_BURST_INCR size=AHB_SIZE_8B beats=2 error=0
# UVM_INFO ../src/slv/ahb_slave_monitor.sv(208) @ 505000: uvm_test_top.env.slave_agent.mon [ahb_slave_monitor] Observed [AHB_READ]: HADDR=0x0000d0a3, HBURST=AHB_BURST_INCR, HSIZE=AHB_SIZE_8B, 2 beats
# UVM_INFO ../src/env/ahb_scoreboard.sv(104) @ 505000: uvm_test_top.env.scb [ahb_scoreboard] MATCH #6: [AHB_READ] HADDR=0x0000d0a3 AHB_BURST_INCR 2 beats
# UVM_INFO ../src/env/ahb_coverage.sv(174) @ 505000: uvm_test_top.env.slave_cov [ahb_coverage] Sampled [AHB_READ]: burst=AHB_BURST_INCR size=AHB_SIZE_8B beats=2 error=0
# UVM_INFO ../src/mst_seq/ahb_base_seq.sv(157) @ 505000: uvm_test_top.env.master_agent.sqr@@seq [ahb_wait_state_seq] AHB_BURST_INCR AHB_SIZE_8B beat 0 @0x0000d0a3 ok
# UVM_INFO ../src/mst_seq/ahb_base_seq.sv(157) @ 505000: uvm_test_top.env.master_agent.sqr@@seq [ahb_wait_state_seq] AHB_BURST_INCR AHB_SIZE_8B beat 1 @0x0000d0a4 ok
# UVM_INFO ../src/mst_seq/ahb_wait_state_seq.sv(166) @ 505000: uvm_test_top.env.master_agent.sqr@@seq [ahb_wait_state_seq] AHB_BURST_SINGLE AHB_SIZE_8B @0x0000d0ea, 1 beats, waits=3:3, pipelined=1
# UVM_INFO ../src/mst/ahb_master_driver.sv(85) @ 505000: uvm_test_top.env.master_agent.drv [ahb_master_driver] Queueing [AHB_WRITE]: HADDR=0x0000d0ea, HBURST=AHB_BURST_SINGLE, HSIZE=AHB_SIZE_8B, 1 beats
# UVM_INFO ../src/mst/ahb_master_driver.sv(127) @ 505000: uvm_test_top.env.master_agent.drv [ahb_master_driver] Driving [AHB_WRITE]: HADDR=0x0000d0ea, HBURST=AHB_BURST_SINGLE, HSIZE=AHB_SIZE_8B, 1 beats               
# UVM_INFO ../src/mst/ahb_master_driver.sv(85) @ 505000: uvm_test_top.env.master_agent.drv [ahb_master_driver] Queueing [AHB_READ]: HADDR=0x0000d0ea, HBURST=AHB_BURST_SINGLE, HSIZE=AHB_SIZE_8B, 1 beats
# UVM_INFO ../src/mst/ahb_master_driver.sv(332) @ 565000: uvm_test_top.env.master_agent.drv [ahb_master_driver] Beat[0/1] addr=0x0000d0ea trans=AHB_TRANS_NONSEQ resp=AHB_RESP_OKAY wdata=0x9b015b32
# UVM_INFO ../src/mst/ahb_master_driver.sv(376) @ 565000: uvm_test_top.env.master_agent.drv [ahb_master_driver] Transaction complete: AHB_WRITE 0x0000d0ea, 1 beats, burst=AHB_BURST_SINGLE
# UVM_INFO ../src/mst/ahb_master_driver.sv(127) @ 565000: uvm_test_top.env.master_agent.drv [ahb_master_driver] Driving [AHB_READ]: HADDR=0x0000d0ea, HBURST=AHB_BURST_SINGLE, HSIZE=AHB_SIZE_8B, 1 beats (back-to-back)
# UVM_INFO ../src/slv/ahb_slave_driver.sv(184) @ 565000: uvm_test_top.env.slave_agent.drv [ahb_slave_driver] Beat AHB_WRITE addr=0x0000d0ea resp=AHB_RESP_OKAY waits=3 wdata=0x9b015b32
# UVM_INFO ../src/mst/ahb_master_monitor.sv(128) @ 565000: uvm_test_top.env.master_agent.mon [ahb_master_monitor] Beat[0] addr=0x0000d0ea wdata=0x9b015b32 resp=AHB_RESP_OKAY
# UVM_INFO ../src/mst/ahb_master_monitor.sv(231) @ 565000: uvm_test_top.env.master_agent.mon [ahb_master_monitor] Observed [AHB_WRITE]: HADDR=0x0000d0ea, HBURST=AHB_BURST_SINGLE, HSIZE=AHB_SIZE_8B, 1 beats
# UVM_INFO ../src/env/ahb_coverage.sv(174) @ 565000: uvm_test_top.env.master_cov [ahb_coverage] Sampled [AHB_WRITE]: burst=AHB_BURST_SINGLE size=AHB_SIZE_8B beats=1 error=0
# UVM_INFO ../src/slv/ahb_slave_monitor.sv(208) @ 565000: uvm_test_top.env.slave_agent.mon [ahb_slave_monitor] Observed [AHB_WRITE]: HADDR=0x0000d0ea, HBURST=AHB_BURST_SINGLE, HSIZE=AHB_SIZE_8B, 1 beats
# UVM_INFO ../src/env/ahb_scoreboard.sv(104) @ 565000: uvm_test_top.env.scb [ahb_scoreboard] MATCH #7: [AHB_WRITE] HADDR=0x0000d0ea AHB_BURST_SINGLE 1 beats
# UVM_INFO ../src/env/ahb_coverage.sv(174) @ 565000: uvm_test_top.env.slave_cov [ahb_coverage] Sampled [AHB_WRITE]: burst=AHB_BURST_SINGLE size=AHB_SIZE_8B beats=1 error=0
# UVM_INFO ../src/mst/ahb_master_driver.sv(332) @ 605000: uvm_test_top.env.master_agent.drv [ahb_master_driver] Beat[0/1] addr=0x0000d0ea trans=AHB_TRANS_NONSEQ resp=AHB_RESP_OKAY rdata=0x9b015b32
# UVM_INFO ../src/mst/ahb_master_driver.sv(376) @ 605000: uvm_test_top.env.master_agent.drv [ahb_master_driver] Transaction complete: AHB_READ 0x0000d0ea, 1 beats, burst=AHB_BURST_SINGLE
# UVM_INFO ../src/slv/ahb_slave_driver.sv(184) @ 605000: uvm_test_top.env.slave_agent.drv [ahb_slave_driver] Beat AHB_READ addr=0x0000d0ea resp=AHB_RESP_OKAY waits=3 rdata=0x9b015b32
# UVM_INFO ../src/mst/ahb_master_monitor.sv(128) @ 605000: uvm_test_top.env.master_agent.mon [ahb_master_monitor] Beat[0] addr=0x0000d0ea rdata=0x9b015b32 resp=AHB_RESP_OKAY
# UVM_INFO ../src/mst/ahb_master_monitor.sv(231) @ 605000: uvm_test_top.env.master_agent.mon [ahb_master_monitor] Observed [AHB_READ]: HADDR=0x0000d0ea, HBURST=AHB_BURST_SINGLE, HSIZE=AHB_SIZE_8B, 1 beats
# UVM_INFO ../src/env/ahb_coverage.sv(174) @ 605000: uvm_test_top.env.master_cov [ahb_coverage] Sampled [AHB_READ]: burst=AHB_BURST_SINGLE size=AHB_SIZE_8B beats=1 error=0
# UVM_INFO ../src/slv/ahb_slave_monitor.sv(208) @ 605000: uvm_test_top.env.slave_agent.mon [ahb_slave_monitor] Observed [AHB_READ]: HADDR=0x0000d0ea, HBURST=AHB_BURST_SINGLE, HSIZE=AHB_SIZE_8B, 1 beats
# UVM_INFO ../src/env/ahb_scoreboard.sv(104) @ 605000: uvm_test_top.env.scb [ahb_scoreboard] MATCH #8: [AHB_READ] HADDR=0x0000d0ea AHB_BURST_SINGLE 1 beats
# UVM_INFO ../src/env/ahb_coverage.sv(174) @ 605000: uvm_test_top.env.slave_cov [ahb_coverage] Sampled [AHB_READ]: burst=AHB_BURST_SINGLE size=AHB_SIZE_8B beats=1 error=0
# UVM_INFO ../src/mst_seq/ahb_base_seq.sv(157) @ 605000: uvm_test_top.env.master_agent.sqr@@seq [ahb_wait_state_seq] AHB_BURST_SINGLE AHB_SIZE_8B beat 0 @0x0000d0ea ok
# UVM_INFO ../src/mst_seq/ahb_wait_state_seq.sv(166) @ 605000: uvm_test_top.env.master_agent.sqr@@seq [ahb_wait_state_seq] AHB_BURST_SINGLE AHB_SIZE_32B @0x0000d120, 1 beats, waits=1:7, pipelined=0
# UVM_INFO ../src/mst/ahb_master_driver.sv(85) @ 605000: uvm_test_top.env.master_agent.drv [ahb_master_driver] Queueing [AHB_WRITE]: HADDR=0x0000d120, HBURST=AHB_BURST_SINGLE, HSIZE=AHB_SIZE_32B, 1 beats
# UVM_INFO ../src/mst/ahb_master_driver.sv(127) @ 605000: uvm_test_top.env.master_agent.drv [ahb_master_driver] Driving [AHB_WRITE]: HADDR=0x0000d120, HBURST=AHB_BURST_SINGLE, HSIZE=AHB_SIZE_32B, 1 beats               
# UVM_INFO ../src/mst/ahb_master_driver.sv(332) @ 695000: uvm_test_top.env.master_agent.drv [ahb_master_driver] Beat[0/1] addr=0x0000d120 trans=AHB_TRANS_NONSEQ resp=AHB_RESP_OKAY wdata=0xa190e20b
# UVM_INFO ../src/mst/ahb_master_driver.sv(376) @ 695000: uvm_test_top.env.master_agent.drv [ahb_master_driver] Transaction complete: AHB_WRITE 0x0000d120, 1 beats, burst=AHB_BURST_SINGLE
# UVM_INFO ../src/slv/ahb_slave_driver.sv(184) @ 695000: uvm_test_top.env.slave_agent.drv [ahb_slave_driver] Beat AHB_WRITE addr=0x0000d120 resp=AHB_RESP_OKAY waits=6 wdata=0xa190e20b
# UVM_INFO ../src/slv/ahb_slave_monitor.sv(208) @ 695000: uvm_test_top.env.slave_agent.mon [ahb_slave_monitor] Observed [AHB_WRITE]: HADDR=0x0000d120, HBURST=AHB_BURST_SINGLE, HSIZE=AHB_SIZE_32B, 1 beats
# UVM_INFO ../src/env/ahb_coverage.sv(174) @ 695000: uvm_test_top.env.slave_cov [ahb_coverage] Sampled [AHB_WRITE]: burst=AHB_BURST_SINGLE size=AHB_SIZE_32B beats=1 error=0
# UVM_INFO ../src/mst/ahb_master_monitor.sv(128) @ 695000: uvm_test_top.env.master_agent.mon [ahb_master_monitor] Beat[0] addr=0x0000d120 wdata=0xa190e20b resp=AHB_RESP_OKAY
# UVM_INFO ../src/mst/ahb_master_monitor.sv(231) @ 695000: uvm_test_top.env.master_agent.mon [ahb_master_monitor] Observed [AHB_WRITE]: HADDR=0x0000d120, HBURST=AHB_BURST_SINGLE, HSIZE=AHB_SIZE_32B, 1 beats
# UVM_INFO ../src/env/ahb_coverage.sv(174) @ 695000: uvm_test_top.env.master_cov [ahb_coverage] Sampled [AHB_WRITE]: burst=AHB_BURST_SINGLE size=AHB_SIZE_32B beats=1 error=0
# UVM_INFO ../src/env/ahb_scoreboard.sv(104) @ 695000: uvm_test_top.env.scb [ahb_scoreboard] MATCH #9: [AHB_WRITE] HADDR=0x0000d120 AHB_BURST_SINGLE 1 beats
# UVM_INFO ../src/mst/ahb_master_driver.sv(85) @ 695000: uvm_test_top.env.master_agent.drv [ahb_master_driver] Queueing [AHB_READ]: HADDR=0x0000d120, HBURST=AHB_BURST_SINGLE, HSIZE=AHB_SIZE_32B, 1 beats
# UVM_INFO ../src/mst/ahb_master_driver.sv(127) @ 695000: uvm_test_top.env.master_agent.drv [ahb_master_driver] Driving [AHB_READ]: HADDR=0x0000d120, HBURST=AHB_BURST_SINGLE, HSIZE=AHB_SIZE_32B, 1 beats               
# UVM_INFO ../src/mst/ahb_master_driver.sv(332) @ 735000: uvm_test_top.env.master_agent.drv [ahb_master_driver] Beat[0/1] addr=0x0000d120 trans=AHB_TRANS_NONSEQ resp=AHB_RESP_OKAY rdata=0xa190e20b
# UVM_INFO ../src/mst/ahb_master_driver.sv(376) @ 735000: uvm_test_top.env.master_agent.drv [ahb_master_driver] Transaction complete: AHB_READ 0x0000d120, 1 beats, burst=AHB_BURST_SINGLE
# UVM_INFO ../src/slv/ahb_slave_driver.sv(184) @ 735000: uvm_test_top.env.slave_agent.drv [ahb_slave_driver] Beat AHB_READ addr=0x0000d120 resp=AHB_RESP_OKAY waits=1 rdata=0xa190e20b
# UVM_INFO ../src/slv/ahb_slave_monitor.sv(208) @ 735000: uvm_test_top.env.slave_agent.mon [ahb_slave_monitor] Observed [AHB_READ]: HADDR=0x0000d120, HBURST=AHB_BURST_SINGLE, HSIZE=AHB_SIZE_32B, 1 beats
# UVM_INFO ../src/env/ahb_coverage.sv(174) @ 735000: uvm_test_top.env.slave_cov [ahb_coverage] Sampled [AHB_READ]: burst=AHB_BURST_SINGLE size=AHB_SIZE_32B beats=1 error=0
# UVM_INFO ../src/mst/ahb_master_monitor.sv(128) @ 735000: uvm_test_top.env.master_agent.mon [ahb_master_monitor] Beat[0] addr=0x0000d120 rdata=0xa190e20b resp=AHB_RESP_OKAY
# UVM_INFO ../src/mst/ahb_master_monitor.sv(231) @ 735000: uvm_test_top.env.master_agent.mon [ahb_master_monitor] Observed [AHB_READ]: HADDR=0x0000d120, HBURST=AHB_BURST_SINGLE, HSIZE=AHB_SIZE_32B, 1 beats
# UVM_INFO ../src/env/ahb_coverage.sv(174) @ 735000: uvm_test_top.env.master_cov [ahb_coverage] Sampled [AHB_READ]: burst=AHB_BURST_SINGLE size=AHB_SIZE_32B beats=1 error=0
# UVM_INFO ../src/env/ahb_scoreboard.sv(104) @ 735000: uvm_test_top.env.scb [ahb_scoreboard] MATCH #10: [AHB_READ] HADDR=0x0000d120 AHB_BURST_SINGLE 1 beats
# UVM_INFO ../src/mst_seq/ahb_base_seq.sv(157) @ 735000: uvm_test_top.env.master_agent.sqr@@seq [ahb_wait_state_seq] AHB_BURST_SINGLE AHB_SIZE_32B beat 0 @0x0000d120 ok
# UVM_INFO ../src/mst_seq/ahb_wait_state_seq.sv(166) @ 735000: uvm_test_top.env.master_agent.sqr@@seq [ahb_wait_state_seq] AHB_BURST_WRAP4 AHB_SIZE_8B @0x0000d175, 4 beats, waits=8:15, pipelined=1
# UVM_INFO ../src/mst/ahb_master_driver.sv(85) @ 735000: uvm_test_top.env.master_agent.drv [ahb_master_driver] Queueing [AHB_WRITE]: HADDR=0x0000d175, HBURST=AHB_BURST_WRAP4, HSIZE=AHB_SIZE_8B, 4 beats
# UVM_INFO ../src/mst/ahb_master_driver.sv(127) @ 735000: uvm_test_top.env.master_agent.drv [ahb_master_driver] Driving [AHB_WRITE]: HADDR=0x0000d175, HBURST=AHB_BURST_WRAP4, HSIZE=AHB_SIZE_8B, 4 beats               
# UVM_INFO ../src/mst/ahb_master_driver.sv(85) @ 735000: uvm_test_top.env.master_agent.drv [ahb_master_driver] Queueing [AHB_READ]: HADDR=0x0000d175, HBURST=AHB_BURST_WRAP4, HSIZE=AHB_SIZE_8B, 4 beats
# UVM_INFO ../src/mst/ahb_master_driver.sv(332) @ 875000: uvm_test_top.env.master_agent.drv [ahb_master_driver] Beat[0/4] addr=0x0000d175 trans=AHB_TRANS_NONSEQ resp=AHB_RESP_OKAY wdata=0x622b87f9
# UVM_INFO ../src/slv/ahb_slave_driver.sv(184) @ 875000: uvm_test_top.env.slave_agent.drv [ahb_slave_driver] Beat AHB_WRITE addr=0x0000d175 resp=AHB_RESP_OKAY waits=11 wdata=0x622b87f9
# UVM_INFO ../src/mst/ahb_master_monitor.sv(128) @ 875000: uvm_test_top.env.master_agent.mon [ahb_master_monitor] Beat[0] addr=0x0000d175 wdata=0x622b87f9 resp=AHB_RESP_OKAY
# UVM_INFO ../src/mst/ahb_master_driver.sv(332) @ 1025000: uvm_test_top.env.master_agent.drv [ahb_master_driver] Beat[1/4] addr=0x0000d176 trans=AHB_TRANS_SEQ resp=AHB_RESP_OKAY wdata=0xedb74ef4
# UVM_INFO ../src/slv/ahb_slave_driver.sv(184) @ 1025000: uvm_test_top.env.slave_agent.drv [ahb_slave_driver] Beat AHB_WRITE addr=0x0000d176 resp=AHB_RESP_OKAY waits=14 wdata=0xedb74ef4
# UVM_INFO ../src/mst/ahb_master_monitor.sv(128) @ 1025000: uvm_test_top.env.master_agent.mon [ahb_master_monitor] Beat[1] addr=0x0000d176 wdata=0xedb74ef4 resp=AHB_RESP_OKAY
# UVM_INFO ../src/mst/ahb_master_driver.sv(332) @ 1145000: uvm_test_top.env.master_agent.drv [ahb_master_driver] Beat[2/4] addr=0x0000d177 trans=AHB_TRANS_SEQ resp=AHB_RESP_OKAY wdata=0x43db283d
# UVM_INFO ../src/slv/ahb_slave_driver.sv(184) @ 1145000: uvm_test_top.env.slave_agent.drv [ahb_slave_driver] Beat AHB_WRITE addr=0x0000d177 resp=AHB_RESP_OKAY waits=11 wdata=0x43db283d
# UVM_INFO ../src/mst/ahb_master_monitor.sv(128) @ 1145000: uvm_test_top.env.master_agent.mon [ahb_master_monitor] Beat[2] addr=0x0000d177 wdata=0x43db283d resp=AHB_RESP_OKAY
# UVM_INFO ../src/mst/ahb_master_driver.sv(332) @ 1305000: uvm_test_top.env.master_agent.drv [ahb_master_driver] Beat[3/4] addr=0x0000d174 trans=AHB_TRANS_SEQ resp=AHB_RESP_OKAY wdata=0x93d0a7ea
# UVM_INFO ../src/mst/ahb_master_driver.sv(376) @ 1305000: uvm_test_top.env.master_agent.drv [ahb_master_driver] Transaction complete: AHB_WRITE 0x0000d175, 4 beats, burst=AHB_BURST_WRAP4
# UVM_INFO ../src/mst/ahb_master_driver.sv(127) @ 1305000: uvm_test_top.env.master_agent.drv [ahb_master_driver] Driving [AHB_READ]: HADDR=0x0000d175, HBURST=AHB_BURST_WRAP4, HSIZE=AHB_SIZE_8B, 4 beats (back-to-back)
# UVM_INFO ../src/slv/ahb_slave_driver.sv(184) @ 1305000: uvm_test_top.env.slave_agent.drv [ahb_slave_driver] Beat AHB_WRITE addr=0x0000d174 resp=AHB_RESP_OKAY waits=15 wdata=0x93d0a7ea
# UVM_INFO ../src/mst/ahb_master_monitor.sv(128) @ 1305000: uvm_test_top.env.master_agent.mon [ahb_master_monitor] Beat[3] addr=0x0000d174 wdata=0x93d0a7ea resp=AHB_RESP_OKAY
# UVM_INFO ../src/mst/ahb_master_monitor.sv(231) @ 1305000: uvm_test_top.env.master_agent.mon [ahb_master_monitor] Observed [AHB_WRITE]: HADDR=0x0000d175, HBURST=AHB_BURST_WRAP4, HSIZE=AHB_SIZE_8B, 4 beats
# UVM_INFO ../src/env/ahb_coverage.sv(174) @ 1305000: uvm_test_top.env.master_cov [ahb_coverage] Sampled [AHB_WRITE]: burst=AHB_BURST_WRAP4 size=AHB_SIZE_8B beats=4 error=0
# UVM_INFO ../src/slv/ahb_slave_monitor.sv(208) @ 1305000: uvm_test_top.env.slave_agent.mon [ahb_slave_monitor] Observed [AHB_WRITE]: HADDR=0x0000d175, HBURST=AHB_BURST_WRAP4, HSIZE=AHB_SIZE_8B, 4 beats
# UVM_INFO ../src/env/ahb_scoreboard.sv(104) @ 1305000: uvm_test_top.env.scb [ahb_scoreboard] MATCH #11: [AHB_WRITE] HADDR=0x0000d175 AHB_BURST_WRAP4 4 beats
# UVM_INFO ../src/env/ahb_coverage.sv(174) @ 1305000: uvm_test_top.env.slave_cov [ahb_coverage] Sampled [AHB_WRITE]: burst=AHB_BURST_WRAP4 size=AHB_SIZE_8B beats=4 error=0
# UVM_INFO ../src/mst/ahb_master_driver.sv(332) @ 1415000: uvm_test_top.env.master_agent.drv [ahb_master_driver] Beat[0/4] addr=0x0000d175 trans=AHB_TRANS_NONSEQ resp=AHB_RESP_OKAY rdata=0x622b87f9
# UVM_INFO ../src/slv/ahb_slave_driver.sv(184) @ 1415000: uvm_test_top.env.slave_agent.drv [ahb_slave_driver] Beat AHB_READ addr=0x0000d175 resp=AHB_RESP_OKAY waits=10 rdata=0x622b87f9
# UVM_INFO ../src/mst/ahb_master_monitor.sv(128) @ 1415000: uvm_test_top.env.master_agent.mon [ahb_master_monitor] Beat[0] addr=0x0000d175 rdata=0x622b87f9 resp=AHB_RESP_OKAY
# UVM_INFO ../src/mst/ahb_master_driver.sv(332) @ 1515000: uvm_test_top.env.master_agent.drv [ahb_master_driver] Beat[1/4] addr=0x0000d176 trans=AHB_TRANS_SEQ resp=AHB_RESP_OKAY rdata=0xedb74ef4
# UVM_INFO ../src/slv/ahb_slave_driver.sv(184) @ 1515000: uvm_test_top.env.slave_agent.drv [ahb_slave_driver] Beat AHB_READ addr=0x0000d176 resp=AHB_RESP_OKAY waits=9 rdata=0xedb74ef4
# UVM_INFO ../src/mst/ahb_master_monitor.sv(128) @ 1515000: uvm_test_top.env.master_agent.mon [ahb_master_monitor] Beat[1] addr=0x0000d176 rdata=0xedb74ef4 resp=AHB_RESP_OKAY
# UVM_INFO ../src/mst/ahb_master_driver.sv(332) @ 1655000: uvm_test_top.env.master_agent.drv [ahb_master_driver] Beat[2/4] addr=0x0000d177 trans=AHB_TRANS_SEQ resp=AHB_RESP_OKAY rdata=0x43db283d
# UVM_INFO ../src/slv/ahb_slave_driver.sv(184) @ 1655000: uvm_test_top.env.slave_agent.drv [ahb_slave_driver] Beat AHB_READ addr=0x0000d177 resp=AHB_RESP_OKAY waits=13 rdata=0x43db283d
# UVM_INFO ../src/mst/ahb_master_monitor.sv(128) @ 1655000: uvm_test_top.env.master_agent.mon [ahb_master_monitor] Beat[2] addr=0x0000d177 rdata=0x43db283d resp=AHB_RESP_OKAY
# UVM_INFO ../src/mst/ahb_master_driver.sv(332) @ 1755000: uvm_test_top.env.master_agent.drv [ahb_master_driver] Beat[3/4] addr=0x0000d174 trans=AHB_TRANS_SEQ resp=AHB_RESP_OKAY rdata=0x93d0a7ea
# UVM_INFO ../src/mst/ahb_master_driver.sv(376) @ 1755000: uvm_test_top.env.master_agent.drv [ahb_master_driver] Transaction complete: AHB_READ 0x0000d175, 4 beats, burst=AHB_BURST_WRAP4
# UVM_INFO ../src/slv/ahb_slave_driver.sv(184) @ 1755000: uvm_test_top.env.slave_agent.drv [ahb_slave_driver] Beat AHB_READ addr=0x0000d174 resp=AHB_RESP_OKAY waits=9 rdata=0x93d0a7ea
# UVM_INFO ../src/slv/ahb_slave_monitor.sv(208) @ 1755000: uvm_test_top.env.slave_agent.mon [ahb_slave_monitor] Observed [AHB_READ]: HADDR=0x0000d175, HBURST=AHB_BURST_WRAP4, HSIZE=AHB_SIZE_8B, 4 beats
# UVM_INFO ../src/env/ahb_coverage.sv(174) @ 1755000: uvm_test_top.env.slave_cov [ahb_coverage] Sampled [AHB_READ]: burst=AHB_BURST_WRAP4 size=AHB_SIZE_8B beats=4 error=0
# UVM_INFO ../src/mst/ahb_master_monitor.sv(128) @ 1755000: uvm_test_top.env.master_agent.mon [ahb_master_monitor] Beat[3] addr=0x0000d174 rdata=0x93d0a7ea resp=AHB_RESP_OKAY
# UVM_INFO ../src/mst/ahb_master_monitor.sv(231) @ 1755000: uvm_test_top.env.master_agent.mon [ahb_master_monitor] Observed [AHB_READ]: HADDR=0x0000d175, HBURST=AHB_BURST_WRAP4, HSIZE=AHB_SIZE_8B, 4 beats
# UVM_INFO ../src/env/ahb_coverage.sv(174) @ 1755000: uvm_test_top.env.master_cov [ahb_coverage] Sampled [AHB_READ]: burst=AHB_BURST_WRAP4 size=AHB_SIZE_8B beats=4 error=0
# UVM_INFO ../src/env/ahb_scoreboard.sv(104) @ 1755000: uvm_test_top.env.scb [ahb_scoreboard] MATCH #12: [AHB_READ] HADDR=0x0000d175 AHB_BURST_WRAP4 4 beats
# UVM_INFO ../src/mst_seq/ahb_base_seq.sv(157) @ 1755000: uvm_test_top.env.master_agent.sqr@@seq [ahb_wait_state_seq] AHB_BURST_WRAP4 AHB_SIZE_8B beat 0 @0x0000d175 ok
# UVM_INFO ../src/mst_seq/ahb_base_seq.sv(157) @ 1755000: uvm_test_top.env.master_agent.sqr@@seq [ahb_wait_state_seq] AHB_BURST_WRAP4 AHB_SIZE_8B beat 1 @0x0000d176 ok
# UVM_INFO ../src/mst_seq/ahb_base_seq.sv(157) @ 1755000: uvm_test_top.env.master_agent.sqr@@seq [ahb_wait_state_seq] AHB_BURST_WRAP4 AHB_SIZE_8B beat 2 @0x0000d177 ok
# UVM_INFO ../src/mst_seq/ahb_base_seq.sv(157) @ 1755000: uvm_test_top.env.master_agent.sqr@@seq [ahb_wait_state_seq] AHB_BURST_WRAP4 AHB_SIZE_8B beat 3 @0x0000d174 ok
# UVM_INFO ../src/mst_seq/ahb_wait_state_seq.sv(166) @ 1755000: uvm_test_top.env.master_agent.sqr@@seq [ahb_wait_state_seq] AHB_BURST_SINGLE AHB_SIZE_8B @0x0000d197, 1 beats, waits=16:16, pipelined=0
# UVM_INFO ../src/mst/ahb_master_driver.sv(85) @ 1755000: uvm_test_top.env.master_agent.drv [ahb_master_driver] Queueing [AHB_WRITE]: HADDR=0x0000d197, HBURST=AHB_BURST_SINGLE, HSIZE=AHB_SIZE_8B, 1 beats
# UVM_INFO ../src/mst/ahb_master_driver.sv(127) @ 1755000: uvm_test_top.env.master_agent.drv [ahb_master_driver] Driving [AHB_WRITE]: HADDR=0x0000d197, HBURST=AHB_BURST_SINGLE, HSIZE=AHB_SIZE_8B, 1 beats               
# UVM_INFO ../src/mst/ahb_master_driver.sv(332) @ 1945000: uvm_test_top.env.master_agent.drv [ahb_master_driver] Beat[0/1] addr=0x0000d197 trans=AHB_TRANS_NONSEQ resp=AHB_RESP_OKAY wdata=0x369df1fa
# UVM_INFO ../src/mst/ahb_master_driver.sv(376) @ 1945000: uvm_test_top.env.master_agent.drv [ahb_master_driver] Transaction complete: AHB_WRITE 0x0000d197, 1 beats, burst=AHB_BURST_SINGLE
# UVM_INFO ../src/slv/ahb_slave_driver.sv(184) @ 1945000: uvm_test_top.env.slave_agent.drv [ahb_slave_driver] Beat AHB_WRITE addr=0x0000d197 resp=AHB_RESP_OKAY waits=16 wdata=0x369df1fa
# UVM_INFO ../src/mst/ahb_master_monitor.sv(128) @ 1945000: uvm_test_top.env.master_agent.mon [ahb_master_monitor] Beat[0] addr=0x0000d197 wdata=0x369df1fa resp=AHB_RESP_OKAY
# UVM_INFO ../src/mst/ahb_master_monitor.sv(231) @ 1945000: uvm_test_top.env.master_agent.mon [ahb_master_monitor] Observed [AHB_WRITE]: HADDR=0x0000d197, HBURST=AHB_BURST_SINGLE, HSIZE=AHB_SIZE_8B, 1 beats
# UVM_INFO ../src/env/ahb_coverage.sv(174) @ 1945000: uvm_test_top.env.master_cov [ahb_coverage] Sampled [AHB_WRITE]: burst=AHB_BURST_SINGLE size=AHB_SIZE_8B beats=1 error=0
# UVM_INFO ../src/slv/ahb_slave_monitor.sv(208) @ 1945000: uvm_test_top.env.slave_agent.mon [ahb_slave_monitor] Observed [AHB_WRITE]: HADDR=0x0000d197, HBURST=AHB_BURST_SINGLE, HSIZE=AHB_SIZE_8B, 1 beats
# UVM_INFO ../src/env/ahb_scoreboard.sv(104) @ 1945000: uvm_test_top.env.scb [ahb_scoreboard] MATCH #13: [AHB_WRITE] HADDR=0x0000d197 AHB_BURST_SINGLE 1 beats
# UVM_INFO ../src/env/ahb_coverage.sv(174) @ 1945000: uvm_test_top.env.slave_cov [ahb_coverage] Sampled [AHB_WRITE]: burst=AHB_BURST_SINGLE size=AHB_SIZE_8B beats=1 error=0
# UVM_INFO ../src/mst/ahb_master_driver.sv(85) @ 1945000: uvm_test_top.env.master_agent.drv [ahb_master_driver] Queueing [AHB_READ]: HADDR=0x0000d197, HBURST=AHB_BURST_SINGLE, HSIZE=AHB_SIZE_8B, 1 beats
# UVM_INFO ../src/mst/ahb_master_driver.sv(127) @ 1945000: uvm_test_top.env.master_agent.drv [ahb_master_driver] Driving [AHB_READ]: HADDR=0x0000d197, HBURST=AHB_BURST_SINGLE, HSIZE=AHB_SIZE_8B, 1 beats               
# UVM_INFO ../src/mst/ahb_master_driver.sv(332) @ 2135000: uvm_test_top.env.master_agent.drv [ahb_master_driver] Beat[0/1] addr=0x0000d197 trans=AHB_TRANS_NONSEQ resp=AHB_RESP_OKAY rdata=0x369df1fa
# UVM_INFO ../src/mst/ahb_master_driver.sv(376) @ 2135000: uvm_test_top.env.master_agent.drv [ahb_master_driver] Transaction complete: AHB_READ 0x0000d197, 1 beats, burst=AHB_BURST_SINGLE
# UVM_INFO ../src/slv/ahb_slave_driver.sv(184) @ 2135000: uvm_test_top.env.slave_agent.drv [ahb_slave_driver] Beat AHB_READ addr=0x0000d197 resp=AHB_RESP_OKAY waits=16 rdata=0x369df1fa
# UVM_INFO ../src/slv/ahb_slave_monitor.sv(208) @ 2135000: uvm_test_top.env.slave_agent.mon [ahb_slave_monitor] Observed [AHB_READ]: HADDR=0x0000d197, HBURST=AHB_BURST_SINGLE, HSIZE=AHB_SIZE_8B, 1 beats
# UVM_INFO ../src/env/ahb_coverage.sv(174) @ 2135000: uvm_test_top.env.slave_cov [ahb_coverage] Sampled [AHB_READ]: burst=AHB_BURST_SINGLE size=AHB_SIZE_8B beats=1 error=0
# UVM_INFO ../src/mst/ahb_master_monitor.sv(128) @ 2135000: uvm_test_top.env.master_agent.mon [ahb_master_monitor] Beat[0] addr=0x0000d197 rdata=0x369df1fa resp=AHB_RESP_OKAY
# UVM_INFO ../src/mst/ahb_master_monitor.sv(231) @ 2135000: uvm_test_top.env.master_agent.mon [ahb_master_monitor] Observed [AHB_READ]: HADDR=0x0000d197, HBURST=AHB_BURST_SINGLE, HSIZE=AHB_SIZE_8B, 1 beats
# UVM_INFO ../src/env/ahb_coverage.sv(174) @ 2135000: uvm_test_top.env.master_cov [ahb_coverage] Sampled [AHB_READ]: burst=AHB_BURST_SINGLE size=AHB_SIZE_8B beats=1 error=0
# UVM_INFO ../src/env/ahb_scoreboard.sv(104) @ 2135000: uvm_test_top.env.scb [ahb_scoreboard] MATCH #14: [AHB_READ] HADDR=0x0000d197 AHB_BURST_SINGLE 1 beats
# UVM_INFO ../src/mst_seq/ahb_base_seq.sv(157) @ 2135000: uvm_test_top.env.master_agent.sqr@@seq [ahb_wait_state_seq] AHB_BURST_SINGLE AHB_SIZE_8B beat 0 @0x0000d197 ok
# UVM_INFO ../src/mst_seq/ahb_wait_state_seq.sv(166) @ 2135000: uvm_test_top.env.master_agent.sqr@@seq [ahb_wait_state_seq] AHB_BURST_SINGLE AHB_SIZE_8B @0x0000d1de, 1 beats, waits=0:16, pipelined=1
# UVM_INFO ../src/mst/ahb_master_driver.sv(85) @ 2135000: uvm_test_top.env.master_agent.drv [ahb_master_driver] Queueing [AHB_WRITE]: HADDR=0x0000d1de, HBURST=AHB_BURST_SINGLE, HSIZE=AHB_SIZE_8B, 1 beats
# UVM_INFO ../src/mst/ahb_master_driver.sv(127) @ 2135000: uvm_test_top.env.master_agent.drv [ahb_master_driver] Driving [AHB_WRITE]: HADDR=0x0000d1de, HBURST=AHB_BURST_SINGLE, HSIZE=AHB_SIZE_8B, 1 beats               
# UVM_INFO ../src/mst/ahb_master_driver.sv(85) @ 2135000: uvm_test_top.env.master_agent.drv [ahb_master_driver] Queueing [AHB_READ]: HADDR=0x0000d1de, HBURST=AHB_BURST_SINGLE, HSIZE=AHB_SIZE_8B, 1 beats
# UVM_INFO ../src/mst/ahb_master_driver.sv(332) @ 2285000: uvm_test_top.env.master_agent.drv [ahb_master_driver] Beat[0/1] addr=0x0000d1de trans=AHB_TRANS_NONSEQ resp=AHB_RESP_OKAY wdata=0x66b6c052
# UVM_INFO ../src/mst/ahb_master_driver.sv(376) @ 2285000: uvm_test_top.env.master_agent.drv [ahb_master_driver] Transaction complete: AHB_WRITE 0x0000d1de, 1 beats, burst=AHB_BURST_SINGLE
# UVM_INFO ../src/mst/ahb_master_driver.sv(127) @ 2285000: uvm_test_top.env.master_agent.drv [ahb_master_driver] Driving [AHB_READ]: HADDR=0x0000d1de, HBURST=AHB_BURST_SINGLE, HSIZE=AHB_SIZE_8B, 1 beats (back-to-back)
# UVM_INFO ../src/slv/ahb_slave_driver.sv(184) @ 2285000: uvm_test_top.env.slave_agent.drv [ahb_slave_driver] Beat AHB_WRITE addr=0x0000d1de resp=AHB_RESP_OKAY waits=12 wdata=0x66b6c052
# UVM_INFO ../src/mst/ahb_master_monitor.sv(128) @ 2285000: uvm_test_top.env.master_agent.mon [ahb_master_monitor] Beat[0] addr=0x0000d1de wdata=0x66b6c052 resp=AHB_RESP_OKAY
# UVM_INFO ../src/mst/ahb_master_monitor.sv(231) @ 2285000: uvm_test_top.env.master_agent.mon [ahb_master_monitor] Observed [AHB_WRITE]: HADDR=0x0000d1de, HBURST=AHB_BURST_SINGLE, HSIZE=AHB_SIZE_8B, 1 beats
# UVM_INFO ../src/env/ahb_coverage.sv(174) @ 2285000: uvm_test_top.env.master_cov [ahb_coverage] Sampled [AHB_WRITE]: burst=AHB_BURST_SINGLE size=AHB_SIZE_8B beats=1 error=0
# UVM_INFO ../src/slv/ahb_slave_monitor.sv(208) @ 2285000: uvm_test_top.env.slave_agent.mon [ahb_slave_monitor] Observed [AHB_WRITE]: HADDR=0x0000d1de, HBURST=AHB_BURST_SINGLE, HSIZE=AHB_SIZE_8B, 1 beats
# UVM_INFO ../src/env/ahb_scoreboard.sv(104) @ 2285000: uvm_test_top.env.scb [ahb_scoreboard] MATCH #15: [AHB_WRITE] HADDR=0x0000d1de AHB_BURST_SINGLE 1 beats
# UVM_INFO ../src/env/ahb_coverage.sv(174) @ 2285000: uvm_test_top.env.slave_cov [ahb_coverage] Sampled [AHB_WRITE]: burst=AHB_BURST_SINGLE size=AHB_SIZE_8B beats=1 error=0
# UVM_INFO ../src/mst/ahb_master_driver.sv(332) @ 2325000: uvm_test_top.env.master_agent.drv [ahb_master_driver] Beat[0/1] addr=0x0000d1de trans=AHB_TRANS_NONSEQ resp=AHB_RESP_OKAY rdata=0x66b6c052
# UVM_INFO ../src/mst/ahb_master_driver.sv(376) @ 2325000: uvm_test_top.env.master_agent.drv [ahb_master_driver] Transaction complete: AHB_READ 0x0000d1de, 1 beats, burst=AHB_BURST_SINGLE
# UVM_INFO ../src/slv/ahb_slave_driver.sv(184) @ 2325000: uvm_test_top.env.slave_agent.drv [ahb_slave_driver] Beat AHB_READ addr=0x0000d1de resp=AHB_RESP_OKAY waits=3 rdata=0x66b6c052
# UVM_INFO ../src/mst/ahb_master_monitor.sv(128) @ 2325000: uvm_test_top.env.master_agent.mon [ahb_master_monitor] Beat[0] addr=0x0000d1de rdata=0x66b6c052 resp=AHB_RESP_OKAY
# UVM_INFO ../src/mst/ahb_master_monitor.sv(231) @ 2325000: uvm_test_top.env.master_agent.mon [ahb_master_monitor] Observed [AHB_READ]: HADDR=0x0000d1de, HBURST=AHB_BURST_SINGLE, HSIZE=AHB_SIZE_8B, 1 beats
# UVM_INFO ../src/env/ahb_coverage.sv(174) @ 2325000: uvm_test_top.env.master_cov [ahb_coverage] Sampled [AHB_READ]: burst=AHB_BURST_SINGLE size=AHB_SIZE_8B beats=1 error=0
# UVM_INFO ../src/slv/ahb_slave_monitor.sv(208) @ 2325000: uvm_test_top.env.slave_agent.mon [ahb_slave_monitor] Observed [AHB_READ]: HADDR=0x0000d1de, HBURST=AHB_BURST_SINGLE, HSIZE=AHB_SIZE_8B, 1 beats
# UVM_INFO ../src/env/ahb_scoreboard.sv(104) @ 2325000: uvm_test_top.env.scb [ahb_scoreboard] MATCH #16: [AHB_READ] HADDR=0x0000d1de AHB_BURST_SINGLE 1 beats
# UVM_INFO ../src/env/ahb_coverage.sv(174) @ 2325000: uvm_test_top.env.slave_cov [ahb_coverage] Sampled [AHB_READ]: burst=AHB_BURST_SINGLE size=AHB_SIZE_8B beats=1 error=0
# UVM_INFO ../src/mst_seq/ahb_base_seq.sv(157) @ 2325000: uvm_test_top.env.master_agent.sqr@@seq [ahb_wait_state_seq] AHB_BURST_SINGLE AHB_SIZE_8B beat 0 @0x0000d1de ok
# UVM_INFO ../src/mst_seq/ahb_wait_state_seq.sv(166) @ 2325000: uvm_test_top.env.master_agent.sqr@@seq [ahb_wait_state_seq] AHB_BURST_INCR8 AHB_SIZE_8B @0x0000d21c, 8 beats, waits=0:0, pipelined=0
# UVM_INFO ../src/mst/ahb_master_driver.sv(85) @ 2325000: uvm_test_top.env.master_agent.drv [ahb_master_driver] Queueing [AHB_WRITE]: HADDR=0x0000d21c, HBURST=AHB_BURST_INCR8, HSIZE=AHB_SIZE_8B, 8 beats
# UVM_INFO ../src/mst/ahb_master_driver.sv(127) @ 2325000: uvm_test_top.env.master_agent.drv [ahb_master_driver] Driving [AHB_WRITE]: HADDR=0x0000d21c, HBURST=AHB_BURST_INCR8, HSIZE=AHB_SIZE_8B, 8 beats               
# UVM_INFO ../src/mst/ahb_master_driver.sv(332) @ 2355000: uvm_test_top.env.master_agent.drv [ahb_master_driver] Beat[0/8] addr=0x0000d21c trans=AHB_TRANS_NONSEQ resp=AHB_RESP_OKAY wdata=0xb0f8f12a
# UVM_INFO ../src/slv/ahb_slave_driver.sv(184) @ 2355000: uvm_test_top.env.slave_agent.drv [ahb_slave_driver] Beat AHB_WRITE addr=0x0000d21c resp=AHB_RESP_OKAY waits=0 wdata=0xb0f8f12a
# UVM_INFO ../src/mst/ahb_master_monitor.sv(128) @ 2355000: uvm_test_top.env.master_agent.mon [ahb_master_monitor] Beat[0] addr=0x0000d21c wdata=0xb0f8f12a resp=AHB_RESP_OKAY
# UVM_INFO ../src/mst/ahb_master_driver.sv(332) @ 2365000: uvm_test_top.env.master_agent.drv [ahb_master_driver] Beat[1/8] addr=0x0000d21d trans=AHB_TRANS_SEQ resp=AHB_RESP_OKAY wdata=0xa0298ab9
# UVM_INFO ../src/slv/ahb_slave_driver.sv(184) @ 2365000: uvm_test_top.env.slave_agent.drv [ahb_slave_driver] Beat AHB_WRITE addr=0x0000d21d resp=AHB_RESP_OKAY waits=0 wdata=0xa0298ab9
# UVM_INFO ../src/mst/ahb_master_monitor.sv(128) @ 2365000: uvm_test_top.env.master_agent.mon [ahb_master_monitor] Beat[1] addr=0x0000d21d wdata=0xa0298ab9 resp=AHB_RESP_OKAY
# UVM_INFO ../src/mst/ahb_master_driver.sv(332) @ 2375000: uvm_test_top.env.master_agent.drv [ahb_master_driver] Beat[2/8] addr=0x0000d21e trans=AHB_TRANS_SEQ resp=AHB_RESP_OKAY wdata=0x9bf77274
# UVM_INFO ../src/slv/ahb_slave_driver.sv(184) @ 2375000: uvm_test_top.env.slave_agent.drv [ahb_slave_driver] Beat AHB_WRITE addr=0x0000d21e resp=AHB_RESP_OKAY waits=0 wdata=0x9bf77274
# UVM_INFO ../src/mst/ahb_master_monitor.sv(128) @ 2375000: uvm_test_top.env.master_agent.mon [ahb_master_monitor] Beat[2] addr=0x0000d21e wdata=0x9bf77274 resp=AHB_RESP_OKAY
# UVM_INFO ../src/mst/ahb_master_driver.sv(332) @ 2385000: uvm_test_top.env.master_agent.drv [ahb_master_driver] Beat[3/8] addr=0x0000d21f trans=AHB_TRANS_SEQ resp=AHB_RESP_OKAY wdata=0x88038d23
# UVM_INFO ../src/slv/ahb_slave_driver.sv(184) @ 2385000: uvm_test_top.env.slave_agent.drv [ahb_slave_driver] Beat AHB_WRITE addr=0x0000d21f resp=AHB_RESP_OKAY waits=0 wdata=0x88038d23
# UVM_INFO ../src/mst/ahb_master_monitor.sv(128) @ 2385000: uvm_test_top.env.master_agent.mon [ahb_master_monitor] Beat[3] addr=0x0000d21f wdata=0x88038d23 resp=AHB_RESP_OKAY
# UVM_INFO ../src/mst/ahb_master_driver.sv(332) @ 2395000: uvm_test_top.env.master_agent.drv [ahb_master_driver] Beat[4/8] addr=0x0000d220 trans=AHB_TRANS_SEQ resp=AHB_RESP_OKAY wdata=0x3323fb1a
# UVM_INFO ../src/slv/ahb_slave_driver.sv(184) @ 2395000: uvm_test_top.env.slave_agent.drv [ahb_slave_driver] Beat AHB_WRITE addr=0x0000d220 resp=AHB_RESP_OKAY waits=0 wdata=0x3323fb1a
# UVM_INFO ../src/mst/ahb_master_monitor.sv(128) @ 2395000: uvm_test_top.env.master_agent.mon [ahb_master_monitor] Beat[4] addr=0x0000d220 wdata=0x3323fb1a resp=AHB_RESP_OKAY
# UVM_INFO ../src/mst/ahb_master_driver.sv(332) @ 2405000: uvm_test_top.env.master_agent.drv [ahb_master_driver] Beat[5/8] addr=0x0000d221 trans=AHB_TRANS_SEQ resp=AHB_RESP_OKAY wdata=0xaebe959b
# UVM_INFO ../src/slv/ahb_slave_driver.sv(184) @ 2405000: uvm_test_top.env.slave_agent.drv [ahb_slave_driver] Beat AHB_WRITE addr=0x0000d221 resp=AHB_RESP_OKAY waits=0 wdata=0xaebe959b
# UVM_INFO ../src/mst/ahb_master_monitor.sv(128) @ 2405000: uvm_test_top.env.master_agent.mon [ahb_master_monitor] Beat[5] addr=0x0000d221 wdata=0xaebe959b resp=AHB_RESP_OKAY
# UVM_INFO ../src/mst/ahb_master_driver.sv(332) @ 2415000: uvm_test_top.env.master_agent.drv [ahb_master_driver] Beat[6/8] addr=0x0000d222 trans=AHB_TRANS_SEQ resp=AHB_RESP_OKAY wdata=0x961fe56d
# UVM_INFO ../src/slv/ahb_slave_driver.sv(184) @ 2415000: uvm_test_top.env.slave_agent.drv [ahb_slave_driver] Beat AHB_WRITE addr=0x0000d222 resp=AHB_RESP_OKAY waits=0 wdata=0x961fe56d
# UVM_INFO ../src/mst/ahb_master_monitor.sv(128) @ 2415000: uvm_test_top.env.master_agent.mon [ahb_master_monitor] Beat[6] addr=0x0000d222 wdata=0x961fe56d resp=AHB_RESP_OKAY
# UVM_INFO ../src/mst/ahb_master_driver.sv(332) @ 2425000: uvm_test_top.env.master_agent.drv [ahb_master_driver] Beat[7/8] addr=0x0000d223 trans=AHB_TRANS_SEQ resp=AHB_RESP_OKAY wdata=0x9142e2f5
# UVM_INFO ../src/mst/ahb_master_driver.sv(376) @ 2425000: uvm_test_top.env.master_agent.drv [ahb_master_driver] Transaction complete: AHB_WRITE 0x0000d21c, 8 beats, burst=AHB_BURST_INCR8
# UVM_INFO ../src/slv/ahb_slave_driver.sv(184) @ 2425000: uvm_test_top.env.slave_agent.drv [ahb_slave_driver] Beat AHB_WRITE addr=0x0000d223 resp=AHB_RESP_OKAY waits=0 wdata=0x9142e2f5
# UVM_INFO ../src/mst/ahb_master_monitor.sv(128) @ 2425000: uvm_test_top.env.master_agent.mon [ahb_master_monitor] Beat[7] addr=0x0000d223 wdata=0x9142e2f5 resp=AHB_RESP_OKAY
# UVM_INFO ../src/mst/ahb_master_monitor.sv(231) @ 2425000: uvm_test_top.env.master_agent.mon [ahb_master_monitor] Observed [AHB_WRITE]: HADDR=0x0000d21c, HBURST=AHB_BURST_INCR8, HSIZE=AHB_SIZE_8B, 8 beats
# UVM_INFO ../src/env/ahb_coverage.sv(174) @ 2425000: uvm_test_top.env.master_cov [ahb_coverage] Sampled [AHB_WRITE]: burst=AHB_BURST_INCR8 size=AHB_SIZE_8B beats=8 error=0
# UVM_INFO ../src/slv/ahb_slave_monitor.sv(208) @ 2425000: uvm_test_top.env.slave_agent.mon [ahb_slave_monitor] Observed [AHB_WRITE]: HADDR=0x0000d21c, HBURST=AHB_BURST_INCR8, HSIZE=AHB_SIZE_8B, 8 beats
# UVM_INFO ../src/env/ahb_scoreboard.sv(104) @ 2425000: uvm_test_top.env.scb [ahb_scoreboard] MATCH #17: [AHB_WRITE] HADDR=0x0000d21c AHB_BURST_INCR8 8 beats
# UVM_INFO ../src/env/ahb_coverage.sv(174) @ 2425000: uvm_test_top.env.slave_cov [ahb_coverage] Sampled [AHB_WRITE]: burst=AHB_BURST_INCR8 size=AHB_SIZE_8B beats=8 error=0
# UVM_INFO ../src/mst/ahb_master_driver.sv(85) @ 2425000: uvm_test_top.env.master_agent.drv [ahb_master_driver] Queueing [AHB_READ]: HADDR=0x0000d21c, HBURST=AHB_BURST_INCR8, HSIZE=AHB_SIZE_8B, 8 beats
# UVM_INFO ../src/mst/ahb_master_driver.sv(127) @ 2425000: uvm_test_top.env.master_agent.drv [ahb_master_driver] Driving [AHB_READ]: HADDR=0x0000d21c, HBURST=AHB_BURST_INCR8, HSIZE=AHB_SIZE_8B, 8 beats               
# UVM_INFO ../src/mst/ahb_master_driver.sv(332) @ 2455000: uvm_test_top.env.master_agent.drv [ahb_master_driver] Beat[0/8] addr=0x0000d21c trans=AHB_TRANS_NONSEQ resp=AHB_RESP_OKAY rdata=0xb0f8f12a
# UVM_INFO ../src/slv/ahb_slave_driver.sv(184) @ 2455000: uvm_test_top.env.slave_agent.drv [ahb_slave_driver] Beat AHB_READ addr=0x0000d21c resp=AHB_RESP_OKAY waits=0 rdata=0xb0f8f12a
# UVM_INFO ../src/mst/ahb_master_monitor.sv(128) @ 2455000: uvm_test_top.env.master_agent.mon [ahb_master_monitor] Beat[0] addr=0x0000d21c rdata=0xb0f8f12a resp=AHB_RESP_OKAY
# UVM_INFO ../src/mst/ahb_master_driver.sv(332) @ 2465000: uvm_test_top.env.master_agent.drv [ahb_master_driver] Beat[1/8] addr=0x0000d21d trans=AHB_TRANS_SEQ resp=AHB_RESP_OKAY rdata=0xa0298ab9
# UVM_INFO ../src/slv/ahb_slave_driver.sv(184) @ 2465000: uvm_test_top.env.slave_agent.drv [ahb_slave_driver] Beat AHB_READ addr=0x0000d21d resp=AHB_RESP_OKAY waits=0 rdata=0xa0298ab9
# UVM_INFO ../src/mst/ahb_master_monitor.sv(128) @ 2465000: uvm_test_top.env.master_agent.mon [ahb_master_monitor] Beat[1] addr=0x0000d21d rdata=0xa0298ab9 resp=AHB_RESP_OKAY
# UVM_INFO ../src/mst/ahb_master_driver.sv(332) @ 2475000: uvm_test_top.env.master_agent.drv [ahb_master_driver] Beat[2/8] addr=0x0000d21e trans=AHB_TRANS_SEQ resp=AHB_RESP_OKAY rdata=0x9bf77274
# UVM_INFO ../src/slv/ahb_slave_driver.sv(184) @ 2475000: uvm_test_top.env.slave_agent.drv [ahb_slave_driver] Beat AHB_READ addr=0x0000d21e resp=AHB_RESP_OKAY waits=0 rdata=0x9bf77274
# UVM_INFO ../src/mst/ahb_master_monitor.sv(128) @ 2475000: uvm_test_top.env.master_agent.mon [ahb_master_monitor] Beat[2] addr=0x0000d21e rdata=0x9bf77274 resp=AHB_RESP_OKAY
# UVM_INFO ../src/mst/ahb_master_driver.sv(332) @ 2485000: uvm_test_top.env.master_agent.drv [ahb_master_driver] Beat[3/8] addr=0x0000d21f trans=AHB_TRANS_SEQ resp=AHB_RESP_OKAY rdata=0x88038d23
# UVM_INFO ../src/slv/ahb_slave_driver.sv(184) @ 2485000: uvm_test_top.env.slave_agent.drv [ahb_slave_driver] Beat AHB_READ addr=0x0000d21f resp=AHB_RESP_OKAY waits=0 rdata=0x88038d23
# UVM_INFO ../src/mst/ahb_master_monitor.sv(128) @ 2485000: uvm_test_top.env.master_agent.mon [ahb_master_monitor] Beat[3] addr=0x0000d21f rdata=0x88038d23 resp=AHB_RESP_OKAY
# UVM_INFO ../src/mst/ahb_master_driver.sv(332) @ 2495000: uvm_test_top.env.master_agent.drv [ahb_master_driver] Beat[4/8] addr=0x0000d220 trans=AHB_TRANS_SEQ resp=AHB_RESP_OKAY rdata=0x3323fb1a
# UVM_INFO ../src/slv/ahb_slave_driver.sv(184) @ 2495000: uvm_test_top.env.slave_agent.drv [ahb_slave_driver] Beat AHB_READ addr=0x0000d220 resp=AHB_RESP_OKAY waits=0 rdata=0x3323fb1a
# UVM_INFO ../src/mst/ahb_master_monitor.sv(128) @ 2495000: uvm_test_top.env.master_agent.mon [ahb_master_monitor] Beat[4] addr=0x0000d220 rdata=0x3323fb1a resp=AHB_RESP_OKAY
# UVM_INFO ../src/mst/ahb_master_driver.sv(332) @ 2505000: uvm_test_top.env.master_agent.drv [ahb_master_driver] Beat[5/8] addr=0x0000d221 trans=AHB_TRANS_SEQ resp=AHB_RESP_OKAY rdata=0xaebe959b
# UVM_INFO ../src/slv/ahb_slave_driver.sv(184) @ 2505000: uvm_test_top.env.slave_agent.drv [ahb_slave_driver] Beat AHB_READ addr=0x0000d221 resp=AHB_RESP_OKAY waits=0 rdata=0xaebe959b
# UVM_INFO ../src/mst/ahb_master_monitor.sv(128) @ 2505000: uvm_test_top.env.master_agent.mon [ahb_master_monitor] Beat[5] addr=0x0000d221 rdata=0xaebe959b resp=AHB_RESP_OKAY
# UVM_INFO ../src/mst/ahb_master_driver.sv(332) @ 2515000: uvm_test_top.env.master_agent.drv [ahb_master_driver] Beat[6/8] addr=0x0000d222 trans=AHB_TRANS_SEQ resp=AHB_RESP_OKAY rdata=0x961fe56d
# UVM_INFO ../src/slv/ahb_slave_driver.sv(184) @ 2515000: uvm_test_top.env.slave_agent.drv [ahb_slave_driver] Beat AHB_READ addr=0x0000d222 resp=AHB_RESP_OKAY waits=0 rdata=0x961fe56d
# UVM_INFO ../src/mst/ahb_master_monitor.sv(128) @ 2515000: uvm_test_top.env.master_agent.mon [ahb_master_monitor] Beat[6] addr=0x0000d222 rdata=0x961fe56d resp=AHB_RESP_OKAY
# UVM_INFO ../src/mst/ahb_master_driver.sv(332) @ 2525000: uvm_test_top.env.master_agent.drv [ahb_master_driver] Beat[7/8] addr=0x0000d223 trans=AHB_TRANS_SEQ resp=AHB_RESP_OKAY rdata=0x9142e2f5
# UVM_INFO ../src/mst/ahb_master_driver.sv(376) @ 2525000: uvm_test_top.env.master_agent.drv [ahb_master_driver] Transaction complete: AHB_READ 0x0000d21c, 8 beats, burst=AHB_BURST_INCR8
# UVM_INFO ../src/slv/ahb_slave_driver.sv(184) @ 2525000: uvm_test_top.env.slave_agent.drv [ahb_slave_driver] Beat AHB_READ addr=0x0000d223 resp=AHB_RESP_OKAY waits=0 rdata=0x9142e2f5
# UVM_INFO ../src/mst/ahb_master_monitor.sv(128) @ 2525000: uvm_test_top.env.master_agent.mon [ahb_master_monitor] Beat[7] addr=0x0000d223 rdata=0x9142e2f5 resp=AHB_RESP_OKAY
# UVM_INFO ../src/mst/ahb_master_monitor.sv(231) @ 2525000: uvm_test_top.env.master_agent.mon [ahb_master_monitor] Observed [AHB_READ]: HADDR=0x0000d21c, HBURST=AHB_BURST_INCR8, HSIZE=AHB_SIZE_8B, 8 beats
# UVM_INFO ../src/env/ahb_coverage.sv(174) @ 2525000: uvm_test_top.env.master_cov [ahb_coverage] Sampled [AHB_READ]: burst=AHB_BURST_INCR8 size=AHB_SIZE_8B beats=8 error=0
# UVM_INFO ../src/slv/ahb_slave_monitor.sv(208) @ 2525000: uvm_test_top.env.slave_agent.mon [ahb_slave_monitor] Observed [AHB_READ]: HADDR=0x0000d21c, HBURST=AHB_BURST_INCR8, HSIZE=AHB_SIZE_8B, 8 beats
# UVM_INFO ../src/env/ahb_scoreboard.sv(104) @ 2525000: uvm_test_top.env.scb [ahb_scoreboard] MATCH #18: [AHB_READ] HADDR=0x0000d21c AHB_BURST_INCR8 8 beats
# UVM_INFO ../src/env/ahb_coverage.sv(174) @ 2525000: uvm_test_top.env.slave_cov [ahb_coverage] Sampled [AHB_READ]: burst=AHB_BURST_INCR8 size=AHB_SIZE_8B beats=8 error=0
# UVM_INFO ../src/mst_seq/ahb_base_seq.sv(157) @ 2525000: uvm_test_top.env.master_agent.sqr@@seq [ahb_wait_state_seq] AHB_BURST_INCR8 AHB_SIZE_8B beat 0 @0x0000d21c ok
# UVM_INFO ../src/mst_seq/ahb_base_seq.sv(157) @ 2525000: uvm_test_top.env.master_agent.sqr@@seq [ahb_wait_state_seq] AHB_BURST_INCR8 AHB_SIZE_8B beat 1 @0x0000d21d ok
# UVM_INFO ../src/mst_seq/ahb_base_seq.sv(157) @ 2525000: uvm_test_top.env.master_agent.sqr@@seq [ahb_wait_state_seq] AHB_BURST_INCR8 AHB_SIZE_8B beat 2 @0x0000d21e ok
# UVM_INFO ../src/mst_seq/ahb_base_seq.sv(157) @ 2525000: uvm_test_top.env.master_agent.sqr@@seq [ahb_wait_state_seq] AHB_BURST_INCR8 AHB_SIZE_8B beat 3 @0x0000d21f ok
# UVM_INFO ../src/mst_seq/ahb_base_seq.sv(157) @ 2525000: uvm_test_top.env.master_agent.sqr@@seq [ahb_wait_state_seq] AHB_BURST_INCR8 AHB_SIZE_8B beat 4 @0x0000d220 ok
# UVM_INFO ../src/mst_seq/ahb_base_seq.sv(157) @ 2525000: uvm_test_top.env.master_agent.sqr@@seq [ahb_wait_state_seq] AHB_BURST_INCR8 AHB_SIZE_8B beat 5 @0x0000d221 ok
# UVM_INFO ../src/mst_seq/ahb_base_seq.sv(157) @ 2525000: uvm_test_top.env.master_agent.sqr@@seq [ahb_wait_state_seq] AHB_BURST_INCR8 AHB_SIZE_8B beat 6 @0x0000d222 ok
# UVM_INFO ../src/mst_seq/ahb_base_seq.sv(157) @ 2525000: uvm_test_top.env.master_agent.sqr@@seq [ahb_wait_state_seq] AHB_BURST_INCR8 AHB_SIZE_8B beat 7 @0x0000d223 ok
# UVM_INFO ../src/mst_seq/ahb_wait_state_seq.sv(166) @ 2525000: uvm_test_top.env.master_agent.sqr@@seq [ahb_wait_state_seq] AHB_BURST_INCR AHB_SIZE_32B @0x0000d248, 4 beats, waits=1:1, pipelined=1
# UVM_INFO ../src/mst/ahb_master_driver.sv(85) @ 2525000: uvm_test_top.env.master_agent.drv [ahb_master_driver] Queueing [AHB_WRITE]: HADDR=0x0000d248, HBURST=AHB_BURST_INCR, HSIZE=AHB_SIZE_32B, 4 beats
# UVM_INFO ../src/mst/ahb_master_driver.sv(127) @ 2525000: uvm_test_top.env.master_agent.drv [ahb_master_driver] Driving [AHB_WRITE]: HADDR=0x0000d248, HBURST=AHB_BURST_INCR, HSIZE=AHB_SIZE_32B, 4 beats               
# UVM_INFO ../src/mst/ahb_master_driver.sv(85) @ 2525000: uvm_test_top.env.master_agent.drv [ahb_master_driver] Queueing [AHB_READ]: HADDR=0x0000d248, HBURST=AHB_BURST_INCR, HSIZE=AHB_SIZE_32B, 4 beats
# UVM_INFO ../src/mst/ahb_master_driver.sv(332) @ 2565000: uvm_test_top.env.master_agent.drv [ahb_master_driver] Beat[0/4] addr=0x0000d248 trans=AHB_TRANS_NONSEQ resp=AHB_RESP_OKAY wdata=0xd59e2ae4
# UVM_INFO ../src/slv/ahb_slave_driver.sv(184) @ 2565000: uvm_test_top.env.slave_agent.drv [ahb_slave_driver] Beat AHB_WRITE addr=0x0000d248 resp=AHB_RESP_OKAY waits=1 wdata=0xd59e2ae4
# UVM_INFO ../src/mst/ahb_master_monitor.sv(128) @ 2565000: uvm_test_top.env.master_agent.mon [ahb_master_monitor] Beat[0] addr=0x0000d248 wdata=0xd59e2ae4 resp=AHB_RESP_OKAY
# UVM_INFO ../src/mst/ahb_master_driver.sv(332) @ 2585000: uvm_test_top.env.master_agent.drv [ahb_master_driver] Beat[1/4] addr=0x0000d24c trans=AHB_TRANS_SEQ resp=AHB_RESP_OKAY wdata=0x748a867d
# UVM_INFO ../src/slv/ahb_slave_driver.sv(184) @ 2585000: uvm_test_top.env.slave_agent.drv [ahb_slave_driver] Beat AHB_WRITE addr=0x0000d24c resp=AHB_RESP_OKAY waits=1 wdata=0x748a867d
# UVM_INFO ../src/mst/ahb_master_monitor.sv(128) @ 2585000: uvm_test_top.env.master_agent.mon [ahb_master_monitor] Beat[1] addr=0x0000d24c wdata=0x748a867d resp=AHB_RESP_OKAY
# UVM_INFO ../src/mst/ahb_master_driver.sv(332) @ 2605000: uvm_test_top.env.master_agent.drv [ahb_master_driver] Beat[2/4] addr=0x0000d250 trans=AHB_TRANS_SEQ resp=AHB_RESP_OKAY wdata=0xe469f4d7
# UVM_INFO ../src/slv/ahb_slave_driver.sv(184) @ 2605000: uvm_test_top.env.slave_agent.drv [ahb_slave_driver] Beat AHB_WRITE addr=0x0000d250 resp=AHB_RESP_OKAY waits=1 wdata=0xe469f4d7
# UVM_INFO ../src/mst/ahb_master_monitor.sv(128) @ 2605000: uvm_test_top.env.master_agent.mon [ahb_master_monitor] Beat[2] addr=0x0000d250 wdata=0xe469f4d7 resp=AHB_RESP_OKAY
# UVM_INFO ../src/mst/ahb_master_driver.sv(332) @ 2625000: uvm_test_top.env.master_agent.drv [ahb_master_driver] Beat[3/4] addr=0x0000d254 trans=AHB_TRANS_SEQ resp=AHB_RESP_OKAY wdata=0x3cd26851
# UVM_INFO ../src/mst/ahb_master_driver.sv(376) @ 2625000: uvm_test_top.env.master_agent.drv [ahb_master_driver] Transaction complete: AHB_WRITE 0x0000d248, 4 beats, burst=AHB_BURST_INCR
# UVM_INFO ../src/mst/ahb_master_driver.sv(127) @ 2625000: uvm_test_top.env.master_agent.drv [ahb_master_driver] Driving [AHB_READ]: HADDR=0x0000d248, HBURST=AHB_BURST_INCR, HSIZE=AHB_SIZE_32B, 4 beats (back-to-back)
# UVM_INFO ../src/slv/ahb_slave_driver.sv(184) @ 2625000: uvm_test_top.env.slave_agent.drv [ahb_slave_driver] Beat AHB_WRITE addr=0x0000d254 resp=AHB_RESP_OKAY waits=1 wdata=0x3cd26851
# UVM_INFO ../src/mst/ahb_master_monitor.sv(128) @ 2625000: uvm_test_top.env.master_agent.mon [ahb_master_monitor] Beat[3] addr=0x0000d254 wdata=0x3cd26851 resp=AHB_RESP_OKAY
# UVM_INFO ../src/mst/ahb_master_monitor.sv(231) @ 2625000: uvm_test_top.env.master_agent.mon [ahb_master_monitor] Observed [AHB_WRITE]: HADDR=0x0000d248, HBURST=AHB_BURST_INCR, HSIZE=AHB_SIZE_32B, 4 beats
# UVM_INFO ../src/env/ahb_coverage.sv(174) @ 2625000: uvm_test_top.env.master_cov [ahb_coverage] Sampled [AHB_WRITE]: burst=AHB_BURST_INCR size=AHB_SIZE_32B beats=4 error=0
# UVM_INFO ../src/slv/ahb_slave_monitor.sv(208) @ 2625000: uvm_test_top.env.slave_agent.mon [ahb_slave_monitor] Observed [AHB_WRITE]: HADDR=0x0000d248, HBURST=AHB_BURST_INCR, HSIZE=AHB_SIZE_32B, 4 beats
# UVM_INFO ../src/env/ahb_scoreboard.sv(104) @ 2625000: uvm_test_top.env.scb [ahb_scoreboard] MATCH #19: [AHB_WRITE] HADDR=0x0000d248 AHB_BURST_INCR 4 beats
# UVM_INFO ../src/env/ahb_coverage.sv(174) @ 2625000: uvm_test_top.env.slave_cov [ahb_coverage] Sampled [AHB_WRITE]: burst=AHB_BURST_INCR size=AHB_SIZE_32B beats=4 error=0
# UVM_INFO ../src/mst/ahb_master_driver.sv(332) @ 2645000: uvm_test_top.env.master_agent.drv [ahb_master_driver] Beat[0/4] addr=0x0000d248 trans=AHB_TRANS_NONSEQ resp=AHB_RESP_OKAY rdata=0xd59e2ae4
# UVM_INFO ../src/slv/ahb_slave_driver.sv(184) @ 2645000: uvm_test_top.env.slave_agent.drv [ahb_slave_driver] Beat AHB_READ addr=0x0000d248 resp=AHB_RESP_OKAY waits=1 rdata=0xd59e2ae4
# UVM_INFO ../src/mst/ahb_master_monitor.sv(128) @ 2645000: uvm_test_top.env.master_agent.mon [ahb_master_monitor] Beat[0] addr=0x0000d248 rdata=0xd59e2ae4 resp=AHB_RESP_OKAY
# UVM_INFO ../src/mst/ahb_master_driver.sv(332) @ 2665000: uvm_test_top.env.master_agent.drv [ahb_master_driver] Beat[1/4] addr=0x0000d24c trans=AHB_TRANS_SEQ resp=AHB_RESP_OKAY rdata=0x748a867d
# UVM_INFO ../src/slv/ahb_slave_driver.sv(184) @ 2665000: uvm_test_top.env.slave_agent.drv [ahb_slave_driver] Beat AHB_READ addr=0x0000d24c resp=AHB_RESP_OKAY waits=1 rdata=0x748a867d
# UVM_INFO ../src/mst/ahb_master_monitor.sv(128) @ 2665000: uvm_test_top.env.master_agent.mon [ahb_master_monitor] Beat[1] addr=0x0000d24c rdata=0x748a867d resp=AHB_RESP_OKAY
# UVM_INFO ../src/mst/ahb_master_driver.sv(332) @ 2685000: uvm_test_top.env.master_agent.drv [ahb_master_driver] Beat[2/4] addr=0x0000d250 trans=AHB_TRANS_SEQ resp=AHB_RESP_OKAY rdata=0xe469f4d7
# UVM_INFO ../src/slv/ahb_slave_driver.sv(184) @ 2685000: uvm_test_top.env.slave_agent.drv [ahb_slave_driver] Beat AHB_READ addr=0x0000d250 resp=AHB_RESP_OKAY waits=1 rdata=0xe469f4d7
# UVM_INFO ../src/mst/ahb_master_monitor.sv(128) @ 2685000: uvm_test_top.env.master_agent.mon [ahb_master_monitor] Beat[2] addr=0x0000d250 rdata=0xe469f4d7 resp=AHB_RESP_OKAY
# UVM_INFO ../src/mst/ahb_master_driver.sv(332) @ 2705000: uvm_test_top.env.master_agent.drv [ahb_master_driver] Beat[3/4] addr=0x0000d254 trans=AHB_TRANS_SEQ resp=AHB_RESP_OKAY rdata=0x3cd26851
# UVM_INFO ../src/mst/ahb_master_driver.sv(376) @ 2705000: uvm_test_top.env.master_agent.drv [ahb_master_driver] Transaction complete: AHB_READ 0x0000d248, 4 beats, burst=AHB_BURST_INCR
# UVM_INFO ../src/slv/ahb_slave_driver.sv(184) @ 2705000: uvm_test_top.env.slave_agent.drv [ahb_slave_driver] Beat AHB_READ addr=0x0000d254 resp=AHB_RESP_OKAY waits=1 rdata=0x3cd26851
# UVM_INFO ../src/mst/ahb_master_monitor.sv(128) @ 2705000: uvm_test_top.env.master_agent.mon [ahb_master_monitor] Beat[3] addr=0x0000d254 rdata=0x3cd26851 resp=AHB_RESP_OKAY
# UVM_INFO ../src/mst/ahb_master_monitor.sv(231) @ 2705000: uvm_test_top.env.master_agent.mon [ahb_master_monitor] Observed [AHB_READ]: HADDR=0x0000d248, HBURST=AHB_BURST_INCR, HSIZE=AHB_SIZE_32B, 4 beats
# UVM_INFO ../src/env/ahb_coverage.sv(174) @ 2705000: uvm_test_top.env.master_cov [ahb_coverage] Sampled [AHB_READ]: burst=AHB_BURST_INCR size=AHB_SIZE_32B beats=4 error=0
# UVM_INFO ../src/slv/ahb_slave_monitor.sv(208) @ 2705000: uvm_test_top.env.slave_agent.mon [ahb_slave_monitor] Observed [AHB_READ]: HADDR=0x0000d248, HBURST=AHB_BURST_INCR, HSIZE=AHB_SIZE_32B, 4 beats
# UVM_INFO ../src/env/ahb_scoreboard.sv(104) @ 2705000: uvm_test_top.env.scb [ahb_scoreboard] MATCH #20: [AHB_READ] HADDR=0x0000d248 AHB_BURST_INCR 4 beats
# UVM_INFO ../src/env/ahb_coverage.sv(174) @ 2705000: uvm_test_top.env.slave_cov [ahb_coverage] Sampled [AHB_READ]: burst=AHB_BURST_INCR size=AHB_SIZE_32B beats=4 error=0
# UVM_INFO ../src/mst_seq/ahb_base_seq.sv(157) @ 2705000: uvm_test_top.env.master_agent.sqr@@seq [ahb_wait_state_seq] AHB_BURST_INCR AHB_SIZE_32B beat 0 @0x0000d248 ok
# UVM_INFO ../src/mst_seq/ahb_base_seq.sv(157) @ 2705000: uvm_test_top.env.master_agent.sqr@@seq [ahb_wait_state_seq] AHB_BURST_INCR AHB_SIZE_32B beat 1 @0x0000d24c ok
# UVM_INFO ../src/mst_seq/ahb_base_seq.sv(157) @ 2705000: uvm_test_top.env.master_agent.sqr@@seq [ahb_wait_state_seq] AHB_BURST_INCR AHB_SIZE_32B beat 2 @0x0000d250 ok
# UVM_INFO ../src/mst_seq/ahb_base_seq.sv(157) @ 2705000: uvm_test_top.env.master_agent.sqr@@seq [ahb_wait_state_seq] AHB_BURST_INCR AHB_SIZE_32B beat 3 @0x0000d254 ok
# UVM_INFO ../src/mst_seq/ahb_wait_state_seq.sv(166) @ 2705000: uvm_test_top.env.master_agent.sqr@@seq [ahb_wait_state_seq] AHB_BURST_SINGLE AHB_SIZE_8B @0x0000d294, 1 beats, waits=2:2, pipelined=0
# UVM_INFO ../src/mst/ahb_master_driver.sv(85) @ 2705000: uvm_test_top.env.master_agent.drv [ahb_master_driver] Queueing [AHB_WRITE]: HADDR=0x0000d294, HBURST=AHB_BURST_SINGLE, HSIZE=AHB_SIZE_8B, 1 beats
# UVM_INFO ../src/mst/ahb_master_driver.sv(127) @ 2705000: uvm_test_top.env.master_agent.drv [ahb_master_driver] Driving [AHB_WRITE]: HADDR=0x0000d294, HBURST=AHB_BURST_SINGLE, HSIZE=AHB_SIZE_8B, 1 beats               
# UVM_INFO ../src/mst/ahb_master_driver.sv(332) @ 2755000: uvm_test_top.env.master_agent.drv [ahb_master_driver] Beat[0/1] addr=0x0000d294 trans=AHB_TRANS_NONSEQ resp=AHB_RESP_OKAY wdata=0x47f7b1ba
# UVM_INFO ../src/mst/ahb_master_driver.sv(376) @ 2755000: uvm_test_top.env.master_agent.drv [ahb_master_driver] Transaction complete: AHB_WRITE 0x0000d294, 1 beats, burst=AHB_BURST_SINGLE
# UVM_INFO ../src/slv/ahb_slave_driver.sv(184) @ 2755000: uvm_test_top.env.slave_agent.drv [ahb_slave_driver] Beat AHB_WRITE addr=0x0000d294 resp=AHB_RESP_OKAY waits=2 wdata=0x47f7b1ba
# UVM_INFO ../src/slv/ahb_slave_monitor.sv(208) @ 2755000: uvm_test_top.env.slave_agent.mon [ahb_slave_monitor] Observed [AHB_WRITE]: HADDR=0x0000d294, HBURST=AHB_BURST_SINGLE, HSIZE=AHB_SIZE_8B, 1 beats
# UVM_INFO ../src/env/ahb_coverage.sv(174) @ 2755000: uvm_test_top.env.slave_cov [ahb_coverage] Sampled [AHB_WRITE]: burst=AHB_BURST_SINGLE size=AHB_SIZE_8B beats=1 error=0
# UVM_INFO ../src/mst/ahb_master_monitor.sv(128) @ 2755000: uvm_test_top.env.master_agent.mon [ahb_master_monitor] Beat[0] addr=0x0000d294 wdata=0x47f7b1ba resp=AHB_RESP_OKAY
# UVM_INFO ../src/mst/ahb_master_monitor.sv(231) @ 2755000: uvm_test_top.env.master_agent.mon [ahb_master_monitor] Observed [AHB_WRITE]: HADDR=0x0000d294, HBURST=AHB_BURST_SINGLE, HSIZE=AHB_SIZE_8B, 1 beats
# UVM_INFO ../src/env/ahb_coverage.sv(174) @ 2755000: uvm_test_top.env.master_cov [ahb_coverage] Sampled [AHB_WRITE]: burst=AHB_BURST_SINGLE size=AHB_SIZE_8B beats=1 error=0
# UVM_INFO ../src/env/ahb_scoreboard.sv(104) @ 2755000: uvm_test_top.env.scb [ahb_scoreboard] MATCH #21: [AHB_WRITE] HADDR=0x0000d294 AHB_BURST_SINGLE 1 beats
# UVM_INFO ../src/mst/ahb_master_driver.sv(85) @ 2755000: uvm_test_top.env.master_agent.drv [ahb_master_driver] Queueing [AHB_READ]: HADDR=0x0000d294, HBURST=AHB_BURST_SINGLE, HSIZE=AHB_SIZE_8B, 1 beats
# UVM_INFO ../src/mst/ahb_master_driver.sv(127) @ 2755000: uvm_test_top.env.master_agent.drv [ahb_master_driver] Driving [AHB_READ]: HADDR=0x0000d294, HBURST=AHB_BURST_SINGLE, HSIZE=AHB_SIZE_8B, 1 beats               
# UVM_INFO ../src/mst/ahb_master_driver.sv(332) @ 2805000: uvm_test_top.env.master_agent.drv [ahb_master_driver] Beat[0/1] addr=0x0000d294 trans=AHB_TRANS_NONSEQ resp=AHB_RESP_OKAY rdata=0x47f7b1ba
# UVM_INFO ../src/mst/ahb_master_driver.sv(376) @ 2805000: uvm_test_top.env.master_agent.drv [ahb_master_driver] Transaction complete: AHB_READ 0x0000d294, 1 beats, burst=AHB_BURST_SINGLE
# UVM_INFO ../src/slv/ahb_slave_driver.sv(184) @ 2805000: uvm_test_top.env.slave_agent.drv [ahb_slave_driver] Beat AHB_READ addr=0x0000d294 resp=AHB_RESP_OKAY waits=2 rdata=0x47f7b1ba
# UVM_INFO ../src/mst/ahb_master_monitor.sv(128) @ 2805000: uvm_test_top.env.master_agent.mon [ahb_master_monitor] Beat[0] addr=0x0000d294 rdata=0x47f7b1ba resp=AHB_RESP_OKAY
# UVM_INFO ../src/mst/ahb_master_monitor.sv(231) @ 2805000: uvm_test_top.env.master_agent.mon [ahb_master_monitor] Observed [AHB_READ]: HADDR=0x0000d294, HBURST=AHB_BURST_SINGLE, HSIZE=AHB_SIZE_8B, 1 beats
# UVM_INFO ../src/env/ahb_coverage.sv(174) @ 2805000: uvm_test_top.env.master_cov [ahb_coverage] Sampled [AHB_READ]: burst=AHB_BURST_SINGLE size=AHB_SIZE_8B beats=1 error=0
# UVM_INFO ../src/slv/ahb_slave_monitor.sv(208) @ 2805000: uvm_test_top.env.slave_agent.mon [ahb_slave_monitor] Observed [AHB_READ]: HADDR=0x0000d294, HBURST=AHB_BURST_SINGLE, HSIZE=AHB_SIZE_8B, 1 beats
# UVM_INFO ../src/env/ahb_scoreboard.sv(104) @ 2805000: uvm_test_top.env.scb [ahb_scoreboard] MATCH #22: [AHB_READ] HADDR=0x0000d294 AHB_BURST_SINGLE 1 beats
# UVM_INFO ../src/env/ahb_coverage.sv(174) @ 2805000: uvm_test_top.env.slave_cov [ahb_coverage] Sampled [AHB_READ]: burst=AHB_BURST_SINGLE size=AHB_SIZE_8B beats=1 error=0
# UVM_INFO ../src/mst_seq/ahb_base_seq.sv(157) @ 2805000: uvm_test_top.env.master_agent.sqr@@seq [ahb_wait_state_seq] AHB_BURST_SINGLE AHB_SIZE_8B beat 0 @0x0000d294 ok
# UVM_INFO ../src/mst_seq/ahb_wait_state_seq.sv(166) @ 2805000: uvm_test_top.env.master_agent.sqr@@seq [ahb_wait_state_seq] AHB_BURST_SINGLE AHB_SIZE_8B @0x0000d2cc, 1 beats, waits=3:3, pipelined=1
# UVM_INFO ../src/mst/ahb_master_driver.sv(85) @ 2805000: uvm_test_top.env.master_agent.drv [ahb_master_driver] Queueing [AHB_WRITE]: HADDR=0x0000d2cc, HBURST=AHB_BURST_SINGLE, HSIZE=AHB_SIZE_8B, 1 beats
# UVM_INFO ../src/mst/ahb_master_driver.sv(127) @ 2805000: uvm_test_top.env.master_agent.drv [ahb_master_driver] Driving [AHB_WRITE]: HADDR=0x0000d2cc, HBURST=AHB_BURST_SINGLE, HSIZE=AHB_SIZE_8B, 1 beats               
# UVM_INFO ../src/mst/ahb_master_driver.sv(85) @ 2805000: uvm_test_top.env.master_agent.drv [ahb_master_driver] Queueing [AHB_READ]: HADDR=0x0000d2cc, HBURST=AHB_BURST_SINGLE, HSIZE=AHB_SIZE_8B, 1 beats
# UVM_INFO ../src/mst/ahb_master_driver.sv(332) @ 2865000: uvm_test_top.env.master_agent.drv [ahb_master_driver] Beat[0/1] addr=0x0000d2cc trans=AHB_TRANS_NONSEQ resp=AHB_RESP_OKAY wdata=0x7851c732
# UVM_INFO ../src/mst/ahb_master_driver.sv(376) @ 2865000: uvm_test_top.env.master_agent.drv [ahb_master_driver] Transaction complete: AHB_WRITE 0x0000d2cc, 1 beats, burst=AHB_BURST_SINGLE
# UVM_INFO ../src/mst/ahb_master_driver.sv(127) @ 2865000: uvm_test_top.env.master_agent.drv [ahb_master_driver] Driving [AHB_READ]: HADDR=0x0000d2cc, HBURST=AHB_BURST_SINGLE, HSIZE=AHB_SIZE_8B, 1 beats (back-to-back)
# UVM_INFO ../src/slv/ahb_slave_driver.sv(184) @ 2865000: uvm_test_top.env.slave_agent.drv [ahb_slave_driver] Beat AHB_WRITE addr=0x0000d2cc resp=AHB_RESP_OKAY waits=3 wdata=0x7851c732
# UVM_INFO ../src/mst/ahb_master_monitor.sv(128) @ 2865000: uvm_test_top.env.master_agent.mon [ahb_master_monitor] Beat[0] addr=0x0000d2cc wdata=0x7851c732 resp=AHB_RESP_OKAY
# UVM_INFO ../src/mst/ahb_master_monitor.sv(231) @ 2865000: uvm_test_top.env.master_agent.mon [ahb_master_monitor] Observed [AHB_WRITE]: HADDR=0x0000d2cc, HBURST=AHB_BURST_SINGLE, HSIZE=AHB_SIZE_8B, 1 beats
# UVM_INFO ../src/env/ahb_coverage.sv(174) @ 2865000: uvm_test_top.env.master_cov [ahb_coverage] Sampled [AHB_WRITE]: burst=AHB_BURST_SINGLE size=AHB_SIZE_8B beats=1 error=0
# UVM_INFO ../src/slv/ahb_slave_monitor.sv(208) @ 2865000: uvm_test_top.env.slave_agent.mon [ahb_slave_monitor] Observed [AHB_WRITE]: HADDR=0x0000d2cc, HBURST=AHB_BURST_SINGLE, HSIZE=AHB_SIZE_8B, 1 beats
# UVM_INFO ../src/env/ahb_scoreboard.sv(104) @ 2865000: uvm_test_top.env.scb [ahb_scoreboard] MATCH #23: [AHB_WRITE] HADDR=0x0000d2cc AHB_BURST_SINGLE 1 beats
# UVM_INFO ../src/env/ahb_coverage.sv(174) @ 2865000: uvm_test_top.env.slave_cov [ahb_coverage] Sampled [AHB_WRITE]: burst=AHB_BURST_SINGLE size=AHB_SIZE_8B beats=1 error=0
# UVM_INFO ../src/mst/ahb_master_driver.sv(332) @ 2905000: uvm_test_top.env.master_agent.drv [ahb_master_driver] Beat[0/1] addr=0x0000d2cc trans=AHB_TRANS_NONSEQ resp=AHB_RESP_OKAY rdata=0x7851c732
# UVM_INFO ../src/mst/ahb_master_driver.sv(376) @ 2905000: uvm_test_top.env.master_agent.drv [ahb_master_driver] Transaction complete: AHB_READ 0x0000d2cc, 1 beats, burst=AHB_BURST_SINGLE
# UVM_INFO ../src/slv/ahb_slave_driver.sv(184) @ 2905000: uvm_test_top.env.slave_agent.drv [ahb_slave_driver] Beat AHB_READ addr=0x0000d2cc resp=AHB_RESP_OKAY waits=3 rdata=0x7851c732
# UVM_INFO ../src/mst/ahb_master_monitor.sv(128) @ 2905000: uvm_test_top.env.master_agent.mon [ahb_master_monitor] Beat[0] addr=0x0000d2cc rdata=0x7851c732 resp=AHB_RESP_OKAY
# UVM_INFO ../src/mst/ahb_master_monitor.sv(231) @ 2905000: uvm_test_top.env.master_agent.mon [ahb_master_monitor] Observed [AHB_READ]: HADDR=0x0000d2cc, HBURST=AHB_BURST_SINGLE, HSIZE=AHB_SIZE_8B, 1 beats
# UVM_INFO ../src/env/ahb_coverage.sv(174) @ 2905000: uvm_test_top.env.master_cov [ahb_coverage] Sampled [AHB_READ]: burst=AHB_BURST_SINGLE size=AHB_SIZE_8B beats=1 error=0
# UVM_INFO ../src/slv/ahb_slave_monitor.sv(208) @ 2905000: uvm_test_top.env.slave_agent.mon [ahb_slave_monitor] Observed [AHB_READ]: HADDR=0x0000d2cc, HBURST=AHB_BURST_SINGLE, HSIZE=AHB_SIZE_8B, 1 beats
# UVM_INFO ../src/env/ahb_scoreboard.sv(104) @ 2905000: uvm_test_top.env.scb [ahb_scoreboard] MATCH #24: [AHB_READ] HADDR=0x0000d2cc AHB_BURST_SINGLE 1 beats
# UVM_INFO ../src/env/ahb_coverage.sv(174) @ 2905000: uvm_test_top.env.slave_cov [ahb_coverage] Sampled [AHB_READ]: burst=AHB_BURST_SINGLE size=AHB_SIZE_8B beats=1 error=0
# UVM_INFO ../src/mst_seq/ahb_base_seq.sv(157) @ 2905000: uvm_test_top.env.master_agent.sqr@@seq [ahb_wait_state_seq] AHB_BURST_SINGLE AHB_SIZE_8B beat 0 @0x0000d2cc ok
# UVM_INFO ../src/mst_seq/ahb_wait_state_seq.sv(166) @ 2905000: uvm_test_top.env.master_agent.sqr@@seq [ahb_wait_state_seq] AHB_BURST_INCR AHB_SIZE_8B @0x0000d33e, 2 beats, waits=1:7, pipelined=0
# UVM_INFO ../src/mst/ahb_master_driver.sv(85) @ 2905000: uvm_test_top.env.master_agent.drv [ahb_master_driver] Queueing [AHB_WRITE]: HADDR=0x0000d33e, HBURST=AHB_BURST_INCR, HSIZE=AHB_SIZE_8B, 2 beats
# UVM_INFO ../src/mst/ahb_master_driver.sv(127) @ 2905000: uvm_test_top.env.master_agent.drv [ahb_master_driver] Driving [AHB_WRITE]: HADDR=0x0000d33e, HBURST=AHB_BURST_INCR, HSIZE=AHB_SIZE_8B, 2 beats               
# UVM_INFO ../src/mst/ahb_master_driver.sv(332) @ 2965000: uvm_test_top.env.master_agent.drv [ahb_master_driver] Beat[0/2] addr=0x0000d33e trans=AHB_TRANS_NONSEQ resp=AHB_RESP_OKAY wdata=0xaf1068f3
# UVM_INFO ../src/slv/ahb_slave_driver.sv(184) @ 2965000: uvm_test_top.env.slave_agent.drv [ahb_slave_driver] Beat AHB_WRITE addr=0x0000d33e resp=AHB_RESP_OKAY waits=3 wdata=0xaf1068f3
# UVM_INFO ../src/mst/ahb_master_monitor.sv(128) @ 2965000: uvm_test_top.env.master_agent.mon [ahb_master_monitor] Beat[0] addr=0x0000d33e wdata=0xaf1068f3 resp=AHB_RESP_OKAY
# UVM_INFO ../src/mst/ahb_master_driver.sv(332) @ 2995000: uvm_test_top.env.master_agent.drv [ahb_master_driver] Beat[1/2] addr=0x0000d33f trans=AHB_TRANS_SEQ resp=AHB_RESP_OKAY wdata=0x21a3799a
# UVM_INFO ../src/mst/ahb_master_driver.sv(376) @ 2995000: uvm_test_top.env.master_agent.drv [ahb_master_driver] Transaction complete: AHB_WRITE 0x0000d33e, 2 beats, burst=AHB_BURST_INCR
# UVM_INFO ../src/slv/ahb_slave_driver.sv(184) @ 2995000: uvm_test_top.env.slave_agent.drv [ahb_slave_driver] Beat AHB_WRITE addr=0x0000d33f resp=AHB_RESP_OKAY waits=2 wdata=0x21a3799a
# UVM_INFO ../src/slv/ahb_slave_monitor.sv(208) @ 2995000: uvm_test_top.env.slave_agent.mon [ahb_slave_monitor] Observed [AHB_WRITE]: HADDR=0x0000d33e, HBURST=AHB_BURST_INCR, HSIZE=AHB_SIZE_8B, 2 beats
# UVM_INFO ../src/env/ahb_coverage.sv(174) @ 2995000: uvm_test_top.env.slave_cov [ahb_coverage] Sampled [AHB_WRITE]: burst=AHB_BURST_INCR size=AHB_SIZE_8B beats=2 error=0
# UVM_INFO ../src/mst/ahb_master_monitor.sv(128) @ 2995000: uvm_test_top.env.master_agent.mon [ahb_master_monitor] Beat[1] addr=0x0000d33f wdata=0x21a3799a resp=AHB_RESP_OKAY
# UVM_INFO ../src/mst/ahb_master_monitor.sv(231) @ 2995000: uvm_test_top.env.master_agent.mon [ahb_master_monitor] Observed [AHB_WRITE]: HADDR=0x0000d33e, HBURST=AHB_BURST_INCR, HSIZE=AHB_SIZE_8B, 2 beats
# UVM_INFO ../src/env/ahb_coverage.sv(174) @ 2995000: uvm_test_top.env.master_cov [ahb_coverage] Sampled [AHB_WRITE]: burst=AHB_BURST_INCR size=AHB_SIZE_8B beats=2 error=0
# UVM_INFO ../src/env/ahb_scoreboard.sv(104) @ 2995000: uvm_test_top.env.scb [ahb_scoreboard] MATCH #25: [AHB_WRITE] HADDR=0x0000d33e AHB_BURST_INCR 2 beats
# UVM_INFO ../src/mst/ahb_master_driver.sv(85) @ 2995000: uvm_test_top.env.master_agent.drv [ahb_master_driver] Queueing [AHB_READ]: HADDR=0x0000d33e, HBURST=AHB_BURST_INCR, HSIZE=AHB_SIZE_8B, 2 beats
# UVM_INFO ../src/mst/ahb_master_driver.sv(127) @ 2995000: uvm_test_top.env.master_agent.drv [ahb_master_driver] Driving [AHB_READ]: HADDR=0x0000d33e, HBURST=AHB_BURST_INCR, HSIZE=AHB_SIZE_8B, 2 beats               
# UVM_INFO ../src/mst/ahb_master_driver.sv(332) @ 3095000: uvm_test_top.env.master_agent.drv [ahb_master_driver] Beat[0/2] addr=0x0000d33e trans=AHB_TRANS_NONSEQ resp=AHB_RESP_OKAY rdata=0xaf1068f3
# UVM_INFO ../src/slv/ahb_slave_driver.sv(184) @ 3095000: uvm_test_top.env.slave_agent.drv [ahb_slave_driver] Beat AHB_READ addr=0x0000d33e resp=AHB_RESP_OKAY waits=7 rdata=0xaf1068f3
# UVM_INFO ../src/mst/ahb_master_monitor.sv(128) @ 3095000: uvm_test_top.env.master_agent.mon [ahb_master_monitor] Beat[0] addr=0x0000d33e rdata=0xaf1068f3 resp=AHB_RESP_OKAY
# UVM_INFO ../src/mst/ahb_master_driver.sv(332) @ 3165000: uvm_test_top.env.master_agent.drv [ahb_master_driver] Beat[1/2] addr=0x0000d33f trans=AHB_TRANS_SEQ resp=AHB_RESP_OKAY rdata=0x21a3799a
# UVM_INFO ../src/mst/ahb_master_driver.sv(376) @ 3165000: uvm_test_top.env.master_agent.drv [ahb_master_driver] Transaction complete: AHB_READ 0x0000d33e, 2 beats, burst=AHB_BURST_INCR
# UVM_INFO ../src/slv/ahb_slave_driver.sv(184) @ 3165000: uvm_test_top.env.slave_agent.drv [ahb_slave_driver] Beat AHB_READ addr=0x0000d33f resp=AHB_RESP_OKAY waits=6 rdata=0x21a3799a
# UVM_INFO ../src/mst/ahb_master_monitor.sv(128) @ 3165000: uvm_test_top.env.master_agent.mon [ahb_master_monitor] Beat[1] addr=0x0000d33f rdata=0x21a3799a resp=AHB_RESP_OKAY
# UVM_INFO ../src/mst/ahb_master_monitor.sv(231) @ 3165000: uvm_test_top.env.master_agent.mon [ahb_master_monitor] Observed [AHB_READ]: HADDR=0x0000d33e, HBURST=AHB_BURST_INCR, HSIZE=AHB_SIZE_8B, 2 beats
# UVM_INFO ../src/env/ahb_coverage.sv(174) @ 3165000: uvm_test_top.env.master_cov [ahb_coverage] Sampled [AHB_READ]: burst=AHB_BURST_INCR size=AHB_SIZE_8B beats=2 error=0
# UVM_INFO ../src/slv/ahb_slave_monitor.sv(208) @ 3165000: uvm_test_top.env.slave_agent.mon [ahb_slave_monitor] Observed [AHB_READ]: HADDR=0x0000d33e, HBURST=AHB_BURST_INCR, HSIZE=AHB_SIZE_8B, 2 beats
# UVM_INFO ../src/env/ahb_scoreboard.sv(104) @ 3165000: uvm_test_top.env.scb [ahb_scoreboard] MATCH #26: [AHB_READ] HADDR=0x0000d33e AHB_BURST_INCR 2 beats
# UVM_INFO ../src/env/ahb_coverage.sv(174) @ 3165000: uvm_test_top.env.slave_cov [ahb_coverage] Sampled [AHB_READ]: burst=AHB_BURST_INCR size=AHB_SIZE_8B beats=2 error=0
# UVM_INFO ../src/mst_seq/ahb_base_seq.sv(157) @ 3165000: uvm_test_top.env.master_agent.sqr@@seq [ahb_wait_state_seq] AHB_BURST_INCR AHB_SIZE_8B beat 0 @0x0000d33e ok
# UVM_INFO ../src/mst_seq/ahb_base_seq.sv(157) @ 3165000: uvm_test_top.env.master_agent.sqr@@seq [ahb_wait_state_seq] AHB_BURST_INCR AHB_SIZE_8B beat 1 @0x0000d33f ok
# UVM_INFO ../src/mst_seq/ahb_wait_state_seq.sv(166) @ 3165000: uvm_test_top.env.master_agent.sqr@@seq [ahb_wait_state_seq] AHB_BURST_SINGLE AHB_SIZE_16B @0x0000d34c, 1 beats, waits=8:15, pipelined=1
# UVM_INFO ../src/mst/ahb_master_driver.sv(85) @ 3165000: uvm_test_top.env.master_agent.drv [ahb_master_driver] Queueing [AHB_WRITE]: HADDR=0x0000d34c, HBURST=AHB_BURST_SINGLE, HSIZE=AHB_SIZE_16B, 1 beats
# UVM_INFO ../src/mst/ahb_master_driver.sv(127) @ 3165000: uvm_test_top.env.master_agent.drv [ahb_master_driver] Driving [AHB_WRITE]: HADDR=0x0000d34c, HBURST=AHB_BURST_SINGLE, HSIZE=AHB_SIZE_16B, 1 beats               
# UVM_INFO ../src/mst/ahb_master_driver.sv(85) @ 3165000: uvm_test_top.env.master_agent.drv [ahb_master_driver] Queueing [AHB_READ]: HADDR=0x0000d34c, HBURST=AHB_BURST_SINGLE, HSIZE=AHB_SIZE_16B, 1 beats
# UVM_INFO ../src/mst/ahb_master_driver.sv(332) @ 3335000: uvm_test_top.env.master_agent.drv [ahb_master_driver] Beat[0/1] addr=0x0000d34c trans=AHB_TRANS_NONSEQ resp=AHB_RESP_OKAY wdata=0x8063d174
# UVM_INFO ../src/mst/ahb_master_driver.sv(376) @ 3335000: uvm_test_top.env.master_agent.drv [ahb_master_driver] Transaction complete: AHB_WRITE 0x0000d34c, 1 beats, burst=AHB_BURST_SINGLE
# UVM_INFO ../src/mst/ahb_master_driver.sv(127) @ 3335000: uvm_test_top.env.master_agent.drv [ahb_master_driver] Driving [AHB_READ]: HADDR=0x0000d34c, HBURST=AHB_BURST_SINGLE, HSIZE=AHB_SIZE_16B, 1 beats (back-to-back)
# UVM_INFO ../src/slv/ahb_slave_driver.sv(184) @ 3335000: uvm_test_top.env.slave_agent.drv [ahb_slave_driver] Beat AHB_WRITE addr=0x0000d34c resp=AHB_RESP_OKAY waits=14 wdata=0x8063d174
# UVM_INFO ../src/slv/ahb_slave_monitor.sv(208) @ 3335000: uvm_test_top.env.slave_agent.mon [ahb_slave_monitor] Observed [AHB_WRITE]: HADDR=0x0000d34c, HBURST=AHB_BURST_SINGLE, HSIZE=AHB_SIZE_16B, 1 beats
# UVM_INFO ../src/env/ahb_coverage.sv(174) @ 3335000: uvm_test_top.env.slave_cov [ahb_coverage] Sampled [AHB_WRITE]: burst=AHB_BURST_SINGLE size=AHB_SIZE_16B beats=1 error=0
# UVM_INFO ../src/mst/ahb_master_monitor.sv(128) @ 3335000: uvm_test_top.env.master_agent.mon [ahb_master_monitor] Beat[0] addr=0x0000d34c wdata=0x8063d174 resp=AHB_RESP_OKAY
# UVM_INFO ../src/mst/ahb_master_monitor.sv(231) @ 3335000: uvm_test_top.env.master_agent.mon [ahb_master_monitor] Observed [AHB_WRITE]: HADDR=0x0000d34c, HBURST=AHB_BURST_SINGLE, HSIZE=AHB_SIZE_16B, 1 beats
# UVM_INFO ../src/env/ahb_coverage.sv(174) @ 3335000: uvm_test_top.env.master_cov [ahb_coverage] Sampled [AHB_WRITE]: burst=AHB_BURST_SINGLE size=AHB_SIZE_16B beats=1 error=0
# UVM_INFO ../src/env/ahb_scoreboard.sv(104) @ 3335000: uvm_test_top.env.scb [ahb_scoreboard] MATCH #27: [AHB_WRITE] HADDR=0x0000d34c AHB_BURST_SINGLE 1 beats
# UVM_INFO ../src/mst/ahb_master_driver.sv(332) @ 3425000: uvm_test_top.env.master_agent.drv [ahb_master_driver] Beat[0/1] addr=0x0000d34c trans=AHB_TRANS_NONSEQ resp=AHB_RESP_OKAY rdata=0x8063d174
# UVM_INFO ../src/mst/ahb_master_driver.sv(376) @ 3425000: uvm_test_top.env.master_agent.drv [ahb_master_driver] Transaction complete: AHB_READ 0x0000d34c, 1 beats, burst=AHB_BURST_SINGLE
# UVM_INFO ../src/slv/ahb_slave_driver.sv(184) @ 3425000: uvm_test_top.env.slave_agent.drv [ahb_slave_driver] Beat AHB_READ addr=0x0000d34c resp=AHB_RESP_OKAY waits=8 rdata=0x8063d174
# UVM_INFO ../src/mst/ahb_master_monitor.sv(128) @ 3425000: uvm_test_top.env.master_agent.mon [ahb_master_monitor] Beat[0] addr=0x0000d34c rdata=0x8063d174 resp=AHB_RESP_OKAY
# UVM_INFO ../src/mst/ahb_master_monitor.sv(231) @ 3425000: uvm_test_top.env.master_agent.mon [ahb_master_monitor] Observed [AHB_READ]: HADDR=0x0000d34c, HBURST=AHB_BURST_SINGLE, HSIZE=AHB_SIZE_16B, 1 beats
# UVM_INFO ../src/env/ahb_coverage.sv(174) @ 3425000: uvm_test_top.env.master_cov [ahb_coverage] Sampled [AHB_READ]: burst=AHB_BURST_SINGLE size=AHB_SIZE_16B beats=1 error=0
# UVM_INFO ../src/slv/ahb_slave_monitor.sv(208) @ 3425000: uvm_test_top.env.slave_agent.mon [ahb_slave_monitor] Observed [AHB_READ]: HADDR=0x0000d34c, HBURST=AHB_BURST_SINGLE, HSIZE=AHB_SIZE_16B, 1 beats
# UVM_INFO ../src/env/ahb_scoreboard.sv(104) @ 3425000: uvm_test_top.env.scb [ahb_scoreboard] MATCH #28: [AHB_READ] HADDR=0x0000d34c AHB_BURST_SINGLE 1 beats
# UVM_INFO ../src/env/ahb_coverage.sv(174) @ 3425000: uvm_test_top.env.slave_cov [ahb_coverage] Sampled [AHB_READ]: burst=AHB_BURST_SINGLE size=AHB_SIZE_16B beats=1 error=0
# UVM_INFO ../src/mst_seq/ahb_base_seq.sv(157) @ 3425000: uvm_test_top.env.master_agent.sqr@@seq [ahb_wait_state_seq] AHB_BURST_SINGLE AHB_SIZE_16B beat 0 @0x0000d34c ok
# UVM_INFO ../src/mst_seq/ahb_wait_state_seq.sv(166) @ 3425000: uvm_test_top.env.master_agent.sqr@@seq [ahb_wait_state_seq] AHB_BURST_SINGLE AHB_SIZE_8B @0x0000d3be, 1 beats, waits=16:16, pipelined=0
# UVM_INFO ../src/mst/ahb_master_driver.sv(85) @ 3425000: uvm_test_top.env.master_agent.drv [ahb_master_driver] Queueing [AHB_WRITE]: HADDR=0x0000d3be, HBURST=AHB_BURST_SINGLE, HSIZE=AHB_SIZE_8B, 1 beats
# UVM_INFO ../src/mst/ahb_master_driver.sv(127) @ 3425000: uvm_test_top.env.master_agent.drv [ahb_master_driver] Driving [AHB_WRITE]: HADDR=0x0000d3be, HBURST=AHB_BURST_SINGLE, HSIZE=AHB_SIZE_8B, 1 beats               
# UVM_INFO ../src/mst/ahb_master_driver.sv(332) @ 3615000: uvm_test_top.env.master_agent.drv [ahb_master_driver] Beat[0/1] addr=0x0000d3be trans=AHB_TRANS_NONSEQ resp=AHB_RESP_OKAY wdata=0x6b7c6e97
# UVM_INFO ../src/mst/ahb_master_driver.sv(376) @ 3615000: uvm_test_top.env.master_agent.drv [ahb_master_driver] Transaction complete: AHB_WRITE 0x0000d3be, 1 beats, burst=AHB_BURST_SINGLE
