# vsim -c -coverage -sv_seed 59912408 "+UVM_TESTNAME=ahb_busy_test" "+UVM_VERBOSITY=UVM_HIGH" "+DUMP_VCD" -l ./report/logs/ahb_busy_test_run_3_seed_59912408.log -do "coverage save -onexit ./report/coverage/ahb_busy_test_run_3_seed_59912408.ucdb; run -all; quit -f" opt_tb_top 
# Start time: 11:01:29 on Aug 05,2026
# //  Questa Sim-64
# //  Version 10.6b linux_x86_64 May 25 2017
# //
# //  Copyright 1991-2017 Mentor Graphics Corporation
# //  All Rights Reserved.
# //
# //  QuestaSim and its associated documentation contain trade
# //  secrets and commercial or financial information that are the property of
# //  Mentor Graphics Corporation and are privileged, confidential,
# //  and exempt from disclosure under the Freedom of Information Act,
# //  5 U.S.C. Section 552. Furthermore, this information
# //  is prohibited from disclosure under the Trade Secrets Act,
# //  18 U.S.C. Section 1905.
# //
# Loading sv_std.std
# Loading work.ahb_if(fast)
# Loading mtiUvm.uvm_pkg
# Loading work.ahb_pkg(fast)
# Loading work.ahb_seq_pkg(fast)
# Loading work.ahb_test_pkg(fast)
# Loading work.tb_top(fast)
# Loading work.ahb_if(fast)
# Loading work.ahb_sva(fast)
# Loading mtiUvm.questa_uvm_pkg(fast)
# Loading /cadtools/mentor/Questa_10.6b/questasim/uvm-1.1d/linux_x86_64/uvm_dpi.so
# coverage save -onexit ./report/coverage/ahb_busy_test_run_3_seed_59912408.ucdb
#  run -all
# ----------------------------------------------------------------
# UVM-1.1d
# (C) 2007-2013 Mentor Graphics Corporation
# (C) 2007-2013 Cadence Design Systems, Inc.
# (C) 2006-2013 Synopsys, Inc.
# (C) 2011-2013 Cypress Semiconductor Corp.
# ----------------------------------------------------------------
# 
#   ***********       IMPORTANT RELEASE NOTES         ************
# 
#   You are using a version of the UVM library that has been compiled
#   with `UVM_NO_DEPRECATED undefined.
#   See http://www.eda.org/svdb/view.php?id=3313 for more details.
# 
#   You are using a version of the UVM library that has been compiled
#   with `UVM_OBJECT_MUST_HAVE_CONSTRUCTOR undefined.
#   See http://www.eda.org/svdb/view.php?id=3770 for more details.
# 
#       (Specify +UVM_NO_RELNOTES to turn off this notice)
# 
# UVM_INFO verilog_src/questa_uvm_pkg-1.2/src/questa_uvm_pkg.sv(215) @ 0: reporter [Questa UVM] QUESTA_UVM-1.2.3
# UVM_INFO verilog_src/questa_uvm_pkg-1.2/src/questa_uvm_pkg.sv(217) @ 0: reporter [Questa UVM]  questa_uvm::init(+struct)
# UVM_INFO ../src/tb_top.sv(126) @ 0: reporter [TB_TOP] Virtual interface set in config_db
# UVM_INFO @ 0: reporter [RNTST] Running test ahb_busy_test...
# UVM_INFO ../src/tb_top.sv(140) @ 0: reporter [TB_TOP] Waveform VCD dumping enabled (ahb_lite_vip.vcd)
# UVM_INFO ../src/env/ahb_vip_env.sv(64) @ 0: uvm_test_top.env [ahb_vip_env] slave_vif not set - reusing master_vif (passthrough mode)
# UVM_INFO ../src/env/ahb_vip_env.sv(72) @ 0: uvm_test_top.env [ahb_vip_env] Scoreboard created
# UVM_INFO ../src/env/ahb_vip_env.sv(78) @ 0: uvm_test_top.env [ahb_vip_env] Coverage collectors created
# UVM_INFO ../src/mst/ahb_master_agent.sv(61) @ 0: uvm_test_top.env.master_agent [ahb_master_agent] ACTIVE mode - driver + sequencer created
# UVM_INFO ../src/slv/ahb_slave_agent.sv(64) @ 0: uvm_test_top.env.slave_agent [ahb_slave_agent] ACTIVE mode - driver + sequencer created (    auto responses)
# UVM_INFO ../src/env/ahb_vip_env.sv(92) @ 0: uvm_test_top.env [ahb_vip_env] Scoreboard connected: master_mon.ap -> scb, slave_mon.ap -> scb
# UVM_INFO ../src/env/ahb_vip_env.sv(99) @ 0: uvm_test_top.env [ahb_vip_env] Coverage connected: master_mon.ap -> master_cov, slave_mon.ap -> slave_cov
# UVM_INFO @ 0: reporter [UVMTOP] UVM testbench topology:
# ---------------------------------------------------------------
# Name                       Type                     Size  Value
# ---------------------------------------------------------------
# uvm_test_top               ahb_busy_test            -     @475 
#   env                      ahb_vip_env              -     @490 
#     master_agent           ahb_master_agent         -     @505 
#       drv                  ahb_master_driver        -     @570 
#         rsp_port           uvm_analysis_port        -     @585 
#         seq_item_port      uvm_seq_item_pull_port   -     @577 
#       mon                  ahb_master_monitor       -     @563 
#         ap                 uvm_analysis_port        -     @704 
#       sqr                  ahb_master_sequencer     -     @593 
#         rsp_export         uvm_analysis_export      -     @600 
#         seq_item_export    uvm_seq_item_pull_imp    -     @694 
#         arbitration_queue  array                    0     -    
#         lock_queue         array                    0     -    
#         num_last_reqs      integral                 32    'd1  
#         num_last_rsps      integral                 32    'd1  
#     master_cov             ahb_coverage             -     @526 
#       analysis_imp         uvm_analysis_imp         -     @533 
#     scb                    ahb_scoreboard           -     @519 
#       master_export        uvm_analysis_imp_master  -     @718 
#       slave_export         uvm_analysis_imp_slave   -     @726 
#     slave_agent            ahb_slave_agent          -     @512 
#       drv                  ahb_slave_driver         -     @748 
#         rsp_port           uvm_analysis_port        -     @763 
#         seq_item_port      uvm_seq_item_pull_port   -     @755 
#       mon                  ahb_slave_monitor        -     @741 
#         ap                 uvm_analysis_port        -     @882 
#       sqr                  ahb_slave_sequencer      -     @771 
#         rsp_export         uvm_analysis_export      -     @778 
#         seq_item_export    uvm_seq_item_pull_imp    -     @872 
#         arbitration_queue  array                    0     -    
#         lock_queue         array                    0     -    
#         num_last_reqs      integral                 32    'd1  
#         num_last_rsps      integral                 32    'd1  
#     slave_cov              ahb_coverage             -     @541 
#       analysis_imp         uvm_analysis_imp         -     @548 
# ---------------------------------------------------------------
# 
# UVM_INFO verilog_src/questa_uvm_pkg-1.2/src/questa_uvm_pkg.sv(277) @ 0: reporter [Questa UVM] End Of Elaboration
# UVM_INFO ../src/mst_seq/ahb_busy_seq.sv(54) @ 0: uvm_test_top.env.master_agent.sqr@@seq [ahb_busy_seq] Starting BUSY traffic: 16 bursts from 0x0000c000
# UVM_INFO ../src/mst_seq/ahb_busy_seq.sv(105) @ 0: uvm_test_top.env.master_agent.sqr@@seq [ahb_busy_seq] AHB_BURST_INCR16 AHB_SIZE_32B @0x0000c000, 16 beats, retract=0
# UVM_INFO ../src/mst/ahb_master_driver.sv(183) @ 5000: uvm_test_top.env.master_agent.drv [ahb_master_driver] Flushed pending transactions (reset)
# UVM_INFO ../src/tb_top.sv(48) @ 95000: reporter [TB_TOP] Reset de-asserted
# UVM_INFO ../src/slv/ahb_slave_driver.sv(63) @ 95000: uvm_test_top.env.slave_agent.drv [ahb_slave_driver] Reset deasserted - slave driver active (    auto mode)
# UVM_INFO ../src/mst/ahb_master_driver.sv(72) @ 95000: uvm_test_top.env.master_agent.drv [ahb_master_driver] Reset deasserted - master driver active
# UVM_INFO ../src/mst/ahb_master_monitor.sv(75) @ 95000: uvm_test_top.env.master_agent.mon [ahb_master_monitor] Reset deasserted - master monitor active
# UVM_INFO ../src/slv/ahb_slave_monitor.sv(69) @ 95000: uvm_test_top.env.slave_agent.mon [ahb_slave_monitor] Reset deasserted - slave monitor active
# UVM_INFO ../src/mst/ahb_master_driver.sv(85) @ 95000: uvm_test_top.env.master_agent.drv [ahb_master_driver] Queueing [AHB_WRITE]: HADDR=0x0000c000, HBURST=AHB_BURST_INCR16, HSIZE=AHB_SIZE_32B, 16 beats
# UVM_INFO ../src/mst/ahb_master_driver.sv(127) @ 95000: uvm_test_top.env.master_agent.drv [ahb_master_driver] Driving [AHB_WRITE]: HADDR=0x0000c000, HBURST=AHB_BURST_INCR16, HSIZE=AHB_SIZE_32B, 16 beats               
# UVM_INFO ../src/mst/ahb_master_driver.sv(332) @ 135000: uvm_test_top.env.master_agent.drv [ahb_master_driver] Beat[0/16] addr=0x0000c000 trans=AHB_TRANS_NONSEQ resp=AHB_RESP_OKAY wdata=0xcb067b5a
# UVM_INFO ../src/slv/ahb_slave_driver.sv(184) @ 135000: uvm_test_top.env.slave_agent.drv [ahb_slave_driver] Beat AHB_WRITE addr=0x0000c000 resp=AHB_RESP_OKAY waits=2 wdata=0xcb067b5a
# UVM_INFO ../src/mst/ahb_master_monitor.sv(117) @ 135000: uvm_test_top.env.master_agent.mon [ahb_master_monitor] Beat[0] addr=0x0000c000 wdata=0xcb067b5a resp=AHB_RESP_OKAY
# UVM_INFO ../src/mst/ahb_master_driver.sv(332) @ 195000: uvm_test_top.env.master_agent.drv [ahb_master_driver] Beat[1/16] addr=0x0000c004 trans=AHB_TRANS_SEQ resp=AHB_RESP_OKAY wdata=0x5c88c0d0
# UVM_INFO ../src/slv/ahb_slave_driver.sv(184) @ 195000: uvm_test_top.env.slave_agent.drv [ahb_slave_driver] Beat AHB_WRITE addr=0x0000c004 resp=AHB_RESP_OKAY waits=2 wdata=0x5c88c0d0
# UVM_INFO ../src/mst/ahb_master_monitor.sv(117) @ 195000: uvm_test_top.env.master_agent.mon [ahb_master_monitor] Beat[1] addr=0x0000c004 wdata=0x5c88c0d0 resp=AHB_RESP_OKAY
# UVM_INFO ../src/mst/ahb_master_driver.sv(332) @ 225000: uvm_test_top.env.master_agent.drv [ahb_master_driver] Beat[2/16] addr=0x0000c008 trans=AHB_TRANS_SEQ resp=AHB_RESP_OKAY wdata=0x51939da5
# UVM_INFO ../src/slv/ahb_slave_driver.sv(184) @ 225000: uvm_test_top.env.slave_agent.drv [ahb_slave_driver] Beat AHB_WRITE addr=0x0000c008 resp=AHB_RESP_OKAY waits=0 wdata=0x51939da5
# UVM_INFO ../src/mst/ahb_master_monitor.sv(117) @ 225000: uvm_test_top.env.master_agent.mon [ahb_master_monitor] Beat[2] addr=0x0000c008 wdata=0x51939da5 resp=AHB_RESP_OKAY
# UVM_INFO ../src/mst/ahb_master_driver.sv(332) @ 265000: uvm_test_top.env.master_agent.drv [ahb_master_driver] Beat[3/16] addr=0x0000c00c trans=AHB_TRANS_SEQ resp=AHB_RESP_OKAY wdata=0xe658cb77
# UVM_INFO ../src/slv/ahb_slave_driver.sv(184) @ 265000: uvm_test_top.env.slave_agent.drv [ahb_slave_driver] Beat AHB_WRITE addr=0x0000c00c resp=AHB_RESP_OKAY waits=2 wdata=0xe658cb77
# UVM_INFO ../src/mst/ahb_master_monitor.sv(117) @ 265000: uvm_test_top.env.master_agent.mon [ahb_master_monitor] Beat[3] addr=0x0000c00c wdata=0xe658cb77 resp=AHB_RESP_OKAY
# UVM_INFO ../src/mst/ahb_master_driver.sv(332) @ 305000: uvm_test_top.env.master_agent.drv [ahb_master_driver] Beat[4/16] addr=0x0000c010 trans=AHB_TRANS_SEQ resp=AHB_RESP_OKAY wdata=0x6a089e2a
# UVM_INFO ../src/slv/ahb_slave_driver.sv(184) @ 305000: uvm_test_top.env.slave_agent.drv [ahb_slave_driver] Beat AHB_WRITE addr=0x0000c010 resp=AHB_RESP_OKAY waits=0 wdata=0x6a089e2a
# UVM_INFO ../src/mst/ahb_master_monitor.sv(117) @ 305000: uvm_test_top.env.master_agent.mon [ahb_master_monitor] Beat[4] addr=0x0000c010 wdata=0x6a089e2a resp=AHB_RESP_OKAY
# UVM_INFO ../src/mst/ahb_master_driver.sv(332) @ 355000: uvm_test_top.env.master_agent.drv [ahb_master_driver] Beat[5/16] addr=0x0000c014 trans=AHB_TRANS_SEQ resp=AHB_RESP_OKAY wdata=0xc97a8e86
# UVM_INFO ../src/slv/ahb_slave_driver.sv(184) @ 355000: uvm_test_top.env.slave_agent.drv [ahb_slave_driver] Beat AHB_WRITE addr=0x0000c014 resp=AHB_RESP_OKAY waits=1 wdata=0xc97a8e86
# UVM_INFO ../src/mst/ahb_master_monitor.sv(117) @ 355000: uvm_test_top.env.master_agent.mon [ahb_master_monitor] Beat[5] addr=0x0000c014 wdata=0xc97a8e86 resp=AHB_RESP_OKAY
# UVM_INFO ../src/mst/ahb_master_driver.sv(332) @ 395000: uvm_test_top.env.master_agent.drv [ahb_master_driver] Beat[6/16] addr=0x0000c018 trans=AHB_TRANS_SEQ resp=AHB_RESP_OKAY wdata=0x0f8b8961
# UVM_INFO ../src/slv/ahb_slave_driver.sv(184) @ 395000: uvm_test_top.env.slave_agent.drv [ahb_slave_driver] Beat AHB_WRITE addr=0x0000c018 resp=AHB_RESP_OKAY waits=2 wdata=0x0f8b8961
# UVM_INFO ../src/mst/ahb_master_monitor.sv(117) @ 395000: uvm_test_top.env.master_agent.mon [ahb_master_monitor] Beat[6] addr=0x0000c018 wdata=0x0f8b8961 resp=AHB_RESP_OKAY
# UVM_INFO ../src/mst/ahb_master_driver.sv(332) @ 435000: uvm_test_top.env.master_agent.drv [ahb_master_driver] Beat[7/16] addr=0x0000c01c trans=AHB_TRANS_SEQ resp=AHB_RESP_OKAY wdata=0xbd8761bb
# UVM_INFO ../src/slv/ahb_slave_driver.sv(184) @ 435000: uvm_test_top.env.slave_agent.drv [ahb_slave_driver] Beat AHB_WRITE addr=0x0000c01c resp=AHB_RESP_OKAY waits=1 wdata=0xbd8761bb
# UVM_INFO ../src/mst/ahb_master_monitor.sv(117) @ 435000: uvm_test_top.env.master_agent.mon [ahb_master_monitor] Beat[7] addr=0x0000c01c wdata=0xbd8761bb resp=AHB_RESP_OKAY
# UVM_INFO ../src/mst/ahb_master_driver.sv(332) @ 495000: uvm_test_top.env.master_agent.drv [ahb_master_driver] Beat[8/16] addr=0x0000c020 trans=AHB_TRANS_SEQ resp=AHB_RESP_OKAY wdata=0xb2147aea
# UVM_INFO ../src/slv/ahb_slave_driver.sv(184) @ 495000: uvm_test_top.env.slave_agent.drv [ahb_slave_driver] Beat AHB_WRITE addr=0x0000c020 resp=AHB_RESP_OKAY waits=2 wdata=0xb2147aea
# UVM_INFO ../src/mst/ahb_master_monitor.sv(117) @ 495000: uvm_test_top.env.master_agent.mon [ahb_master_monitor] Beat[8] addr=0x0000c020 wdata=0xb2147aea resp=AHB_RESP_OKAY
# UVM_INFO ../src/mst/ahb_master_driver.sv(332) @ 545000: uvm_test_top.env.master_agent.drv [ahb_master_driver] Beat[9/16] addr=0x0000c024 trans=AHB_TRANS_SEQ resp=AHB_RESP_OKAY wdata=0x66c0414e
# UVM_INFO ../src/slv/ahb_slave_driver.sv(184) @ 545000: uvm_test_top.env.slave_agent.drv [ahb_slave_driver] Beat AHB_WRITE addr=0x0000c024 resp=AHB_RESP_OKAY waits=2 wdata=0x66c0414e
# UVM_INFO ../src/mst/ahb_master_monitor.sv(117) @ 545000: uvm_test_top.env.master_agent.mon [ahb_master_monitor] Beat[9] addr=0x0000c024 wdata=0x66c0414e resp=AHB_RESP_OKAY
# UVM_INFO ../src/mst/ahb_master_driver.sv(332) @ 605000: uvm_test_top.env.master_agent.drv [ahb_master_driver] Beat[10/16] addr=0x0000c028 trans=AHB_TRANS_SEQ resp=AHB_RESP_OKAY wdata=0x3a3acd8e
# UVM_INFO ../src/slv/ahb_slave_driver.sv(184) @ 605000: uvm_test_top.env.slave_agent.drv [ahb_slave_driver] Beat AHB_WRITE addr=0x0000c028 resp=AHB_RESP_OKAY waits=2 wdata=0x3a3acd8e
# UVM_INFO ../src/mst/ahb_master_monitor.sv(117) @ 605000: uvm_test_top.env.master_agent.mon [ahb_master_monitor] Beat[10] addr=0x0000c028 wdata=0x3a3acd8e resp=AHB_RESP_OKAY
# UVM_INFO ../src/mst/ahb_master_driver.sv(332) @ 655000: uvm_test_top.env.master_agent.drv [ahb_master_driver] Beat[11/16] addr=0x0000c02c trans=AHB_TRANS_SEQ resp=AHB_RESP_OKAY wdata=0x3605c8b2
# UVM_INFO ../src/slv/ahb_slave_driver.sv(184) @ 655000: uvm_test_top.env.slave_agent.drv [ahb_slave_driver] Beat AHB_WRITE addr=0x0000c02c resp=AHB_RESP_OKAY waits=1 wdata=0x3605c8b2
# UVM_INFO ../src/mst/ahb_master_monitor.sv(117) @ 655000: uvm_test_top.env.master_agent.mon [ahb_master_monitor] Beat[11] addr=0x0000c02c wdata=0x3605c8b2 resp=AHB_RESP_OKAY
# UVM_INFO ../src/mst/ahb_master_driver.sv(332) @ 715000: uvm_test_top.env.master_agent.drv [ahb_master_driver] Beat[12/16] addr=0x0000c030 trans=AHB_TRANS_SEQ resp=AHB_RESP_OKAY wdata=0x0af0428a
# UVM_INFO ../src/slv/ahb_slave_driver.sv(184) @ 715000: uvm_test_top.env.slave_agent.drv [ahb_slave_driver] Beat AHB_WRITE addr=0x0000c030 resp=AHB_RESP_OKAY waits=2 wdata=0x0af0428a
# UVM_INFO ../src/mst/ahb_master_monitor.sv(117) @ 715000: uvm_test_top.env.master_agent.mon [ahb_master_monitor] Beat[12] addr=0x0000c030 wdata=0x0af0428a resp=AHB_RESP_OKAY
# UVM_INFO ../src/mst/ahb_master_driver.sv(332) @ 775000: uvm_test_top.env.master_agent.drv [ahb_master_driver] Beat[13/16] addr=0x0000c034 trans=AHB_TRANS_SEQ resp=AHB_RESP_OKAY wdata=0x2b1103ab
# UVM_INFO ../src/slv/ahb_slave_driver.sv(184) @ 775000: uvm_test_top.env.slave_agent.drv [ahb_slave_driver] Beat AHB_WRITE addr=0x0000c034 resp=AHB_RESP_OKAY waits=2 wdata=0x2b1103ab
# UVM_INFO ../src/mst/ahb_master_monitor.sv(117) @ 775000: uvm_test_top.env.master_agent.mon [ahb_master_monitor] Beat[13] addr=0x0000c034 wdata=0x2b1103ab resp=AHB_RESP_OKAY
# UVM_INFO ../src/mst/ahb_master_driver.sv(332) @ 825000: uvm_test_top.env.master_agent.drv [ahb_master_driver] Beat[14/16] addr=0x0000c038 trans=AHB_TRANS_SEQ resp=AHB_RESP_OKAY wdata=0xb8508b90
# UVM_INFO ../src/slv/ahb_slave_driver.sv(184) @ 825000: uvm_test_top.env.slave_agent.drv [ahb_slave_driver] Beat AHB_WRITE addr=0x0000c038 resp=AHB_RESP_OKAY waits=2 wdata=0xb8508b90
# UVM_INFO ../src/mst/ahb_master_monitor.sv(117) @ 825000: uvm_test_top.env.master_agent.mon [ahb_master_monitor] Beat[14] addr=0x0000c038 wdata=0xb8508b90 resp=AHB_RESP_OKAY
# UVM_INFO ../src/mst/ahb_master_driver.sv(332) @ 875000: uvm_test_top.env.master_agent.drv [ahb_master_driver] Beat[15/16] addr=0x0000c03c trans=AHB_TRANS_SEQ resp=AHB_RESP_OKAY wdata=0xf0a2f494
# UVM_INFO ../src/mst/ahb_master_driver.sv(376) @ 875000: uvm_test_top.env.master_agent.drv [ahb_master_driver] Transaction complete: AHB_WRITE 0x0000c000, 16 beats, burst=AHB_BURST_INCR16
# UVM_INFO ../src/slv/ahb_slave_driver.sv(184) @ 875000: uvm_test_top.env.slave_agent.drv [ahb_slave_driver] Beat AHB_WRITE addr=0x0000c03c resp=AHB_RESP_OKAY waits=1 wdata=0xf0a2f494
# UVM_INFO ../src/slv/ahb_slave_monitor.sv(197) @ 875000: uvm_test_top.env.slave_agent.mon [ahb_slave_monitor] Observed [AHB_WRITE]: HADDR=0x0000c000, HBURST=AHB_BURST_INCR16, HSIZE=AHB_SIZE_32B, 16 beats
# UVM_INFO ../src/env/ahb_coverage.sv(126) @ 875000: uvm_test_top.env.slave_cov [ahb_coverage] Sampled [AHB_WRITE]: burst=AHB_BURST_INCR16 size=AHB_SIZE_32B beats=16 error=0
# UVM_INFO ../src/mst/ahb_master_monitor.sv(117) @ 875000: uvm_test_top.env.master_agent.mon [ahb_master_monitor] Beat[15] addr=0x0000c03c wdata=0xf0a2f494 resp=AHB_RESP_OKAY
# UVM_INFO ../src/mst/ahb_master_monitor.sv(220) @ 875000: uvm_test_top.env.master_agent.mon [ahb_master_monitor] Observed [AHB_WRITE]: HADDR=0x0000c000, HBURST=AHB_BURST_INCR16, HSIZE=AHB_SIZE_32B, 16 beats
# UVM_INFO ../src/env/ahb_coverage.sv(126) @ 875000: uvm_test_top.env.master_cov [ahb_coverage] Sampled [AHB_WRITE]: burst=AHB_BURST_INCR16 size=AHB_SIZE_32B beats=16 error=0
# UVM_INFO ../src/env/ahb_scoreboard.sv(104) @ 875000: uvm_test_top.env.scb [ahb_scoreboard] MATCH #1: [AHB_WRITE] HADDR=0x0000c000 AHB_BURST_INCR16 16 beats
# UVM_INFO ../src/mst/ahb_master_driver.sv(85) @ 875000: uvm_test_top.env.master_agent.drv [ahb_master_driver] Queueing [AHB_READ]: HADDR=0x0000c000, HBURST=AHB_BURST_INCR16, HSIZE=AHB_SIZE_32B, 16 beats
# UVM_INFO ../src/mst/ahb_master_driver.sv(127) @ 875000: uvm_test_top.env.master_agent.drv [ahb_master_driver] Driving [AHB_READ]: HADDR=0x0000c000, HBURST=AHB_BURST_INCR16, HSIZE=AHB_SIZE_32B, 16 beats               
# UVM_INFO ../src/mst/ahb_master_driver.sv(332) @ 905000: uvm_test_top.env.master_agent.drv [ahb_master_driver] Beat[0/16] addr=0x0000c000 trans=AHB_TRANS_NONSEQ resp=AHB_RESP_OKAY rdata=0xcb067b5a
# UVM_INFO ../src/slv/ahb_slave_driver.sv(184) @ 905000: uvm_test_top.env.slave_agent.drv [ahb_slave_driver] Beat AHB_READ addr=0x0000c000 resp=AHB_RESP_OKAY waits=0 rdata=0xcb067b5a
# UVM_INFO ../src/mst/ahb_master_monitor.sv(117) @ 905000: uvm_test_top.env.master_agent.mon [ahb_master_monitor] Beat[0] addr=0x0000c000 rdata=0xcb067b5a resp=AHB_RESP_OKAY
# UVM_INFO ../src/mst/ahb_master_driver.sv(332) @ 915000: uvm_test_top.env.master_agent.drv [ahb_master_driver] Beat[1/16] addr=0x0000c004 trans=AHB_TRANS_SEQ resp=AHB_RESP_OKAY rdata=0x5c88c0d0
# UVM_INFO ../src/slv/ahb_slave_driver.sv(184) @ 915000: uvm_test_top.env.slave_agent.drv [ahb_slave_driver] Beat AHB_READ addr=0x0000c004 resp=AHB_RESP_OKAY waits=0 rdata=0x5c88c0d0
# UVM_INFO ../src/mst/ahb_master_monitor.sv(117) @ 915000: uvm_test_top.env.master_agent.mon [ahb_master_monitor] Beat[1] addr=0x0000c004 rdata=0x5c88c0d0 resp=AHB_RESP_OKAY
# UVM_INFO ../src/mst/ahb_master_driver.sv(332) @ 925000: uvm_test_top.env.master_agent.drv [ahb_master_driver] Beat[2/16] addr=0x0000c008 trans=AHB_TRANS_SEQ resp=AHB_RESP_OKAY rdata=0x51939da5
# UVM_INFO ../src/slv/ahb_slave_driver.sv(184) @ 925000: uvm_test_top.env.slave_agent.drv [ahb_slave_driver] Beat AHB_READ addr=0x0000c008 resp=AHB_RESP_OKAY waits=0 rdata=0x51939da5
# UVM_INFO ../src/mst/ahb_master_monitor.sv(117) @ 925000: uvm_test_top.env.master_agent.mon [ahb_master_monitor] Beat[2] addr=0x0000c008 rdata=0x51939da5 resp=AHB_RESP_OKAY
# UVM_INFO ../src/mst/ahb_master_driver.sv(332) @ 935000: uvm_test_top.env.master_agent.drv [ahb_master_driver] Beat[3/16] addr=0x0000c00c trans=AHB_TRANS_SEQ resp=AHB_RESP_OKAY rdata=0xe658cb77
# UVM_INFO ../src/slv/ahb_slave_driver.sv(184) @ 935000: uvm_test_top.env.slave_agent.drv [ahb_slave_driver] Beat AHB_READ addr=0x0000c00c resp=AHB_RESP_OKAY waits=0 rdata=0xe658cb77
# UVM_INFO ../src/mst/ahb_master_monitor.sv(117) @ 935000: uvm_test_top.env.master_agent.mon [ahb_master_monitor] Beat[3] addr=0x0000c00c rdata=0xe658cb77 resp=AHB_RESP_OKAY
# UVM_INFO ../src/mst/ahb_master_driver.sv(332) @ 945000: uvm_test_top.env.master_agent.drv [ahb_master_driver] Beat[4/16] addr=0x0000c010 trans=AHB_TRANS_SEQ resp=AHB_RESP_OKAY rdata=0x6a089e2a
# UVM_INFO ../src/slv/ahb_slave_driver.sv(184) @ 945000: uvm_test_top.env.slave_agent.drv [ahb_slave_driver] Beat AHB_READ addr=0x0000c010 resp=AHB_RESP_OKAY waits=0 rdata=0x6a089e2a
# UVM_INFO ../src/mst/ahb_master_monitor.sv(117) @ 945000: uvm_test_top.env.master_agent.mon [ahb_master_monitor] Beat[4] addr=0x0000c010 rdata=0x6a089e2a resp=AHB_RESP_OKAY
# UVM_INFO ../src/mst/ahb_master_driver.sv(332) @ 965000: uvm_test_top.env.master_agent.drv [ahb_master_driver] Beat[5/16] addr=0x0000c014 trans=AHB_TRANS_SEQ resp=AHB_RESP_OKAY rdata=0xc97a8e86
# UVM_INFO ../src/slv/ahb_slave_driver.sv(184) @ 965000: uvm_test_top.env.slave_agent.drv [ahb_slave_driver] Beat AHB_READ addr=0x0000c014 resp=AHB_RESP_OKAY waits=1 rdata=0xc97a8e86
# UVM_INFO ../src/mst/ahb_master_monitor.sv(117) @ 965000: uvm_test_top.env.master_agent.mon [ahb_master_monitor] Beat[5] addr=0x0000c014 rdata=0xc97a8e86 resp=AHB_RESP_OKAY
# UVM_INFO ../src/mst/ahb_master_driver.sv(332) @ 975000: uvm_test_top.env.master_agent.drv [ahb_master_driver] Beat[6/16] addr=0x0000c018 trans=AHB_TRANS_SEQ resp=AHB_RESP_OKAY rdata=0x0f8b8961
# UVM_INFO ../src/slv/ahb_slave_driver.sv(184) @ 975000: uvm_test_top.env.slave_agent.drv [ahb_slave_driver] Beat AHB_READ addr=0x0000c018 resp=AHB_RESP_OKAY waits=0 rdata=0x0f8b8961
# UVM_INFO ../src/mst/ahb_master_monitor.sv(117) @ 975000: uvm_test_top.env.master_agent.mon [ahb_master_monitor] Beat[6] addr=0x0000c018 rdata=0x0f8b8961 resp=AHB_RESP_OKAY
# UVM_INFO ../src/mst/ahb_master_driver.sv(332) @ 995000: uvm_test_top.env.master_agent.drv [ahb_master_driver] Beat[7/16] addr=0x0000c01c trans=AHB_TRANS_SEQ resp=AHB_RESP_OKAY rdata=0xbd8761bb
# UVM_INFO ../src/slv/ahb_slave_driver.sv(184) @ 995000: uvm_test_top.env.slave_agent.drv [ahb_slave_driver] Beat AHB_READ addr=0x0000c01c resp=AHB_RESP_OKAY waits=1 rdata=0xbd8761bb
# UVM_INFO ../src/mst/ahb_master_monitor.sv(117) @ 995000: uvm_test_top.env.master_agent.mon [ahb_master_monitor] Beat[7] addr=0x0000c01c rdata=0xbd8761bb resp=AHB_RESP_OKAY
# UVM_INFO ../src/mst/ahb_master_driver.sv(332) @ 1005000: uvm_test_top.env.master_agent.drv [ahb_master_driver] Beat[8/16] addr=0x0000c020 trans=AHB_TRANS_SEQ resp=AHB_RESP_OKAY rdata=0xb2147aea
# UVM_INFO ../src/slv/ahb_slave_driver.sv(184) @ 1005000: uvm_test_top.env.slave_agent.drv [ahb_slave_driver] Beat AHB_READ addr=0x0000c020 resp=AHB_RESP_OKAY waits=0 rdata=0xb2147aea
# UVM_INFO ../src/mst/ahb_master_monitor.sv(117) @ 1005000: uvm_test_top.env.master_agent.mon [ahb_master_monitor] Beat[8] addr=0x0000c020 rdata=0xb2147aea resp=AHB_RESP_OKAY
# UVM_INFO ../src/mst/ahb_master_driver.sv(332) @ 1015000: uvm_test_top.env.master_agent.drv [ahb_master_driver] Beat[9/16] addr=0x0000c024 trans=AHB_TRANS_SEQ resp=AHB_RESP_OKAY rdata=0x66c0414e
# UVM_INFO ../src/slv/ahb_slave_driver.sv(184) @ 1015000: uvm_test_top.env.slave_agent.drv [ahb_slave_driver] Beat AHB_READ addr=0x0000c024 resp=AHB_RESP_OKAY waits=0 rdata=0x66c0414e
# UVM_INFO ../src/mst/ahb_master_monitor.sv(117) @ 1015000: uvm_test_top.env.master_agent.mon [ahb_master_monitor] Beat[9] addr=0x0000c024 rdata=0x66c0414e resp=AHB_RESP_OKAY
# UVM_INFO ../src/mst/ahb_master_driver.sv(332) @ 1025000: uvm_test_top.env.master_agent.drv [ahb_master_driver] Beat[10/16] addr=0x0000c028 trans=AHB_TRANS_SEQ resp=AHB_RESP_OKAY rdata=0x3a3acd8e
# UVM_INFO ../src/slv/ahb_slave_driver.sv(184) @ 1025000: uvm_test_top.env.slave_agent.drv [ahb_slave_driver] Beat AHB_READ addr=0x0000c028 resp=AHB_RESP_OKAY waits=0 rdata=0x3a3acd8e
# UVM_INFO ../src/mst/ahb_master_monitor.sv(117) @ 1025000: uvm_test_top.env.master_agent.mon [ahb_master_monitor] Beat[10] addr=0x0000c028 rdata=0x3a3acd8e resp=AHB_RESP_OKAY
# UVM_INFO ../src/mst/ahb_master_driver.sv(332) @ 1055000: uvm_test_top.env.master_agent.drv [ahb_master_driver] Beat[11/16] addr=0x0000c02c trans=AHB_TRANS_SEQ resp=AHB_RESP_OKAY rdata=0x3605c8b2
# UVM_INFO ../src/slv/ahb_slave_driver.sv(184) @ 1055000: uvm_test_top.env.slave_agent.drv [ahb_slave_driver] Beat AHB_READ addr=0x0000c02c resp=AHB_RESP_OKAY waits=2 rdata=0x3605c8b2
# UVM_INFO ../src/mst/ahb_master_monitor.sv(117) @ 1055000: uvm_test_top.env.master_agent.mon [ahb_master_monitor] Beat[11] addr=0x0000c02c rdata=0x3605c8b2 resp=AHB_RESP_OKAY
# UVM_INFO ../src/mst/ahb_master_driver.sv(332) @ 1075000: uvm_test_top.env.master_agent.drv [ahb_master_driver] Beat[12/16] addr=0x0000c030 trans=AHB_TRANS_SEQ resp=AHB_RESP_OKAY rdata=0x0af0428a
# UVM_INFO ../src/slv/ahb_slave_driver.sv(184) @ 1075000: uvm_test_top.env.slave_agent.drv [ahb_slave_driver] Beat AHB_READ addr=0x0000c030 resp=AHB_RESP_OKAY waits=1 rdata=0x0af0428a
# UVM_INFO ../src/mst/ahb_master_monitor.sv(117) @ 1075000: uvm_test_top.env.master_agent.mon [ahb_master_monitor] Beat[12] addr=0x0000c030 rdata=0x0af0428a resp=AHB_RESP_OKAY
# UVM_INFO ../src/mst/ahb_master_driver.sv(332) @ 1095000: uvm_test_top.env.master_agent.drv [ahb_master_driver] Beat[13/16] addr=0x0000c034 trans=AHB_TRANS_SEQ resp=AHB_RESP_OKAY rdata=0x2b1103ab
# UVM_INFO ../src/slv/ahb_slave_driver.sv(184) @ 1095000: uvm_test_top.env.slave_agent.drv [ahb_slave_driver] Beat AHB_READ addr=0x0000c034 resp=AHB_RESP_OKAY waits=1 rdata=0x2b1103ab
# UVM_INFO ../src/mst/ahb_master_monitor.sv(117) @ 1095000: uvm_test_top.env.master_agent.mon [ahb_master_monitor] Beat[13] addr=0x0000c034 rdata=0x2b1103ab resp=AHB_RESP_OKAY
# UVM_INFO ../src/mst/ahb_master_driver.sv(332) @ 1115000: uvm_test_top.env.master_agent.drv [ahb_master_driver] Beat[14/16] addr=0x0000c038 trans=AHB_TRANS_SEQ resp=AHB_RESP_OKAY rdata=0xb8508b90
# UVM_INFO ../src/slv/ahb_slave_driver.sv(184) @ 1115000: uvm_test_top.env.slave_agent.drv [ahb_slave_driver] Beat AHB_READ addr=0x0000c038 resp=AHB_RESP_OKAY waits=1 rdata=0xb8508b90
# UVM_INFO ../src/mst/ahb_master_monitor.sv(117) @ 1115000: uvm_test_top.env.master_agent.mon [ahb_master_monitor] Beat[14] addr=0x0000c038 rdata=0xb8508b90 resp=AHB_RESP_OKAY
# UVM_INFO ../src/mst/ahb_master_driver.sv(332) @ 1145000: uvm_test_top.env.master_agent.drv [ahb_master_driver] Beat[15/16] addr=0x0000c03c trans=AHB_TRANS_SEQ resp=AHB_RESP_OKAY rdata=0xf0a2f494
# UVM_INFO ../src/mst/ahb_master_driver.sv(376) @ 1145000: uvm_test_top.env.master_agent.drv [ahb_master_driver] Transaction complete: AHB_READ 0x0000c000, 16 beats, burst=AHB_BURST_INCR16
# UVM_INFO ../src/slv/ahb_slave_driver.sv(184) @ 1145000: uvm_test_top.env.slave_agent.drv [ahb_slave_driver] Beat AHB_READ addr=0x0000c03c resp=AHB_RESP_OKAY waits=2 rdata=0xf0a2f494
# UVM_INFO ../src/mst/ahb_master_monitor.sv(117) @ 1145000: uvm_test_top.env.master_agent.mon [ahb_master_monitor] Beat[15] addr=0x0000c03c rdata=0xf0a2f494 resp=AHB_RESP_OKAY
# UVM_INFO ../src/mst/ahb_master_monitor.sv(220) @ 1145000: uvm_test_top.env.master_agent.mon [ahb_master_monitor] Observed [AHB_READ]: HADDR=0x0000c000, HBURST=AHB_BURST_INCR16, HSIZE=AHB_SIZE_32B, 16 beats
# UVM_INFO ../src/env/ahb_coverage.sv(126) @ 1145000: uvm_test_top.env.master_cov [ahb_coverage] Sampled [AHB_READ]: burst=AHB_BURST_INCR16 size=AHB_SIZE_32B beats=16 error=0
# UVM_INFO ../src/slv/ahb_slave_monitor.sv(197) @ 1145000: uvm_test_top.env.slave_agent.mon [ahb_slave_monitor] Observed [AHB_READ]: HADDR=0x0000c000, HBURST=AHB_BURST_INCR16, HSIZE=AHB_SIZE_32B, 16 beats
# UVM_INFO ../src/env/ahb_scoreboard.sv(104) @ 1145000: uvm_test_top.env.scb [ahb_scoreboard] MATCH #2: [AHB_READ] HADDR=0x0000c000 AHB_BURST_INCR16 16 beats
# UVM_INFO ../src/env/ahb_coverage.sv(126) @ 1145000: uvm_test_top.env.slave_cov [ahb_coverage] Sampled [AHB_READ]: burst=AHB_BURST_INCR16 size=AHB_SIZE_32B beats=16 error=0
# UVM_INFO ../src/mst_seq/ahb_base_seq.sv(157) @ 1145000: uvm_test_top.env.master_agent.sqr@@seq [ahb_busy_seq] AHB_BURST_INCR16 AHB_SIZE_32B beat 0 @0x0000c000 ok
# UVM_INFO ../src/mst_seq/ahb_base_seq.sv(157) @ 1145000: uvm_test_top.env.master_agent.sqr@@seq [ahb_busy_seq] AHB_BURST_INCR16 AHB_SIZE_32B beat 1 @0x0000c004 ok
# UVM_INFO ../src/mst_seq/ahb_base_seq.sv(157) @ 1145000: uvm_test_top.env.master_agent.sqr@@seq [ahb_busy_seq] AHB_BURST_INCR16 AHB_SIZE_32B beat 2 @0x0000c008 ok
# UVM_INFO ../src/mst_seq/ahb_base_seq.sv(157) @ 1145000: uvm_test_top.env.master_agent.sqr@@seq [ahb_busy_seq] AHB_BURST_INCR16 AHB_SIZE_32B beat 3 @0x0000c00c ok
# UVM_INFO ../src/mst_seq/ahb_base_seq.sv(157) @ 1145000: uvm_test_top.env.master_agent.sqr@@seq [ahb_busy_seq] AHB_BURST_INCR16 AHB_SIZE_32B beat 4 @0x0000c010 ok
# UVM_INFO ../src/mst_seq/ahb_base_seq.sv(157) @ 1145000: uvm_test_top.env.master_agent.sqr@@seq [ahb_busy_seq] AHB_BURST_INCR16 AHB_SIZE_32B beat 5 @0x0000c014 ok
# UVM_INFO ../src/mst_seq/ahb_base_seq.sv(157) @ 1145000: uvm_test_top.env.master_agent.sqr@@seq [ahb_busy_seq] AHB_BURST_INCR16 AHB_SIZE_32B beat 6 @0x0000c018 ok
# UVM_INFO ../src/mst_seq/ahb_base_seq.sv(157) @ 1145000: uvm_test_top.env.master_agent.sqr@@seq [ahb_busy_seq] AHB_BURST_INCR16 AHB_SIZE_32B beat 7 @0x0000c01c ok
# UVM_INFO ../src/mst_seq/ahb_base_seq.sv(157) @ 1145000: uvm_test_top.env.master_agent.sqr@@seq [ahb_busy_seq] AHB_BURST_INCR16 AHB_SIZE_32B beat 8 @0x0000c020 ok
# UVM_INFO ../src/mst_seq/ahb_base_seq.sv(157) @ 1145000: uvm_test_top.env.master_agent.sqr@@seq [ahb_busy_seq] AHB_BURST_INCR16 AHB_SIZE_32B beat 9 @0x0000c024 ok
# UVM_INFO ../src/mst_seq/ahb_base_seq.sv(157) @ 1145000: uvm_test_top.env.master_agent.sqr@@seq [ahb_busy_seq] AHB_BURST_INCR16 AHB_SIZE_32B beat 10 @0x0000c028 ok
# UVM_INFO ../src/mst_seq/ahb_base_seq.sv(157) @ 1145000: uvm_test_top.env.master_agent.sqr@@seq [ahb_busy_seq] AHB_BURST_INCR16 AHB_SIZE_32B beat 11 @0x0000c02c ok
# UVM_INFO ../src/mst_seq/ahb_base_seq.sv(157) @ 1145000: uvm_test_top.env.master_agent.sqr@@seq [ahb_busy_seq] AHB_BURST_INCR16 AHB_SIZE_32B beat 12 @0x0000c030 ok
# UVM_INFO ../src/mst_seq/ahb_base_seq.sv(157) @ 1145000: uvm_test_top.env.master_agent.sqr@@seq [ahb_busy_seq] AHB_BURST_INCR16 AHB_SIZE_32B beat 13 @0x0000c034 ok
# UVM_INFO ../src/mst_seq/ahb_base_seq.sv(157) @ 1145000: uvm_test_top.env.master_agent.sqr@@seq [ahb_busy_seq] AHB_BURST_INCR16 AHB_SIZE_32B beat 14 @0x0000c038 ok
# UVM_INFO ../src/mst_seq/ahb_base_seq.sv(157) @ 1145000: uvm_test_top.env.master_agent.sqr@@seq [ahb_busy_seq] AHB_BURST_INCR16 AHB_SIZE_32B beat 15 @0x0000c03c ok
# UVM_INFO ../src/mst_seq/ahb_busy_seq.sv(105) @ 1145000: uvm_test_top.env.master_agent.sqr@@seq [ahb_busy_seq] AHB_BURST_INCR4 AHB_SIZE_8B @0x0000c07c, 4 beats, retract=0
# UVM_INFO ../src/mst/ahb_master_driver.sv(85) @ 1145000: uvm_test_top.env.master_agent.drv [ahb_master_driver] Queueing [AHB_WRITE]: HADDR=0x0000c07c, HBURST=AHB_BURST_INCR4, HSIZE=AHB_SIZE_8B, 4 beats
# UVM_INFO ../src/mst/ahb_master_driver.sv(127) @ 1145000: uvm_test_top.env.master_agent.drv [ahb_master_driver] Driving [AHB_WRITE]: HADDR=0x0000c07c, HBURST=AHB_BURST_INCR4, HSIZE=AHB_SIZE_8B, 4 beats               
# UVM_INFO ../src/mst/ahb_master_driver.sv(332) @ 1195000: uvm_test_top.env.master_agent.drv [ahb_master_driver] Beat[0/4] addr=0x0000c07c trans=AHB_TRANS_NONSEQ resp=AHB_RESP_OKAY wdata=0x821d8687
# UVM_INFO ../src/slv/ahb_slave_driver.sv(184) @ 1195000: uvm_test_top.env.slave_agent.drv [ahb_slave_driver] Beat AHB_WRITE addr=0x0000c07c resp=AHB_RESP_OKAY waits=2 wdata=0x821d8687
# UVM_INFO ../src/mst/ahb_master_monitor.sv(117) @ 1195000: uvm_test_top.env.master_agent.mon [ahb_master_monitor] Beat[0] addr=0x0000c07c wdata=0x821d8687 resp=AHB_RESP_OKAY
# UVM_INFO ../src/mst/ahb_master_driver.sv(332) @ 1255000: uvm_test_top.env.master_agent.drv [ahb_master_driver] Beat[1/4] addr=0x0000c07d trans=AHB_TRANS_SEQ resp=AHB_RESP_OKAY wdata=0x96f08f56
# UVM_INFO ../src/slv/ahb_slave_driver.sv(184) @ 1255000: uvm_test_top.env.slave_agent.drv [ahb_slave_driver] Beat AHB_WRITE addr=0x0000c07d resp=AHB_RESP_OKAY waits=2 wdata=0x96f08f56
# UVM_INFO ../src/mst/ahb_master_monitor.sv(117) @ 1255000: uvm_test_top.env.master_agent.mon [ahb_master_monitor] Beat[1] addr=0x0000c07d wdata=0x96f08f56 resp=AHB_RESP_OKAY
# UVM_INFO ../src/mst/ahb_master_driver.sv(332) @ 1285000: uvm_test_top.env.master_agent.drv [ahb_master_driver] Beat[2/4] addr=0x0000c07e trans=AHB_TRANS_SEQ resp=AHB_RESP_OKAY wdata=0xd9a95c09
# UVM_INFO ../src/slv/ahb_slave_driver.sv(184) @ 1285000: uvm_test_top.env.slave_agent.drv [ahb_slave_driver] Beat AHB_WRITE addr=0x0000c07e resp=AHB_RESP_OKAY waits=0 wdata=0xd9a95c09
# UVM_INFO ../src/mst/ahb_master_monitor.sv(117) @ 1285000: uvm_test_top.env.master_agent.mon [ahb_master_monitor] Beat[2] addr=0x0000c07e wdata=0xd9a95c09 resp=AHB_RESP_OKAY
# UVM_INFO ../src/mst/ahb_master_driver.sv(332) @ 1325000: uvm_test_top.env.master_agent.drv [ahb_master_driver] Beat[3/4] addr=0x0000c07f trans=AHB_TRANS_SEQ resp=AHB_RESP_OKAY wdata=0x48d7b9f3
# UVM_INFO ../src/mst/ahb_master_driver.sv(376) @ 1325000: uvm_test_top.env.master_agent.drv [ahb_master_driver] Transaction complete: AHB_WRITE 0x0000c07c, 4 beats, burst=AHB_BURST_INCR4
# UVM_INFO ../src/slv/ahb_slave_driver.sv(184) @ 1325000: uvm_test_top.env.slave_agent.drv [ahb_slave_driver] Beat AHB_WRITE addr=0x0000c07f resp=AHB_RESP_OKAY waits=2 wdata=0x48d7b9f3
# UVM_INFO ../src/mst/ahb_master_monitor.sv(117) @ 1325000: uvm_test_top.env.master_agent.mon [ahb_master_monitor] Beat[3] addr=0x0000c07f wdata=0x48d7b9f3 resp=AHB_RESP_OKAY
# UVM_INFO ../src/mst/ahb_master_monitor.sv(220) @ 1325000: uvm_test_top.env.master_agent.mon [ahb_master_monitor] Observed [AHB_WRITE]: HADDR=0x0000c07c, HBURST=AHB_BURST_INCR4, HSIZE=AHB_SIZE_8B, 4 beats
# UVM_INFO ../src/env/ahb_coverage.sv(126) @ 1325000: uvm_test_top.env.master_cov [ahb_coverage] Sampled [AHB_WRITE]: burst=AHB_BURST_INCR4 size=AHB_SIZE_8B beats=4 error=0
# UVM_INFO ../src/slv/ahb_slave_monitor.sv(197) @ 1325000: uvm_test_top.env.slave_agent.mon [ahb_slave_monitor] Observed [AHB_WRITE]: HADDR=0x0000c07c, HBURST=AHB_BURST_INCR4, HSIZE=AHB_SIZE_8B, 4 beats
# UVM_INFO ../src/env/ahb_scoreboard.sv(104) @ 1325000: uvm_test_top.env.scb [ahb_scoreboard] MATCH #3: [AHB_WRITE] HADDR=0x0000c07c AHB_BURST_INCR4 4 beats
# UVM_INFO ../src/env/ahb_coverage.sv(126) @ 1325000: uvm_test_top.env.slave_cov [ahb_coverage] Sampled [AHB_WRITE]: burst=AHB_BURST_INCR4 size=AHB_SIZE_8B beats=4 error=0
# UVM_INFO ../src/mst/ahb_master_driver.sv(85) @ 1325000: uvm_test_top.env.master_agent.drv [ahb_master_driver] Queueing [AHB_READ]: HADDR=0x0000c07c, HBURST=AHB_BURST_INCR4, HSIZE=AHB_SIZE_8B, 4 beats
# UVM_INFO ../src/mst/ahb_master_driver.sv(127) @ 1325000: uvm_test_top.env.master_agent.drv [ahb_master_driver] Driving [AHB_READ]: HADDR=0x0000c07c, HBURST=AHB_BURST_INCR4, HSIZE=AHB_SIZE_8B, 4 beats               
# UVM_INFO ../src/mst/ahb_master_driver.sv(332) @ 1375000: uvm_test_top.env.master_agent.drv [ahb_master_driver] Beat[0/4] addr=0x0000c07c trans=AHB_TRANS_NONSEQ resp=AHB_RESP_OKAY rdata=0x821d8687
# UVM_INFO ../src/slv/ahb_slave_driver.sv(184) @ 1375000: uvm_test_top.env.slave_agent.drv [ahb_slave_driver] Beat AHB_READ addr=0x0000c07c resp=AHB_RESP_OKAY waits=2 rdata=0x821d8687
# UVM_INFO ../src/mst/ahb_master_monitor.sv(117) @ 1375000: uvm_test_top.env.master_agent.mon [ahb_master_monitor] Beat[0] addr=0x0000c07c rdata=0x821d8687 resp=AHB_RESP_OKAY
# UVM_INFO ../src/mst/ahb_master_driver.sv(332) @ 1405000: uvm_test_top.env.master_agent.drv [ahb_master_driver] Beat[1/4] addr=0x0000c07d trans=AHB_TRANS_SEQ resp=AHB_RESP_OKAY rdata=0x96f08f56
# UVM_INFO ../src/slv/ahb_slave_driver.sv(184) @ 1405000: uvm_test_top.env.slave_agent.drv [ahb_slave_driver] Beat AHB_READ addr=0x0000c07d resp=AHB_RESP_OKAY waits=2 rdata=0x96f08f56
# UVM_INFO ../src/mst/ahb_master_monitor.sv(117) @ 1405000: uvm_test_top.env.master_agent.mon [ahb_master_monitor] Beat[1] addr=0x0000c07d rdata=0x96f08f56 resp=AHB_RESP_OKAY
# UVM_INFO ../src/mst/ahb_master_driver.sv(332) @ 1425000: uvm_test_top.env.master_agent.drv [ahb_master_driver] Beat[2/4] addr=0x0000c07e trans=AHB_TRANS_SEQ resp=AHB_RESP_OKAY rdata=0xd9a95c09
# UVM_INFO ../src/slv/ahb_slave_driver.sv(184) @ 1425000: uvm_test_top.env.slave_agent.drv [ahb_slave_driver] Beat AHB_READ addr=0x0000c07e resp=AHB_RESP_OKAY waits=1 rdata=0xd9a95c09
# UVM_INFO ../src/mst/ahb_master_monitor.sv(117) @ 1425000: uvm_test_top.env.master_agent.mon [ahb_master_monitor] Beat[2] addr=0x0000c07e rdata=0xd9a95c09 resp=AHB_RESP_OKAY
# UVM_INFO ../src/mst/ahb_master_driver.sv(332) @ 1435000: uvm_test_top.env.master_agent.drv [ahb_master_driver] Beat[3/4] addr=0x0000c07f trans=AHB_TRANS_SEQ resp=AHB_RESP_OKAY rdata=0x48d7b9f3
# UVM_INFO ../src/mst/ahb_master_driver.sv(376) @ 1435000: uvm_test_top.env.master_agent.drv [ahb_master_driver] Transaction complete: AHB_READ 0x0000c07c, 4 beats, burst=AHB_BURST_INCR4
# UVM_INFO ../src/slv/ahb_slave_driver.sv(184) @ 1435000: uvm_test_top.env.slave_agent.drv [ahb_slave_driver] Beat AHB_READ addr=0x0000c07f resp=AHB_RESP_OKAY waits=0 rdata=0x48d7b9f3
# UVM_INFO ../src/slv/ahb_slave_monitor.sv(197) @ 1435000: uvm_test_top.env.slave_agent.mon [ahb_slave_monitor] Observed [AHB_READ]: HADDR=0x0000c07c, HBURST=AHB_BURST_INCR4, HSIZE=AHB_SIZE_8B, 4 beats
# UVM_INFO ../src/env/ahb_coverage.sv(126) @ 1435000: uvm_test_top.env.slave_cov [ahb_coverage] Sampled [AHB_READ]: burst=AHB_BURST_INCR4 size=AHB_SIZE_8B beats=4 error=0
# UVM_INFO ../src/mst/ahb_master_monitor.sv(117) @ 1435000: uvm_test_top.env.master_agent.mon [ahb_master_monitor] Beat[3] addr=0x0000c07f rdata=0x48d7b9f3 resp=AHB_RESP_OKAY
# UVM_INFO ../src/mst/ahb_master_monitor.sv(220) @ 1435000: uvm_test_top.env.master_agent.mon [ahb_master_monitor] Observed [AHB_READ]: HADDR=0x0000c07c, HBURST=AHB_BURST_INCR4, HSIZE=AHB_SIZE_8B, 4 beats
# UVM_INFO ../src/env/ahb_coverage.sv(126) @ 1435000: uvm_test_top.env.master_cov [ahb_coverage] Sampled [AHB_READ]: burst=AHB_BURST_INCR4 size=AHB_SIZE_8B beats=4 error=0
# UVM_INFO ../src/env/ahb_scoreboard.sv(104) @ 1435000: uvm_test_top.env.scb [ahb_scoreboard] MATCH #4: [AHB_READ] HADDR=0x0000c07c AHB_BURST_INCR4 4 beats
# UVM_INFO ../src/mst_seq/ahb_base_seq.sv(157) @ 1435000: uvm_test_top.env.master_agent.sqr@@seq [ahb_busy_seq] AHB_BURST_INCR4 AHB_SIZE_8B beat 0 @0x0000c07c ok
# UVM_INFO ../src/mst_seq/ahb_base_seq.sv(157) @ 1435000: uvm_test_top.env.master_agent.sqr@@seq [ahb_busy_seq] AHB_BURST_INCR4 AHB_SIZE_8B beat 1 @0x0000c07d ok
# UVM_INFO ../src/mst_seq/ahb_base_seq.sv(157) @ 1435000: uvm_test_top.env.master_agent.sqr@@seq [ahb_busy_seq] AHB_BURST_INCR4 AHB_SIZE_8B beat 2 @0x0000c07e ok
# UVM_INFO ../src/mst_seq/ahb_base_seq.sv(157) @ 1435000: uvm_test_top.env.master_agent.sqr@@seq [ahb_busy_seq] AHB_BURST_INCR4 AHB_SIZE_8B beat 3 @0x0000c07f ok
# UVM_INFO ../src/mst_seq/ahb_busy_seq.sv(105) @ 1435000: uvm_test_top.env.master_agent.sqr@@seq [ahb_busy_seq] AHB_BURST_WRAP16 AHB_SIZE_16B @0x0000c082, 16 beats, retract=1
# UVM_INFO ../src/mst/ahb_master_driver.sv(85) @ 1435000: uvm_test_top.env.master_agent.drv [ahb_master_driver] Queueing [AHB_WRITE]: HADDR=0x0000c082, HBURST=AHB_BURST_WRAP16, HSIZE=AHB_SIZE_16B, 16 beats
# UVM_INFO ../src/mst/ahb_master_driver.sv(127) @ 1435000: uvm_test_top.env.master_agent.drv [ahb_master_driver] Driving [AHB_WRITE]: HADDR=0x0000c082, HBURST=AHB_BURST_WRAP16, HSIZE=AHB_SIZE_16B, 16 beats               
# UVM_INFO ../src/mst/ahb_master_driver.sv(332) @ 1485000: uvm_test_top.env.master_agent.drv [ahb_master_driver] Beat[0/16] addr=0x0000c082 trans=AHB_TRANS_NONSEQ resp=AHB_RESP_OKAY wdata=0x8d4fbfa5
# UVM_INFO ../src/slv/ahb_slave_driver.sv(184) @ 1485000: uvm_test_top.env.slave_agent.drv [ahb_slave_driver] Beat AHB_WRITE addr=0x0000c082 resp=AHB_RESP_OKAY waits=2 wdata=0x8d4fbfa5
# UVM_INFO ../src/mst/ahb_master_monitor.sv(117) @ 1485000: uvm_test_top.env.master_agent.mon [ahb_master_monitor] Beat[0] addr=0x0000c082 wdata=0x8d4fbfa5 resp=AHB_RESP_OKAY
# UVM_INFO ../src/mst/ahb_master_driver.sv(332) @ 1505000: uvm_test_top.env.master_agent.drv [ahb_master_driver] Beat[1/16] addr=0x0000c084 trans=AHB_TRANS_SEQ resp=AHB_RESP_OKAY wdata=0xbe3a5944
# UVM_INFO ../src/slv/ahb_slave_driver.sv(184) @ 1505000: uvm_test_top.env.slave_agent.drv [ahb_slave_driver] Beat AHB_WRITE addr=0x0000c084 resp=AHB_RESP_OKAY waits=1 wdata=0xbe3a5944
# UVM_INFO ../src/mst/ahb_master_monitor.sv(117) @ 1505000: uvm_test_top.env.master_agent.mon [ahb_master_monitor] Beat[1] addr=0x0000c084 wdata=0xbe3a5944 resp=AHB_RESP_OKAY
# UVM_INFO ../src/mst/ahb_master_driver.sv(332) @ 1515000: uvm_test_top.env.master_agent.drv [ahb_master_driver] Beat[2/16] addr=0x0000c086 trans=AHB_TRANS_SEQ resp=AHB_RESP_OKAY wdata=0x95c897d4
# UVM_INFO ../src/slv/ahb_slave_driver.sv(184) @ 1515000: uvm_test_top.env.slave_agent.drv [ahb_slave_driver] Beat AHB_WRITE addr=0x0000c086 resp=AHB_RESP_OKAY waits=0 wdata=0x95c897d4
# UVM_INFO ../src/mst/ahb_master_monitor.sv(117) @ 1515000: uvm_test_top.env.master_agent.mon [ahb_master_monitor] Beat[2] addr=0x0000c086 wdata=0x95c897d4 resp=AHB_RESP_OKAY
# UVM_INFO ../src/mst/ahb_master_driver.sv(332) @ 1535000: uvm_test_top.env.master_agent.drv [ahb_master_driver] Beat[3/16] addr=0x0000c088 trans=AHB_TRANS_SEQ resp=AHB_RESP_OKAY wdata=0x86523364
# UVM_INFO ../src/slv/ahb_slave_driver.sv(184) @ 1535000: uvm_test_top.env.slave_agent.drv [ahb_slave_driver] Beat AHB_WRITE addr=0x0000c088 resp=AHB_RESP_OKAY waits=0 wdata=0x86523364
# UVM_INFO ../src/mst/ahb_master_monitor.sv(117) @ 1535000: uvm_test_top.env.master_agent.mon [ahb_master_monitor] Beat[3] addr=0x0000c088 wdata=0x86523364 resp=AHB_RESP_OKAY
# UVM_INFO ../src/mst/ahb_master_driver.sv(332) @ 1575000: uvm_test_top.env.master_agent.drv [ahb_master_driver] Beat[4/16] addr=0x0000c08a trans=AHB_TRANS_SEQ resp=AHB_RESP_OKAY wdata=0x426f7e10
# UVM_INFO ../src/slv/ahb_slave_driver.sv(184) @ 1575000: uvm_test_top.env.slave_agent.drv [ahb_slave_driver] Beat AHB_WRITE addr=0x0000c08a resp=AHB_RESP_OKAY waits=0 wdata=0x426f7e10
# UVM_INFO ../src/mst/ahb_master_monitor.sv(117) @ 1575000: uvm_test_top.env.master_agent.mon [ahb_master_monitor] Beat[4] addr=0x0000c08a wdata=0x426f7e10 resp=AHB_RESP_OKAY
# UVM_INFO ../src/mst/ahb_master_driver.sv(332) @ 1595000: uvm_test_top.env.master_agent.drv [ahb_master_driver] Beat[5/16] addr=0x0000c08c trans=AHB_TRANS_SEQ resp=AHB_RESP_OKAY wdata=0x1582980b
# UVM_INFO ../src/slv/ahb_slave_driver.sv(184) @ 1595000: uvm_test_top.env.slave_agent.drv [ahb_slave_driver] Beat AHB_WRITE addr=0x0000c08c resp=AHB_RESP_OKAY waits=0 wdata=0x1582980b
# UVM_INFO ../src/mst/ahb_master_monitor.sv(117) @ 1595000: uvm_test_top.env.master_agent.mon [ahb_master_monitor] Beat[5] addr=0x0000c08c wdata=0x1582980b resp=AHB_RESP_OKAY
# UVM_INFO ../src/mst/ahb_master_driver.sv(332) @ 1625000: uvm_test_top.env.master_agent.drv [ahb_master_driver] Beat[6/16] addr=0x0000c08e trans=AHB_TRANS_SEQ resp=AHB_RESP_OKAY wdata=0x03477ff7
# UVM_INFO ../src/slv/ahb_slave_driver.sv(184) @ 1625000: uvm_test_top.env.slave_agent.drv [ahb_slave_driver] Beat AHB_WRITE addr=0x0000c08e resp=AHB_RESP_OKAY waits=1 wdata=0x03477ff7
# UVM_INFO ../src/mst/ahb_master_monitor.sv(117) @ 1625000: uvm_test_top.env.master_agent.mon [ahb_master_monitor] Beat[6] addr=0x0000c08e wdata=0x03477ff7 resp=AHB_RESP_OKAY
# UVM_INFO ../src/mst/ahb_master_driver.sv(332) @ 1635000: uvm_test_top.env.master_agent.drv [ahb_master_driver] Beat[7/16] addr=0x0000c090 trans=AHB_TRANS_SEQ resp=AHB_RESP_OKAY wdata=0x922fdc36
# UVM_INFO ../src/slv/ahb_slave_driver.sv(184) @ 1635000: uvm_test_top.env.slave_agent.drv [ahb_slave_driver] Beat AHB_WRITE addr=0x0000c090 resp=AHB_RESP_OKAY waits=0 wdata=0x922fdc36
# UVM_INFO ../src/mst/ahb_master_monitor.sv(117) @ 1635000: uvm_test_top.env.master_agent.mon [ahb_master_monitor] Beat[7] addr=0x0000c090 wdata=0x922fdc36 resp=AHB_RESP_OKAY
# UVM_INFO ../src/mst/ahb_master_driver.sv(332) @ 1665000: uvm_test_top.env.master_agent.drv [ahb_master_driver] Beat[8/16] addr=0x0000c092 trans=AHB_TRANS_SEQ resp=AHB_RESP_OKAY wdata=0x9c52b52d
# UVM_INFO ../src/slv/ahb_slave_driver.sv(184) @ 1665000: uvm_test_top.env.slave_agent.drv [ahb_slave_driver] Beat AHB_WRITE addr=0x0000c092 resp=AHB_RESP_OKAY waits=0 wdata=0x9c52b52d
# UVM_INFO ../src/mst/ahb_master_monitor.sv(117) @ 1665000: uvm_test_top.env.master_agent.mon [ahb_master_monitor] Beat[8] addr=0x0000c092 wdata=0x9c52b52d resp=AHB_RESP_OKAY
# UVM_INFO ../src/mst/ahb_master_driver.sv(332) @ 1695000: uvm_test_top.env.master_agent.drv [ahb_master_driver] Beat[9/16] addr=0x0000c094 trans=AHB_TRANS_SEQ resp=AHB_RESP_OKAY wdata=0xb79b03bf
# UVM_INFO ../src/slv/ahb_slave_driver.sv(184) @ 1695000: uvm_test_top.env.slave_agent.drv [ahb_slave_driver] Beat AHB_WRITE addr=0x0000c094 resp=AHB_RESP_OKAY waits=0 wdata=0xb79b03bf
# UVM_INFO ../src/mst/ahb_master_monitor.sv(117) @ 1695000: uvm_test_top.env.master_agent.mon [ahb_master_monitor] Beat[9] addr=0x0000c094 wdata=0xb79b03bf resp=AHB_RESP_OKAY
# UVM_INFO ../src/mst/ahb_master_driver.sv(332) @ 1735000: uvm_test_top.env.master_agent.drv [ahb_master_driver] Beat[10/16] addr=0x0000c096 trans=AHB_TRANS_SEQ resp=AHB_RESP_OKAY wdata=0x0c5a5481
# UVM_INFO ../src/slv/ahb_slave_driver.sv(184) @ 1735000: uvm_test_top.env.slave_agent.drv [ahb_slave_driver] Beat AHB_WRITE addr=0x0000c096 resp=AHB_RESP_OKAY waits=1 wdata=0x0c5a5481
# UVM_INFO ../src/mst/ahb_master_monitor.sv(117) @ 1735000: uvm_test_top.env.master_agent.mon [ahb_master_monitor] Beat[10] addr=0x0000c096 wdata=0x0c5a5481 resp=AHB_RESP_OKAY
# UVM_INFO ../src/mst/ahb_master_driver.sv(332) @ 1765000: uvm_test_top.env.master_agent.drv [ahb_master_driver] Beat[11/16] addr=0x0000c098 trans=AHB_TRANS_SEQ resp=AHB_RESP_OKAY wdata=0x6d288f9e
# UVM_INFO ../src/slv/ahb_slave_driver.sv(184) @ 1765000: uvm_test_top.env.slave_agent.drv [ahb_slave_driver] Beat AHB_WRITE addr=0x0000c098 resp=AHB_RESP_OKAY waits=2 wdata=0x6d288f9e
# UVM_INFO ../src/mst/ahb_master_monitor.sv(117) @ 1765000: uvm_test_top.env.master_agent.mon [ahb_master_monitor] Beat[11] addr=0x0000c098 wdata=0x6d288f9e resp=AHB_RESP_OKAY
# UVM_INFO ../src/mst/ahb_master_driver.sv(332) @ 1775000: uvm_test_top.env.master_agent.drv [ahb_master_driver] Beat[12/16] addr=0x0000c09a trans=AHB_TRANS_SEQ resp=AHB_RESP_OKAY wdata=0x397f6100
# UVM_INFO ../src/slv/ahb_slave_driver.sv(184) @ 1775000: uvm_test_top.env.slave_agent.drv [ahb_slave_driver] Beat AHB_WRITE addr=0x0000c09a resp=AHB_RESP_OKAY waits=0 wdata=0x397f6100
# UVM_INFO ../src/mst/ahb_master_monitor.sv(117) @ 1775000: uvm_test_top.env.master_agent.mon [ahb_master_monitor] Beat[12] addr=0x0000c09a wdata=0x397f6100 resp=AHB_RESP_OKAY
# UVM_INFO ../src/mst/ahb_master_driver.sv(332) @ 1795000: uvm_test_top.env.master_agent.drv [ahb_master_driver] Beat[13/16] addr=0x0000c09c trans=AHB_TRANS_SEQ resp=AHB_RESP_OKAY wdata=0xa3ba70b8
# UVM_INFO ../src/slv/ahb_slave_driver.sv(184) @ 1795000: uvm_test_top.env.slave_agent.drv [ahb_slave_driver] Beat AHB_WRITE addr=0x0000c09c resp=AHB_RESP_OKAY waits=0 wdata=0xa3ba70b8
# UVM_INFO ../src/mst/ahb_master_monitor.sv(117) @ 1795000: uvm_test_top.env.master_agent.mon [ahb_master_monitor] Beat[13] addr=0x0000c09c wdata=0xa3ba70b8 resp=AHB_RESP_OKAY
# UVM_INFO ../src/mst/ahb_master_driver.sv(332) @ 1825000: uvm_test_top.env.master_agent.drv [ahb_master_driver] Beat[14/16] addr=0x0000c09e trans=AHB_TRANS_SEQ resp=AHB_RESP_OKAY wdata=0x71940b10
# UVM_INFO ../src/slv/ahb_slave_driver.sv(184) @ 1825000: uvm_test_top.env.slave_agent.drv [ahb_slave_driver] Beat AHB_WRITE addr=0x0000c09e resp=AHB_RESP_OKAY waits=0 wdata=0x71940b10
# UVM_INFO ../src/mst/ahb_master_monitor.sv(117) @ 1825000: uvm_test_top.env.master_agent.mon [ahb_master_monitor] Beat[14] addr=0x0000c09e wdata=0x71940b10 resp=AHB_RESP_OKAY
# UVM_INFO ../src/mst/ahb_master_driver.sv(332) @ 1865000: uvm_test_top.env.master_agent.drv [ahb_master_driver] Beat[15/16] addr=0x0000c080 trans=AHB_TRANS_SEQ resp=AHB_RESP_OKAY wdata=0xae5e75db
# UVM_INFO ../src/mst/ahb_master_driver.sv(376) @ 1865000: uvm_test_top.env.master_agent.drv [ahb_master_driver] Transaction complete: AHB_WRITE 0x0000c082, 16 beats, burst=AHB_BURST_WRAP16
# UVM_INFO ../src/slv/ahb_slave_driver.sv(184) @ 1865000: uvm_test_top.env.slave_agent.drv [ahb_slave_driver] Beat AHB_WRITE addr=0x0000c080 resp=AHB_RESP_OKAY waits=2 wdata=0xae5e75db
# UVM_INFO ../src/mst/ahb_master_monitor.sv(117) @ 1865000: uvm_test_top.env.master_agent.mon [ahb_master_monitor] Beat[15] addr=0x0000c080 wdata=0xae5e75db resp=AHB_RESP_OKAY
# UVM_INFO ../src/mst/ahb_master_monitor.sv(220) @ 1865000: uvm_test_top.env.master_agent.mon [ahb_master_monitor] Observed [AHB_WRITE]: HADDR=0x0000c082, HBURST=AHB_BURST_WRAP16, HSIZE=AHB_SIZE_16B, 16 beats
# UVM_INFO ../src/env/ahb_coverage.sv(126) @ 1865000: uvm_test_top.env.master_cov [ahb_coverage] Sampled [AHB_WRITE]: burst=AHB_BURST_WRAP16 size=AHB_SIZE_16B beats=16 error=0
# UVM_INFO ../src/slv/ahb_slave_monitor.sv(197) @ 1865000: uvm_test_top.env.slave_agent.mon [ahb_slave_monitor] Observed [AHB_WRITE]: HADDR=0x0000c082, HBURST=AHB_BURST_WRAP16, HSIZE=AHB_SIZE_16B, 16 beats
# UVM_INFO ../src/env/ahb_scoreboard.sv(104) @ 1865000: uvm_test_top.env.scb [ahb_scoreboard] MATCH #5: [AHB_WRITE] HADDR=0x0000c082 AHB_BURST_WRAP16 16 beats
# UVM_INFO ../src/env/ahb_coverage.sv(126) @ 1865000: uvm_test_top.env.slave_cov [ahb_coverage] Sampled [AHB_WRITE]: burst=AHB_BURST_WRAP16 size=AHB_SIZE_16B beats=16 error=0
# UVM_INFO ../src/mst/ahb_master_driver.sv(85) @ 1865000: uvm_test_top.env.master_agent.drv [ahb_master_driver] Queueing [AHB_READ]: HADDR=0x0000c082, HBURST=AHB_BURST_WRAP16, HSIZE=AHB_SIZE_16B, 16 beats
# UVM_INFO ../src/mst/ahb_master_driver.sv(127) @ 1865000: uvm_test_top.env.master_agent.drv [ahb_master_driver] Driving [AHB_READ]: HADDR=0x0000c082, HBURST=AHB_BURST_WRAP16, HSIZE=AHB_SIZE_16B, 16 beats               
# UVM_INFO ../src/mst/ahb_master_driver.sv(332) @ 1895000: uvm_test_top.env.master_agent.drv [ahb_master_driver] Beat[0/16] addr=0x0000c082 trans=AHB_TRANS_NONSEQ resp=AHB_RESP_OKAY rdata=0x8d4fbfa5
# UVM_INFO ../src/slv/ahb_slave_driver.sv(184) @ 1895000: uvm_test_top.env.slave_agent.drv [ahb_slave_driver] Beat AHB_READ addr=0x0000c082 resp=AHB_RESP_OKAY waits=0 rdata=0x8d4fbfa5
# UVM_INFO ../src/mst/ahb_master_monitor.sv(117) @ 1895000: uvm_test_top.env.master_agent.mon [ahb_master_monitor] Beat[0] addr=0x0000c082 rdata=0x8d4fbfa5 resp=AHB_RESP_OKAY
# UVM_INFO ../src/mst/ahb_master_driver.sv(332) @ 1925000: uvm_test_top.env.master_agent.drv [ahb_master_driver] Beat[1/16] addr=0x0000c084 trans=AHB_TRANS_SEQ resp=AHB_RESP_OKAY rdata=0xbe3a5944
# UVM_INFO ../src/slv/ahb_slave_driver.sv(184) @ 1925000: uvm_test_top.env.slave_agent.drv [ahb_slave_driver] Beat AHB_READ addr=0x0000c084 resp=AHB_RESP_OKAY waits=2 rdata=0xbe3a5944
# UVM_INFO ../src/mst/ahb_master_monitor.sv(117) @ 1925000: uvm_test_top.env.master_agent.mon [ahb_master_monitor] Beat[1] addr=0x0000c084 rdata=0xbe3a5944 resp=AHB_RESP_OKAY
# UVM_INFO ../src/mst/ahb_master_driver.sv(332) @ 1935000: uvm_test_top.env.master_agent.drv [ahb_master_driver] Beat[2/16] addr=0x0000c086 trans=AHB_TRANS_SEQ resp=AHB_RESP_OKAY rdata=0x95c897d4
# UVM_INFO ../src/slv/ahb_slave_driver.sv(184) @ 1935000: uvm_test_top.env.slave_agent.drv [ahb_slave_driver] Beat AHB_READ addr=0x0000c086 resp=AHB_RESP_OKAY waits=0 rdata=0x95c897d4
# UVM_INFO ../src/mst/ahb_master_monitor.sv(117) @ 1935000: uvm_test_top.env.master_agent.mon [ahb_master_monitor] Beat[2] addr=0x0000c086 rdata=0x95c897d4 resp=AHB_RESP_OKAY
# UVM_INFO ../src/mst/ahb_master_driver.sv(332) @ 1955000: uvm_test_top.env.master_agent.drv [ahb_master_driver] Beat[3/16] addr=0x0000c088 trans=AHB_TRANS_SEQ resp=AHB_RESP_OKAY rdata=0x86523364
# UVM_INFO ../src/slv/ahb_slave_driver.sv(184) @ 1955000: uvm_test_top.env.slave_agent.drv [ahb_slave_driver] Beat AHB_READ addr=0x0000c088 resp=AHB_RESP_OKAY waits=1 rdata=0x86523364
# UVM_INFO ../src/mst/ahb_master_monitor.sv(117) @ 1955000: uvm_test_top.env.master_agent.mon [ahb_master_monitor] Beat[3] addr=0x0000c088 rdata=0x86523364 resp=AHB_RESP_OKAY
# UVM_INFO ../src/mst/ahb_master_driver.sv(332) @ 1985000: uvm_test_top.env.master_agent.drv [ahb_master_driver] Beat[4/16] addr=0x0000c08a trans=AHB_TRANS_SEQ resp=AHB_RESP_OKAY rdata=0x426f7e10
# UVM_INFO ../src/slv/ahb_slave_driver.sv(184) @ 1985000: uvm_test_top.env.slave_agent.drv [ahb_slave_driver] Beat AHB_READ addr=0x0000c08a resp=AHB_RESP_OKAY waits=2 rdata=0x426f7e10
# UVM_INFO ../src/mst/ahb_master_monitor.sv(117) @ 1985000: uvm_test_top.env.master_agent.mon [ahb_master_monitor] Beat[4] addr=0x0000c08a rdata=0x426f7e10 resp=AHB_RESP_OKAY
# UVM_INFO ../src/mst/ahb_master_driver.sv(332) @ 2015000: uvm_test_top.env.master_agent.drv [ahb_master_driver] Beat[5/16] addr=0x0000c08c trans=AHB_TRANS_SEQ resp=AHB_RESP_OKAY rdata=0x1582980b
# UVM_INFO ../src/slv/ahb_slave_driver.sv(184) @ 2015000: uvm_test_top.env.slave_agent.drv [ahb_slave_driver] Beat AHB_READ addr=0x0000c08c resp=AHB_RESP_OKAY waits=2 rdata=0x1582980b
# UVM_INFO ../src/mst/ahb_master_monitor.sv(117) @ 2015000: uvm_test_top.env.master_agent.mon [ahb_master_monitor] Beat[5] addr=0x0000c08c rdata=0x1582980b resp=AHB_RESP_OKAY
# UVM_INFO ../src/mst/ahb_master_driver.sv(332) @ 2025000: uvm_test_top.env.master_agent.drv [ahb_master_driver] Beat[6/16] addr=0x0000c08e trans=AHB_TRANS_SEQ resp=AHB_RESP_OKAY rdata=0x03477ff7
# UVM_INFO ../src/slv/ahb_slave_driver.sv(184) @ 2025000: uvm_test_top.env.slave_agent.drv [ahb_slave_driver] Beat AHB_READ addr=0x0000c08e resp=AHB_RESP_OKAY waits=0 rdata=0x03477ff7
# UVM_INFO ../src/mst/ahb_master_monitor.sv(117) @ 2025000: uvm_test_top.env.master_agent.mon [ahb_master_monitor] Beat[6] addr=0x0000c08e rdata=0x03477ff7 resp=AHB_RESP_OKAY
# UVM_INFO ../src/mst/ahb_master_driver.sv(332) @ 2045000: uvm_test_top.env.master_agent.drv [ahb_master_driver] Beat[7/16] addr=0x0000c090 trans=AHB_TRANS_SEQ resp=AHB_RESP_OKAY rdata=0x922fdc36
# UVM_INFO ../src/slv/ahb_slave_driver.sv(184) @ 2045000: uvm_test_top.env.slave_agent.drv [ahb_slave_driver] Beat AHB_READ addr=0x0000c090 resp=AHB_RESP_OKAY waits=1 rdata=0x922fdc36
# UVM_INFO ../src/mst/ahb_master_monitor.sv(117) @ 2045000: uvm_test_top.env.master_agent.mon [ahb_master_monitor] Beat[7] addr=0x0000c090 rdata=0x922fdc36 resp=AHB_RESP_OKAY
# UVM_INFO ../src/mst/ahb_master_driver.sv(332) @ 2055000: uvm_test_top.env.master_agent.drv [ahb_master_driver] Beat[8/16] addr=0x0000c092 trans=AHB_TRANS_SEQ resp=AHB_RESP_OKAY rdata=0x9c52b52d
# UVM_INFO ../src/slv/ahb_slave_driver.sv(184) @ 2055000: uvm_test_top.env.slave_agent.drv [ahb_slave_driver] Beat AHB_READ addr=0x0000c092 resp=AHB_RESP_OKAY waits=0 rdata=0x9c52b52d
# UVM_INFO ../src/mst/ahb_master_monitor.sv(117) @ 2055000: uvm_test_top.env.master_agent.mon [ahb_master_monitor] Beat[8] addr=0x0000c092 rdata=0x9c52b52d resp=AHB_RESP_OKAY
# UVM_INFO ../src/mst/ahb_master_driver.sv(332) @ 2065000: uvm_test_top.env.master_agent.drv [ahb_master_driver] Beat[9/16] addr=0x0000c094 trans=AHB_TRANS_SEQ resp=AHB_RESP_OKAY rdata=0xb79b03bf
# UVM_INFO ../src/slv/ahb_slave_driver.sv(184) @ 2065000: uvm_test_top.env.slave_agent.drv [ahb_slave_driver] Beat AHB_READ addr=0x0000c094 resp=AHB_RESP_OKAY waits=0 rdata=0xb79b03bf
# UVM_INFO ../src/mst/ahb_master_monitor.sv(117) @ 2065000: uvm_test_top.env.master_agent.mon [ahb_master_monitor] Beat[9] addr=0x0000c094 rdata=0xb79b03bf resp=AHB_RESP_OKAY
# UVM_INFO ../src/mst/ahb_master_driver.sv(332) @ 2075000: uvm_test_top.env.master_agent.drv [ahb_master_driver] Beat[10/16] addr=0x0000c096 trans=AHB_TRANS_SEQ resp=AHB_RESP_OKAY rdata=0x0c5a5481
# UVM_INFO ../src/slv/ahb_slave_driver.sv(184) @ 2075000: uvm_test_top.env.slave_agent.drv [ahb_slave_driver] Beat AHB_READ addr=0x0000c096 resp=AHB_RESP_OKAY waits=0 rdata=0x0c5a5481
# UVM_INFO ../src/mst/ahb_master_monitor.sv(117) @ 2075000: uvm_test_top.env.master_agent.mon [ahb_master_monitor] Beat[10] addr=0x0000c096 rdata=0x0c5a5481 resp=AHB_RESP_OKAY
# UVM_INFO ../src/mst/ahb_master_driver.sv(332) @ 2095000: uvm_test_top.env.master_agent.drv [ahb_master_driver] Beat[11/16] addr=0x0000c098 trans=AHB_TRANS_SEQ resp=AHB_RESP_OKAY rdata=0x6d288f9e
# UVM_INFO ../src/slv/ahb_slave_driver.sv(184) @ 2095000: uvm_test_top.env.slave_agent.drv [ahb_slave_driver] Beat AHB_READ addr=0x0000c098 resp=AHB_RESP_OKAY waits=1 rdata=0x6d288f9e
# UVM_INFO ../src/mst/ahb_master_monitor.sv(117) @ 2095000: uvm_test_top.env.master_agent.mon [ahb_master_monitor] Beat[11] addr=0x0000c098 rdata=0x6d288f9e resp=AHB_RESP_OKAY
# UVM_INFO ../src/mst/ahb_master_driver.sv(332) @ 2105000: uvm_test_top.env.master_agent.drv [ahb_master_driver] Beat[12/16] addr=0x0000c09a trans=AHB_TRANS_SEQ resp=AHB_RESP_OKAY rdata=0x397f6100
# UVM_INFO ../src/slv/ahb_slave_driver.sv(184) @ 2105000: uvm_test_top.env.slave_agent.drv [ahb_slave_driver] Beat AHB_READ addr=0x0000c09a resp=AHB_RESP_OKAY waits=0 rdata=0x397f6100
# UVM_INFO ../src/mst/ahb_master_monitor.sv(117) @ 2105000: uvm_test_top.env.master_agent.mon [ahb_master_monitor] Beat[12] addr=0x0000c09a rdata=0x397f6100 resp=AHB_RESP_OKAY
# UVM_INFO ../src/mst/ahb_master_driver.sv(332) @ 2125000: uvm_test_top.env.master_agent.drv [ahb_master_driver] Beat[13/16] addr=0x0000c09c trans=AHB_TRANS_SEQ resp=AHB_RESP_OKAY rdata=0xa3ba70b8
# UVM_INFO ../src/slv/ahb_slave_driver.sv(184) @ 2125000: uvm_test_top.env.slave_agent.drv [ahb_slave_driver] Beat AHB_READ addr=0x0000c09c resp=AHB_RESP_OKAY waits=1 rdata=0xa3ba70b8
# UVM_INFO ../src/mst/ahb_master_monitor.sv(117) @ 2125000: uvm_test_top.env.master_agent.mon [ahb_master_monitor] Beat[13] addr=0x0000c09c rdata=0xa3ba70b8 resp=AHB_RESP_OKAY
# UVM_INFO ../src/mst/ahb_master_driver.sv(332) @ 2145000: uvm_test_top.env.master_agent.drv [ahb_master_driver] Beat[14/16] addr=0x0000c09e trans=AHB_TRANS_SEQ resp=AHB_RESP_OKAY rdata=0x71940b10
# UVM_INFO ../src/slv/ahb_slave_driver.sv(184) @ 2145000: uvm_test_top.env.slave_agent.drv [ahb_slave_driver] Beat AHB_READ addr=0x0000c09e resp=AHB_RESP_OKAY waits=1 rdata=0x71940b10
# UVM_INFO ../src/mst/ahb_master_monitor.sv(117) @ 2145000: uvm_test_top.env.master_agent.mon [ahb_master_monitor] Beat[14] addr=0x0000c09e rdata=0x71940b10 resp=AHB_RESP_OKAY
# UVM_INFO ../src/mst/ahb_master_driver.sv(332) @ 2165000: uvm_test_top.env.master_agent.drv [ahb_master_driver] Beat[15/16] addr=0x0000c080 trans=AHB_TRANS_SEQ resp=AHB_RESP_OKAY rdata=0xae5e75db
# UVM_INFO ../src/mst/ahb_master_driver.sv(376) @ 2165000: uvm_test_top.env.master_agent.drv [ahb_master_driver] Transaction complete: AHB_READ 0x0000c082, 16 beats, burst=AHB_BURST_WRAP16
# UVM_INFO ../src/slv/ahb_slave_driver.sv(184) @ 2165000: uvm_test_top.env.slave_agent.drv [ahb_slave_driver] Beat AHB_READ addr=0x0000c080 resp=AHB_RESP_OKAY waits=1 rdata=0xae5e75db
# UVM_INFO ../src/mst/ahb_master_monitor.sv(117) @ 2165000: uvm_test_top.env.master_agent.mon [ahb_master_monitor] Beat[15] addr=0x0000c080 rdata=0xae5e75db resp=AHB_RESP_OKAY
# UVM_INFO ../src/mst/ahb_master_monitor.sv(220) @ 2165000: uvm_test_top.env.master_agent.mon [ahb_master_monitor] Observed [AHB_READ]: HADDR=0x0000c082, HBURST=AHB_BURST_WRAP16, HSIZE=AHB_SIZE_16B, 16 beats
# UVM_INFO ../src/env/ahb_coverage.sv(126) @ 2165000: uvm_test_top.env.master_cov [ahb_coverage] Sampled [AHB_READ]: burst=AHB_BURST_WRAP16 size=AHB_SIZE_16B beats=16 error=0
# UVM_INFO ../src/slv/ahb_slave_monitor.sv(197) @ 2165000: uvm_test_top.env.slave_agent.mon [ahb_slave_monitor] Observed [AHB_READ]: HADDR=0x0000c082, HBURST=AHB_BURST_WRAP16, HSIZE=AHB_SIZE_16B, 16 beats
# UVM_INFO ../src/env/ahb_scoreboard.sv(104) @ 2165000: uvm_test_top.env.scb [ahb_scoreboard] MATCH #6: [AHB_READ] HADDR=0x0000c082 AHB_BURST_WRAP16 16 beats
# UVM_INFO ../src/env/ahb_coverage.sv(126) @ 2165000: uvm_test_top.env.slave_cov [ahb_coverage] Sampled [AHB_READ]: burst=AHB_BURST_WRAP16 size=AHB_SIZE_16B beats=16 error=0
# UVM_INFO ../src/mst_seq/ahb_base_seq.sv(157) @ 2165000: uvm_test_top.env.master_agent.sqr@@seq [ahb_busy_seq] AHB_BURST_WRAP16 AHB_SIZE_16B beat 0 @0x0000c082 ok
# UVM_INFO ../src/mst_seq/ahb_base_seq.sv(157) @ 2165000: uvm_test_top.env.master_agent.sqr@@seq [ahb_busy_seq] AHB_BURST_WRAP16 AHB_SIZE_16B beat 1 @0x0000c084 ok
# UVM_INFO ../src/mst_seq/ahb_base_seq.sv(157) @ 2165000: uvm_test_top.env.master_agent.sqr@@seq [ahb_busy_seq] AHB_BURST_WRAP16 AHB_SIZE_16B beat 2 @0x0000c086 ok
# UVM_INFO ../src/mst_seq/ahb_base_seq.sv(157) @ 2165000: uvm_test_top.env.master_agent.sqr@@seq [ahb_busy_seq] AHB_BURST_WRAP16 AHB_SIZE_16B beat 3 @0x0000c088 ok
# UVM_INFO ../src/mst_seq/ahb_base_seq.sv(157) @ 2165000: uvm_test_top.env.master_agent.sqr@@seq [ahb_busy_seq] AHB_BURST_WRAP16 AHB_SIZE_16B beat 4 @0x0000c08a ok
# UVM_INFO ../src/mst_seq/ahb_base_seq.sv(157) @ 2165000: uvm_test_top.env.master_agent.sqr@@seq [ahb_busy_seq] AHB_BURST_WRAP16 AHB_SIZE_16B beat 5 @0x0000c08c ok
# UVM_INFO ../src/mst_seq/ahb_base_seq.sv(157) @ 2165000: uvm_test_top.env.master_agent.sqr@@seq [ahb_busy_seq] AHB_BURST_WRAP16 AHB_SIZE_16B beat 6 @0x0000c08e ok
# UVM_INFO ../src/mst_seq/ahb_base_seq.sv(157) @ 2165000: uvm_test_top.env.master_agent.sqr@@seq [ahb_busy_seq] AHB_BURST_WRAP16 AHB_SIZE_16B beat 7 @0x0000c090 ok
# UVM_INFO ../src/mst_seq/ahb_base_seq.sv(157) @ 2165000: uvm_test_top.env.master_agent.sqr@@seq [ahb_busy_seq] AHB_BURST_WRAP16 AHB_SIZE_16B beat 8 @0x0000c092 ok
# UVM_INFO ../src/mst_seq/ahb_base_seq.sv(157) @ 2165000: uvm_test_top.env.master_agent.sqr@@seq [ahb_busy_seq] AHB_BURST_WRAP16 AHB_SIZE_16B beat 9 @0x0000c094 ok
# UVM_INFO ../src/mst_seq/ahb_base_seq.sv(157) @ 2165000: uvm_test_top.env.master_agent.sqr@@seq [ahb_busy_seq] AHB_BURST_WRAP16 AHB_SIZE_16B beat 10 @0x0000c096 ok
# UVM_INFO ../src/mst_seq/ahb_base_seq.sv(157) @ 2165000: uvm_test_top.env.master_agent.sqr@@seq [ahb_busy_seq] AHB_BURST_WRAP16 AHB_SIZE_16B beat 11 @0x0000c098 ok
# UVM_INFO ../src/mst_seq/ahb_base_seq.sv(157) @ 2165000: uvm_test_top.env.master_agent.sqr@@seq [ahb_busy_seq] AHB_BURST_WRAP16 AHB_SIZE_16B beat 12 @0x0000c09a ok
# UVM_INFO ../src/mst_seq/ahb_base_seq.sv(157) @ 2165000: uvm_test_top.env.master_agent.sqr@@seq [ahb_busy_seq] AHB_BURST_WRAP16 AHB_SIZE_16B beat 13 @0x0000c09c ok
# UVM_INFO ../src/mst_seq/ahb_base_seq.sv(157) @ 2165000: uvm_test_top.env.master_agent.sqr@@seq [ahb_busy_seq] AHB_BURST_WRAP16 AHB_SIZE_16B beat 14 @0x0000c09e ok
# UVM_INFO ../src/mst_seq/ahb_base_seq.sv(157) @ 2165000: uvm_test_top.env.master_agent.sqr@@seq [ahb_busy_seq] AHB_BURST_WRAP16 AHB_SIZE_16B beat 15 @0x0000c080 ok
# UVM_INFO ../src/mst_seq/ahb_busy_seq.sv(105) @ 2165000: uvm_test_top.env.master_agent.sqr@@seq [ahb_busy_seq] AHB_BURST_INCR AHB_SIZE_8B @0x0000c0e9, 16 beats, retract=1
# UVM_INFO ../src/mst/ahb_master_driver.sv(85) @ 2165000: uvm_test_top.env.master_agent.drv [ahb_master_driver] Queueing [AHB_WRITE]: HADDR=0x0000c0e9, HBURST=AHB_BURST_INCR, HSIZE=AHB_SIZE_8B, 16 beats
# UVM_INFO ../src/mst/ahb_master_driver.sv(127) @ 2165000: uvm_test_top.env.master_agent.drv [ahb_master_driver] Driving [AHB_WRITE]: HADDR=0x0000c0e9, HBURST=AHB_BURST_INCR, HSIZE=AHB_SIZE_8B, 16 beats               
# UVM_INFO ../src/mst/ahb_master_driver.sv(332) @ 2215000: uvm_test_top.env.master_agent.drv [ahb_master_driver] Beat[0/16] addr=0x0000c0e9 trans=AHB_TRANS_NONSEQ resp=AHB_RESP_OKAY wdata=0x699b5d75
# UVM_INFO ../src/slv/ahb_slave_driver.sv(184) @ 2215000: uvm_test_top.env.slave_agent.drv [ahb_slave_driver] Beat AHB_WRITE addr=0x0000c0e9 resp=AHB_RESP_OKAY waits=2 wdata=0x699b5d75
# UVM_INFO ../src/mst/ahb_master_monitor.sv(117) @ 2215000: uvm_test_top.env.master_agent.mon [ahb_master_monitor] Beat[0] addr=0x0000c0e9 wdata=0x699b5d75 resp=AHB_RESP_OKAY
# UVM_INFO ../src/mst/ahb_master_driver.sv(332) @ 2245000: uvm_test_top.env.master_agent.drv [ahb_master_driver] Beat[1/16] addr=0x0000c0ea trans=AHB_TRANS_SEQ resp=AHB_RESP_OKAY wdata=0xeeb24527
# UVM_INFO ../src/slv/ahb_slave_driver.sv(184) @ 2245000: uvm_test_top.env.slave_agent.drv [ahb_slave_driver] Beat AHB_WRITE addr=0x0000c0ea resp=AHB_RESP_OKAY waits=2 wdata=0xeeb24527
# UVM_INFO ../src/mst/ahb_master_monitor.sv(117) @ 2245000: uvm_test_top.env.master_agent.mon [ahb_master_monitor] Beat[1] addr=0x0000c0ea wdata=0xeeb24527 resp=AHB_RESP_OKAY
# UVM_INFO ../src/mst/ahb_master_driver.sv(332) @ 2265000: uvm_test_top.env.master_agent.drv [ahb_master_driver] Beat[2/16] addr=0x0000c0eb trans=AHB_TRANS_SEQ resp=AHB_RESP_OKAY wdata=0x4f6cc4d0
# UVM_INFO ../src/slv/ahb_slave_driver.sv(184) @ 2265000: uvm_test_top.env.slave_agent.drv [ahb_slave_driver] Beat AHB_WRITE addr=0x0000c0eb resp=AHB_RESP_OKAY waits=1 wdata=0x4f6cc4d0
# UVM_INFO ../src/mst/ahb_master_monitor.sv(117) @ 2265000: uvm_test_top.env.master_agent.mon [ahb_master_monitor] Beat[2] addr=0x0000c0eb wdata=0x4f6cc4d0 resp=AHB_RESP_OKAY
# UVM_INFO ../src/mst/ahb_master_driver.sv(332) @ 2275000: uvm_test_top.env.master_agent.drv [ahb_master_driver] Beat[3/16] addr=0x0000c0ec trans=AHB_TRANS_SEQ resp=AHB_RESP_OKAY wdata=0xb29af0ea
# UVM_INFO ../src/slv/ahb_slave_driver.sv(184) @ 2275000: uvm_test_top.env.slave_agent.drv [ahb_slave_driver] Beat AHB_WRITE addr=0x0000c0ec resp=AHB_RESP_OKAY waits=0 wdata=0xb29af0ea
# UVM_INFO ../src/mst/ahb_master_monitor.sv(117) @ 2275000: uvm_test_top.env.master_agent.mon [ahb_master_monitor] Beat[3] addr=0x0000c0ec wdata=0xb29af0ea resp=AHB_RESP_OKAY
# UVM_INFO ../src/mst/ahb_master_driver.sv(332) @ 2305000: uvm_test_top.env.master_agent.drv [ahb_master_driver] Beat[4/16] addr=0x0000c0ed trans=AHB_TRANS_SEQ resp=AHB_RESP_OKAY wdata=0x9091bc21
# UVM_INFO ../src/slv/ahb_slave_driver.sv(184) @ 2305000: uvm_test_top.env.slave_agent.drv [ahb_slave_driver] Beat AHB_WRITE addr=0x0000c0ed resp=AHB_RESP_OKAY waits=1 wdata=0x9091bc21
# UVM_INFO ../src/mst/ahb_master_monitor.sv(117) @ 2305000: uvm_test_top.env.master_agent.mon [ahb_master_monitor] Beat[4] addr=0x0000c0ed wdata=0x9091bc21 resp=AHB_RESP_OKAY
# UVM_INFO ../src/mst/ahb_master_driver.sv(332) @ 2315000: uvm_test_top.env.master_agent.drv [ahb_master_driver] Beat[5/16] addr=0x0000c0ee trans=AHB_TRANS_SEQ resp=AHB_RESP_OKAY wdata=0x7969b9f4
# UVM_INFO ../src/slv/ahb_slave_driver.sv(184) @ 2315000: uvm_test_top.env.slave_agent.drv [ahb_slave_driver] Beat AHB_WRITE addr=0x0000c0ee resp=AHB_RESP_OKAY waits=0 wdata=0x7969b9f4
# UVM_INFO ../src/mst/ahb_master_monitor.sv(117) @ 2315000: uvm_test_top.env.master_agent.mon [ahb_master_monitor] Beat[5] addr=0x0000c0ee wdata=0x7969b9f4 resp=AHB_RESP_OKAY
# UVM_INFO ../src/mst/ahb_master_driver.sv(332) @ 2355000: uvm_test_top.env.master_agent.drv [ahb_master_driver] Beat[6/16] addr=0x0000c0ef trans=AHB_TRANS_SEQ resp=AHB_RESP_OKAY wdata=0xac75118b
# UVM_INFO ../src/slv/ahb_slave_driver.sv(184) @ 2355000: uvm_test_top.env.slave_agent.drv [ahb_slave_driver] Beat AHB_WRITE addr=0x0000c0ef resp=AHB_RESP_OKAY waits=2 wdata=0xac75118b
# UVM_INFO ../src/mst/ahb_master_monitor.sv(117) @ 2355000: uvm_test_top.env.master_agent.mon [ahb_master_monitor] Beat[6] addr=0x0000c0ef wdata=0xac75118b resp=AHB_RESP_OKAY
# UVM_INFO ../src/mst/ahb_master_driver.sv(332) @ 2385000: uvm_test_top.env.master_agent.drv [ahb_master_driver] Beat[7/16] addr=0x0000c0f0 trans=AHB_TRANS_SEQ resp=AHB_RESP_OKAY wdata=0x7f64bf05
# UVM_INFO ../src/slv/ahb_slave_driver.sv(184) @ 2385000: uvm_test_top.env.slave_agent.drv [ahb_slave_driver] Beat AHB_WRITE addr=0x0000c0f0 resp=AHB_RESP_OKAY waits=2 wdata=0x7f64bf05
# UVM_INFO ../src/mst/ahb_master_monitor.sv(117) @ 2385000: uvm_test_top.env.master_agent.mon [ahb_master_monitor] Beat[7] addr=0x0000c0f0 wdata=0x7f64bf05 resp=AHB_RESP_OKAY
# UVM_INFO ../src/mst/ahb_master_driver.sv(332) @ 2405000: uvm_test_top.env.master_agent.drv [ahb_master_driver] Beat[8/16] addr=0x0000c0f1 trans=AHB_TRANS_SEQ resp=AHB_RESP_OKAY wdata=0xf7fc6efb
# UVM_INFO ../src/slv/ahb_slave_driver.sv(184) @ 2405000: uvm_test_top.env.slave_agent.drv [ahb_slave_driver] Beat AHB_WRITE addr=0x0000c0f1 resp=AHB_RESP_OKAY waits=1 wdata=0xf7fc6efb
# UVM_INFO ../src/mst/ahb_master_monitor.sv(117) @ 2405000: uvm_test_top.env.master_agent.mon [ahb_master_monitor] Beat[8] addr=0x0000c0f1 wdata=0xf7fc6efb resp=AHB_RESP_OKAY
# UVM_INFO ../src/mst/ahb_master_driver.sv(332) @ 2425000: uvm_test_top.env.master_agent.drv [ahb_master_driver] Beat[9/16] addr=0x0000c0f2 trans=AHB_TRANS_SEQ resp=AHB_RESP_OKAY wdata=0xe0d63636
# UVM_INFO ../src/slv/ahb_slave_driver.sv(184) @ 2425000: uvm_test_top.env.slave_agent.drv [ahb_slave_driver] Beat AHB_WRITE addr=0x0000c0f2 resp=AHB_RESP_OKAY waits=1 wdata=0xe0d63636
# UVM_INFO ../src/mst/ahb_master_monitor.sv(117) @ 2425000: uvm_test_top.env.master_agent.mon [ahb_master_monitor] Beat[9] addr=0x0000c0f2 wdata=0xe0d63636 resp=AHB_RESP_OKAY
# UVM_INFO ../src/mst/ahb_master_driver.sv(332) @ 2445000: uvm_test_top.env.master_agent.drv [ahb_master_driver] Beat[10/16] addr=0x0000c0f3 trans=AHB_TRANS_SEQ resp=AHB_RESP_OKAY wdata=0xc6005783
# UVM_INFO ../src/slv/ahb_slave_driver.sv(184) @ 2445000: uvm_test_top.env.slave_agent.drv [ahb_slave_driver] Beat AHB_WRITE addr=0x0000c0f3 resp=AHB_RESP_OKAY waits=1 wdata=0xc6005783
# UVM_INFO ../src/mst/ahb_master_monitor.sv(117) @ 2445000: uvm_test_top.env.master_agent.mon [ahb_master_monitor] Beat[10] addr=0x0000c0f3 wdata=0xc6005783 resp=AHB_RESP_OKAY
# UVM_INFO ../src/mst/ahb_master_driver.sv(332) @ 2455000: uvm_test_top.env.master_agent.drv [ahb_master_driver] Beat[11/16] addr=0x0000c0f4 trans=AHB_TRANS_SEQ resp=AHB_RESP_OKAY wdata=0x2cfcc568
# UVM_INFO ../src/slv/ahb_slave_driver.sv(184) @ 2455000: uvm_test_top.env.slave_agent.drv [ahb_slave_driver] Beat AHB_WRITE addr=0x0000c0f4 resp=AHB_RESP_OKAY waits=0 wdata=0x2cfcc568
# UVM_INFO ../src/mst/ahb_master_monitor.sv(117) @ 2455000: uvm_test_top.env.master_agent.mon [ahb_master_monitor] Beat[11] addr=0x0000c0f4 wdata=0x2cfcc568 resp=AHB_RESP_OKAY
# UVM_INFO ../src/mst/ahb_master_driver.sv(332) @ 2495000: uvm_test_top.env.master_agent.drv [ahb_master_driver] Beat[12/16] addr=0x0000c0f5 trans=AHB_TRANS_SEQ resp=AHB_RESP_OKAY wdata=0x3d33030f
# UVM_INFO ../src/slv/ahb_slave_driver.sv(184) @ 2495000: uvm_test_top.env.slave_agent.drv [ahb_slave_driver] Beat AHB_WRITE addr=0x0000c0f5 resp=AHB_RESP_OKAY waits=0 wdata=0x3d33030f
# UVM_INFO ../src/mst/ahb_master_monitor.sv(117) @ 2495000: uvm_test_top.env.master_agent.mon [ahb_master_monitor] Beat[12] addr=0x0000c0f5 wdata=0x3d33030f resp=AHB_RESP_OKAY
# UVM_INFO ../src/mst/ahb_master_driver.sv(332) @ 2555000: uvm_test_top.env.master_agent.drv [ahb_master_driver] Beat[13/16] addr=0x0000c0f6 trans=AHB_TRANS_SEQ resp=AHB_RESP_OKAY wdata=0x67aaeb33
# UVM_INFO ../src/slv/ahb_slave_driver.sv(184) @ 2555000: uvm_test_top.env.slave_agent.drv [ahb_slave_driver] Beat AHB_WRITE addr=0x0000c0f6 resp=AHB_RESP_OKAY waits=2 wdata=0x67aaeb33
# UVM_INFO ../src/mst/ahb_master_monitor.sv(117) @ 2555000: uvm_test_top.env.master_agent.mon [ahb_master_monitor] Beat[13] addr=0x0000c0f6 wdata=0x67aaeb33 resp=AHB_RESP_OKAY
# UVM_INFO ../src/mst/ahb_master_driver.sv(332) @ 2575000: uvm_test_top.env.master_agent.drv [ahb_master_driver] Beat[14/16] addr=0x0000c0f7 trans=AHB_TRANS_SEQ resp=AHB_RESP_OKAY wdata=0xd4ed5856
# UVM_INFO ../src/slv/ahb_slave_driver.sv(184) @ 2575000: uvm_test_top.env.slave_agent.drv [ahb_slave_driver] Beat AHB_WRITE addr=0x0000c0f7 resp=AHB_RESP_OKAY waits=1 wdata=0xd4ed5856
# UVM_INFO ../src/mst/ahb_master_monitor.sv(117) @ 2575000: uvm_test_top.env.master_agent.mon [ahb_master_monitor] Beat[14] addr=0x0000c0f7 wdata=0xd4ed5856 resp=AHB_RESP_OKAY
# UVM_INFO ../src/mst/ahb_master_driver.sv(332) @ 2585000: uvm_test_top.env.master_agent.drv [ahb_master_driver] Beat[15/16] addr=0x0000c0f8 trans=AHB_TRANS_SEQ resp=AHB_RESP_OKAY wdata=0xf336daff
# UVM_INFO ../src/mst/ahb_master_driver.sv(376) @ 2585000: uvm_test_top.env.master_agent.drv [ahb_master_driver] Transaction complete: AHB_WRITE 0x0000c0e9, 16 beats, burst=AHB_BURST_INCR
# UVM_INFO ../src/slv/ahb_slave_driver.sv(184) @ 2585000: uvm_test_top.env.slave_agent.drv [ahb_slave_driver] Beat AHB_WRITE addr=0x0000c0f8 resp=AHB_RESP_OKAY waits=0 wdata=0xf336daff
# UVM_INFO ../src/mst/ahb_master_monitor.sv(117) @ 2585000: uvm_test_top.env.master_agent.mon [ahb_master_monitor] Beat[15] addr=0x0000c0f8 wdata=0xf336daff resp=AHB_RESP_OKAY
# UVM_INFO ../src/mst/ahb_master_monitor.sv(220) @ 2585000: uvm_test_top.env.master_agent.mon [ahb_master_monitor] Observed [AHB_WRITE]: HADDR=0x0000c0e9, HBURST=AHB_BURST_INCR, HSIZE=AHB_SIZE_8B, 16 beats
# UVM_INFO ../src/env/ahb_coverage.sv(126) @ 2585000: uvm_test_top.env.master_cov [ahb_coverage] Sampled [AHB_WRITE]: burst=AHB_BURST_INCR size=AHB_SIZE_8B beats=16 error=0
# UVM_INFO ../src/slv/ahb_slave_monitor.sv(197) @ 2585000: uvm_test_top.env.slave_agent.mon [ahb_slave_monitor] Observed [AHB_WRITE]: HADDR=0x0000c0e9, HBURST=AHB_BURST_INCR, HSIZE=AHB_SIZE_8B, 16 beats
# UVM_INFO ../src/env/ahb_scoreboard.sv(104) @ 2585000: uvm_test_top.env.scb [ahb_scoreboard] MATCH #7: [AHB_WRITE] HADDR=0x0000c0e9 AHB_BURST_INCR 16 beats
# UVM_INFO ../src/env/ahb_coverage.sv(126) @ 2585000: uvm_test_top.env.slave_cov [ahb_coverage] Sampled [AHB_WRITE]: burst=AHB_BURST_INCR size=AHB_SIZE_8B beats=16 error=0
# UVM_INFO ../src/mst/ahb_master_driver.sv(85) @ 2585000: uvm_test_top.env.master_agent.drv [ahb_master_driver] Queueing [AHB_READ]: HADDR=0x0000c0e9, HBURST=AHB_BURST_INCR, HSIZE=AHB_SIZE_8B, 16 beats
# UVM_INFO ../src/mst/ahb_master_driver.sv(127) @ 2585000: uvm_test_top.env.master_agent.drv [ahb_master_driver] Driving [AHB_READ]: HADDR=0x0000c0e9, HBURST=AHB_BURST_INCR, HSIZE=AHB_SIZE_8B, 16 beats               
# UVM_INFO ../src/mst/ahb_master_driver.sv(332) @ 2625000: uvm_test_top.env.master_agent.drv [ahb_master_driver] Beat[0/16] addr=0x0000c0e9 trans=AHB_TRANS_NONSEQ resp=AHB_RESP_OKAY rdata=0x699b5d75
# UVM_INFO ../src/slv/ahb_slave_driver.sv(184) @ 2625000: uvm_test_top.env.slave_agent.drv [ahb_slave_driver] Beat AHB_READ addr=0x0000c0e9 resp=AHB_RESP_OKAY waits=1 rdata=0x699b5d75
# UVM_INFO ../src/mst/ahb_master_monitor.sv(117) @ 2625000: uvm_test_top.env.master_agent.mon [ahb_master_monitor] Beat[0] addr=0x0000c0e9 rdata=0x699b5d75 resp=AHB_RESP_OKAY
# UVM_INFO ../src/mst/ahb_master_driver.sv(332) @ 2635000: uvm_test_top.env.master_agent.drv [ahb_master_driver] Beat[1/16] addr=0x0000c0ea trans=AHB_TRANS_SEQ resp=AHB_RESP_OKAY rdata=0xeeb24527
# UVM_INFO ../src/slv/ahb_slave_driver.sv(184) @ 2635000: uvm_test_top.env.slave_agent.drv [ahb_slave_driver] Beat AHB_READ addr=0x0000c0ea resp=AHB_RESP_OKAY waits=0 rdata=0xeeb24527
# UVM_INFO ../src/mst/ahb_master_monitor.sv(117) @ 2635000: uvm_test_top.env.master_agent.mon [ahb_master_monitor] Beat[1] addr=0x0000c0ea rdata=0xeeb24527 resp=AHB_RESP_OKAY
# UVM_INFO ../src/mst/ahb_master_driver.sv(332) @ 2655000: uvm_test_top.env.master_agent.drv [ahb_master_driver] Beat[2/16] addr=0x0000c0eb trans=AHB_TRANS_SEQ resp=AHB_RESP_OKAY rdata=0x4f6cc4d0
# UVM_INFO ../src/slv/ahb_slave_driver.sv(184) @ 2655000: uvm_test_top.env.slave_agent.drv [ahb_slave_driver] Beat AHB_READ addr=0x0000c0eb resp=AHB_RESP_OKAY waits=1 rdata=0x4f6cc4d0
# UVM_INFO ../src/mst/ahb_master_monitor.sv(117) @ 2655000: uvm_test_top.env.master_agent.mon [ahb_master_monitor] Beat[2] addr=0x0000c0eb rdata=0x4f6cc4d0 resp=AHB_RESP_OKAY
# UVM_INFO ../src/mst/ahb_master_driver.sv(332) @ 2665000: uvm_test_top.env.master_agent.drv [ahb_master_driver] Beat[3/16] addr=0x0000c0ec trans=AHB_TRANS_SEQ resp=AHB_RESP_OKAY rdata=0xb29af0ea
# UVM_INFO ../src/slv/ahb_slave_driver.sv(184) @ 2665000: uvm_test_top.env.slave_agent.drv [ahb_slave_driver] Beat AHB_READ addr=0x0000c0ec resp=AHB_RESP_OKAY waits=0 rdata=0xb29af0ea
# UVM_INFO ../src/mst/ahb_master_monitor.sv(117) @ 2665000: uvm_test_top.env.master_agent.mon [ahb_master_monitor] Beat[3] addr=0x0000c0ec rdata=0xb29af0ea resp=AHB_RESP_OKAY
# UVM_INFO ../src/mst/ahb_master_driver.sv(332) @ 2675000: uvm_test_top.env.master_agent.drv [ahb_master_driver] Beat[4/16] addr=0x0000c0ed trans=AHB_TRANS_SEQ resp=AHB_RESP_OKAY rdata=0x9091bc21
# UVM_INFO ../src/slv/ahb_slave_driver.sv(184) @ 2675000: uvm_test_top.env.slave_agent.drv [ahb_slave_driver] Beat AHB_READ addr=0x0000c0ed resp=AHB_RESP_OKAY waits=0 rdata=0x9091bc21
# UVM_INFO ../src/mst/ahb_master_monitor.sv(117) @ 2675000: uvm_test_top.env.master_agent.mon [ahb_master_monitor] Beat[4] addr=0x0000c0ed rdata=0x9091bc21 resp=AHB_RESP_OKAY
# UVM_INFO ../src/mst/ahb_master_driver.sv(332) @ 2705000: uvm_test_top.env.master_agent.drv [ahb_master_driver] Beat[5/16] addr=0x0000c0ee trans=AHB_TRANS_SEQ resp=AHB_RESP_OKAY rdata=0x7969b9f4
# UVM_INFO ../src/slv/ahb_slave_driver.sv(184) @ 2705000: uvm_test_top.env.slave_agent.drv [ahb_slave_driver] Beat AHB_READ addr=0x0000c0ee resp=AHB_RESP_OKAY waits=2 rdata=0x7969b9f4
# UVM_INFO ../src/mst/ahb_master_monitor.sv(117) @ 2705000: uvm_test_top.env.master_agent.mon [ahb_master_monitor] Beat[5] addr=0x0000c0ee rdata=0x7969b9f4 resp=AHB_RESP_OKAY
# UVM_INFO ../src/mst/ahb_master_driver.sv(332) @ 2715000: uvm_test_top.env.master_agent.drv [ahb_master_driver] Beat[6/16] addr=0x0000c0ef trans=AHB_TRANS_SEQ resp=AHB_RESP_OKAY rdata=0xac75118b
# UVM_INFO ../src/slv/ahb_slave_driver.sv(184) @ 2715000: uvm_test_top.env.slave_agent.drv [ahb_slave_driver] Beat AHB_READ addr=0x0000c0ef resp=AHB_RESP_OKAY waits=0 rdata=0xac75118b
# UVM_INFO ../src/mst/ahb_master_monitor.sv(117) @ 2715000: uvm_test_top.env.master_agent.mon [ahb_master_monitor] Beat[6] addr=0x0000c0ef rdata=0xac75118b resp=AHB_RESP_OKAY
# UVM_INFO ../src/mst/ahb_master_driver.sv(332) @ 2745000: uvm_test_top.env.master_agent.drv [ahb_master_driver] Beat[7/16] addr=0x0000c0f0 trans=AHB_TRANS_SEQ resp=AHB_RESP_OKAY rdata=0x7f64bf05
# UVM_INFO ../src/slv/ahb_slave_driver.sv(184) @ 2745000: uvm_test_top.env.slave_agent.drv [ahb_slave_driver] Beat AHB_READ addr=0x0000c0f0 resp=AHB_RESP_OKAY waits=2 rdata=0x7f64bf05
# UVM_INFO ../src/mst/ahb_master_monitor.sv(117) @ 2745000: uvm_test_top.env.master_agent.mon [ahb_master_monitor] Beat[7] addr=0x0000c0f0 rdata=0x7f64bf05 resp=AHB_RESP_OKAY
# UVM_INFO ../src/mst/ahb_master_driver.sv(332) @ 2755000: uvm_test_top.env.master_agent.drv [ahb_master_driver] Beat[8/16] addr=0x0000c0f1 trans=AHB_TRANS_SEQ resp=AHB_RESP_OKAY rdata=0xf7fc6efb
# UVM_INFO ../src/slv/ahb_slave_driver.sv(184) @ 2755000: uvm_test_top.env.slave_agent.drv [ahb_slave_driver] Beat AHB_READ addr=0x0000c0f1 resp=AHB_RESP_OKAY waits=0 rdata=0xf7fc6efb
# UVM_INFO ../src/mst/ahb_master_monitor.sv(117) @ 2755000: uvm_test_top.env.master_agent.mon [ahb_master_monitor] Beat[8] addr=0x0000c0f1 rdata=0xf7fc6efb resp=AHB_RESP_OKAY
# UVM_INFO ../src/mst/ahb_master_driver.sv(332) @ 2785000: uvm_test_top.env.master_agent.drv [ahb_master_driver] Beat[9/16] addr=0x0000c0f2 trans=AHB_TRANS_SEQ resp=AHB_RESP_OKAY rdata=0xe0d63636
# UVM_INFO ../src/slv/ahb_slave_driver.sv(184) @ 2785000: uvm_test_top.env.slave_agent.drv [ahb_slave_driver] Beat AHB_READ addr=0x0000c0f2 resp=AHB_RESP_OKAY waits=2 rdata=0xe0d63636
# UVM_INFO ../src/mst/ahb_master_monitor.sv(117) @ 2785000: uvm_test_top.env.master_agent.mon [ahb_master_monitor] Beat[9] addr=0x0000c0f2 rdata=0xe0d63636 resp=AHB_RESP_OKAY
# UVM_INFO ../src/mst/ahb_master_driver.sv(332) @ 2805000: uvm_test_top.env.master_agent.drv [ahb_master_driver] Beat[10/16] addr=0x0000c0f3 trans=AHB_TRANS_SEQ resp=AHB_RESP_OKAY rdata=0xc6005783
# UVM_INFO ../src/slv/ahb_slave_driver.sv(184) @ 2805000: uvm_test_top.env.slave_agent.drv [ahb_slave_driver] Beat AHB_READ addr=0x0000c0f3 resp=AHB_RESP_OKAY waits=1 rdata=0xc6005783
# UVM_INFO ../src/mst/ahb_master_monitor.sv(117) @ 2805000: uvm_test_top.env.master_agent.mon [ahb_master_monitor] Beat[10] addr=0x0000c0f3 rdata=0xc6005783 resp=AHB_RESP_OKAY
# UVM_INFO ../src/mst/ahb_master_driver.sv(332) @ 2835000: uvm_test_top.env.master_agent.drv [ahb_master_driver] Beat[11/16] addr=0x0000c0f4 trans=AHB_TRANS_SEQ resp=AHB_RESP_OKAY rdata=0x2cfcc568
# UVM_INFO ../src/slv/ahb_slave_driver.sv(184) @ 2835000: uvm_test_top.env.slave_agent.drv [ahb_slave_driver] Beat AHB_READ addr=0x0000c0f4 resp=AHB_RESP_OKAY waits=2 rdata=0x2cfcc568
# UVM_INFO ../src/mst/ahb_master_monitor.sv(117) @ 2835000: uvm_test_top.env.master_agent.mon [ahb_master_monitor] Beat[11] addr=0x0000c0f4 rdata=0x2cfcc568 resp=AHB_RESP_OKAY
# UVM_INFO ../src/mst/ahb_master_driver.sv(332) @ 2845000: uvm_test_top.env.master_agent.drv [ahb_master_driver] Beat[12/16] addr=0x0000c0f5 trans=AHB_TRANS_SEQ resp=AHB_RESP_OKAY rdata=0x3d33030f
# UVM_INFO ../src/slv/ahb_slave_driver.sv(184) @ 2845000: uvm_test_top.env.slave_agent.drv [ahb_slave_driver] Beat AHB_READ addr=0x0000c0f5 resp=AHB_RESP_OKAY waits=0 rdata=0x3d33030f
# UVM_INFO ../src/mst/ahb_master_monitor.sv(117) @ 2845000: uvm_test_top.env.master_agent.mon [ahb_master_monitor] Beat[12] addr=0x0000c0f5 rdata=0x3d33030f resp=AHB_RESP_OKAY
# UVM_INFO ../src/mst/ahb_master_driver.sv(332) @ 2875000: uvm_test_top.env.master_agent.drv [ahb_master_driver] Beat[13/16] addr=0x0000c0f6 trans=AHB_TRANS_SEQ resp=AHB_RESP_OKAY rdata=0x67aaeb33
# UVM_INFO ../src/slv/ahb_slave_driver.sv(184) @ 2875000: uvm_test_top.env.slave_agent.drv [ahb_slave_driver] Beat AHB_READ addr=0x0000c0f6 resp=AHB_RESP_OKAY waits=2 rdata=0x67aaeb33
# UVM_INFO ../src/mst/ahb_master_monitor.sv(117) @ 2875000: uvm_test_top.env.master_agent.mon [ahb_master_monitor] Beat[13] addr=0x0000c0f6 rdata=0x67aaeb33 resp=AHB_RESP_OKAY
# UVM_INFO ../src/mst/ahb_master_driver.sv(332) @ 2885000: uvm_test_top.env.master_agent.drv [ahb_master_driver] Beat[14/16] addr=0x0000c0f7 trans=AHB_TRANS_SEQ resp=AHB_RESP_OKAY rdata=0xd4ed5856
# UVM_INFO ../src/slv/ahb_slave_driver.sv(184) @ 2885000: uvm_test_top.env.slave_agent.drv [ahb_slave_driver] Beat AHB_READ addr=0x0000c0f7 resp=AHB_RESP_OKAY waits=0 rdata=0xd4ed5856
# UVM_INFO ../src/mst/ahb_master_monitor.sv(117) @ 2885000: uvm_test_top.env.master_agent.mon [ahb_master_monitor] Beat[14] addr=0x0000c0f7 rdata=0xd4ed5856 resp=AHB_RESP_OKAY
# UVM_INFO ../src/mst/ahb_master_driver.sv(332) @ 2895000: uvm_test_top.env.master_agent.drv [ahb_master_driver] Beat[15/16] addr=0x0000c0f8 trans=AHB_TRANS_SEQ resp=AHB_RESP_OKAY rdata=0xf336daff
# UVM_INFO ../src/mst/ahb_master_driver.sv(376) @ 2895000: uvm_test_top.env.master_agent.drv [ahb_master_driver] Transaction complete: AHB_READ 0x0000c0e9, 16 beats, burst=AHB_BURST_INCR
# UVM_INFO ../src/slv/ahb_slave_driver.sv(184) @ 2895000: uvm_test_top.env.slave_agent.drv [ahb_slave_driver] Beat AHB_READ addr=0x0000c0f8 resp=AHB_RESP_OKAY waits=0 rdata=0xf336daff
# UVM_INFO ../src/slv/ahb_slave_monitor.sv(197) @ 2895000: uvm_test_top.env.slave_agent.mon [ahb_slave_monitor] Observed [AHB_READ]: HADDR=0x0000c0e9, HBURST=AHB_BURST_INCR, HSIZE=AHB_SIZE_8B, 16 beats
# UVM_INFO ../src/env/ahb_coverage.sv(126) @ 2895000: uvm_test_top.env.slave_cov [ahb_coverage] Sampled [AHB_READ]: burst=AHB_BURST_INCR size=AHB_SIZE_8B beats=16 error=0
# UVM_INFO ../src/mst/ahb_master_monitor.sv(117) @ 2895000: uvm_test_top.env.master_agent.mon [ahb_master_monitor] Beat[15] addr=0x0000c0f8 rdata=0xf336daff resp=AHB_RESP_OKAY
# UVM_INFO ../src/mst/ahb_master_monitor.sv(220) @ 2895000: uvm_test_top.env.master_agent.mon [ahb_master_monitor] Observed [AHB_READ]: HADDR=0x0000c0e9, HBURST=AHB_BURST_INCR, HSIZE=AHB_SIZE_8B, 16 beats
# UVM_INFO ../src/env/ahb_coverage.sv(126) @ 2895000: uvm_test_top.env.master_cov [ahb_coverage] Sampled [AHB_READ]: burst=AHB_BURST_INCR size=AHB_SIZE_8B beats=16 error=0
# UVM_INFO ../src/env/ahb_scoreboard.sv(104) @ 2895000: uvm_test_top.env.scb [ahb_scoreboard] MATCH #8: [AHB_READ] HADDR=0x0000c0e9 AHB_BURST_INCR 16 beats
# UVM_INFO ../src/mst_seq/ahb_base_seq.sv(157) @ 2895000: uvm_test_top.env.master_agent.sqr@@seq [ahb_busy_seq] AHB_BURST_INCR AHB_SIZE_8B beat 0 @0x0000c0e9 ok
# UVM_INFO ../src/mst_seq/ahb_base_seq.sv(157) @ 2895000: uvm_test_top.env.master_agent.sqr@@seq [ahb_busy_seq] AHB_BURST_INCR AHB_SIZE_8B beat 1 @0x0000c0ea ok
# UVM_INFO ../src/mst_seq/ahb_base_seq.sv(157) @ 2895000: uvm_test_top.env.master_agent.sqr@@seq [ahb_busy_seq] AHB_BURST_INCR AHB_SIZE_8B beat 2 @0x0000c0eb ok
# UVM_INFO ../src/mst_seq/ahb_base_seq.sv(157) @ 2895000: uvm_test_top.env.master_agent.sqr@@seq [ahb_busy_seq] AHB_BURST_INCR AHB_SIZE_8B beat 3 @0x0000c0ec ok
# UVM_INFO ../src/mst_seq/ahb_base_seq.sv(157) @ 2895000: uvm_test_top.env.master_agent.sqr@@seq [ahb_busy_seq] AHB_BURST_INCR AHB_SIZE_8B beat 4 @0x0000c0ed ok
# UVM_INFO ../src/mst_seq/ahb_base_seq.sv(157) @ 2895000: uvm_test_top.env.master_agent.sqr@@seq [ahb_busy_seq] AHB_BURST_INCR AHB_SIZE_8B beat 5 @0x0000c0ee ok
# UVM_INFO ../src/mst_seq/ahb_base_seq.sv(157) @ 2895000: uvm_test_top.env.master_agent.sqr@@seq [ahb_busy_seq] AHB_BURST_INCR AHB_SIZE_8B beat 6 @0x0000c0ef ok
# UVM_INFO ../src/mst_seq/ahb_base_seq.sv(157) @ 2895000: uvm_test_top.env.master_agent.sqr@@seq [ahb_busy_seq] AHB_BURST_INCR AHB_SIZE_8B beat 7 @0x0000c0f0 ok
# UVM_INFO ../src/mst_seq/ahb_base_seq.sv(157) @ 2895000: uvm_test_top.env.master_agent.sqr@@seq [ahb_busy_seq] AHB_BURST_INCR AHB_SIZE_8B beat 8 @0x0000c0f1 ok
# UVM_INFO ../src/mst_seq/ahb_base_seq.sv(157) @ 2895000: uvm_test_top.env.master_agent.sqr@@seq [ahb_busy_seq] AHB_BURST_INCR AHB_SIZE_8B beat 9 @0x0000c0f2 ok
# UVM_INFO ../src/mst_seq/ahb_base_seq.sv(157) @ 2895000: uvm_test_top.env.master_agent.sqr@@seq [ahb_busy_seq] AHB_BURST_INCR AHB_SIZE_8B beat 10 @0x0000c0f3 ok
# UVM_INFO ../src/mst_seq/ahb_base_seq.sv(157) @ 2895000: uvm_test_top.env.master_agent.sqr@@seq [ahb_busy_seq] AHB_BURST_INCR AHB_SIZE_8B beat 11 @0x0000c0f4 ok
# UVM_INFO ../src/mst_seq/ahb_base_seq.sv(157) @ 2895000: uvm_test_top.env.master_agent.sqr@@seq [ahb_busy_seq] AHB_BURST_INCR AHB_SIZE_8B beat 12 @0x0000c0f5 ok
# UVM_INFO ../src/mst_seq/ahb_base_seq.sv(157) @ 2895000: uvm_test_top.env.master_agent.sqr@@seq [ahb_busy_seq] AHB_BURST_INCR AHB_SIZE_8B beat 13 @0x0000c0f6 ok
# UVM_INFO ../src/mst_seq/ahb_base_seq.sv(157) @ 2895000: uvm_test_top.env.master_agent.sqr@@seq [ahb_busy_seq] AHB_BURST_INCR AHB_SIZE_8B beat 14 @0x0000c0f7 ok
# UVM_INFO ../src/mst_seq/ahb_base_seq.sv(157) @ 2895000: uvm_test_top.env.master_agent.sqr@@seq [ahb_busy_seq] AHB_BURST_INCR AHB_SIZE_8B beat 15 @0x0000c0f8 ok
# UVM_INFO ../src/mst_seq/ahb_busy_seq.sv(105) @ 2895000: uvm_test_top.env.master_agent.sqr@@seq [ahb_busy_seq] AHB_BURST_INCR4 AHB_SIZE_32B @0x0000c110, 4 beats, retract=0
# UVM_INFO ../src/mst/ahb_master_driver.sv(85) @ 2895000: uvm_test_top.env.master_agent.drv [ahb_master_driver] Queueing [AHB_WRITE]: HADDR=0x0000c110, HBURST=AHB_BURST_INCR4, HSIZE=AHB_SIZE_32B, 4 beats
# UVM_INFO ../src/mst/ahb_master_driver.sv(127) @ 2895000: uvm_test_top.env.master_agent.drv [ahb_master_driver] Driving [AHB_WRITE]: HADDR=0x0000c110, HBURST=AHB_BURST_INCR4, HSIZE=AHB_SIZE_32B, 4 beats               
# UVM_INFO ../src/mst/ahb_master_driver.sv(332) @ 2935000: uvm_test_top.env.master_agent.drv [ahb_master_driver] Beat[0/4] addr=0x0000c110 trans=AHB_TRANS_NONSEQ resp=AHB_RESP_OKAY wdata=0xdfef7c50
# UVM_INFO ../src/slv/ahb_slave_driver.sv(184) @ 2935000: uvm_test_top.env.slave_agent.drv [ahb_slave_driver] Beat AHB_WRITE addr=0x0000c110 resp=AHB_RESP_OKAY waits=1 wdata=0xdfef7c50
# UVM_INFO ../src/mst/ahb_master_monitor.sv(117) @ 2935000: uvm_test_top.env.master_agent.mon [ahb_master_monitor] Beat[0] addr=0x0000c110 wdata=0xdfef7c50 resp=AHB_RESP_OKAY
# UVM_INFO ../src/mst/ahb_master_driver.sv(332) @ 2985000: uvm_test_top.env.master_agent.drv [ahb_master_driver] Beat[1/4] addr=0x0000c114 trans=AHB_TRANS_SEQ resp=AHB_RESP_OKAY wdata=0x01844f10
# UVM_INFO ../src/slv/ahb_slave_driver.sv(184) @ 2985000: uvm_test_top.env.slave_agent.drv [ahb_slave_driver] Beat AHB_WRITE addr=0x0000c114 resp=AHB_RESP_OKAY waits=2 wdata=0x01844f10
# UVM_INFO ../src/mst/ahb_master_monitor.sv(117) @ 2985000: uvm_test_top.env.master_agent.mon [ahb_master_monitor] Beat[1] addr=0x0000c114 wdata=0x01844f10 resp=AHB_RESP_OKAY
# UVM_INFO ../src/mst/ahb_master_driver.sv(332) @ 3025000: uvm_test_top.env.master_agent.drv [ahb_master_driver] Beat[2/4] addr=0x0000c118 trans=AHB_TRANS_SEQ resp=AHB_RESP_OKAY wdata=0x85e87c59
# UVM_INFO ../src/slv/ahb_slave_driver.sv(184) @ 3025000: uvm_test_top.env.slave_agent.drv [ahb_slave_driver] Beat AHB_WRITE addr=0x0000c118 resp=AHB_RESP_OKAY waits=0 wdata=0x85e87c59
# UVM_INFO ../src/mst/ahb_master_monitor.sv(117) @ 3025000: uvm_test_top.env.master_agent.mon [ahb_master_monitor] Beat[2] addr=0x0000c118 wdata=0x85e87c59 resp=AHB_RESP_OKAY
# UVM_INFO ../src/mst/ahb_master_driver.sv(332) @ 3075000: uvm_test_top.env.master_agent.drv [ahb_master_driver] Beat[3/4] addr=0x0000c11c trans=AHB_TRANS_SEQ resp=AHB_RESP_OKAY wdata=0x68e77da5
# UVM_INFO ../src/mst/ahb_master_driver.sv(376) @ 3075000: uvm_test_top.env.master_agent.drv [ahb_master_driver] Transaction complete: AHB_WRITE 0x0000c110, 4 beats, burst=AHB_BURST_INCR4
# UVM_INFO ../src/slv/ahb_slave_driver.sv(184) @ 3075000: uvm_test_top.env.slave_agent.drv [ahb_slave_driver] Beat AHB_WRITE addr=0x0000c11c resp=AHB_RESP_OKAY waits=2 wdata=0x68e77da5
# UVM_INFO ../src/slv/ahb_slave_monitor.sv(197) @ 3075000: uvm_test_top.env.slave_agent.mon [ahb_slave_monitor] Observed [AHB_WRITE]: HADDR=0x0000c110, HBURST=AHB_BURST_INCR4, HSIZE=AHB_SIZE_32B, 4 beats
# UVM_INFO ../src/env/ahb_coverage.sv(126) @ 3075000: uvm_test_top.env.slave_cov [ahb_coverage] Sampled [AHB_WRITE]: burst=AHB_BURST_INCR4 size=AHB_SIZE_32B beats=4 error=0
# UVM_INFO ../src/mst/ahb_master_monitor.sv(117) @ 3075000: uvm_test_top.env.master_agent.mon [ahb_master_monitor] Beat[3] addr=0x0000c11c wdata=0x68e77da5 resp=AHB_RESP_OKAY
# UVM_INFO ../src/mst/ahb_master_monitor.sv(220) @ 3075000: uvm_test_top.env.master_agent.mon [ahb_master_monitor] Observed [AHB_WRITE]: HADDR=0x0000c110, HBURST=AHB_BURST_INCR4, HSIZE=AHB_SIZE_32B, 4 beats
# UVM_INFO ../src/env/ahb_coverage.sv(126) @ 3075000: uvm_test_top.env.master_cov [ahb_coverage] Sampled [AHB_WRITE]: burst=AHB_BURST_INCR4 size=AHB_SIZE_32B beats=4 error=0
# UVM_INFO ../src/env/ahb_scoreboard.sv(104) @ 3075000: uvm_test_top.env.scb [ahb_scoreboard] MATCH #9: [AHB_WRITE] HADDR=0x0000c110 AHB_BURST_INCR4 4 beats
# UVM_INFO ../src/mst/ahb_master_driver.sv(85) @ 3075000: uvm_test_top.env.master_agent.drv [ahb_master_driver] Queueing [AHB_READ]: HADDR=0x0000c110, HBURST=AHB_BURST_INCR4, HSIZE=AHB_SIZE_32B, 4 beats
# UVM_INFO ../src/mst/ahb_master_driver.sv(127) @ 3075000: uvm_test_top.env.master_agent.drv [ahb_master_driver] Driving [AHB_READ]: HADDR=0x0000c110, HBURST=AHB_BURST_INCR4, HSIZE=AHB_SIZE_32B, 4 beats               
# UVM_INFO ../src/mst/ahb_master_driver.sv(332) @ 3115000: uvm_test_top.env.master_agent.drv [ahb_master_driver] Beat[0/4] addr=0x0000c110 trans=AHB_TRANS_NONSEQ resp=AHB_RESP_OKAY rdata=0xdfef7c50
# UVM_INFO ../src/slv/ahb_slave_driver.sv(184) @ 3115000: uvm_test_top.env.slave_agent.drv [ahb_slave_driver] Beat AHB_READ addr=0x0000c110 resp=AHB_RESP_OKAY waits=1 rdata=0xdfef7c50
# UVM_INFO ../src/mst/ahb_master_monitor.sv(117) @ 3115000: uvm_test_top.env.master_agent.mon [ahb_master_monitor] Beat[0] addr=0x0000c110 rdata=0xdfef7c50 resp=AHB_RESP_OKAY
# UVM_INFO ../src/mst/ahb_master_driver.sv(332) @ 3125000: uvm_test_top.env.master_agent.drv [ahb_master_driver] Beat[1/4] addr=0x0000c114 trans=AHB_TRANS_SEQ resp=AHB_RESP_OKAY rdata=0x01844f10
# UVM_INFO ../src/slv/ahb_slave_driver.sv(184) @ 3125000: uvm_test_top.env.slave_agent.drv [ahb_slave_driver] Beat AHB_READ addr=0x0000c114 resp=AHB_RESP_OKAY waits=0 rdata=0x01844f10
# UVM_INFO ../src/mst/ahb_master_monitor.sv(117) @ 3125000: uvm_test_top.env.master_agent.mon [ahb_master_monitor] Beat[1] addr=0x0000c114 rdata=0x01844f10 resp=AHB_RESP_OKAY
# UVM_INFO ../src/mst/ahb_master_driver.sv(332) @ 3135000: uvm_test_top.env.master_agent.drv [ahb_master_driver] Beat[2/4] addr=0x0000c118 trans=AHB_TRANS_SEQ resp=AHB_RESP_OKAY rdata=0x85e87c59
# UVM_INFO ../src/slv/ahb_slave_driver.sv(184) @ 3135000: uvm_test_top.env.slave_agent.drv [ahb_slave_driver] Beat AHB_READ addr=0x0000c118 resp=AHB_RESP_OKAY waits=0 rdata=0x85e87c59
# UVM_INFO ../src/mst/ahb_master_monitor.sv(117) @ 3135000: uvm_test_top.env.master_agent.mon [ahb_master_monitor] Beat[2] addr=0x0000c118 rdata=0x85e87c59 resp=AHB_RESP_OKAY
# UVM_INFO ../src/mst/ahb_master_driver.sv(332) @ 3165000: uvm_test_top.env.master_agent.drv [ahb_master_driver] Beat[3/4] addr=0x0000c11c trans=AHB_TRANS_SEQ resp=AHB_RESP_OKAY rdata=0x68e77da5
# UVM_INFO ../src/mst/ahb_master_driver.sv(376) @ 3165000: uvm_test_top.env.master_agent.drv [ahb_master_driver] Transaction complete: AHB_READ 0x0000c110, 4 beats, burst=AHB_BURST_INCR4
# UVM_INFO ../src/slv/ahb_slave_driver.sv(184) @ 3165000: uvm_test_top.env.slave_agent.drv [ahb_slave_driver] Beat AHB_READ addr=0x0000c11c resp=AHB_RESP_OKAY waits=2 rdata=0x68e77da5
# UVM_INFO ../src/mst/ahb_master_monitor.sv(117) @ 3165000: uvm_test_top.env.master_agent.mon [ahb_master_monitor] Beat[3] addr=0x0000c11c rdata=0x68e77da5 resp=AHB_RESP_OKAY
# UVM_INFO ../src/mst/ahb_master_monitor.sv(220) @ 3165000: uvm_test_top.env.master_agent.mon [ahb_master_monitor] Observed [AHB_READ]: HADDR=0x0000c110, HBURST=AHB_BURST_INCR4, HSIZE=AHB_SIZE_32B, 4 beats
# UVM_INFO ../src/env/ahb_coverage.sv(126) @ 3165000: uvm_test_top.env.master_cov [ahb_coverage] Sampled [AHB_READ]: burst=AHB_BURST_INCR4 size=AHB_SIZE_32B beats=4 error=0
# UVM_INFO ../src/slv/ahb_slave_monitor.sv(197) @ 3165000: uvm_test_top.env.slave_agent.mon [ahb_slave_monitor] Observed [AHB_READ]: HADDR=0x0000c110, HBURST=AHB_BURST_INCR4, HSIZE=AHB_SIZE_32B, 4 beats
# UVM_INFO ../src/env/ahb_scoreboard.sv(104) @ 3165000: uvm_test_top.env.scb [ahb_scoreboard] MATCH #10: [AHB_READ] HADDR=0x0000c110 AHB_BURST_INCR4 4 beats
# UVM_INFO ../src/env/ahb_coverage.sv(126) @ 3165000: uvm_test_top.env.slave_cov [ahb_coverage] Sampled [AHB_READ]: burst=AHB_BURST_INCR4 size=AHB_SIZE_32B beats=4 error=0
# UVM_INFO ../src/mst_seq/ahb_base_seq.sv(157) @ 3165000: uvm_test_top.env.master_agent.sqr@@seq [ahb_busy_seq] AHB_BURST_INCR4 AHB_SIZE_32B beat 0 @0x0000c110 ok
# UVM_INFO ../src/mst_seq/ahb_base_seq.sv(157) @ 3165000: uvm_test_top.env.master_agent.sqr@@seq [ahb_busy_seq] AHB_BURST_INCR4 AHB_SIZE_32B beat 1 @0x0000c114 ok
# UVM_INFO ../src/mst_seq/ahb_base_seq.sv(157) @ 3165000: uvm_test_top.env.master_agent.sqr@@seq [ahb_busy_seq] AHB_BURST_INCR4 AHB_SIZE_32B beat 2 @0x0000c118 ok
# UVM_INFO ../src/mst_seq/ahb_base_seq.sv(157) @ 3165000: uvm_test_top.env.master_agent.sqr@@seq [ahb_busy_seq] AHB_BURST_INCR4 AHB_SIZE_32B beat 3 @0x0000c11c ok
# UVM_INFO ../src/mst_seq/ahb_busy_seq.sv(105) @ 3165000: uvm_test_top.env.master_agent.sqr@@seq [ahb_busy_seq] AHB_BURST_INCR8 AHB_SIZE_8B @0x0000c160, 8 beats, retract=0
# UVM_INFO ../src/mst/ahb_master_driver.sv(85) @ 3165000: uvm_test_top.env.master_agent.drv [ahb_master_driver] Queueing [AHB_WRITE]: HADDR=0x0000c160, HBURST=AHB_BURST_INCR8, HSIZE=AHB_SIZE_8B, 8 beats
# UVM_INFO ../src/mst/ahb_master_driver.sv(127) @ 3165000: uvm_test_top.env.master_agent.drv [ahb_master_driver] Driving [AHB_WRITE]: HADDR=0x0000c160, HBURST=AHB_BURST_INCR8, HSIZE=AHB_SIZE_8B, 8 beats               
# UVM_INFO ../src/mst/ahb_master_driver.sv(332) @ 3215000: uvm_test_top.env.master_agent.drv [ahb_master_driver] Beat[0/8] addr=0x0000c160 trans=AHB_TRANS_NONSEQ resp=AHB_RESP_OKAY wdata=0x71149225
# UVM_INFO ../src/slv/ahb_slave_driver.sv(184) @ 3215000: uvm_test_top.env.slave_agent.drv [ahb_slave_driver] Beat AHB_WRITE addr=0x0000c160 resp=AHB_RESP_OKAY waits=2 wdata=0x71149225
# UVM_INFO ../src/mst/ahb_master_monitor.sv(117) @ 3215000: uvm_test_top.env.master_agent.mon [ahb_master_monitor] Beat[0] addr=0x0000c160 wdata=0x71149225 resp=AHB_RESP_OKAY
# UVM_INFO ../src/mst/ahb_master_driver.sv(332) @ 3265000: uvm_test_top.env.master_agent.drv [ahb_master_driver] Beat[1/8] addr=0x0000c161 trans=AHB_TRANS_SEQ resp=AHB_RESP_OKAY wdata=0x09c2ca4e
# UVM_INFO ../src/slv/ahb_slave_driver.sv(184) @ 3265000: uvm_test_top.env.slave_agent.drv [ahb_slave_driver] Beat AHB_WRITE addr=0x0000c161 resp=AHB_RESP_OKAY waits=2 wdata=0x09c2ca4e
# UVM_INFO ../src/mst/ahb_master_monitor.sv(117) @ 3265000: uvm_test_top.env.master_agent.mon [ahb_master_monitor] Beat[1] addr=0x0000c161 wdata=0x09c2ca4e resp=AHB_RESP_OKAY
# UVM_INFO ../src/mst/ahb_master_driver.sv(332) @ 3315000: uvm_test_top.env.master_agent.drv [ahb_master_driver] Beat[2/8] addr=0x0000c162 trans=AHB_TRANS_SEQ resp=AHB_RESP_OKAY wdata=0x3a6b61c1
# UVM_INFO ../src/slv/ahb_slave_driver.sv(184) @ 3315000: uvm_test_top.env.slave_agent.drv [ahb_slave_driver] Beat AHB_WRITE addr=0x0000c162 resp=AHB_RESP_OKAY waits=1 wdata=0x3a6b61c1
# UVM_INFO ../src/mst/ahb_master_monitor.sv(117) @ 3315000: uvm_test_top.env.master_agent.mon [ahb_master_monitor] Beat[2] addr=0x0000c162 wdata=0x3a6b61c1 resp=AHB_RESP_OKAY
# UVM_INFO ../src/mst/ahb_master_driver.sv(332) @ 3345000: uvm_test_top.env.master_agent.drv [ahb_master_driver] Beat[3/8] addr=0x0000c163 trans=AHB_TRANS_SEQ resp=AHB_RESP_OKAY wdata=0x47a9108b
# UVM_INFO ../src/slv/ahb_slave_driver.sv(184) @ 3345000: uvm_test_top.env.slave_agent.drv [ahb_slave_driver] Beat AHB_WRITE addr=0x0000c163 resp=AHB_RESP_OKAY waits=0 wdata=0x47a9108b
# UVM_INFO ../src/mst/ahb_master_monitor.sv(117) @ 3345000: uvm_test_top.env.master_agent.mon [ahb_master_monitor] Beat[3] addr=0x0000c163 wdata=0x47a9108b resp=AHB_RESP_OKAY
# UVM_INFO ../src/mst/ahb_master_driver.sv(332) @ 3385000: uvm_test_top.env.master_agent.drv [ahb_master_driver] Beat[4/8] addr=0x0000c164 trans=AHB_TRANS_SEQ resp=AHB_RESP_OKAY wdata=0xc8f9030b
# UVM_INFO ../src/slv/ahb_slave_driver.sv(184) @ 3385000: uvm_test_top.env.slave_agent.drv [ahb_slave_driver] Beat AHB_WRITE addr=0x0000c164 resp=AHB_RESP_OKAY waits=1 wdata=0xc8f9030b
# UVM_INFO ../src/mst/ahb_master_monitor.sv(117) @ 3385000: uvm_test_top.env.master_agent.mon [ahb_master_monitor] Beat[4] addr=0x0000c164 wdata=0xc8f9030b resp=AHB_RESP_OKAY
# UVM_INFO ../src/mst/ahb_master_driver.sv(332) @ 3415000: uvm_test_top.env.master_agent.drv [ahb_master_driver] Beat[5/8] addr=0x0000c165 trans=AHB_TRANS_SEQ resp=AHB_RESP_OKAY wdata=0x9138583c
# UVM_INFO ../src/slv/ahb_slave_driver.sv(184) @ 3415000: uvm_test_top.env.slave_agent.drv [ahb_slave_driver] Beat AHB_WRITE addr=0x0000c165 resp=AHB_RESP_OKAY waits=0 wdata=0x9138583c
# UVM_INFO ../src/mst/ahb_master_monitor.sv(117) @ 3415000: uvm_test_top.env.master_agent.mon [ahb_master_monitor] Beat[5] addr=0x0000c165 wdata=0x9138583c resp=AHB_RESP_OKAY
# UVM_INFO ../src/mst/ahb_master_driver.sv(332) @ 3465000: uvm_test_top.env.master_agent.drv [ahb_master_driver] Beat[6/8] addr=0x0000c166 trans=AHB_TRANS_SEQ resp=AHB_RESP_OKAY wdata=0x660381e9
# UVM_INFO ../src/slv/ahb_slave_driver.sv(184) @ 3465000: uvm_test_top.env.slave_agent.drv [ahb_slave_driver] Beat AHB_WRITE addr=0x0000c166 resp=AHB_RESP_OKAY waits=1 wdata=0x660381e9
# UVM_INFO ../src/mst/ahb_master_monitor.sv(117) @ 3465000: uvm_test_top.env.master_agent.mon [ahb_master_monitor] Beat[6] addr=0x0000c166 wdata=0x660381e9 resp=AHB_RESP_OKAY
# UVM_INFO ../src/mst/ahb_master_driver.sv(332) @ 3495000: uvm_test_top.env.master_agent.drv [ahb_master_driver] Beat[7/8] addr=0x0000c167 trans=AHB_TRANS_SEQ resp=AHB_RESP_OKAY wdata=0x94b946a3
# UVM_INFO ../src/mst/ahb_master_driver.sv(376) @ 3495000: uvm_test_top.env.master_agent.drv [ahb_master_driver] Transaction complete: AHB_WRITE 0x0000c160, 8 beats, burst=AHB_BURST_INCR8
# UVM_INFO ../src/slv/ahb_slave_driver.sv(184) @ 3495000: uvm_test_top.env.slave_agent.drv [ahb_slave_driver] Beat AHB_WRITE addr=0x0000c167 resp=AHB_RESP_OKAY waits=0 wdata=0x94b946a3
