# vsim -c -coverage -sv_seed 40764572 "+UVM_TESTNAME=ahb_wait_state_test" "+UVM_VERBOSITY=UVM_HIGH" "+DUMP_VCD" -l ./report/logs/ahb_wait_state_test_run_2_seed_40764572.log -do "coverage save -onexit ./report/coverage/ahb_wait_state_test_run_2_seed_40764572.ucdb; run -all; quit -f" opt_tb_top 
# Start time: 12:20:47 on Aug 06,2026
# //  Questa Sim-64
# //  Version 10.6b linux_x86_64 May 25 2017
# //
# //  Copyright 1991-2017 Mentor Graphics Corporation
# //  All Rights Reserved.
# //
# //  QuestaSim and its associated documentation contain trade
# //  secrets and commercial or financial information that are the property of
# //  Mentor Graphics Corporation and are privileged, confidential,
# //  and exempt from disclosure under the Freedom of Information Act,
# //  5 U.S.C. Section 552. Furthermore, this information
# //  is prohibited from disclosure under the Trade Secrets Act,
# //  18 U.S.C. Section 1905.
# //
# Loading sv_std.std
# Loading work.ahb_if(fast)
# Loading mtiUvm.uvm_pkg
# Loading work.ahb_pkg(fast)
# Loading work.ahb_seq_pkg(fast)
# Loading work.ahb_test_pkg(fast)
# Loading work.tb_top(fast)
# Loading work.ahb_if(fast)
# Loading work.ahb_sva(fast)
# Loading mtiUvm.questa_uvm_pkg(fast)
# Loading /cadtools/mentor/Questa_10.6b/questasim/uvm-1.1d/linux_x86_64/uvm_dpi.so
# coverage save -onexit ./report/coverage/ahb_wait_state_test_run_2_seed_40764572.ucdb
#  run -all
# ----------------------------------------------------------------
# UVM-1.1d
# (C) 2007-2013 Mentor Graphics Corporation
# (C) 2007-2013 Cadence Design Systems, Inc.
# (C) 2006-2013 Synopsys, Inc.
# (C) 2011-2013 Cypress Semiconductor Corp.
# ----------------------------------------------------------------
# 
#   ***********       IMPORTANT RELEASE NOTES         ************
# 
#   You are using a version of the UVM library that has been compiled
#   with `UVM_NO_DEPRECATED undefined.
#   See http://www.eda.org/svdb/view.php?id=3313 for more details.
# 
#   You are using a version of the UVM library that has been compiled
#   with `UVM_OBJECT_MUST_HAVE_CONSTRUCTOR undefined.
#   See http://www.eda.org/svdb/view.php?id=3770 for more details.
# 
#       (Specify +UVM_NO_RELNOTES to turn off this notice)
# 
# UVM_INFO verilog_src/questa_uvm_pkg-1.2/src/questa_uvm_pkg.sv(215) @ 0: reporter [Questa UVM] QUESTA_UVM-1.2.3
# UVM_INFO verilog_src/questa_uvm_pkg-1.2/src/questa_uvm_pkg.sv(217) @ 0: reporter [Questa UVM]  questa_uvm::init(+struct)
# UVM_INFO ../src/tb_top.sv(126) @ 0: reporter [TB_TOP] Virtual interface set in config_db
# UVM_INFO @ 0: reporter [RNTST] Running test ahb_wait_state_test...
# UVM_INFO ../src/tb_top.sv(140) @ 0: reporter [TB_TOP] Waveform VCD dumping enabled (ahb_lite_vip.vcd)
# UVM_INFO ../src/env/ahb_vip_env.sv(64) @ 0: uvm_test_top.env [ahb_vip_env] slave_vif not set - reusing master_vif (passthrough mode)
# UVM_INFO ../src/env/ahb_vip_env.sv(72) @ 0: uvm_test_top.env [ahb_vip_env] Scoreboard created
# UVM_INFO ../src/env/ahb_vip_env.sv(78) @ 0: uvm_test_top.env [ahb_vip_env] Coverage collectors created
# UVM_INFO ../src/mst/ahb_master_agent.sv(61) @ 0: uvm_test_top.env.master_agent [ahb_master_agent] ACTIVE mode - driver + sequencer created
# UVM_INFO ../src/slv/ahb_slave_agent.sv(64) @ 0: uvm_test_top.env.slave_agent [ahb_slave_agent] ACTIVE mode - driver + sequencer created (    auto responses)
# UVM_INFO ../src/env/ahb_vip_env.sv(92) @ 0: uvm_test_top.env [ahb_vip_env] Scoreboard connected: master_mon.ap -> scb, slave_mon.ap -> scb
# UVM_INFO ../src/env/ahb_vip_env.sv(102) @ 0: uvm_test_top.env [ahb_vip_env] Coverage connected: master_mon.ap/trans_ap -> master_cov, slave_mon.ap/trans_ap -> slave_cov
# UVM_INFO @ 0: reporter [UVMTOP] UVM testbench topology:
# ---------------------------------------------------------------
# Name                       Type                     Size  Value
# ---------------------------------------------------------------
# uvm_test_top               ahb_wait_state_test      -     @475 
#   env                      ahb_vip_env              -     @490 
#     master_agent           ahb_master_agent         -     @505 
#       drv                  ahb_master_driver        -     @570 
#         rsp_port           uvm_analysis_port        -     @585 
#         seq_item_port      uvm_seq_item_pull_port   -     @577 
#       mon                  ahb_master_monitor       -     @563 
#         ap                 uvm_analysis_port        -     @704 
#         trans_ap           uvm_analysis_port        -     @712 
#       sqr                  ahb_master_sequencer     -     @593 
#         rsp_export         uvm_analysis_export      -     @600 
#         seq_item_export    uvm_seq_item_pull_imp    -     @694 
#         arbitration_queue  array                    0     -    
#         lock_queue         array                    0     -    
#         num_last_reqs      integral                 32    'd1  
#         num_last_rsps      integral                 32    'd1  
#     master_cov             ahb_coverage             -     @526 
#       analysis_imp         uvm_analysis_imp         -     @533 
#       trans_export         uvm_analysis_imp_trans   -     @726 
#     scb                    ahb_scoreboard           -     @519 
#       master_export        uvm_analysis_imp_master  -     @734 
#       slave_export         uvm_analysis_imp_slave   -     @742 
#     slave_agent            ahb_slave_agent          -     @512 
#       drv                  ahb_slave_driver         -     @764 
#         rsp_port           uvm_analysis_port        -     @779 
#         seq_item_port      uvm_seq_item_pull_port   -     @771 
#       mon                  ahb_slave_monitor        -     @757 
#         ap                 uvm_analysis_port        -     @898 
#         trans_ap           uvm_analysis_port        -     @906 
#       sqr                  ahb_slave_sequencer      -     @787 
#         rsp_export         uvm_analysis_export      -     @794 
#         seq_item_export    uvm_seq_item_pull_imp    -     @888 
#         arbitration_queue  array                    0     -    
#         lock_queue         array                    0     -    
#         num_last_reqs      integral                 32    'd1  
#         num_last_rsps      integral                 32    'd1  
#     slave_cov              ahb_coverage             -     @541 
#       analysis_imp         uvm_analysis_imp         -     @548 
#       trans_export         uvm_analysis_imp_trans   -     @920 
# ---------------------------------------------------------------
# 
# UVM_INFO verilog_src/questa_uvm_pkg-1.2/src/questa_uvm_pkg.sv(277) @ 0: reporter [Questa UVM] End Of Elaboration
# UVM_INFO ../src/mst_seq/ahb_wait_state_seq.sv(113) @ 0: uvm_test_top.env.master_agent.sqr@@seq [ahb_wait_state_seq] Starting wait-state sweep: 24 bursts from 0x0000d000, up to 16 wait states per beat
# UVM_INFO ../src/mst_seq/ahb_wait_state_seq.sv(166) @ 0: uvm_test_top.env.master_agent.sqr@@seq [ahb_wait_state_seq] AHB_BURST_SINGLE AHB_SIZE_8B @0x0000d02c, 1 beats, waits=0:0, pipelined=0
# UVM_INFO ../src/mst/ahb_master_driver.sv(183) @ 5000: uvm_test_top.env.master_agent.drv [ahb_master_driver] Flushed pending transactions (reset)
# UVM_INFO ../src/tb_top.sv(48) @ 95000: reporter [TB_TOP] Reset de-asserted
# UVM_INFO ../src/slv/ahb_slave_driver.sv(63) @ 95000: uvm_test_top.env.slave_agent.drv [ahb_slave_driver] Reset deasserted - slave driver active (    auto mode)
# UVM_INFO ../src/mst/ahb_master_driver.sv(72) @ 95000: uvm_test_top.env.master_agent.drv [ahb_master_driver] Reset deasserted - master driver active
# UVM_INFO ../src/mst/ahb_master_monitor.sv(81) @ 95000: uvm_test_top.env.master_agent.mon [ahb_master_monitor] Reset deasserted - master monitor active
# UVM_INFO ../src/slv/ahb_slave_monitor.sv(79) @ 95000: uvm_test_top.env.slave_agent.mon [ahb_slave_monitor] Reset deasserted - slave monitor active
# UVM_INFO ../src/mst/ahb_master_driver.sv(85) @ 95000: uvm_test_top.env.master_agent.drv [ahb_master_driver] Queueing [AHB_WRITE]: HADDR=0x0000d02c, HBURST=AHB_BURST_SINGLE, HSIZE=AHB_SIZE_8B, 1 beats
# UVM_INFO ../src/mst/ahb_master_driver.sv(127) @ 95000: uvm_test_top.env.master_agent.drv [ahb_master_driver] Driving [AHB_WRITE]: HADDR=0x0000d02c, HBURST=AHB_BURST_SINGLE, HSIZE=AHB_SIZE_8B, 1 beats               
# UVM_INFO ../src/mst/ahb_master_driver.sv(332) @ 115000: uvm_test_top.env.master_agent.drv [ahb_master_driver] Beat[0/1] addr=0x0000d02c trans=AHB_TRANS_NONSEQ resp=AHB_RESP_OKAY wdata=0x41f212be
# UVM_INFO ../src/mst/ahb_master_driver.sv(376) @ 115000: uvm_test_top.env.master_agent.drv [ahb_master_driver] Transaction complete: AHB_WRITE 0x0000d02c, 1 beats, burst=AHB_BURST_SINGLE
# UVM_INFO ../src/slv/ahb_slave_driver.sv(184) @ 115000: uvm_test_top.env.slave_agent.drv [ahb_slave_driver] Beat AHB_WRITE addr=0x0000d02c resp=AHB_RESP_OKAY waits=0 wdata=0x41f212be
# UVM_INFO ../src/slv/ahb_slave_monitor.sv(212) @ 115000: uvm_test_top.env.slave_agent.mon [ahb_slave_monitor] Observed [AHB_WRITE]: HADDR=0x0000d02c, HBURST=AHB_BURST_SINGLE, HSIZE=AHB_SIZE_8B, 1 beats
# UVM_INFO ../src/env/ahb_coverage.sv(174) @ 115000: uvm_test_top.env.slave_cov [ahb_coverage] Sampled [AHB_WRITE]: burst=AHB_BURST_SINGLE size=AHB_SIZE_8B beats=1 error=0
# UVM_INFO ../src/mst/ahb_master_monitor.sv(128) @ 115000: uvm_test_top.env.master_agent.mon [ahb_master_monitor] Beat[0] addr=0x0000d02c wdata=0x41f212be resp=AHB_RESP_OKAY
# UVM_INFO ../src/mst/ahb_master_monitor.sv(231) @ 115000: uvm_test_top.env.master_agent.mon [ahb_master_monitor] Observed [AHB_WRITE]: HADDR=0x0000d02c, HBURST=AHB_BURST_SINGLE, HSIZE=AHB_SIZE_8B, 1 beats
# UVM_INFO ../src/env/ahb_coverage.sv(174) @ 115000: uvm_test_top.env.master_cov [ahb_coverage] Sampled [AHB_WRITE]: burst=AHB_BURST_SINGLE size=AHB_SIZE_8B beats=1 error=0
# UVM_INFO ../src/env/ahb_scoreboard.sv(104) @ 115000: uvm_test_top.env.scb [ahb_scoreboard] MATCH #1: [AHB_WRITE] HADDR=0x0000d02c AHB_BURST_SINGLE 1 beats
# UVM_INFO ../src/mst/ahb_master_driver.sv(85) @ 115000: uvm_test_top.env.master_agent.drv [ahb_master_driver] Queueing [AHB_READ]: HADDR=0x0000d02c, HBURST=AHB_BURST_SINGLE, HSIZE=AHB_SIZE_8B, 1 beats
# UVM_INFO ../src/mst/ahb_master_driver.sv(127) @ 115000: uvm_test_top.env.master_agent.drv [ahb_master_driver] Driving [AHB_READ]: HADDR=0x0000d02c, HBURST=AHB_BURST_SINGLE, HSIZE=AHB_SIZE_8B, 1 beats               
# UVM_INFO ../src/mst/ahb_master_driver.sv(332) @ 145000: uvm_test_top.env.master_agent.drv [ahb_master_driver] Beat[0/1] addr=0x0000d02c trans=AHB_TRANS_NONSEQ resp=AHB_RESP_OKAY rdata=0x41f212be
# UVM_INFO ../src/mst/ahb_master_driver.sv(376) @ 145000: uvm_test_top.env.master_agent.drv [ahb_master_driver] Transaction complete: AHB_READ 0x0000d02c, 1 beats, burst=AHB_BURST_SINGLE
# UVM_INFO ../src/slv/ahb_slave_driver.sv(184) @ 145000: uvm_test_top.env.slave_agent.drv [ahb_slave_driver] Beat AHB_READ addr=0x0000d02c resp=AHB_RESP_OKAY waits=0 rdata=0x41f212be
# UVM_INFO ../src/mst/ahb_master_monitor.sv(128) @ 145000: uvm_test_top.env.master_agent.mon [ahb_master_monitor] Beat[0] addr=0x0000d02c rdata=0x41f212be resp=AHB_RESP_OKAY
# UVM_INFO ../src/mst/ahb_master_monitor.sv(231) @ 145000: uvm_test_top.env.master_agent.mon [ahb_master_monitor] Observed [AHB_READ]: HADDR=0x0000d02c, HBURST=AHB_BURST_SINGLE, HSIZE=AHB_SIZE_8B, 1 beats
# UVM_INFO ../src/env/ahb_coverage.sv(174) @ 145000: uvm_test_top.env.master_cov [ahb_coverage] Sampled [AHB_READ]: burst=AHB_BURST_SINGLE size=AHB_SIZE_8B beats=1 error=0
# UVM_INFO ../src/slv/ahb_slave_monitor.sv(212) @ 145000: uvm_test_top.env.slave_agent.mon [ahb_slave_monitor] Observed [AHB_READ]: HADDR=0x0000d02c, HBURST=AHB_BURST_SINGLE, HSIZE=AHB_SIZE_8B, 1 beats
# UVM_INFO ../src/env/ahb_scoreboard.sv(104) @ 145000: uvm_test_top.env.scb [ahb_scoreboard] MATCH #2: [AHB_READ] HADDR=0x0000d02c AHB_BURST_SINGLE 1 beats
# UVM_INFO ../src/env/ahb_coverage.sv(174) @ 145000: uvm_test_top.env.slave_cov [ahb_coverage] Sampled [AHB_READ]: burst=AHB_BURST_SINGLE size=AHB_SIZE_8B beats=1 error=0
# UVM_INFO ../src/mst_seq/ahb_base_seq.sv(157) @ 145000: uvm_test_top.env.master_agent.sqr@@seq [ahb_wait_state_seq] AHB_BURST_SINGLE AHB_SIZE_8B beat 0 @0x0000d02c ok
# UVM_INFO ../src/mst_seq/ahb_wait_state_seq.sv(166) @ 145000: uvm_test_top.env.master_agent.sqr@@seq [ahb_wait_state_seq] AHB_BURST_WRAP4 AHB_SIZE_32B @0x0000d06c, 4 beats, waits=1:1, pipelined=1
# UVM_INFO ../src/mst/ahb_master_driver.sv(85) @ 145000: uvm_test_top.env.master_agent.drv [ahb_master_driver] Queueing [AHB_WRITE]: HADDR=0x0000d06c, HBURST=AHB_BURST_WRAP4, HSIZE=AHB_SIZE_32B, 4 beats
# UVM_INFO ../src/mst/ahb_master_driver.sv(127) @ 145000: uvm_test_top.env.master_agent.drv [ahb_master_driver] Driving [AHB_WRITE]: HADDR=0x0000d06c, HBURST=AHB_BURST_WRAP4, HSIZE=AHB_SIZE_32B, 4 beats               
# UVM_INFO ../src/mst/ahb_master_driver.sv(85) @ 145000: uvm_test_top.env.master_agent.drv [ahb_master_driver] Queueing [AHB_READ]: HADDR=0x0000d06c, HBURST=AHB_BURST_WRAP4, HSIZE=AHB_SIZE_32B, 4 beats
# UVM_INFO ../src/mst/ahb_master_driver.sv(332) @ 185000: uvm_test_top.env.master_agent.drv [ahb_master_driver] Beat[0/4] addr=0x0000d06c trans=AHB_TRANS_NONSEQ resp=AHB_RESP_OKAY wdata=0x7299cea7
# UVM_INFO ../src/slv/ahb_slave_driver.sv(184) @ 185000: uvm_test_top.env.slave_agent.drv [ahb_slave_driver] Beat AHB_WRITE addr=0x0000d06c resp=AHB_RESP_OKAY waits=1 wdata=0x7299cea7
# UVM_INFO ../src/mst/ahb_master_monitor.sv(128) @ 185000: uvm_test_top.env.master_agent.mon [ahb_master_monitor] Beat[0] addr=0x0000d06c wdata=0x7299cea7 resp=AHB_RESP_OKAY
# UVM_INFO ../src/mst/ahb_master_driver.sv(332) @ 205000: uvm_test_top.env.master_agent.drv [ahb_master_driver] Beat[1/4] addr=0x0000d060 trans=AHB_TRANS_SEQ resp=AHB_RESP_OKAY wdata=0xf1b09603
# UVM_INFO ../src/slv/ahb_slave_driver.sv(184) @ 205000: uvm_test_top.env.slave_agent.drv [ahb_slave_driver] Beat AHB_WRITE addr=0x0000d060 resp=AHB_RESP_OKAY waits=1 wdata=0xf1b09603
# UVM_INFO ../src/mst/ahb_master_monitor.sv(128) @ 205000: uvm_test_top.env.master_agent.mon [ahb_master_monitor] Beat[1] addr=0x0000d060 wdata=0xf1b09603 resp=AHB_RESP_OKAY
# UVM_INFO ../src/mst/ahb_master_driver.sv(332) @ 225000: uvm_test_top.env.master_agent.drv [ahb_master_driver] Beat[2/4] addr=0x0000d064 trans=AHB_TRANS_SEQ resp=AHB_RESP_OKAY wdata=0x0f45972d
# UVM_INFO ../src/slv/ahb_slave_driver.sv(184) @ 225000: uvm_test_top.env.slave_agent.drv [ahb_slave_driver] Beat AHB_WRITE addr=0x0000d064 resp=AHB_RESP_OKAY waits=1 wdata=0x0f45972d
# UVM_INFO ../src/mst/ahb_master_monitor.sv(128) @ 225000: uvm_test_top.env.master_agent.mon [ahb_master_monitor] Beat[2] addr=0x0000d064 wdata=0x0f45972d resp=AHB_RESP_OKAY
# UVM_INFO ../src/mst/ahb_master_driver.sv(332) @ 245000: uvm_test_top.env.master_agent.drv [ahb_master_driver] Beat[3/4] addr=0x0000d068 trans=AHB_TRANS_SEQ resp=AHB_RESP_OKAY wdata=0xb21b4ef1
# UVM_INFO ../src/mst/ahb_master_driver.sv(376) @ 245000: uvm_test_top.env.master_agent.drv [ahb_master_driver] Transaction complete: AHB_WRITE 0x0000d06c, 4 beats, burst=AHB_BURST_WRAP4
# UVM_INFO ../src/mst/ahb_master_driver.sv(127) @ 245000: uvm_test_top.env.master_agent.drv [ahb_master_driver] Driving [AHB_READ]: HADDR=0x0000d06c, HBURST=AHB_BURST_WRAP4, HSIZE=AHB_SIZE_32B, 4 beats (back-to-back)
# UVM_INFO ../src/slv/ahb_slave_driver.sv(184) @ 245000: uvm_test_top.env.slave_agent.drv [ahb_slave_driver] Beat AHB_WRITE addr=0x0000d068 resp=AHB_RESP_OKAY waits=1 wdata=0xb21b4ef1
# UVM_INFO ../src/mst/ahb_master_monitor.sv(128) @ 245000: uvm_test_top.env.master_agent.mon [ahb_master_monitor] Beat[3] addr=0x0000d068 wdata=0xb21b4ef1 resp=AHB_RESP_OKAY
# UVM_INFO ../src/mst/ahb_master_monitor.sv(231) @ 245000: uvm_test_top.env.master_agent.mon [ahb_master_monitor] Observed [AHB_WRITE]: HADDR=0x0000d06c, HBURST=AHB_BURST_WRAP4, HSIZE=AHB_SIZE_32B, 4 beats
# UVM_INFO ../src/env/ahb_coverage.sv(174) @ 245000: uvm_test_top.env.master_cov [ahb_coverage] Sampled [AHB_WRITE]: burst=AHB_BURST_WRAP4 size=AHB_SIZE_32B beats=4 error=0
# UVM_INFO ../src/slv/ahb_slave_monitor.sv(212) @ 245000: uvm_test_top.env.slave_agent.mon [ahb_slave_monitor] Observed [AHB_WRITE]: HADDR=0x0000d06c, HBURST=AHB_BURST_WRAP4, HSIZE=AHB_SIZE_32B, 4 beats
# UVM_INFO ../src/env/ahb_scoreboard.sv(104) @ 245000: uvm_test_top.env.scb [ahb_scoreboard] MATCH #3: [AHB_WRITE] HADDR=0x0000d06c AHB_BURST_WRAP4 4 beats
# UVM_INFO ../src/env/ahb_coverage.sv(174) @ 245000: uvm_test_top.env.slave_cov [ahb_coverage] Sampled [AHB_WRITE]: burst=AHB_BURST_WRAP4 size=AHB_SIZE_32B beats=4 error=0
# UVM_INFO ../src/mst/ahb_master_driver.sv(332) @ 265000: uvm_test_top.env.master_agent.drv [ahb_master_driver] Beat[0/4] addr=0x0000d06c trans=AHB_TRANS_NONSEQ resp=AHB_RESP_OKAY rdata=0x7299cea7
# UVM_INFO ../src/slv/ahb_slave_driver.sv(184) @ 265000: uvm_test_top.env.slave_agent.drv [ahb_slave_driver] Beat AHB_READ addr=0x0000d06c resp=AHB_RESP_OKAY waits=1 rdata=0x7299cea7
# UVM_INFO ../src/mst/ahb_master_monitor.sv(128) @ 265000: uvm_test_top.env.master_agent.mon [ahb_master_monitor] Beat[0] addr=0x0000d06c rdata=0x7299cea7 resp=AHB_RESP_OKAY
# UVM_INFO ../src/mst/ahb_master_driver.sv(332) @ 285000: uvm_test_top.env.master_agent.drv [ahb_master_driver] Beat[1/4] addr=0x0000d060 trans=AHB_TRANS_SEQ resp=AHB_RESP_OKAY rdata=0xf1b09603
# UVM_INFO ../src/slv/ahb_slave_driver.sv(184) @ 285000: uvm_test_top.env.slave_agent.drv [ahb_slave_driver] Beat AHB_READ addr=0x0000d060 resp=AHB_RESP_OKAY waits=1 rdata=0xf1b09603
# UVM_INFO ../src/mst/ahb_master_monitor.sv(128) @ 285000: uvm_test_top.env.master_agent.mon [ahb_master_monitor] Beat[1] addr=0x0000d060 rdata=0xf1b09603 resp=AHB_RESP_OKAY
# UVM_INFO ../src/mst/ahb_master_driver.sv(332) @ 305000: uvm_test_top.env.master_agent.drv [ahb_master_driver] Beat[2/4] addr=0x0000d064 trans=AHB_TRANS_SEQ resp=AHB_RESP_OKAY rdata=0x0f45972d
# UVM_INFO ../src/slv/ahb_slave_driver.sv(184) @ 305000: uvm_test_top.env.slave_agent.drv [ahb_slave_driver] Beat AHB_READ addr=0x0000d064 resp=AHB_RESP_OKAY waits=1 rdata=0x0f45972d
# UVM_INFO ../src/mst/ahb_master_monitor.sv(128) @ 305000: uvm_test_top.env.master_agent.mon [ahb_master_monitor] Beat[2] addr=0x0000d064 rdata=0x0f45972d resp=AHB_RESP_OKAY
# UVM_INFO ../src/mst/ahb_master_driver.sv(332) @ 325000: uvm_test_top.env.master_agent.drv [ahb_master_driver] Beat[3/4] addr=0x0000d068 trans=AHB_TRANS_SEQ resp=AHB_RESP_OKAY rdata=0xb21b4ef1
# UVM_INFO ../src/mst/ahb_master_driver.sv(376) @ 325000: uvm_test_top.env.master_agent.drv [ahb_master_driver] Transaction complete: AHB_READ 0x0000d06c, 4 beats, burst=AHB_BURST_WRAP4
# UVM_INFO ../src/slv/ahb_slave_driver.sv(184) @ 325000: uvm_test_top.env.slave_agent.drv [ahb_slave_driver] Beat AHB_READ addr=0x0000d068 resp=AHB_RESP_OKAY waits=1 rdata=0xb21b4ef1
# UVM_INFO ../src/mst/ahb_master_monitor.sv(128) @ 325000: uvm_test_top.env.master_agent.mon [ahb_master_monitor] Beat[3] addr=0x0000d068 rdata=0xb21b4ef1 resp=AHB_RESP_OKAY
# UVM_INFO ../src/mst/ahb_master_monitor.sv(231) @ 325000: uvm_test_top.env.master_agent.mon [ahb_master_monitor] Observed [AHB_READ]: HADDR=0x0000d06c, HBURST=AHB_BURST_WRAP4, HSIZE=AHB_SIZE_32B, 4 beats
# UVM_INFO ../src/env/ahb_coverage.sv(174) @ 325000: uvm_test_top.env.master_cov [ahb_coverage] Sampled [AHB_READ]: burst=AHB_BURST_WRAP4 size=AHB_SIZE_32B beats=4 error=0
# UVM_INFO ../src/slv/ahb_slave_monitor.sv(212) @ 325000: uvm_test_top.env.slave_agent.mon [ahb_slave_monitor] Observed [AHB_READ]: HADDR=0x0000d06c, HBURST=AHB_BURST_WRAP4, HSIZE=AHB_SIZE_32B, 4 beats
# UVM_INFO ../src/env/ahb_scoreboard.sv(104) @ 325000: uvm_test_top.env.scb [ahb_scoreboard] MATCH #4: [AHB_READ] HADDR=0x0000d06c AHB_BURST_WRAP4 4 beats
# UVM_INFO ../src/env/ahb_coverage.sv(174) @ 325000: uvm_test_top.env.slave_cov [ahb_coverage] Sampled [AHB_READ]: burst=AHB_BURST_WRAP4 size=AHB_SIZE_32B beats=4 error=0
# UVM_INFO ../src/mst_seq/ahb_base_seq.sv(157) @ 325000: uvm_test_top.env.master_agent.sqr@@seq [ahb_wait_state_seq] AHB_BURST_WRAP4 AHB_SIZE_32B beat 0 @0x0000d06c ok
# UVM_INFO ../src/mst_seq/ahb_base_seq.sv(157) @ 325000: uvm_test_top.env.master_agent.sqr@@seq [ahb_wait_state_seq] AHB_BURST_WRAP4 AHB_SIZE_32B beat 1 @0x0000d060 ok
# UVM_INFO ../src/mst_seq/ahb_base_seq.sv(157) @ 325000: uvm_test_top.env.master_agent.sqr@@seq [ahb_wait_state_seq] AHB_BURST_WRAP4 AHB_SIZE_32B beat 2 @0x0000d064 ok
# UVM_INFO ../src/mst_seq/ahb_base_seq.sv(157) @ 325000: uvm_test_top.env.master_agent.sqr@@seq [ahb_wait_state_seq] AHB_BURST_WRAP4 AHB_SIZE_32B beat 3 @0x0000d068 ok
# UVM_INFO ../src/mst_seq/ahb_wait_state_seq.sv(166) @ 325000: uvm_test_top.env.master_agent.sqr@@seq [ahb_wait_state_seq] AHB_BURST_SINGLE AHB_SIZE_16B @0x0000d0a2, 1 beats, waits=2:2, pipelined=0
# UVM_INFO ../src/mst/ahb_master_driver.sv(85) @ 325000: uvm_test_top.env.master_agent.drv [ahb_master_driver] Queueing [AHB_WRITE]: HADDR=0x0000d0a2, HBURST=AHB_BURST_SINGLE, HSIZE=AHB_SIZE_16B, 1 beats
# UVM_INFO ../src/mst/ahb_master_driver.sv(127) @ 325000: uvm_test_top.env.master_agent.drv [ahb_master_driver] Driving [AHB_WRITE]: HADDR=0x0000d0a2, HBURST=AHB_BURST_SINGLE, HSIZE=AHB_SIZE_16B, 1 beats               
# UVM_INFO ../src/mst/ahb_master_driver.sv(332) @ 375000: uvm_test_top.env.master_agent.drv [ahb_master_driver] Beat[0/1] addr=0x0000d0a2 trans=AHB_TRANS_NONSEQ resp=AHB_RESP_OKAY wdata=0x1210ecaf
# UVM_INFO ../src/mst/ahb_master_driver.sv(376) @ 375000: uvm_test_top.env.master_agent.drv [ahb_master_driver] Transaction complete: AHB_WRITE 0x0000d0a2, 1 beats, burst=AHB_BURST_SINGLE
# UVM_INFO ../src/slv/ahb_slave_driver.sv(184) @ 375000: uvm_test_top.env.slave_agent.drv [ahb_slave_driver] Beat AHB_WRITE addr=0x0000d0a2 resp=AHB_RESP_OKAY waits=2 wdata=0x1210ecaf
# UVM_INFO ../src/slv/ahb_slave_monitor.sv(212) @ 375000: uvm_test_top.env.slave_agent.mon [ahb_slave_monitor] Observed [AHB_WRITE]: HADDR=0x0000d0a2, HBURST=AHB_BURST_SINGLE, HSIZE=AHB_SIZE_16B, 1 beats
# UVM_INFO ../src/env/ahb_coverage.sv(174) @ 375000: uvm_test_top.env.slave_cov [ahb_coverage] Sampled [AHB_WRITE]: burst=AHB_BURST_SINGLE size=AHB_SIZE_16B beats=1 error=0
# UVM_INFO ../src/mst/ahb_master_monitor.sv(128) @ 375000: uvm_test_top.env.master_agent.mon [ahb_master_monitor] Beat[0] addr=0x0000d0a2 wdata=0x1210ecaf resp=AHB_RESP_OKAY
# UVM_INFO ../src/mst/ahb_master_monitor.sv(231) @ 375000: uvm_test_top.env.master_agent.mon [ahb_master_monitor] Observed [AHB_WRITE]: HADDR=0x0000d0a2, HBURST=AHB_BURST_SINGLE, HSIZE=AHB_SIZE_16B, 1 beats
# UVM_INFO ../src/env/ahb_coverage.sv(174) @ 375000: uvm_test_top.env.master_cov [ahb_coverage] Sampled [AHB_WRITE]: burst=AHB_BURST_SINGLE size=AHB_SIZE_16B beats=1 error=0
# UVM_INFO ../src/env/ahb_scoreboard.sv(104) @ 375000: uvm_test_top.env.scb [ahb_scoreboard] MATCH #5: [AHB_WRITE] HADDR=0x0000d0a2 AHB_BURST_SINGLE 1 beats
# UVM_INFO ../src/mst/ahb_master_driver.sv(85) @ 375000: uvm_test_top.env.master_agent.drv [ahb_master_driver] Queueing [AHB_READ]: HADDR=0x0000d0a2, HBURST=AHB_BURST_SINGLE, HSIZE=AHB_SIZE_16B, 1 beats
# UVM_INFO ../src/mst/ahb_master_driver.sv(127) @ 375000: uvm_test_top.env.master_agent.drv [ahb_master_driver] Driving [AHB_READ]: HADDR=0x0000d0a2, HBURST=AHB_BURST_SINGLE, HSIZE=AHB_SIZE_16B, 1 beats               
# UVM_INFO ../src/mst/ahb_master_driver.sv(332) @ 425000: uvm_test_top.env.master_agent.drv [ahb_master_driver] Beat[0/1] addr=0x0000d0a2 trans=AHB_TRANS_NONSEQ resp=AHB_RESP_OKAY rdata=0x1210ecaf
# UVM_INFO ../src/mst/ahb_master_driver.sv(376) @ 425000: uvm_test_top.env.master_agent.drv [ahb_master_driver] Transaction complete: AHB_READ 0x0000d0a2, 1 beats, burst=AHB_BURST_SINGLE
# UVM_INFO ../src/slv/ahb_slave_driver.sv(184) @ 425000: uvm_test_top.env.slave_agent.drv [ahb_slave_driver] Beat AHB_READ addr=0x0000d0a2 resp=AHB_RESP_OKAY waits=2 rdata=0x1210ecaf
# UVM_INFO ../src/mst/ahb_master_monitor.sv(128) @ 425000: uvm_test_top.env.master_agent.mon [ahb_master_monitor] Beat[0] addr=0x0000d0a2 rdata=0x1210ecaf resp=AHB_RESP_OKAY
# UVM_INFO ../src/mst/ahb_master_monitor.sv(231) @ 425000: uvm_test_top.env.master_agent.mon [ahb_master_monitor] Observed [AHB_READ]: HADDR=0x0000d0a2, HBURST=AHB_BURST_SINGLE, HSIZE=AHB_SIZE_16B, 1 beats
# UVM_INFO ../src/env/ahb_coverage.sv(174) @ 425000: uvm_test_top.env.master_cov [ahb_coverage] Sampled [AHB_READ]: burst=AHB_BURST_SINGLE size=AHB_SIZE_16B beats=1 error=0
# UVM_INFO ../src/slv/ahb_slave_monitor.sv(212) @ 425000: uvm_test_top.env.slave_agent.mon [ahb_slave_monitor] Observed [AHB_READ]: HADDR=0x0000d0a2, HBURST=AHB_BURST_SINGLE, HSIZE=AHB_SIZE_16B, 1 beats
# UVM_INFO ../src/env/ahb_scoreboard.sv(104) @ 425000: uvm_test_top.env.scb [ahb_scoreboard] MATCH #6: [AHB_READ] HADDR=0x0000d0a2 AHB_BURST_SINGLE 1 beats
# UVM_INFO ../src/env/ahb_coverage.sv(174) @ 425000: uvm_test_top.env.slave_cov [ahb_coverage] Sampled [AHB_READ]: burst=AHB_BURST_SINGLE size=AHB_SIZE_16B beats=1 error=0
# UVM_INFO ../src/mst_seq/ahb_base_seq.sv(157) @ 425000: uvm_test_top.env.master_agent.sqr@@seq [ahb_wait_state_seq] AHB_BURST_SINGLE AHB_SIZE_16B beat 0 @0x0000d0a2 ok
# UVM_INFO ../src/mst_seq/ahb_wait_state_seq.sv(166) @ 425000: uvm_test_top.env.master_agent.sqr@@seq [ahb_wait_state_seq] AHB_BURST_SINGLE AHB_SIZE_8B @0x0000d0f5, 1 beats, waits=3:3, pipelined=1
# UVM_INFO ../src/mst/ahb_master_driver.sv(85) @ 425000: uvm_test_top.env.master_agent.drv [ahb_master_driver] Queueing [AHB_WRITE]: HADDR=0x0000d0f5, HBURST=AHB_BURST_SINGLE, HSIZE=AHB_SIZE_8B, 1 beats
# UVM_INFO ../src/mst/ahb_master_driver.sv(127) @ 425000: uvm_test_top.env.master_agent.drv [ahb_master_driver] Driving [AHB_WRITE]: HADDR=0x0000d0f5, HBURST=AHB_BURST_SINGLE, HSIZE=AHB_SIZE_8B, 1 beats               
# UVM_INFO ../src/mst/ahb_master_driver.sv(85) @ 425000: uvm_test_top.env.master_agent.drv [ahb_master_driver] Queueing [AHB_READ]: HADDR=0x0000d0f5, HBURST=AHB_BURST_SINGLE, HSIZE=AHB_SIZE_8B, 1 beats
# UVM_INFO ../src/mst/ahb_master_driver.sv(332) @ 485000: uvm_test_top.env.master_agent.drv [ahb_master_driver] Beat[0/1] addr=0x0000d0f5 trans=AHB_TRANS_NONSEQ resp=AHB_RESP_OKAY wdata=0xd2d76e83
# UVM_INFO ../src/mst/ahb_master_driver.sv(376) @ 485000: uvm_test_top.env.master_agent.drv [ahb_master_driver] Transaction complete: AHB_WRITE 0x0000d0f5, 1 beats, burst=AHB_BURST_SINGLE
# UVM_INFO ../src/mst/ahb_master_driver.sv(127) @ 485000: uvm_test_top.env.master_agent.drv [ahb_master_driver] Driving [AHB_READ]: HADDR=0x0000d0f5, HBURST=AHB_BURST_SINGLE, HSIZE=AHB_SIZE_8B, 1 beats (back-to-back)
# UVM_INFO ../src/slv/ahb_slave_driver.sv(184) @ 485000: uvm_test_top.env.slave_agent.drv [ahb_slave_driver] Beat AHB_WRITE addr=0x0000d0f5 resp=AHB_RESP_OKAY waits=3 wdata=0xd2d76e83
# UVM_INFO ../src/mst/ahb_master_monitor.sv(128) @ 485000: uvm_test_top.env.master_agent.mon [ahb_master_monitor] Beat[0] addr=0x0000d0f5 wdata=0xd2d76e83 resp=AHB_RESP_OKAY
# UVM_INFO ../src/mst/ahb_master_monitor.sv(231) @ 485000: uvm_test_top.env.master_agent.mon [ahb_master_monitor] Observed [AHB_WRITE]: HADDR=0x0000d0f5, HBURST=AHB_BURST_SINGLE, HSIZE=AHB_SIZE_8B, 1 beats
# UVM_INFO ../src/env/ahb_coverage.sv(174) @ 485000: uvm_test_top.env.master_cov [ahb_coverage] Sampled [AHB_WRITE]: burst=AHB_BURST_SINGLE size=AHB_SIZE_8B beats=1 error=0
# UVM_INFO ../src/slv/ahb_slave_monitor.sv(212) @ 485000: uvm_test_top.env.slave_agent.mon [ahb_slave_monitor] Observed [AHB_WRITE]: HADDR=0x0000d0f5, HBURST=AHB_BURST_SINGLE, HSIZE=AHB_SIZE_8B, 1 beats
# UVM_INFO ../src/env/ahb_scoreboard.sv(104) @ 485000: uvm_test_top.env.scb [ahb_scoreboard] MATCH #7: [AHB_WRITE] HADDR=0x0000d0f5 AHB_BURST_SINGLE 1 beats
# UVM_INFO ../src/env/ahb_coverage.sv(174) @ 485000: uvm_test_top.env.slave_cov [ahb_coverage] Sampled [AHB_WRITE]: burst=AHB_BURST_SINGLE size=AHB_SIZE_8B beats=1 error=0
# UVM_INFO ../src/mst/ahb_master_driver.sv(332) @ 525000: uvm_test_top.env.master_agent.drv [ahb_master_driver] Beat[0/1] addr=0x0000d0f5 trans=AHB_TRANS_NONSEQ resp=AHB_RESP_OKAY rdata=0xd2d76e83
# UVM_INFO ../src/mst/ahb_master_driver.sv(376) @ 525000: uvm_test_top.env.master_agent.drv [ahb_master_driver] Transaction complete: AHB_READ 0x0000d0f5, 1 beats, burst=AHB_BURST_SINGLE
# UVM_INFO ../src/slv/ahb_slave_driver.sv(184) @ 525000: uvm_test_top.env.slave_agent.drv [ahb_slave_driver] Beat AHB_READ addr=0x0000d0f5 resp=AHB_RESP_OKAY waits=3 rdata=0xd2d76e83
# UVM_INFO ../src/mst/ahb_master_monitor.sv(128) @ 525000: uvm_test_top.env.master_agent.mon [ahb_master_monitor] Beat[0] addr=0x0000d0f5 rdata=0xd2d76e83 resp=AHB_RESP_OKAY
# UVM_INFO ../src/mst/ahb_master_monitor.sv(231) @ 525000: uvm_test_top.env.master_agent.mon [ahb_master_monitor] Observed [AHB_READ]: HADDR=0x0000d0f5, HBURST=AHB_BURST_SINGLE, HSIZE=AHB_SIZE_8B, 1 beats
# UVM_INFO ../src/env/ahb_coverage.sv(174) @ 525000: uvm_test_top.env.master_cov [ahb_coverage] Sampled [AHB_READ]: burst=AHB_BURST_SINGLE size=AHB_SIZE_8B beats=1 error=0
# UVM_INFO ../src/slv/ahb_slave_monitor.sv(212) @ 525000: uvm_test_top.env.slave_agent.mon [ahb_slave_monitor] Observed [AHB_READ]: HADDR=0x0000d0f5, HBURST=AHB_BURST_SINGLE, HSIZE=AHB_SIZE_8B, 1 beats
# UVM_INFO ../src/env/ahb_scoreboard.sv(104) @ 525000: uvm_test_top.env.scb [ahb_scoreboard] MATCH #8: [AHB_READ] HADDR=0x0000d0f5 AHB_BURST_SINGLE 1 beats
# UVM_INFO ../src/env/ahb_coverage.sv(174) @ 525000: uvm_test_top.env.slave_cov [ahb_coverage] Sampled [AHB_READ]: burst=AHB_BURST_SINGLE size=AHB_SIZE_8B beats=1 error=0
# UVM_INFO ../src/mst_seq/ahb_base_seq.sv(157) @ 525000: uvm_test_top.env.master_agent.sqr@@seq [ahb_wait_state_seq] AHB_BURST_SINGLE AHB_SIZE_8B beat 0 @0x0000d0f5 ok
# UVM_INFO ../src/mst_seq/ahb_wait_state_seq.sv(166) @ 525000: uvm_test_top.env.master_agent.sqr@@seq [ahb_wait_state_seq] AHB_BURST_SINGLE AHB_SIZE_8B @0x0000d11c, 1 beats, waits=1:7, pipelined=0
# UVM_INFO ../src/mst/ahb_master_driver.sv(85) @ 525000: uvm_test_top.env.master_agent.drv [ahb_master_driver] Queueing [AHB_WRITE]: HADDR=0x0000d11c, HBURST=AHB_BURST_SINGLE, HSIZE=AHB_SIZE_8B, 1 beats
# UVM_INFO ../src/mst/ahb_master_driver.sv(127) @ 525000: uvm_test_top.env.master_agent.drv [ahb_master_driver] Driving [AHB_WRITE]: HADDR=0x0000d11c, HBURST=AHB_BURST_SINGLE, HSIZE=AHB_SIZE_8B, 1 beats               
# UVM_INFO ../src/mst/ahb_master_driver.sv(332) @ 575000: uvm_test_top.env.master_agent.drv [ahb_master_driver] Beat[0/1] addr=0x0000d11c trans=AHB_TRANS_NONSEQ resp=AHB_RESP_OKAY wdata=0x22ca058f
# UVM_INFO ../src/mst/ahb_master_driver.sv(376) @ 575000: uvm_test_top.env.master_agent.drv [ahb_master_driver] Transaction complete: AHB_WRITE 0x0000d11c, 1 beats, burst=AHB_BURST_SINGLE
# UVM_INFO ../src/slv/ahb_slave_driver.sv(184) @ 575000: uvm_test_top.env.slave_agent.drv [ahb_slave_driver] Beat AHB_WRITE addr=0x0000d11c resp=AHB_RESP_OKAY waits=2 wdata=0x22ca058f
# UVM_INFO ../src/slv/ahb_slave_monitor.sv(212) @ 575000: uvm_test_top.env.slave_agent.mon [ahb_slave_monitor] Observed [AHB_WRITE]: HADDR=0x0000d11c, HBURST=AHB_BURST_SINGLE, HSIZE=AHB_SIZE_8B, 1 beats
# UVM_INFO ../src/env/ahb_coverage.sv(174) @ 575000: uvm_test_top.env.slave_cov [ahb_coverage] Sampled [AHB_WRITE]: burst=AHB_BURST_SINGLE size=AHB_SIZE_8B beats=1 error=0
# UVM_INFO ../src/mst/ahb_master_monitor.sv(128) @ 575000: uvm_test_top.env.master_agent.mon [ahb_master_monitor] Beat[0] addr=0x0000d11c wdata=0x22ca058f resp=AHB_RESP_OKAY
# UVM_INFO ../src/mst/ahb_master_monitor.sv(231) @ 575000: uvm_test_top.env.master_agent.mon [ahb_master_monitor] Observed [AHB_WRITE]: HADDR=0x0000d11c, HBURST=AHB_BURST_SINGLE, HSIZE=AHB_SIZE_8B, 1 beats
# UVM_INFO ../src/env/ahb_coverage.sv(174) @ 575000: uvm_test_top.env.master_cov [ahb_coverage] Sampled [AHB_WRITE]: burst=AHB_BURST_SINGLE size=AHB_SIZE_8B beats=1 error=0
# UVM_INFO ../src/env/ahb_scoreboard.sv(104) @ 575000: uvm_test_top.env.scb [ahb_scoreboard] MATCH #9: [AHB_WRITE] HADDR=0x0000d11c AHB_BURST_SINGLE 1 beats
# UVM_INFO ../src/mst/ahb_master_driver.sv(85) @ 575000: uvm_test_top.env.master_agent.drv [ahb_master_driver] Queueing [AHB_READ]: HADDR=0x0000d11c, HBURST=AHB_BURST_SINGLE, HSIZE=AHB_SIZE_8B, 1 beats
# UVM_INFO ../src/mst/ahb_master_driver.sv(127) @ 575000: uvm_test_top.env.master_agent.drv [ahb_master_driver] Driving [AHB_READ]: HADDR=0x0000d11c, HBURST=AHB_BURST_SINGLE, HSIZE=AHB_SIZE_8B, 1 beats               
# UVM_INFO ../src/mst/ahb_master_driver.sv(332) @ 675000: uvm_test_top.env.master_agent.drv [ahb_master_driver] Beat[0/1] addr=0x0000d11c trans=AHB_TRANS_NONSEQ resp=AHB_RESP_OKAY rdata=0x22ca058f
# UVM_INFO ../src/mst/ahb_master_driver.sv(376) @ 675000: uvm_test_top.env.master_agent.drv [ahb_master_driver] Transaction complete: AHB_READ 0x0000d11c, 1 beats, burst=AHB_BURST_SINGLE
# UVM_INFO ../src/slv/ahb_slave_driver.sv(184) @ 675000: uvm_test_top.env.slave_agent.drv [ahb_slave_driver] Beat AHB_READ addr=0x0000d11c resp=AHB_RESP_OKAY waits=7 rdata=0x22ca058f
# UVM_INFO ../src/slv/ahb_slave_monitor.sv(212) @ 675000: uvm_test_top.env.slave_agent.mon [ahb_slave_monitor] Observed [AHB_READ]: HADDR=0x0000d11c, HBURST=AHB_BURST_SINGLE, HSIZE=AHB_SIZE_8B, 1 beats
# UVM_INFO ../src/env/ahb_coverage.sv(174) @ 675000: uvm_test_top.env.slave_cov [ahb_coverage] Sampled [AHB_READ]: burst=AHB_BURST_SINGLE size=AHB_SIZE_8B beats=1 error=0
# UVM_INFO ../src/mst/ahb_master_monitor.sv(128) @ 675000: uvm_test_top.env.master_agent.mon [ahb_master_monitor] Beat[0] addr=0x0000d11c rdata=0x22ca058f resp=AHB_RESP_OKAY
# UVM_INFO ../src/mst/ahb_master_monitor.sv(231) @ 675000: uvm_test_top.env.master_agent.mon [ahb_master_monitor] Observed [AHB_READ]: HADDR=0x0000d11c, HBURST=AHB_BURST_SINGLE, HSIZE=AHB_SIZE_8B, 1 beats
# UVM_INFO ../src/env/ahb_coverage.sv(174) @ 675000: uvm_test_top.env.master_cov [ahb_coverage] Sampled [AHB_READ]: burst=AHB_BURST_SINGLE size=AHB_SIZE_8B beats=1 error=0
# UVM_INFO ../src/env/ahb_scoreboard.sv(104) @ 675000: uvm_test_top.env.scb [ahb_scoreboard] MATCH #10: [AHB_READ] HADDR=0x0000d11c AHB_BURST_SINGLE 1 beats
# UVM_INFO ../src/mst_seq/ahb_base_seq.sv(157) @ 675000: uvm_test_top.env.master_agent.sqr@@seq [ahb_wait_state_seq] AHB_BURST_SINGLE AHB_SIZE_8B beat 0 @0x0000d11c ok
# UVM_INFO ../src/mst_seq/ahb_wait_state_seq.sv(166) @ 675000: uvm_test_top.env.master_agent.sqr@@seq [ahb_wait_state_seq] AHB_BURST_INCR4 AHB_SIZE_32B @0x0000d164, 4 beats, waits=8:15, pipelined=1
# UVM_INFO ../src/mst/ahb_master_driver.sv(85) @ 675000: uvm_test_top.env.master_agent.drv [ahb_master_driver] Queueing [AHB_WRITE]: HADDR=0x0000d164, HBURST=AHB_BURST_INCR4, HSIZE=AHB_SIZE_32B, 4 beats
# UVM_INFO ../src/mst/ahb_master_driver.sv(127) @ 675000: uvm_test_top.env.master_agent.drv [ahb_master_driver] Driving [AHB_WRITE]: HADDR=0x0000d164, HBURST=AHB_BURST_INCR4, HSIZE=AHB_SIZE_32B, 4 beats               
# UVM_INFO ../src/mst/ahb_master_driver.sv(85) @ 675000: uvm_test_top.env.master_agent.drv [ahb_master_driver] Queueing [AHB_READ]: HADDR=0x0000d164, HBURST=AHB_BURST_INCR4, HSIZE=AHB_SIZE_32B, 4 beats
# UVM_INFO ../src/mst/ahb_master_driver.sv(332) @ 795000: uvm_test_top.env.master_agent.drv [ahb_master_driver] Beat[0/4] addr=0x0000d164 trans=AHB_TRANS_NONSEQ resp=AHB_RESP_OKAY wdata=0x4efdb903
# UVM_INFO ../src/slv/ahb_slave_driver.sv(184) @ 795000: uvm_test_top.env.slave_agent.drv [ahb_slave_driver] Beat AHB_WRITE addr=0x0000d164 resp=AHB_RESP_OKAY waits=9 wdata=0x4efdb903
# UVM_INFO ../src/mst/ahb_master_monitor.sv(128) @ 795000: uvm_test_top.env.master_agent.mon [ahb_master_monitor] Beat[0] addr=0x0000d164 wdata=0x4efdb903 resp=AHB_RESP_OKAY
# UVM_INFO ../src/mst/ahb_master_driver.sv(332) @ 915000: uvm_test_top.env.master_agent.drv [ahb_master_driver] Beat[1/4] addr=0x0000d168 trans=AHB_TRANS_SEQ resp=AHB_RESP_OKAY wdata=0xd4145cc5
# UVM_INFO ../src/slv/ahb_slave_driver.sv(184) @ 915000: uvm_test_top.env.slave_agent.drv [ahb_slave_driver] Beat AHB_WRITE addr=0x0000d168 resp=AHB_RESP_OKAY waits=11 wdata=0xd4145cc5
# UVM_INFO ../src/mst/ahb_master_monitor.sv(128) @ 915000: uvm_test_top.env.master_agent.mon [ahb_master_monitor] Beat[1] addr=0x0000d168 wdata=0xd4145cc5 resp=AHB_RESP_OKAY
# UVM_INFO ../src/mst/ahb_master_driver.sv(332) @ 1005000: uvm_test_top.env.master_agent.drv [ahb_master_driver] Beat[2/4] addr=0x0000d16c trans=AHB_TRANS_SEQ resp=AHB_RESP_OKAY wdata=0x272ae79c
# UVM_INFO ../src/slv/ahb_slave_driver.sv(184) @ 1005000: uvm_test_top.env.slave_agent.drv [ahb_slave_driver] Beat AHB_WRITE addr=0x0000d16c resp=AHB_RESP_OKAY waits=8 wdata=0x272ae79c
# UVM_INFO ../src/mst/ahb_master_monitor.sv(128) @ 1005000: uvm_test_top.env.master_agent.mon [ahb_master_monitor] Beat[2] addr=0x0000d16c wdata=0x272ae79c resp=AHB_RESP_OKAY
# UVM_INFO ../src/mst/ahb_master_driver.sv(332) @ 1165000: uvm_test_top.env.master_agent.drv [ahb_master_driver] Beat[3/4] addr=0x0000d170 trans=AHB_TRANS_SEQ resp=AHB_RESP_OKAY wdata=0xa9b8e601
# UVM_INFO ../src/mst/ahb_master_driver.sv(376) @ 1165000: uvm_test_top.env.master_agent.drv [ahb_master_driver] Transaction complete: AHB_WRITE 0x0000d164, 4 beats, burst=AHB_BURST_INCR4
# UVM_INFO ../src/mst/ahb_master_driver.sv(127) @ 1165000: uvm_test_top.env.master_agent.drv [ahb_master_driver] Driving [AHB_READ]: HADDR=0x0000d164, HBURST=AHB_BURST_INCR4, HSIZE=AHB_SIZE_32B, 4 beats (back-to-back)
# UVM_INFO ../src/slv/ahb_slave_driver.sv(184) @ 1165000: uvm_test_top.env.slave_agent.drv [ahb_slave_driver] Beat AHB_WRITE addr=0x0000d170 resp=AHB_RESP_OKAY waits=15 wdata=0xa9b8e601
# UVM_INFO ../src/mst/ahb_master_monitor.sv(128) @ 1165000: uvm_test_top.env.master_agent.mon [ahb_master_monitor] Beat[3] addr=0x0000d170 wdata=0xa9b8e601 resp=AHB_RESP_OKAY
# UVM_INFO ../src/mst/ahb_master_monitor.sv(231) @ 1165000: uvm_test_top.env.master_agent.mon [ahb_master_monitor] Observed [AHB_WRITE]: HADDR=0x0000d164, HBURST=AHB_BURST_INCR4, HSIZE=AHB_SIZE_32B, 4 beats
# UVM_INFO ../src/env/ahb_coverage.sv(174) @ 1165000: uvm_test_top.env.master_cov [ahb_coverage] Sampled [AHB_WRITE]: burst=AHB_BURST_INCR4 size=AHB_SIZE_32B beats=4 error=0
# UVM_INFO ../src/slv/ahb_slave_monitor.sv(212) @ 1165000: uvm_test_top.env.slave_agent.mon [ahb_slave_monitor] Observed [AHB_WRITE]: HADDR=0x0000d164, HBURST=AHB_BURST_INCR4, HSIZE=AHB_SIZE_32B, 4 beats
# UVM_INFO ../src/env/ahb_scoreboard.sv(104) @ 1165000: uvm_test_top.env.scb [ahb_scoreboard] MATCH #11: [AHB_WRITE] HADDR=0x0000d164 AHB_BURST_INCR4 4 beats
# UVM_INFO ../src/env/ahb_coverage.sv(174) @ 1165000: uvm_test_top.env.slave_cov [ahb_coverage] Sampled [AHB_WRITE]: burst=AHB_BURST_INCR4 size=AHB_SIZE_32B beats=4 error=0
# UVM_INFO ../src/mst/ahb_master_driver.sv(332) @ 1275000: uvm_test_top.env.master_agent.drv [ahb_master_driver] Beat[0/4] addr=0x0000d164 trans=AHB_TRANS_NONSEQ resp=AHB_RESP_OKAY rdata=0x4efdb903
# UVM_INFO ../src/slv/ahb_slave_driver.sv(184) @ 1275000: uvm_test_top.env.slave_agent.drv [ahb_slave_driver] Beat AHB_READ addr=0x0000d164 resp=AHB_RESP_OKAY waits=10 rdata=0x4efdb903
# UVM_INFO ../src/mst/ahb_master_monitor.sv(128) @ 1275000: uvm_test_top.env.master_agent.mon [ahb_master_monitor] Beat[0] addr=0x0000d164 rdata=0x4efdb903 resp=AHB_RESP_OKAY
# UVM_INFO ../src/mst/ahb_master_driver.sv(332) @ 1425000: uvm_test_top.env.master_agent.drv [ahb_master_driver] Beat[1/4] addr=0x0000d168 trans=AHB_TRANS_SEQ resp=AHB_RESP_OKAY rdata=0xd4145cc5
# UVM_INFO ../src/slv/ahb_slave_driver.sv(184) @ 1425000: uvm_test_top.env.slave_agent.drv [ahb_slave_driver] Beat AHB_READ addr=0x0000d168 resp=AHB_RESP_OKAY waits=14 rdata=0xd4145cc5
# UVM_INFO ../src/mst/ahb_master_monitor.sv(128) @ 1425000: uvm_test_top.env.master_agent.mon [ahb_master_monitor] Beat[1] addr=0x0000d168 rdata=0xd4145cc5 resp=AHB_RESP_OKAY
# UVM_INFO ../src/mst/ahb_master_driver.sv(332) @ 1555000: uvm_test_top.env.master_agent.drv [ahb_master_driver] Beat[2/4] addr=0x0000d16c trans=AHB_TRANS_SEQ resp=AHB_RESP_OKAY rdata=0x272ae79c
# UVM_INFO ../src/slv/ahb_slave_driver.sv(184) @ 1555000: uvm_test_top.env.slave_agent.drv [ahb_slave_driver] Beat AHB_READ addr=0x0000d16c resp=AHB_RESP_OKAY waits=12 rdata=0x272ae79c
# UVM_INFO ../src/mst/ahb_master_monitor.sv(128) @ 1555000: uvm_test_top.env.master_agent.mon [ahb_master_monitor] Beat[2] addr=0x0000d16c rdata=0x272ae79c resp=AHB_RESP_OKAY
# UVM_INFO ../src/mst/ahb_master_driver.sv(332) @ 1715000: uvm_test_top.env.master_agent.drv [ahb_master_driver] Beat[3/4] addr=0x0000d170 trans=AHB_TRANS_SEQ resp=AHB_RESP_OKAY rdata=0xa9b8e601
# UVM_INFO ../src/mst/ahb_master_driver.sv(376) @ 1715000: uvm_test_top.env.master_agent.drv [ahb_master_driver] Transaction complete: AHB_READ 0x0000d164, 4 beats, burst=AHB_BURST_INCR4
# UVM_INFO ../src/slv/ahb_slave_driver.sv(184) @ 1715000: uvm_test_top.env.slave_agent.drv [ahb_slave_driver] Beat AHB_READ addr=0x0000d170 resp=AHB_RESP_OKAY waits=15 rdata=0xa9b8e601
# UVM_INFO ../src/slv/ahb_slave_monitor.sv(212) @ 1715000: uvm_test_top.env.slave_agent.mon [ahb_slave_monitor] Observed [AHB_READ]: HADDR=0x0000d164, HBURST=AHB_BURST_INCR4, HSIZE=AHB_SIZE_32B, 4 beats
# UVM_INFO ../src/env/ahb_coverage.sv(174) @ 1715000: uvm_test_top.env.slave_cov [ahb_coverage] Sampled [AHB_READ]: burst=AHB_BURST_INCR4 size=AHB_SIZE_32B beats=4 error=0
# UVM_INFO ../src/mst/ahb_master_monitor.sv(128) @ 1715000: uvm_test_top.env.master_agent.mon [ahb_master_monitor] Beat[3] addr=0x0000d170 rdata=0xa9b8e601 resp=AHB_RESP_OKAY
# UVM_INFO ../src/mst/ahb_master_monitor.sv(231) @ 1715000: uvm_test_top.env.master_agent.mon [ahb_master_monitor] Observed [AHB_READ]: HADDR=0x0000d164, HBURST=AHB_BURST_INCR4, HSIZE=AHB_SIZE_32B, 4 beats
# UVM_INFO ../src/env/ahb_coverage.sv(174) @ 1715000: uvm_test_top.env.master_cov [ahb_coverage] Sampled [AHB_READ]: burst=AHB_BURST_INCR4 size=AHB_SIZE_32B beats=4 error=0
# UVM_INFO ../src/env/ahb_scoreboard.sv(104) @ 1715000: uvm_test_top.env.scb [ahb_scoreboard] MATCH #12: [AHB_READ] HADDR=0x0000d164 AHB_BURST_INCR4 4 beats
# UVM_INFO ../src/mst_seq/ahb_base_seq.sv(157) @ 1715000: uvm_test_top.env.master_agent.sqr@@seq [ahb_wait_state_seq] AHB_BURST_INCR4 AHB_SIZE_32B beat 0 @0x0000d164 ok
# UVM_INFO ../src/mst_seq/ahb_base_seq.sv(157) @ 1715000: uvm_test_top.env.master_agent.sqr@@seq [ahb_wait_state_seq] AHB_BURST_INCR4 AHB_SIZE_32B beat 1 @0x0000d168 ok
# UVM_INFO ../src/mst_seq/ahb_base_seq.sv(157) @ 1715000: uvm_test_top.env.master_agent.sqr@@seq [ahb_wait_state_seq] AHB_BURST_INCR4 AHB_SIZE_32B beat 2 @0x0000d16c ok
# UVM_INFO ../src/mst_seq/ahb_base_seq.sv(157) @ 1715000: uvm_test_top.env.master_agent.sqr@@seq [ahb_wait_state_seq] AHB_BURST_INCR4 AHB_SIZE_32B beat 3 @0x0000d170 ok
# UVM_INFO ../src/mst_seq/ahb_wait_state_seq.sv(166) @ 1715000: uvm_test_top.env.master_agent.sqr@@seq [ahb_wait_state_seq] AHB_BURST_SINGLE AHB_SIZE_8B @0x0000d1a9, 1 beats, waits=16:16, pipelined=0
# UVM_INFO ../src/mst/ahb_master_driver.sv(85) @ 1715000: uvm_test_top.env.master_agent.drv [ahb_master_driver] Queueing [AHB_WRITE]: HADDR=0x0000d1a9, HBURST=AHB_BURST_SINGLE, HSIZE=AHB_SIZE_8B, 1 beats
# UVM_INFO ../src/mst/ahb_master_driver.sv(127) @ 1715000: uvm_test_top.env.master_agent.drv [ahb_master_driver] Driving [AHB_WRITE]: HADDR=0x0000d1a9, HBURST=AHB_BURST_SINGLE, HSIZE=AHB_SIZE_8B, 1 beats               
# UVM_INFO ../src/mst/ahb_master_driver.sv(332) @ 1905000: uvm_test_top.env.master_agent.drv [ahb_master_driver] Beat[0/1] addr=0x0000d1a9 trans=AHB_TRANS_NONSEQ resp=AHB_RESP_OKAY wdata=0x69b054f8
# UVM_INFO ../src/mst/ahb_master_driver.sv(376) @ 1905000: uvm_test_top.env.master_agent.drv [ahb_master_driver] Transaction complete: AHB_WRITE 0x0000d1a9, 1 beats, burst=AHB_BURST_SINGLE
# UVM_INFO ../src/slv/ahb_slave_driver.sv(184) @ 1905000: uvm_test_top.env.slave_agent.drv [ahb_slave_driver] Beat AHB_WRITE addr=0x0000d1a9 resp=AHB_RESP_OKAY waits=16 wdata=0x69b054f8
# UVM_INFO ../src/mst/ahb_master_monitor.sv(128) @ 1905000: uvm_test_top.env.master_agent.mon [ahb_master_monitor] Beat[0] addr=0x0000d1a9 wdata=0x69b054f8 resp=AHB_RESP_OKAY
# UVM_INFO ../src/mst/ahb_master_monitor.sv(231) @ 1905000: uvm_test_top.env.master_agent.mon [ahb_master_monitor] Observed [AHB_WRITE]: HADDR=0x0000d1a9, HBURST=AHB_BURST_SINGLE, HSIZE=AHB_SIZE_8B, 1 beats
# UVM_INFO ../src/env/ahb_coverage.sv(174) @ 1905000: uvm_test_top.env.master_cov [ahb_coverage] Sampled [AHB_WRITE]: burst=AHB_BURST_SINGLE size=AHB_SIZE_8B beats=1 error=0
# UVM_INFO ../src/slv/ahb_slave_monitor.sv(212) @ 1905000: uvm_test_top.env.slave_agent.mon [ahb_slave_monitor] Observed [AHB_WRITE]: HADDR=0x0000d1a9, HBURST=AHB_BURST_SINGLE, HSIZE=AHB_SIZE_8B, 1 beats
# UVM_INFO ../src/env/ahb_scoreboard.sv(104) @ 1905000: uvm_test_top.env.scb [ahb_scoreboard] MATCH #13: [AHB_WRITE] HADDR=0x0000d1a9 AHB_BURST_SINGLE 1 beats
# UVM_INFO ../src/env/ahb_coverage.sv(174) @ 1905000: uvm_test_top.env.slave_cov [ahb_coverage] Sampled [AHB_WRITE]: burst=AHB_BURST_SINGLE size=AHB_SIZE_8B beats=1 error=0
# UVM_INFO ../src/mst/ahb_master_driver.sv(85) @ 1905000: uvm_test_top.env.master_agent.drv [ahb_master_driver] Queueing [AHB_READ]: HADDR=0x0000d1a9, HBURST=AHB_BURST_SINGLE, HSIZE=AHB_SIZE_8B, 1 beats
# UVM_INFO ../src/mst/ahb_master_driver.sv(127) @ 1905000: uvm_test_top.env.master_agent.drv [ahb_master_driver] Driving [AHB_READ]: HADDR=0x0000d1a9, HBURST=AHB_BURST_SINGLE, HSIZE=AHB_SIZE_8B, 1 beats               
# UVM_INFO ../src/mst/ahb_master_driver.sv(332) @ 2095000: uvm_test_top.env.master_agent.drv [ahb_master_driver] Beat[0/1] addr=0x0000d1a9 trans=AHB_TRANS_NONSEQ resp=AHB_RESP_OKAY rdata=0x69b054f8
# UVM_INFO ../src/mst/ahb_master_driver.sv(376) @ 2095000: uvm_test_top.env.master_agent.drv [ahb_master_driver] Transaction complete: AHB_READ 0x0000d1a9, 1 beats, burst=AHB_BURST_SINGLE
# UVM_INFO ../src/slv/ahb_slave_driver.sv(184) @ 2095000: uvm_test_top.env.slave_agent.drv [ahb_slave_driver] Beat AHB_READ addr=0x0000d1a9 resp=AHB_RESP_OKAY waits=16 rdata=0x69b054f8
# UVM_INFO ../src/slv/ahb_slave_monitor.sv(212) @ 2095000: uvm_test_top.env.slave_agent.mon [ahb_slave_monitor] Observed [AHB_READ]: HADDR=0x0000d1a9, HBURST=AHB_BURST_SINGLE, HSIZE=AHB_SIZE_8B, 1 beats
# UVM_INFO ../src/env/ahb_coverage.sv(174) @ 2095000: uvm_test_top.env.slave_cov [ahb_coverage] Sampled [AHB_READ]: burst=AHB_BURST_SINGLE size=AHB_SIZE_8B beats=1 error=0
# UVM_INFO ../src/mst/ahb_master_monitor.sv(128) @ 2095000: uvm_test_top.env.master_agent.mon [ahb_master_monitor] Beat[0] addr=0x0000d1a9 rdata=0x69b054f8 resp=AHB_RESP_OKAY
# UVM_INFO ../src/mst/ahb_master_monitor.sv(231) @ 2095000: uvm_test_top.env.master_agent.mon [ahb_master_monitor] Observed [AHB_READ]: HADDR=0x0000d1a9, HBURST=AHB_BURST_SINGLE, HSIZE=AHB_SIZE_8B, 1 beats
# UVM_INFO ../src/env/ahb_coverage.sv(174) @ 2095000: uvm_test_top.env.master_cov [ahb_coverage] Sampled [AHB_READ]: burst=AHB_BURST_SINGLE size=AHB_SIZE_8B beats=1 error=0
# UVM_INFO ../src/env/ahb_scoreboard.sv(104) @ 2095000: uvm_test_top.env.scb [ahb_scoreboard] MATCH #14: [AHB_READ] HADDR=0x0000d1a9 AHB_BURST_SINGLE 1 beats
# UVM_INFO ../src/mst_seq/ahb_base_seq.sv(157) @ 2095000: uvm_test_top.env.master_agent.sqr@@seq [ahb_wait_state_seq] AHB_BURST_SINGLE AHB_SIZE_8B beat 0 @0x0000d1a9 ok
# UVM_INFO ../src/mst_seq/ahb_wait_state_seq.sv(166) @ 2095000: uvm_test_top.env.master_agent.sqr@@seq [ahb_wait_state_seq] AHB_BURST_SINGLE AHB_SIZE_16B @0x0000d1f0, 1 beats, waits=0:16, pipelined=1
# UVM_INFO ../src/mst/ahb_master_driver.sv(85) @ 2095000: uvm_test_top.env.master_agent.drv [ahb_master_driver] Queueing [AHB_WRITE]: HADDR=0x0000d1f0, HBURST=AHB_BURST_SINGLE, HSIZE=AHB_SIZE_16B, 1 beats
# UVM_INFO ../src/mst/ahb_master_driver.sv(127) @ 2095000: uvm_test_top.env.master_agent.drv [ahb_master_driver] Driving [AHB_WRITE]: HADDR=0x0000d1f0, HBURST=AHB_BURST_SINGLE, HSIZE=AHB_SIZE_16B, 1 beats               
# UVM_INFO ../src/mst/ahb_master_driver.sv(85) @ 2095000: uvm_test_top.env.master_agent.drv [ahb_master_driver] Queueing [AHB_READ]: HADDR=0x0000d1f0, HBURST=AHB_BURST_SINGLE, HSIZE=AHB_SIZE_16B, 1 beats
# UVM_INFO ../src/mst/ahb_master_driver.sv(332) @ 2285000: uvm_test_top.env.master_agent.drv [ahb_master_driver] Beat[0/1] addr=0x0000d1f0 trans=AHB_TRANS_NONSEQ resp=AHB_RESP_OKAY wdata=0x48892cd7
# UVM_INFO ../src/mst/ahb_master_driver.sv(376) @ 2285000: uvm_test_top.env.master_agent.drv [ahb_master_driver] Transaction complete: AHB_WRITE 0x0000d1f0, 1 beats, burst=AHB_BURST_SINGLE
# UVM_INFO ../src/mst/ahb_master_driver.sv(127) @ 2285000: uvm_test_top.env.master_agent.drv [ahb_master_driver] Driving [AHB_READ]: HADDR=0x0000d1f0, HBURST=AHB_BURST_SINGLE, HSIZE=AHB_SIZE_16B, 1 beats (back-to-back)
# UVM_INFO ../src/slv/ahb_slave_driver.sv(184) @ 2285000: uvm_test_top.env.slave_agent.drv [ahb_slave_driver] Beat AHB_WRITE addr=0x0000d1f0 resp=AHB_RESP_OKAY waits=16 wdata=0x48892cd7
# UVM_INFO ../src/mst/ahb_master_monitor.sv(128) @ 2285000: uvm_test_top.env.master_agent.mon [ahb_master_monitor] Beat[0] addr=0x0000d1f0 wdata=0x48892cd7 resp=AHB_RESP_OKAY
# UVM_INFO ../src/mst/ahb_master_monitor.sv(231) @ 2285000: uvm_test_top.env.master_agent.mon [ahb_master_monitor] Observed [AHB_WRITE]: HADDR=0x0000d1f0, HBURST=AHB_BURST_SINGLE, HSIZE=AHB_SIZE_16B, 1 beats
# UVM_INFO ../src/env/ahb_coverage.sv(174) @ 2285000: uvm_test_top.env.master_cov [ahb_coverage] Sampled [AHB_WRITE]: burst=AHB_BURST_SINGLE size=AHB_SIZE_16B beats=1 error=0
# UVM_INFO ../src/slv/ahb_slave_monitor.sv(212) @ 2285000: uvm_test_top.env.slave_agent.mon [ahb_slave_monitor] Observed [AHB_WRITE]: HADDR=0x0000d1f0, HBURST=AHB_BURST_SINGLE, HSIZE=AHB_SIZE_16B, 1 beats
# UVM_INFO ../src/env/ahb_scoreboard.sv(104) @ 2285000: uvm_test_top.env.scb [ahb_scoreboard] MATCH #15: [AHB_WRITE] HADDR=0x0000d1f0 AHB_BURST_SINGLE 1 beats
# UVM_INFO ../src/env/ahb_coverage.sv(174) @ 2285000: uvm_test_top.env.slave_cov [ahb_coverage] Sampled [AHB_WRITE]: burst=AHB_BURST_SINGLE size=AHB_SIZE_16B beats=1 error=0
# UVM_INFO ../src/mst/ahb_master_driver.sv(332) @ 2375000: uvm_test_top.env.master_agent.drv [ahb_master_driver] Beat[0/1] addr=0x0000d1f0 trans=AHB_TRANS_NONSEQ resp=AHB_RESP_OKAY rdata=0x48892cd7
# UVM_INFO ../src/mst/ahb_master_driver.sv(376) @ 2375000: uvm_test_top.env.master_agent.drv [ahb_master_driver] Transaction complete: AHB_READ 0x0000d1f0, 1 beats, burst=AHB_BURST_SINGLE
# UVM_INFO ../src/slv/ahb_slave_driver.sv(184) @ 2375000: uvm_test_top.env.slave_agent.drv [ahb_slave_driver] Beat AHB_READ addr=0x0000d1f0 resp=AHB_RESP_OKAY waits=8 rdata=0x48892cd7
# UVM_INFO ../src/slv/ahb_slave_monitor.sv(212) @ 2375000: uvm_test_top.env.slave_agent.mon [ahb_slave_monitor] Observed [AHB_READ]: HADDR=0x0000d1f0, HBURST=AHB_BURST_SINGLE, HSIZE=AHB_SIZE_16B, 1 beats
# UVM_INFO ../src/env/ahb_coverage.sv(174) @ 2375000: uvm_test_top.env.slave_cov [ahb_coverage] Sampled [AHB_READ]: burst=AHB_BURST_SINGLE size=AHB_SIZE_16B beats=1 error=0
# UVM_INFO ../src/mst/ahb_master_monitor.sv(128) @ 2375000: uvm_test_top.env.master_agent.mon [ahb_master_monitor] Beat[0] addr=0x0000d1f0 rdata=0x48892cd7 resp=AHB_RESP_OKAY
# UVM_INFO ../src/mst/ahb_master_monitor.sv(231) @ 2375000: uvm_test_top.env.master_agent.mon [ahb_master_monitor] Observed [AHB_READ]: HADDR=0x0000d1f0, HBURST=AHB_BURST_SINGLE, HSIZE=AHB_SIZE_16B, 1 beats
# UVM_INFO ../src/env/ahb_coverage.sv(174) @ 2375000: uvm_test_top.env.master_cov [ahb_coverage] Sampled [AHB_READ]: burst=AHB_BURST_SINGLE size=AHB_SIZE_16B beats=1 error=0
# UVM_INFO ../src/env/ahb_scoreboard.sv(104) @ 2375000: uvm_test_top.env.scb [ahb_scoreboard] MATCH #16: [AHB_READ] HADDR=0x0000d1f0 AHB_BURST_SINGLE 1 beats
# UVM_INFO ../src/mst_seq/ahb_base_seq.sv(157) @ 2375000: uvm_test_top.env.master_agent.sqr@@seq [ahb_wait_state_seq] AHB_BURST_SINGLE AHB_SIZE_16B beat 0 @0x0000d1f0 ok
# UVM_INFO ../src/mst_seq/ahb_wait_state_seq.sv(166) @ 2375000: uvm_test_top.env.master_agent.sqr@@seq [ahb_wait_state_seq] AHB_BURST_SINGLE AHB_SIZE_16B @0x0000d208, 1 beats, waits=0:0, pipelined=0
# UVM_INFO ../src/mst/ahb_master_driver.sv(85) @ 2375000: uvm_test_top.env.master_agent.drv [ahb_master_driver] Queueing [AHB_WRITE]: HADDR=0x0000d208, HBURST=AHB_BURST_SINGLE, HSIZE=AHB_SIZE_16B, 1 beats
# UVM_INFO ../src/mst/ahb_master_driver.sv(127) @ 2375000: uvm_test_top.env.master_agent.drv [ahb_master_driver] Driving [AHB_WRITE]: HADDR=0x0000d208, HBURST=AHB_BURST_SINGLE, HSIZE=AHB_SIZE_16B, 1 beats               
# UVM_INFO ../src/mst/ahb_master_driver.sv(332) @ 2405000: uvm_test_top.env.master_agent.drv [ahb_master_driver] Beat[0/1] addr=0x0000d208 trans=AHB_TRANS_NONSEQ resp=AHB_RESP_OKAY wdata=0xdd648140
# UVM_INFO ../src/mst/ahb_master_driver.sv(376) @ 2405000: uvm_test_top.env.master_agent.drv [ahb_master_driver] Transaction complete: AHB_WRITE 0x0000d208, 1 beats, burst=AHB_BURST_SINGLE
# UVM_INFO ../src/slv/ahb_slave_driver.sv(184) @ 2405000: uvm_test_top.env.slave_agent.drv [ahb_slave_driver] Beat AHB_WRITE addr=0x0000d208 resp=AHB_RESP_OKAY waits=0 wdata=0xdd648140
# UVM_INFO ../src/mst/ahb_master_monitor.sv(128) @ 2405000: uvm_test_top.env.master_agent.mon [ahb_master_monitor] Beat[0] addr=0x0000d208 wdata=0xdd648140 resp=AHB_RESP_OKAY
# UVM_INFO ../src/mst/ahb_master_monitor.sv(231) @ 2405000: uvm_test_top.env.master_agent.mon [ahb_master_monitor] Observed [AHB_WRITE]: HADDR=0x0000d208, HBURST=AHB_BURST_SINGLE, HSIZE=AHB_SIZE_16B, 1 beats
# UVM_INFO ../src/env/ahb_coverage.sv(174) @ 2405000: uvm_test_top.env.master_cov [ahb_coverage] Sampled [AHB_WRITE]: burst=AHB_BURST_SINGLE size=AHB_SIZE_16B beats=1 error=0
# UVM_INFO ../src/slv/ahb_slave_monitor.sv(212) @ 2405000: uvm_test_top.env.slave_agent.mon [ahb_slave_monitor] Observed [AHB_WRITE]: HADDR=0x0000d208, HBURST=AHB_BURST_SINGLE, HSIZE=AHB_SIZE_16B, 1 beats
# UVM_INFO ../src/env/ahb_scoreboard.sv(104) @ 2405000: uvm_test_top.env.scb [ahb_scoreboard] MATCH #17: [AHB_WRITE] HADDR=0x0000d208 AHB_BURST_SINGLE 1 beats
# UVM_INFO ../src/env/ahb_coverage.sv(174) @ 2405000: uvm_test_top.env.slave_cov [ahb_coverage] Sampled [AHB_WRITE]: burst=AHB_BURST_SINGLE size=AHB_SIZE_16B beats=1 error=0
# UVM_INFO ../src/mst/ahb_master_driver.sv(85) @ 2405000: uvm_test_top.env.master_agent.drv [ahb_master_driver] Queueing [AHB_READ]: HADDR=0x0000d208, HBURST=AHB_BURST_SINGLE, HSIZE=AHB_SIZE_16B, 1 beats
# UVM_INFO ../src/mst/ahb_master_driver.sv(127) @ 2405000: uvm_test_top.env.master_agent.drv [ahb_master_driver] Driving [AHB_READ]: HADDR=0x0000d208, HBURST=AHB_BURST_SINGLE, HSIZE=AHB_SIZE_16B, 1 beats               
# UVM_INFO ../src/mst/ahb_master_driver.sv(332) @ 2435000: uvm_test_top.env.master_agent.drv [ahb_master_driver] Beat[0/1] addr=0x0000d208 trans=AHB_TRANS_NONSEQ resp=AHB_RESP_OKAY rdata=0xdd648140
# UVM_INFO ../src/mst/ahb_master_driver.sv(376) @ 2435000: uvm_test_top.env.master_agent.drv [ahb_master_driver] Transaction complete: AHB_READ 0x0000d208, 1 beats, burst=AHB_BURST_SINGLE
# UVM_INFO ../src/slv/ahb_slave_driver.sv(184) @ 2435000: uvm_test_top.env.slave_agent.drv [ahb_slave_driver] Beat AHB_READ addr=0x0000d208 resp=AHB_RESP_OKAY waits=0 rdata=0xdd648140
# UVM_INFO ../src/slv/ahb_slave_monitor.sv(212) @ 2435000: uvm_test_top.env.slave_agent.mon [ahb_slave_monitor] Observed [AHB_READ]: HADDR=0x0000d208, HBURST=AHB_BURST_SINGLE, HSIZE=AHB_SIZE_16B, 1 beats
# UVM_INFO ../src/env/ahb_coverage.sv(174) @ 2435000: uvm_test_top.env.slave_cov [ahb_coverage] Sampled [AHB_READ]: burst=AHB_BURST_SINGLE size=AHB_SIZE_16B beats=1 error=0
# UVM_INFO ../src/mst/ahb_master_monitor.sv(128) @ 2435000: uvm_test_top.env.master_agent.mon [ahb_master_monitor] Beat[0] addr=0x0000d208 rdata=0xdd648140 resp=AHB_RESP_OKAY
# UVM_INFO ../src/mst/ahb_master_monitor.sv(231) @ 2435000: uvm_test_top.env.master_agent.mon [ahb_master_monitor] Observed [AHB_READ]: HADDR=0x0000d208, HBURST=AHB_BURST_SINGLE, HSIZE=AHB_SIZE_16B, 1 beats
# UVM_INFO ../src/env/ahb_coverage.sv(174) @ 2435000: uvm_test_top.env.master_cov [ahb_coverage] Sampled [AHB_READ]: burst=AHB_BURST_SINGLE size=AHB_SIZE_16B beats=1 error=0
# UVM_INFO ../src/env/ahb_scoreboard.sv(104) @ 2435000: uvm_test_top.env.scb [ahb_scoreboard] MATCH #18: [AHB_READ] HADDR=0x0000d208 AHB_BURST_SINGLE 1 beats
# UVM_INFO ../src/mst_seq/ahb_base_seq.sv(157) @ 2435000: uvm_test_top.env.master_agent.sqr@@seq [ahb_wait_state_seq] AHB_BURST_SINGLE AHB_SIZE_16B beat 0 @0x0000d208 ok
# UVM_INFO ../src/mst_seq/ahb_wait_state_seq.sv(166) @ 2435000: uvm_test_top.env.master_agent.sqr@@seq [ahb_wait_state_seq] AHB_BURST_SINGLE AHB_SIZE_16B @0x0000d254, 1 beats, waits=1:1, pipelined=1
# UVM_INFO ../src/mst/ahb_master_driver.sv(85) @ 2435000: uvm_test_top.env.master_agent.drv [ahb_master_driver] Queueing [AHB_WRITE]: HADDR=0x0000d254, HBURST=AHB_BURST_SINGLE, HSIZE=AHB_SIZE_16B, 1 beats
# UVM_INFO ../src/mst/ahb_master_driver.sv(127) @ 2435000: uvm_test_top.env.master_agent.drv [ahb_master_driver] Driving [AHB_WRITE]: HADDR=0x0000d254, HBURST=AHB_BURST_SINGLE, HSIZE=AHB_SIZE_16B, 1 beats               
# UVM_INFO ../src/mst/ahb_master_driver.sv(85) @ 2435000: uvm_test_top.env.master_agent.drv [ahb_master_driver] Queueing [AHB_READ]: HADDR=0x0000d254, HBURST=AHB_BURST_SINGLE, HSIZE=AHB_SIZE_16B, 1 beats
# UVM_INFO ../src/mst/ahb_master_driver.sv(332) @ 2475000: uvm_test_top.env.master_agent.drv [ahb_master_driver] Beat[0/1] addr=0x0000d254 trans=AHB_TRANS_NONSEQ resp=AHB_RESP_OKAY wdata=0xfb2be9f7
# UVM_INFO ../src/mst/ahb_master_driver.sv(376) @ 2475000: uvm_test_top.env.master_agent.drv [ahb_master_driver] Transaction complete: AHB_WRITE 0x0000d254, 1 beats, burst=AHB_BURST_SINGLE
# UVM_INFO ../src/mst/ahb_master_driver.sv(127) @ 2475000: uvm_test_top.env.master_agent.drv [ahb_master_driver] Driving [AHB_READ]: HADDR=0x0000d254, HBURST=AHB_BURST_SINGLE, HSIZE=AHB_SIZE_16B, 1 beats (back-to-back)
# UVM_INFO ../src/slv/ahb_slave_driver.sv(184) @ 2475000: uvm_test_top.env.slave_agent.drv [ahb_slave_driver] Beat AHB_WRITE addr=0x0000d254 resp=AHB_RESP_OKAY waits=1 wdata=0xfb2be9f7
# UVM_INFO ../src/slv/ahb_slave_monitor.sv(212) @ 2475000: uvm_test_top.env.slave_agent.mon [ahb_slave_monitor] Observed [AHB_WRITE]: HADDR=0x0000d254, HBURST=AHB_BURST_SINGLE, HSIZE=AHB_SIZE_16B, 1 beats
# UVM_INFO ../src/env/ahb_coverage.sv(174) @ 2475000: uvm_test_top.env.slave_cov [ahb_coverage] Sampled [AHB_WRITE]: burst=AHB_BURST_SINGLE size=AHB_SIZE_16B beats=1 error=0
# UVM_INFO ../src/mst/ahb_master_monitor.sv(128) @ 2475000: uvm_test_top.env.master_agent.mon [ahb_master_monitor] Beat[0] addr=0x0000d254 wdata=0xfb2be9f7 resp=AHB_RESP_OKAY
# UVM_INFO ../src/mst/ahb_master_monitor.sv(231) @ 2475000: uvm_test_top.env.master_agent.mon [ahb_master_monitor] Observed [AHB_WRITE]: HADDR=0x0000d254, HBURST=AHB_BURST_SINGLE, HSIZE=AHB_SIZE_16B, 1 beats
# UVM_INFO ../src/env/ahb_coverage.sv(174) @ 2475000: uvm_test_top.env.master_cov [ahb_coverage] Sampled [AHB_WRITE]: burst=AHB_BURST_SINGLE size=AHB_SIZE_16B beats=1 error=0
# UVM_INFO ../src/env/ahb_scoreboard.sv(104) @ 2475000: uvm_test_top.env.scb [ahb_scoreboard] MATCH #19: [AHB_WRITE] HADDR=0x0000d254 AHB_BURST_SINGLE 1 beats
# UVM_INFO ../src/mst/ahb_master_driver.sv(332) @ 2495000: uvm_test_top.env.master_agent.drv [ahb_master_driver] Beat[0/1] addr=0x0000d254 trans=AHB_TRANS_NONSEQ resp=AHB_RESP_OKAY rdata=0xfb2be9f7
# UVM_INFO ../src/mst/ahb_master_driver.sv(376) @ 2495000: uvm_test_top.env.master_agent.drv [ahb_master_driver] Transaction complete: AHB_READ 0x0000d254, 1 beats, burst=AHB_BURST_SINGLE
# UVM_INFO ../src/slv/ahb_slave_driver.sv(184) @ 2495000: uvm_test_top.env.slave_agent.drv [ahb_slave_driver] Beat AHB_READ addr=0x0000d254 resp=AHB_RESP_OKAY waits=1 rdata=0xfb2be9f7
# UVM_INFO ../src/slv/ahb_slave_monitor.sv(212) @ 2495000: uvm_test_top.env.slave_agent.mon [ahb_slave_monitor] Observed [AHB_READ]: HADDR=0x0000d254, HBURST=AHB_BURST_SINGLE, HSIZE=AHB_SIZE_16B, 1 beats
# UVM_INFO ../src/env/ahb_coverage.sv(174) @ 2495000: uvm_test_top.env.slave_cov [ahb_coverage] Sampled [AHB_READ]: burst=AHB_BURST_SINGLE size=AHB_SIZE_16B beats=1 error=0
# UVM_INFO ../src/mst/ahb_master_monitor.sv(128) @ 2495000: uvm_test_top.env.master_agent.mon [ahb_master_monitor] Beat[0] addr=0x0000d254 rdata=0xfb2be9f7 resp=AHB_RESP_OKAY
# UVM_INFO ../src/mst/ahb_master_monitor.sv(231) @ 2495000: uvm_test_top.env.master_agent.mon [ahb_master_monitor] Observed [AHB_READ]: HADDR=0x0000d254, HBURST=AHB_BURST_SINGLE, HSIZE=AHB_SIZE_16B, 1 beats
# UVM_INFO ../src/env/ahb_coverage.sv(174) @ 2495000: uvm_test_top.env.master_cov [ahb_coverage] Sampled [AHB_READ]: burst=AHB_BURST_SINGLE size=AHB_SIZE_16B beats=1 error=0
# UVM_INFO ../src/env/ahb_scoreboard.sv(104) @ 2495000: uvm_test_top.env.scb [ahb_scoreboard] MATCH #20: [AHB_READ] HADDR=0x0000d254 AHB_BURST_SINGLE 1 beats
# UVM_INFO ../src/mst_seq/ahb_base_seq.sv(157) @ 2495000: uvm_test_top.env.master_agent.sqr@@seq [ahb_wait_state_seq] AHB_BURST_SINGLE AHB_SIZE_16B beat 0 @0x0000d254 ok
# UVM_INFO ../src/mst_seq/ahb_wait_state_seq.sv(166) @ 2495000: uvm_test_top.env.master_agent.sqr@@seq [ahb_wait_state_seq] AHB_BURST_SINGLE AHB_SIZE_8B @0x0000d290, 1 beats, waits=2:2, pipelined=0
# UVM_INFO ../src/mst/ahb_master_driver.sv(85) @ 2495000: uvm_test_top.env.master_agent.drv [ahb_master_driver] Queueing [AHB_WRITE]: HADDR=0x0000d290, HBURST=AHB_BURST_SINGLE, HSIZE=AHB_SIZE_8B, 1 beats
# UVM_INFO ../src/mst/ahb_master_driver.sv(127) @ 2495000: uvm_test_top.env.master_agent.drv [ahb_master_driver] Driving [AHB_WRITE]: HADDR=0x0000d290, HBURST=AHB_BURST_SINGLE, HSIZE=AHB_SIZE_8B, 1 beats               
# UVM_INFO ../src/mst/ahb_master_driver.sv(332) @ 2545000: uvm_test_top.env.master_agent.drv [ahb_master_driver] Beat[0/1] addr=0x0000d290 trans=AHB_TRANS_NONSEQ resp=AHB_RESP_OKAY wdata=0x4f3b89fd
# UVM_INFO ../src/mst/ahb_master_driver.sv(376) @ 2545000: uvm_test_top.env.master_agent.drv [ahb_master_driver] Transaction complete: AHB_WRITE 0x0000d290, 1 beats, burst=AHB_BURST_SINGLE
# UVM_INFO ../src/slv/ahb_slave_driver.sv(184) @ 2545000: uvm_test_top.env.slave_agent.drv [ahb_slave_driver] Beat AHB_WRITE addr=0x0000d290 resp=AHB_RESP_OKAY waits=2 wdata=0x4f3b89fd
# UVM_INFO ../src/mst/ahb_master_monitor.sv(128) @ 2545000: uvm_test_top.env.master_agent.mon [ahb_master_monitor] Beat[0] addr=0x0000d290 wdata=0x4f3b89fd resp=AHB_RESP_OKAY
# UVM_INFO ../src/mst/ahb_master_monitor.sv(231) @ 2545000: uvm_test_top.env.master_agent.mon [ahb_master_monitor] Observed [AHB_WRITE]: HADDR=0x0000d290, HBURST=AHB_BURST_SINGLE, HSIZE=AHB_SIZE_8B, 1 beats
# UVM_INFO ../src/env/ahb_coverage.sv(174) @ 2545000: uvm_test_top.env.master_cov [ahb_coverage] Sampled [AHB_WRITE]: burst=AHB_BURST_SINGLE size=AHB_SIZE_8B beats=1 error=0
# UVM_INFO ../src/slv/ahb_slave_monitor.sv(212) @ 2545000: uvm_test_top.env.slave_agent.mon [ahb_slave_monitor] Observed [AHB_WRITE]: HADDR=0x0000d290, HBURST=AHB_BURST_SINGLE, HSIZE=AHB_SIZE_8B, 1 beats
# UVM_INFO ../src/env/ahb_scoreboard.sv(104) @ 2545000: uvm_test_top.env.scb [ahb_scoreboard] MATCH #21: [AHB_WRITE] HADDR=0x0000d290 AHB_BURST_SINGLE 1 beats
# UVM_INFO ../src/env/ahb_coverage.sv(174) @ 2545000: uvm_test_top.env.slave_cov [ahb_coverage] Sampled [AHB_WRITE]: burst=AHB_BURST_SINGLE size=AHB_SIZE_8B beats=1 error=0
# UVM_INFO ../src/mst/ahb_master_driver.sv(85) @ 2545000: uvm_test_top.env.master_agent.drv [ahb_master_driver] Queueing [AHB_READ]: HADDR=0x0000d290, HBURST=AHB_BURST_SINGLE, HSIZE=AHB_SIZE_8B, 1 beats
# UVM_INFO ../src/mst/ahb_master_driver.sv(127) @ 2545000: uvm_test_top.env.master_agent.drv [ahb_master_driver] Driving [AHB_READ]: HADDR=0x0000d290, HBURST=AHB_BURST_SINGLE, HSIZE=AHB_SIZE_8B, 1 beats               
# UVM_INFO ../src/mst/ahb_master_driver.sv(332) @ 2595000: uvm_test_top.env.master_agent.drv [ahb_master_driver] Beat[0/1] addr=0x0000d290 trans=AHB_TRANS_NONSEQ resp=AHB_RESP_OKAY rdata=0x4f3b89fd
# UVM_INFO ../src/mst/ahb_master_driver.sv(376) @ 2595000: uvm_test_top.env.master_agent.drv [ahb_master_driver] Transaction complete: AHB_READ 0x0000d290, 1 beats, burst=AHB_BURST_SINGLE
# UVM_INFO ../src/slv/ahb_slave_driver.sv(184) @ 2595000: uvm_test_top.env.slave_agent.drv [ahb_slave_driver] Beat AHB_READ addr=0x0000d290 resp=AHB_RESP_OKAY waits=2 rdata=0x4f3b89fd
# UVM_INFO ../src/slv/ahb_slave_monitor.sv(212) @ 2595000: uvm_test_top.env.slave_agent.mon [ahb_slave_monitor] Observed [AHB_READ]: HADDR=0x0000d290, HBURST=AHB_BURST_SINGLE, HSIZE=AHB_SIZE_8B, 1 beats
# UVM_INFO ../src/env/ahb_coverage.sv(174) @ 2595000: uvm_test_top.env.slave_cov [ahb_coverage] Sampled [AHB_READ]: burst=AHB_BURST_SINGLE size=AHB_SIZE_8B beats=1 error=0
# UVM_INFO ../src/mst/ahb_master_monitor.sv(128) @ 2595000: uvm_test_top.env.master_agent.mon [ahb_master_monitor] Beat[0] addr=0x0000d290 rdata=0x4f3b89fd resp=AHB_RESP_OKAY
# UVM_INFO ../src/mst/ahb_master_monitor.sv(231) @ 2595000: uvm_test_top.env.master_agent.mon [ahb_master_monitor] Observed [AHB_READ]: HADDR=0x0000d290, HBURST=AHB_BURST_SINGLE, HSIZE=AHB_SIZE_8B, 1 beats
# UVM_INFO ../src/env/ahb_coverage.sv(174) @ 2595000: uvm_test_top.env.master_cov [ahb_coverage] Sampled [AHB_READ]: burst=AHB_BURST_SINGLE size=AHB_SIZE_8B beats=1 error=0
# UVM_INFO ../src/env/ahb_scoreboard.sv(104) @ 2595000: uvm_test_top.env.scb [ahb_scoreboard] MATCH #22: [AHB_READ] HADDR=0x0000d290 AHB_BURST_SINGLE 1 beats
# UVM_INFO ../src/mst_seq/ahb_base_seq.sv(157) @ 2595000: uvm_test_top.env.master_agent.sqr@@seq [ahb_wait_state_seq] AHB_BURST_SINGLE AHB_SIZE_8B beat 0 @0x0000d290 ok
# UVM_INFO ../src/mst_seq/ahb_wait_state_seq.sv(166) @ 2595000: uvm_test_top.env.master_agent.sqr@@seq [ahb_wait_state_seq] AHB_BURST_INCR4 AHB_SIZE_8B @0x0000d2e7, 4 beats, waits=3:3, pipelined=1
# UVM_INFO ../src/mst/ahb_master_driver.sv(85) @ 2595000: uvm_test_top.env.master_agent.drv [ahb_master_driver] Queueing [AHB_WRITE]: HADDR=0x0000d2e7, HBURST=AHB_BURST_INCR4, HSIZE=AHB_SIZE_8B, 4 beats
# UVM_INFO ../src/mst/ahb_master_driver.sv(127) @ 2595000: uvm_test_top.env.master_agent.drv [ahb_master_driver] Driving [AHB_WRITE]: HADDR=0x0000d2e7, HBURST=AHB_BURST_INCR4, HSIZE=AHB_SIZE_8B, 4 beats               
# UVM_INFO ../src/mst/ahb_master_driver.sv(85) @ 2595000: uvm_test_top.env.master_agent.drv [ahb_master_driver] Queueing [AHB_READ]: HADDR=0x0000d2e7, HBURST=AHB_BURST_INCR4, HSIZE=AHB_SIZE_8B, 4 beats
# UVM_INFO ../src/mst/ahb_master_driver.sv(332) @ 2655000: uvm_test_top.env.master_agent.drv [ahb_master_driver] Beat[0/4] addr=0x0000d2e7 trans=AHB_TRANS_NONSEQ resp=AHB_RESP_OKAY wdata=0x41e1f63b
# UVM_INFO ../src/slv/ahb_slave_driver.sv(184) @ 2655000: uvm_test_top.env.slave_agent.drv [ahb_slave_driver] Beat AHB_WRITE addr=0x0000d2e7 resp=AHB_RESP_OKAY waits=3 wdata=0x41e1f63b
# UVM_INFO ../src/mst/ahb_master_monitor.sv(128) @ 2655000: uvm_test_top.env.master_agent.mon [ahb_master_monitor] Beat[0] addr=0x0000d2e7 wdata=0x41e1f63b resp=AHB_RESP_OKAY
# UVM_INFO ../src/mst/ahb_master_driver.sv(332) @ 2695000: uvm_test_top.env.master_agent.drv [ahb_master_driver] Beat[1/4] addr=0x0000d2e8 trans=AHB_TRANS_SEQ resp=AHB_RESP_OKAY wdata=0x948833cd
# UVM_INFO ../src/slv/ahb_slave_driver.sv(184) @ 2695000: uvm_test_top.env.slave_agent.drv [ahb_slave_driver] Beat AHB_WRITE addr=0x0000d2e8 resp=AHB_RESP_OKAY waits=3 wdata=0x948833cd
# UVM_INFO ../src/mst/ahb_master_monitor.sv(128) @ 2695000: uvm_test_top.env.master_agent.mon [ahb_master_monitor] Beat[1] addr=0x0000d2e8 wdata=0x948833cd resp=AHB_RESP_OKAY
# UVM_INFO ../src/mst/ahb_master_driver.sv(332) @ 2735000: uvm_test_top.env.master_agent.drv [ahb_master_driver] Beat[2/4] addr=0x0000d2e9 trans=AHB_TRANS_SEQ resp=AHB_RESP_OKAY wdata=0x3067b354
# UVM_INFO ../src/slv/ahb_slave_driver.sv(184) @ 2735000: uvm_test_top.env.slave_agent.drv [ahb_slave_driver] Beat AHB_WRITE addr=0x0000d2e9 resp=AHB_RESP_OKAY waits=3 wdata=0x3067b354
# UVM_INFO ../src/mst/ahb_master_monitor.sv(128) @ 2735000: uvm_test_top.env.master_agent.mon [ahb_master_monitor] Beat[2] addr=0x0000d2e9 wdata=0x3067b354 resp=AHB_RESP_OKAY
# UVM_INFO ../src/mst/ahb_master_driver.sv(332) @ 2775000: uvm_test_top.env.master_agent.drv [ahb_master_driver] Beat[3/4] addr=0x0000d2ea trans=AHB_TRANS_SEQ resp=AHB_RESP_OKAY wdata=0xad4138e4
# UVM_INFO ../src/mst/ahb_master_driver.sv(376) @ 2775000: uvm_test_top.env.master_agent.drv [ahb_master_driver] Transaction complete: AHB_WRITE 0x0000d2e7, 4 beats, burst=AHB_BURST_INCR4
# UVM_INFO ../src/mst/ahb_master_driver.sv(127) @ 2775000: uvm_test_top.env.master_agent.drv [ahb_master_driver] Driving [AHB_READ]: HADDR=0x0000d2e7, HBURST=AHB_BURST_INCR4, HSIZE=AHB_SIZE_8B, 4 beats (back-to-back)
# UVM_INFO ../src/slv/ahb_slave_driver.sv(184) @ 2775000: uvm_test_top.env.slave_agent.drv [ahb_slave_driver] Beat AHB_WRITE addr=0x0000d2ea resp=AHB_RESP_OKAY waits=3 wdata=0xad4138e4
# UVM_INFO ../src/slv/ahb_slave_monitor.sv(212) @ 2775000: uvm_test_top.env.slave_agent.mon [ahb_slave_monitor] Observed [AHB_WRITE]: HADDR=0x0000d2e7, HBURST=AHB_BURST_INCR4, HSIZE=AHB_SIZE_8B, 4 beats
# UVM_INFO ../src/env/ahb_coverage.sv(174) @ 2775000: uvm_test_top.env.slave_cov [ahb_coverage] Sampled [AHB_WRITE]: burst=AHB_BURST_INCR4 size=AHB_SIZE_8B beats=4 error=0
# UVM_INFO ../src/mst/ahb_master_monitor.sv(128) @ 2775000: uvm_test_top.env.master_agent.mon [ahb_master_monitor] Beat[3] addr=0x0000d2ea wdata=0xad4138e4 resp=AHB_RESP_OKAY
# UVM_INFO ../src/mst/ahb_master_monitor.sv(231) @ 2775000: uvm_test_top.env.master_agent.mon [ahb_master_monitor] Observed [AHB_WRITE]: HADDR=0x0000d2e7, HBURST=AHB_BURST_INCR4, HSIZE=AHB_SIZE_8B, 4 beats
# UVM_INFO ../src/env/ahb_coverage.sv(174) @ 2775000: uvm_test_top.env.master_cov [ahb_coverage] Sampled [AHB_WRITE]: burst=AHB_BURST_INCR4 size=AHB_SIZE_8B beats=4 error=0
# UVM_INFO ../src/env/ahb_scoreboard.sv(104) @ 2775000: uvm_test_top.env.scb [ahb_scoreboard] MATCH #23: [AHB_WRITE] HADDR=0x0000d2e7 AHB_BURST_INCR4 4 beats
# UVM_INFO ../src/mst/ahb_master_driver.sv(332) @ 2815000: uvm_test_top.env.master_agent.drv [ahb_master_driver] Beat[0/4] addr=0x0000d2e7 trans=AHB_TRANS_NONSEQ resp=AHB_RESP_OKAY rdata=0x41e1f63b
# UVM_INFO ../src/slv/ahb_slave_driver.sv(184) @ 2815000: uvm_test_top.env.slave_agent.drv [ahb_slave_driver] Beat AHB_READ addr=0x0000d2e7 resp=AHB_RESP_OKAY waits=3 rdata=0x41e1f63b
# UVM_INFO ../src/mst/ahb_master_monitor.sv(128) @ 2815000: uvm_test_top.env.master_agent.mon [ahb_master_monitor] Beat[0] addr=0x0000d2e7 rdata=0x41e1f63b resp=AHB_RESP_OKAY
# UVM_INFO ../src/mst/ahb_master_driver.sv(332) @ 2855000: uvm_test_top.env.master_agent.drv [ahb_master_driver] Beat[1/4] addr=0x0000d2e8 trans=AHB_TRANS_SEQ resp=AHB_RESP_OKAY rdata=0x948833cd
# UVM_INFO ../src/slv/ahb_slave_driver.sv(184) @ 2855000: uvm_test_top.env.slave_agent.drv [ahb_slave_driver] Beat AHB_READ addr=0x0000d2e8 resp=AHB_RESP_OKAY waits=3 rdata=0x948833cd
# UVM_INFO ../src/mst/ahb_master_monitor.sv(128) @ 2855000: uvm_test_top.env.master_agent.mon [ahb_master_monitor] Beat[1] addr=0x0000d2e8 rdata=0x948833cd resp=AHB_RESP_OKAY
# UVM_INFO ../src/mst/ahb_master_driver.sv(332) @ 2895000: uvm_test_top.env.master_agent.drv [ahb_master_driver] Beat[2/4] addr=0x0000d2e9 trans=AHB_TRANS_SEQ resp=AHB_RESP_OKAY rdata=0x3067b354
# UVM_INFO ../src/slv/ahb_slave_driver.sv(184) @ 2895000: uvm_test_top.env.slave_agent.drv [ahb_slave_driver] Beat AHB_READ addr=0x0000d2e9 resp=AHB_RESP_OKAY waits=3 rdata=0x3067b354
# UVM_INFO ../src/mst/ahb_master_monitor.sv(128) @ 2895000: uvm_test_top.env.master_agent.mon [ahb_master_monitor] Beat[2] addr=0x0000d2e9 rdata=0x3067b354 resp=AHB_RESP_OKAY
# UVM_INFO ../src/mst/ahb_master_driver.sv(332) @ 2935000: uvm_test_top.env.master_agent.drv [ahb_master_driver] Beat[3/4] addr=0x0000d2ea trans=AHB_TRANS_SEQ resp=AHB_RESP_OKAY rdata=0xad4138e4
# UVM_INFO ../src/mst/ahb_master_driver.sv(376) @ 2935000: uvm_test_top.env.master_agent.drv [ahb_master_driver] Transaction complete: AHB_READ 0x0000d2e7, 4 beats, burst=AHB_BURST_INCR4
# UVM_INFO ../src/slv/ahb_slave_driver.sv(184) @ 2935000: uvm_test_top.env.slave_agent.drv [ahb_slave_driver] Beat AHB_READ addr=0x0000d2ea resp=AHB_RESP_OKAY waits=3 rdata=0xad4138e4
# UVM_INFO ../src/slv/ahb_slave_monitor.sv(212) @ 2935000: uvm_test_top.env.slave_agent.mon [ahb_slave_monitor] Observed [AHB_READ]: HADDR=0x0000d2e7, HBURST=AHB_BURST_INCR4, HSIZE=AHB_SIZE_8B, 4 beats
# UVM_INFO ../src/env/ahb_coverage.sv(174) @ 2935000: uvm_test_top.env.slave_cov [ahb_coverage] Sampled [AHB_READ]: burst=AHB_BURST_INCR4 size=AHB_SIZE_8B beats=4 error=0
# UVM_INFO ../src/mst/ahb_master_monitor.sv(128) @ 2935000: uvm_test_top.env.master_agent.mon [ahb_master_monitor] Beat[3] addr=0x0000d2ea rdata=0xad4138e4 resp=AHB_RESP_OKAY
# UVM_INFO ../src/mst/ahb_master_monitor.sv(231) @ 2935000: uvm_test_top.env.master_agent.mon [ahb_master_monitor] Observed [AHB_READ]: HADDR=0x0000d2e7, HBURST=AHB_BURST_INCR4, HSIZE=AHB_SIZE_8B, 4 beats
# UVM_INFO ../src/env/ahb_coverage.sv(174) @ 2935000: uvm_test_top.env.master_cov [ahb_coverage] Sampled [AHB_READ]: burst=AHB_BURST_INCR4 size=AHB_SIZE_8B beats=4 error=0
# UVM_INFO ../src/env/ahb_scoreboard.sv(104) @ 2935000: uvm_test_top.env.scb [ahb_scoreboard] MATCH #24: [AHB_READ] HADDR=0x0000d2e7 AHB_BURST_INCR4 4 beats
# UVM_INFO ../src/mst_seq/ahb_base_seq.sv(157) @ 2935000: uvm_test_top.env.master_agent.sqr@@seq [ahb_wait_state_seq] AHB_BURST_INCR4 AHB_SIZE_8B beat 0 @0x0000d2e7 ok
# UVM_INFO ../src/mst_seq/ahb_base_seq.sv(157) @ 2935000: uvm_test_top.env.master_agent.sqr@@seq [ahb_wait_state_seq] AHB_BURST_INCR4 AHB_SIZE_8B beat 1 @0x0000d2e8 ok
# UVM_INFO ../src/mst_seq/ahb_base_seq.sv(157) @ 2935000: uvm_test_top.env.master_agent.sqr@@seq [ahb_wait_state_seq] AHB_BURST_INCR4 AHB_SIZE_8B beat 2 @0x0000d2e9 ok
# UVM_INFO ../src/mst_seq/ahb_base_seq.sv(157) @ 2935000: uvm_test_top.env.master_agent.sqr@@seq [ahb_wait_state_seq] AHB_BURST_INCR4 AHB_SIZE_8B beat 3 @0x0000d2ea ok
# UVM_INFO ../src/mst_seq/ahb_wait_state_seq.sv(166) @ 2935000: uvm_test_top.env.master_agent.sqr@@seq [ahb_wait_state_seq] AHB_BURST_WRAP4 AHB_SIZE_16B @0x0000d31a, 4 beats, waits=1:7, pipelined=0
# UVM_INFO ../src/mst/ahb_master_driver.sv(85) @ 2935000: uvm_test_top.env.master_agent.drv [ahb_master_driver] Queueing [AHB_WRITE]: HADDR=0x0000d31a, HBURST=AHB_BURST_WRAP4, HSIZE=AHB_SIZE_16B, 4 beats
# UVM_INFO ../src/mst/ahb_master_driver.sv(127) @ 2935000: uvm_test_top.env.master_agent.drv [ahb_master_driver] Driving [AHB_WRITE]: HADDR=0x0000d31a, HBURST=AHB_BURST_WRAP4, HSIZE=AHB_SIZE_16B, 4 beats               
# UVM_INFO ../src/mst/ahb_master_driver.sv(332) @ 3015000: uvm_test_top.env.master_agent.drv [ahb_master_driver] Beat[0/4] addr=0x0000d31a trans=AHB_TRANS_NONSEQ resp=AHB_RESP_OKAY wdata=0x116faa77
# UVM_INFO ../src/slv/ahb_slave_driver.sv(184) @ 3015000: uvm_test_top.env.slave_agent.drv [ahb_slave_driver] Beat AHB_WRITE addr=0x0000d31a resp=AHB_RESP_OKAY waits=5 wdata=0x116faa77
# UVM_INFO ../src/mst/ahb_master_monitor.sv(128) @ 3015000: uvm_test_top.env.master_agent.mon [ahb_master_monitor] Beat[0] addr=0x0000d31a wdata=0x116faa77 resp=AHB_RESP_OKAY
# UVM_INFO ../src/mst/ahb_master_driver.sv(332) @ 3045000: uvm_test_top.env.master_agent.drv [ahb_master_driver] Beat[1/4] addr=0x0000d31c trans=AHB_TRANS_SEQ resp=AHB_RESP_OKAY wdata=0xda546149
# UVM_INFO ../src/slv/ahb_slave_driver.sv(184) @ 3045000: uvm_test_top.env.slave_agent.drv [ahb_slave_driver] Beat AHB_WRITE addr=0x0000d31c resp=AHB_RESP_OKAY waits=2 wdata=0xda546149
# UVM_INFO ../src/mst/ahb_master_monitor.sv(128) @ 3045000: uvm_test_top.env.master_agent.mon [ahb_master_monitor] Beat[1] addr=0x0000d31c wdata=0xda546149 resp=AHB_RESP_OKAY
# UVM_INFO ../src/mst/ahb_master_driver.sv(332) @ 3085000: uvm_test_top.env.master_agent.drv [ahb_master_driver] Beat[2/4] addr=0x0000d31e trans=AHB_TRANS_SEQ resp=AHB_RESP_OKAY wdata=0xd219f20e
# UVM_INFO ../src/slv/ahb_slave_driver.sv(184) @ 3085000: uvm_test_top.env.slave_agent.drv [ahb_slave_driver] Beat AHB_WRITE addr=0x0000d31e resp=AHB_RESP_OKAY waits=3 wdata=0xd219f20e
# UVM_INFO ../src/mst/ahb_master_monitor.sv(128) @ 3085000: uvm_test_top.env.master_agent.mon [ahb_master_monitor] Beat[2] addr=0x0000d31e wdata=0xd219f20e resp=AHB_RESP_OKAY
# UVM_INFO ../src/mst/ahb_master_driver.sv(332) @ 3155000: uvm_test_top.env.master_agent.drv [ahb_master_driver] Beat[3/4] addr=0x0000d318 trans=AHB_TRANS_SEQ resp=AHB_RESP_OKAY wdata=0x75be32e1
# UVM_INFO ../src/mst/ahb_master_driver.sv(376) @ 3155000: uvm_test_top.env.master_agent.drv [ahb_master_driver] Transaction complete: AHB_WRITE 0x0000d31a, 4 beats, burst=AHB_BURST_WRAP4
# UVM_INFO ../src/slv/ahb_slave_driver.sv(184) @ 3155000: uvm_test_top.env.slave_agent.drv [ahb_slave_driver] Beat AHB_WRITE addr=0x0000d318 resp=AHB_RESP_OKAY waits=6 wdata=0x75be32e1
# UVM_INFO ../src/slv/ahb_slave_monitor.sv(212) @ 3155000: uvm_test_top.env.slave_agent.mon [ahb_slave_monitor] Observed [AHB_WRITE]: HADDR=0x0000d31a, HBURST=AHB_BURST_WRAP4, HSIZE=AHB_SIZE_16B, 4 beats
# UVM_INFO ../src/env/ahb_coverage.sv(174) @ 3155000: uvm_test_top.env.slave_cov [ahb_coverage] Sampled [AHB_WRITE]: burst=AHB_BURST_WRAP4 size=AHB_SIZE_16B beats=4 error=0
# UVM_INFO ../src/mst/ahb_master_monitor.sv(128) @ 3155000: uvm_test_top.env.master_agent.mon [ahb_master_monitor] Beat[3] addr=0x0000d318 wdata=0x75be32e1 resp=AHB_RESP_OKAY
# UVM_INFO ../src/mst/ahb_master_monitor.sv(231) @ 3155000: uvm_test_top.env.master_agent.mon [ahb_master_monitor] Observed [AHB_WRITE]: HADDR=0x0000d31a, HBURST=AHB_BURST_WRAP4, HSIZE=AHB_SIZE_16B, 4 beats
# UVM_INFO ../src/env/ahb_coverage.sv(174) @ 3155000: uvm_test_top.env.master_cov [ahb_coverage] Sampled [AHB_WRITE]: burst=AHB_BURST_WRAP4 size=AHB_SIZE_16B beats=4 error=0
# UVM_INFO ../src/env/ahb_scoreboard.sv(104) @ 3155000: uvm_test_top.env.scb [ahb_scoreboard] MATCH #25: [AHB_WRITE] HADDR=0x0000d31a AHB_BURST_WRAP4 4 beats
# UVM_INFO ../src/mst/ahb_master_driver.sv(85) @ 3155000: uvm_test_top.env.master_agent.drv [ahb_master_driver] Queueing [AHB_READ]: HADDR=0x0000d31a, HBURST=AHB_BURST_WRAP4, HSIZE=AHB_SIZE_16B, 4 beats
# UVM_INFO ../src/mst/ahb_master_driver.sv(127) @ 3155000: uvm_test_top.env.master_agent.drv [ahb_master_driver] Driving [AHB_READ]: HADDR=0x0000d31a, HBURST=AHB_BURST_WRAP4, HSIZE=AHB_SIZE_16B, 4 beats               
# UVM_INFO ../src/mst/ahb_master_driver.sv(332) @ 3205000: uvm_test_top.env.master_agent.drv [ahb_master_driver] Beat[0/4] addr=0x0000d31a trans=AHB_TRANS_NONSEQ resp=AHB_RESP_OKAY rdata=0x116faa77
# UVM_INFO ../src/slv/ahb_slave_driver.sv(184) @ 3205000: uvm_test_top.env.slave_agent.drv [ahb_slave_driver] Beat AHB_READ addr=0x0000d31a resp=AHB_RESP_OKAY waits=2 rdata=0x116faa77
# UVM_INFO ../src/mst/ahb_master_monitor.sv(128) @ 3205000: uvm_test_top.env.master_agent.mon [ahb_master_monitor] Beat[0] addr=0x0000d31a rdata=0x116faa77 resp=AHB_RESP_OKAY
# UVM_INFO ../src/mst/ahb_master_driver.sv(332) @ 3245000: uvm_test_top.env.master_agent.drv [ahb_master_driver] Beat[1/4] addr=0x0000d31c trans=AHB_TRANS_SEQ resp=AHB_RESP_OKAY rdata=0xda546149
# UVM_INFO ../src/slv/ahb_slave_driver.sv(184) @ 3245000: uvm_test_top.env.slave_agent.drv [ahb_slave_driver] Beat AHB_READ addr=0x0000d31c resp=AHB_RESP_OKAY waits=3 rdata=0xda546149
# UVM_INFO ../src/mst/ahb_master_monitor.sv(128) @ 3245000: uvm_test_top.env.master_agent.mon [ahb_master_monitor] Beat[1] addr=0x0000d31c rdata=0xda546149 resp=AHB_RESP_OKAY
# UVM_INFO ../src/mst/ahb_master_driver.sv(332) @ 3295000: uvm_test_top.env.master_agent.drv [ahb_master_driver] Beat[2/4] addr=0x0000d31e trans=AHB_TRANS_SEQ resp=AHB_RESP_OKAY rdata=0xd219f20e
# UVM_INFO ../src/slv/ahb_slave_driver.sv(184) @ 3295000: uvm_test_top.env.slave_agent.drv [ahb_slave_driver] Beat AHB_READ addr=0x0000d31e resp=AHB_RESP_OKAY waits=4 rdata=0xd219f20e
# UVM_INFO ../src/mst/ahb_master_monitor.sv(128) @ 3295000: uvm_test_top.env.master_agent.mon [ahb_master_monitor] Beat[2] addr=0x0000d31e rdata=0xd219f20e resp=AHB_RESP_OKAY
# UVM_INFO ../src/mst/ahb_master_driver.sv(332) @ 3365000: uvm_test_top.env.master_agent.drv [ahb_master_driver] Beat[3/4] addr=0x0000d318 trans=AHB_TRANS_SEQ resp=AHB_RESP_OKAY rdata=0x75be32e1
# UVM_INFO ../src/mst/ahb_master_driver.sv(376) @ 3365000: uvm_test_top.env.master_agent.drv [ahb_master_driver] Transaction complete: AHB_READ 0x0000d31a, 4 beats, burst=AHB_BURST_WRAP4
# UVM_INFO ../src/slv/ahb_slave_driver.sv(184) @ 3365000: uvm_test_top.env.slave_agent.drv [ahb_slave_driver] Beat AHB_READ addr=0x0000d318 resp=AHB_RESP_OKAY waits=6 rdata=0x75be32e1
# UVM_INFO ../src/mst/ahb_master_monitor.sv(128) @ 3365000: uvm_test_top.env.master_agent.mon [ahb_master_monitor] Beat[3] addr=0x0000d318 rdata=0x75be32e1 resp=AHB_RESP_OKAY
# UVM_INFO ../src/mst/ahb_master_monitor.sv(231) @ 3365000: uvm_test_top.env.master_agent.mon [ahb_master_monitor] Observed [AHB_READ]: HADDR=0x0000d31a, HBURST=AHB_BURST_WRAP4, HSIZE=AHB_SIZE_16B, 4 beats
# UVM_INFO ../src/env/ahb_coverage.sv(174) @ 3365000: uvm_test_top.env.master_cov [ahb_coverage] Sampled [AHB_READ]: burst=AHB_BURST_WRAP4 size=AHB_SIZE_16B beats=4 error=0
# UVM_INFO ../src/slv/ahb_slave_monitor.sv(212) @ 3365000: uvm_test_top.env.slave_agent.mon [ahb_slave_monitor] Observed [AHB_READ]: HADDR=0x0000d31a, HBURST=AHB_BURST_WRAP4, HSIZE=AHB_SIZE_16B, 4 beats
# UVM_INFO ../src/env/ahb_scoreboard.sv(104) @ 3365000: uvm_test_top.env.scb [ahb_scoreboard] MATCH #26: [AHB_READ] HADDR=0x0000d31a AHB_BURST_WRAP4 4 beats
# UVM_INFO ../src/env/ahb_coverage.sv(174) @ 3365000: uvm_test_top.env.slave_cov [ahb_coverage] Sampled [AHB_READ]: burst=AHB_BURST_WRAP4 size=AHB_SIZE_16B beats=4 error=0
# UVM_INFO ../src/mst_seq/ahb_base_seq.sv(157) @ 3365000: uvm_test_top.env.master_agent.sqr@@seq [ahb_wait_state_seq] AHB_BURST_WRAP4 AHB_SIZE_16B beat 0 @0x0000d31a ok
# UVM_INFO ../src/mst_seq/ahb_base_seq.sv(157) @ 3365000: uvm_test_top.env.master_agent.sqr@@seq [ahb_wait_state_seq] AHB_BURST_WRAP4 AHB_SIZE_16B beat 1 @0x0000d31c ok
# UVM_INFO ../src/mst_seq/ahb_base_seq.sv(157) @ 3365000: uvm_test_top.env.master_agent.sqr@@seq [ahb_wait_state_seq] AHB_BURST_WRAP4 AHB_SIZE_16B beat 2 @0x0000d31e ok
# UVM_INFO ../src/mst_seq/ahb_base_seq.sv(157) @ 3365000: uvm_test_top.env.master_agent.sqr@@seq [ahb_wait_state_seq] AHB_BURST_WRAP4 AHB_SIZE_16B beat 3 @0x0000d318 ok
# UVM_INFO ../src/mst_seq/ahb_wait_state_seq.sv(166) @ 3365000: uvm_test_top.env.master_agent.sqr@@seq [ahb_wait_state_seq] AHB_BURST_SINGLE AHB_SIZE_8B @0x0000d370, 1 beats, waits=8:15, pipelined=1
# UVM_INFO ../src/mst/ahb_master_driver.sv(85) @ 3365000: uvm_test_top.env.master_agent.drv [ahb_master_driver] Queueing [AHB_WRITE]: HADDR=0x0000d370, HBURST=AHB_BURST_SINGLE, HSIZE=AHB_SIZE_8B, 1 beats
# UVM_INFO ../src/mst/ahb_master_driver.sv(127) @ 3365000: uvm_test_top.env.master_agent.drv [ahb_master_driver] Driving [AHB_WRITE]: HADDR=0x0000d370, HBURST=AHB_BURST_SINGLE, HSIZE=AHB_SIZE_8B, 1 beats               
# UVM_INFO ../src/mst/ahb_master_driver.sv(85) @ 3365000: uvm_test_top.env.master_agent.drv [ahb_master_driver] Queueing [AHB_READ]: HADDR=0x0000d370, HBURST=AHB_BURST_SINGLE, HSIZE=AHB_SIZE_8B, 1 beats
# UVM_INFO ../src/mst/ahb_master_driver.sv(332) @ 3505000: uvm_test_top.env.master_agent.drv [ahb_master_driver] Beat[0/1] addr=0x0000d370 trans=AHB_TRANS_NONSEQ resp=AHB_RESP_OKAY wdata=0x01430d50
# UVM_INFO ../src/mst/ahb_master_driver.sv(376) @ 3505000: uvm_test_top.env.master_agent.drv [ahb_master_driver] Transaction complete: AHB_WRITE 0x0000d370, 1 beats, burst=AHB_BURST_SINGLE
# UVM_INFO ../src/mst/ahb_master_driver.sv(127) @ 3505000: uvm_test_top.env.master_agent.drv [ahb_master_driver] Driving [AHB_READ]: HADDR=0x0000d370, HBURST=AHB_BURST_SINGLE, HSIZE=AHB_SIZE_8B, 1 beats (back-to-back)
# UVM_INFO ../src/slv/ahb_slave_driver.sv(184) @ 3505000: uvm_test_top.env.slave_agent.drv [ahb_slave_driver] Beat AHB_WRITE addr=0x0000d370 resp=AHB_RESP_OKAY waits=11 wdata=0x01430d50
# UVM_INFO ../src/mst/ahb_master_monitor.sv(128) @ 3505000: uvm_test_top.env.master_agent.mon [ahb_master_monitor] Beat[0] addr=0x0000d370 wdata=0x01430d50 resp=AHB_RESP_OKAY
# UVM_INFO ../src/mst/ahb_master_monitor.sv(231) @ 3505000: uvm_test_top.env.master_agent.mon [ahb_master_monitor] Observed [AHB_WRITE]: HADDR=0x0000d370, HBURST=AHB_BURST_SINGLE, HSIZE=AHB_SIZE_8B, 1 beats
# UVM_INFO ../src/env/ahb_coverage.sv(174) @ 3505000: uvm_test_top.env.master_cov [ahb_coverage] Sampled [AHB_WRITE]: burst=AHB_BURST_SINGLE size=AHB_SIZE_8B beats=1 error=0
# UVM_INFO ../src/slv/ahb_slave_monitor.sv(212) @ 3505000: uvm_test_top.env.slave_agent.mon [ahb_slave_monitor] Observed [AHB_WRITE]: HADDR=0x0000d370, HBURST=AHB_BURST_SINGLE, HSIZE=AHB_SIZE_8B, 1 beats
# UVM_INFO ../src/env/ahb_scoreboard.sv(104) @ 3505000: uvm_test_top.env.scb [ahb_scoreboard] MATCH #27: [AHB_WRITE] HADDR=0x0000d370 AHB_BURST_SINGLE 1 beats
# UVM_INFO ../src/env/ahb_coverage.sv(174) @ 3505000: uvm_test_top.env.slave_cov [ahb_coverage] Sampled [AHB_WRITE]: burst=AHB_BURST_SINGLE size=AHB_SIZE_8B beats=1 error=0
# UVM_INFO ../src/mst/ahb_master_driver.sv(332) @ 3605000: uvm_test_top.env.master_agent.drv [ahb_master_driver] Beat[0/1] addr=0x0000d370 trans=AHB_TRANS_NONSEQ resp=AHB_RESP_OKAY rdata=0x01430d50
# UVM_INFO ../src/mst/ahb_master_driver.sv(376) @ 3605000: uvm_test_top.env.master_agent.drv [ahb_master_driver] Transaction complete: AHB_READ 0x0000d370, 1 beats, burst=AHB_BURST_SINGLE
# UVM_INFO ../src/slv/ahb_slave_driver.sv(184) @ 3605000: uvm_test_top.env.slave_agent.drv [ahb_slave_driver] Beat AHB_READ addr=0x0000d370 resp=AHB_RESP_OKAY waits=9 rdata=0x01430d50
# UVM_INFO ../src/mst/ahb_master_monitor.sv(128) @ 3605000: uvm_test_top.env.master_agent.mon [ahb_master_monitor] Beat[0] addr=0x0000d370 rdata=0x01430d50 resp=AHB_RESP_OKAY
# UVM_INFO ../src/mst/ahb_master_monitor.sv(231) @ 3605000: uvm_test_top.env.master_agent.mon [ahb_master_monitor] Observed [AHB_READ]: HADDR=0x0000d370, HBURST=AHB_BURST_SINGLE, HSIZE=AHB_SIZE_8B, 1 beats
# UVM_INFO ../src/env/ahb_coverage.sv(174) @ 3605000: uvm_test_top.env.master_cov [ahb_coverage] Sampled [AHB_READ]: burst=AHB_BURST_SINGLE size=AHB_SIZE_8B beats=1 error=0
# UVM_INFO ../src/slv/ahb_slave_monitor.sv(212) @ 3605000: uvm_test_top.env.slave_agent.mon [ahb_slave_monitor] Observed [AHB_READ]: HADDR=0x0000d370, HBURST=AHB_BURST_SINGLE, HSIZE=AHB_SIZE_8B, 1 beats
# UVM_INFO ../src/env/ahb_scoreboard.sv(104) @ 3605000: uvm_test_top.env.scb [ahb_scoreboard] MATCH #28: [AHB_READ] HADDR=0x0000d370 AHB_BURST_SINGLE 1 beats
# UVM_INFO ../src/env/ahb_coverage.sv(174) @ 3605000: uvm_test_top.env.slave_cov [ahb_coverage] Sampled [AHB_READ]: burst=AHB_BURST_SINGLE size=AHB_SIZE_8B beats=1 error=0
# UVM_INFO ../src/mst_seq/ahb_base_seq.sv(157) @ 3605000: uvm_test_top.env.master_agent.sqr@@seq [ahb_wait_state_seq] AHB_BURST_SINGLE AHB_SIZE_8B beat 0 @0x0000d370 ok
# UVM_INFO ../src/mst_seq/ahb_wait_state_seq.sv(166) @ 3605000: uvm_test_top.env.master_agent.sqr@@seq [ahb_wait_state_seq] AHB_BURST_SINGLE AHB_SIZE_8B @0x0000d3be, 1 beats, waits=16:16, pipelined=0
# UVM_INFO ../src/mst/ahb_master_driver.sv(85) @ 3605000: uvm_test_top.env.master_agent.drv [ahb_master_driver] Queueing [AHB_WRITE]: HADDR=0x0000d3be, HBURST=AHB_BURST_SINGLE, HSIZE=AHB_SIZE_8B, 1 beats
# UVM_INFO ../src/mst/ahb_master_driver.sv(127) @ 3605000: uvm_test_top.env.master_agent.drv [ahb_master_driver] Driving [AHB_WRITE]: HADDR=0x0000d3be, HBURST=AHB_BURST_SINGLE, HSIZE=AHB_SIZE_8B, 1 beats               
# UVM_INFO ../src/mst/ahb_master_driver.sv(332) @ 3795000: uvm_test_top.env.master_agent.drv [ahb_master_driver] Beat[0/1] addr=0x0000d3be trans=AHB_TRANS_NONSEQ resp=AHB_RESP_OKAY wdata=0x787b9ce0
# UVM_INFO ../src/mst/ahb_master_driver.sv(376) @ 3795000: uvm_test_top.env.master_agent.drv [ahb_master_driver] Transaction complete: AHB_WRITE 0x0000d3be, 1 beats, burst=AHB_BURST_SINGLE
# UVM_INFO ../src/slv/ahb_slave_driver.sv(184) @ 3795000: uvm_test_top.env.slave_agent.drv [ahb_slave_driver] Beat AHB_WRITE addr=0x0000d3be resp=AHB_RESP_OKAY waits=16 wdata=0x787b9ce0
# UVM_INFO ../src/slv/ahb_slave_monitor.sv(212) @ 3795000: uvm_test_top.env.slave_agent.mon [ahb_slave_monitor] Observed [AHB_WRITE]: HADDR=0x0000d3be, HBURST=AHB_BURST_SINGLE, HSIZE=AHB_SIZE_8B, 1 beats
# UVM_INFO ../src/env/ahb_coverage.sv(174) @ 3795000: uvm_test_top.env.slave_cov [ahb_coverage] Sampled [AHB_WRITE]: burst=AHB_BURST_SINGLE size=AHB_SIZE_8B beats=1 error=0
# UVM_INFO ../src/mst/ahb_master_monitor.sv(128) @ 3795000: uvm_test_top.env.master_agent.mon [ahb_master_monitor] Beat[0] addr=0x0000d3be wdata=0x787b9ce0 resp=AHB_RESP_OKAY
# UVM_INFO ../src/mst/ahb_master_monitor.sv(231) @ 3795000: uvm_test_top.env.master_agent.mon [ahb_master_monitor] Observed [AHB_WRITE]: HADDR=0x0000d3be, HBURST=AHB_BURST_SINGLE, HSIZE=AHB_SIZE_8B, 1 beats
# UVM_INFO ../src/env/ahb_coverage.sv(174) @ 3795000: uvm_test_top.env.master_cov [ahb_coverage] Sampled [AHB_WRITE]: burst=AHB_BURST_SINGLE size=AHB_SIZE_8B beats=1 error=0
# UVM_INFO ../src/env/ahb_scoreboard.sv(104) @ 3795000: uvm_test_top.env.scb [ahb_scoreboard] MATCH #29: [AHB_WRITE] HADDR=0x0000d3be AHB_BURST_SINGLE 1 beats
# UVM_INFO ../src/mst/ahb_master_driver.sv(85) @ 3795000: uvm_test_top.env.master_agent.drv [ahb_master_driver] Queueing [AHB_READ]: HADDR=0x0000d3be, HBURST=AHB_BURST_SINGLE, HSIZE=AHB_SIZE_8B, 1 beats
# UVM_INFO ../src/mst/ahb_master_driver.sv(127) @ 3795000: uvm_test_top.env.master_agent.drv [ahb_master_driver] Driving [AHB_READ]: HADDR=0x0000d3be, HBURST=AHB_BURST_SINGLE, HSIZE=AHB_SIZE_8B, 1 beats               
# UVM_INFO ../src/mst/ahb_master_driver.sv(332) @ 3985000: uvm_test_top.env.master_agent.drv [ahb_master_driver] Beat[0/1] addr=0x0000d3be trans=AHB_TRANS_NONSEQ resp=AHB_RESP_OKAY rdata=0x787b9ce0
# UVM_INFO ../src/mst/ahb_master_driver.sv(376) @ 3985000: uvm_test_top.env.master_agent.drv [ahb_master_driver] Transaction complete: AHB_READ 0x0000d3be, 1 beats, burst=AHB_BURST_SINGLE
# UVM_INFO ../src/slv/ahb_slave_driver.sv(184) @ 3985000: uvm_test_top.env.slave_agent.drv [ahb_slave_driver] Beat AHB_READ addr=0x0000d3be resp=AHB_RESP_OKAY waits=16 rdata=0x787b9ce0
# UVM_INFO ../src/mst/ahb_master_monitor.sv(128) @ 3985000: uvm_test_top.env.master_agent.mon [ahb_master_monitor] Beat[0] addr=0x0000d3be rdata=0x787b9ce0 resp=AHB_RESP_OKAY
# UVM_INFO ../src/mst/ahb_master_monitor.sv(231) @ 3985000: uvm_test_top.env.master_agent.mon [ahb_master_monitor] Observed [AHB_READ]: HADDR=0x0000d3be, HBURST=AHB_BURST_SINGLE, HSIZE=AHB_SIZE_8B, 1 beats
# UVM_INFO ../src/env/ahb_coverage.sv(174) @ 3985000: uvm_test_top.env.master_cov [ahb_coverage] Sampled [AHB_READ]: burst=AHB_BURST_SINGLE size=AHB_SIZE_8B beats=1 error=0
# UVM_INFO ../src/slv/ahb_slave_monitor.sv(212) @ 3985000: uvm_test_top.env.slave_agent.mon [ahb_slave_monitor] Observed [AHB_READ]: HADDR=0x0000d3be, HBURST=AHB_BURST_SINGLE, HSIZE=AHB_SIZE_8B, 1 beats
# UVM_INFO ../src/env/ahb_scoreboard.sv(104) @ 3985000: uvm_test_top.env.scb [ahb_scoreboard] MATCH #30: [AHB_READ] HADDR=0x0000d3be AHB_BURST_SINGLE 1 beats
# UVM_INFO ../src/env/ahb_coverage.sv(174) @ 3985000: uvm_test_top.env.slave_cov [ahb_coverage] Sampled [AHB_READ]: burst=AHB_BURST_SINGLE size=AHB_SIZE_8B beats=1 error=0
# UVM_INFO ../src/mst_seq/ahb_base_seq.sv(157) @ 3985000: uvm_test_top.env.master_agent.sqr@@seq [ahb_wait_state_seq] AHB_BURST_SINGLE AHB_SIZE_8B beat 0 @0x0000d3be ok
# UVM_INFO ../src/mst_seq/ahb_wait_state_seq.sv(166) @ 3985000: uvm_test_top.env.master_agent.sqr@@seq [ahb_wait_state_seq] AHB_BURST_INCR4 AHB_SIZE_16B @0x0000d3d4, 4 beats, waits=0:16, pipelined=1
# UVM_INFO ../src/mst/ahb_master_driver.sv(85) @ 3985000: uvm_test_top.env.master_agent.drv [ahb_master_driver] Queueing [AHB_WRITE]: HADDR=0x0000d3d4, HBURST=AHB_BURST_INCR4, HSIZE=AHB_SIZE_16B, 4 beats
# UVM_INFO ../src/mst/ahb_master_driver.sv(127) @ 3985000: uvm_test_top.env.master_agent.drv [ahb_master_driver] Driving [AHB_WRITE]: HADDR=0x0000d3d4, HBURST=AHB_BURST_INCR4, HSIZE=AHB_SIZE_16B, 4 beats               
# UVM_INFO ../src/mst/ahb_master_driver.sv(85) @ 3985000: uvm_test_top.env.master_agent.drv [ahb_master_driver] Queueing [AHB_READ]: HADDR=0x0000d3d4, HBURST=AHB_BURST_INCR4, HSIZE=AHB_SIZE_16B, 4 beats
# UVM_INFO ../src/mst/ahb_master_driver.sv(332) @ 4035000: uvm_test_top.env.master_agent.drv [ahb_master_driver] Beat[0/4] addr=0x0000d3d4 trans=AHB_TRANS_NONSEQ resp=AHB_RESP_OKAY wdata=0x12188ddd
# UVM_INFO ../src/slv/ahb_slave_driver.sv(184) @ 4035000: uvm_test_top.env.slave_agent.drv [ahb_slave_driver] Beat AHB_WRITE addr=0x0000d3d4 resp=AHB_RESP_OKAY waits=2 wdata=0x12188ddd
# UVM_INFO ../src/mst/ahb_master_monitor.sv(128) @ 4035000: uvm_test_top.env.master_agent.mon [ahb_master_monitor] Beat[0] addr=0x0000d3d4 wdata=0x12188ddd resp=AHB_RESP_OKAY
# UVM_INFO ../src/mst/ahb_master_driver.sv(332) @ 4125000: uvm_test_top.env.master_agent.drv [ahb_master_driver] Beat[1/4] addr=0x0000d3d6 trans=AHB_TRANS_SEQ resp=AHB_RESP_OKAY wdata=0x8da1d20a
# UVM_INFO ../src/slv/ahb_slave_driver.sv(184) @ 4125000: uvm_test_top.env.slave_agent.drv [ahb_slave_driver] Beat AHB_WRITE addr=0x0000d3d6 resp=AHB_RESP_OKAY waits=8 wdata=0x8da1d20a
# UVM_INFO ../src/mst/ahb_master_monitor.sv(128) @ 4125000: uvm_test_top.env.master_agent.mon [ahb_master_monitor] Beat[1] addr=0x0000d3d6 wdata=0x8da1d20a resp=AHB_RESP_OKAY
# UVM_INFO ../src/mst/ahb_master_driver.sv(332) @ 4185000: uvm_test_top.env.master_agent.drv [ahb_master_driver] Beat[2/4] addr=0x0000d3d8 trans=AHB_TRANS_SEQ resp=AHB_RESP_OKAY wdata=0xacd793c4
# UVM_INFO ../src/slv/ahb_slave_driver.sv(184) @ 4185000: uvm_test_top.env.slave_agent.drv [ahb_slave_driver] Beat AHB_WRITE addr=0x0000d3d8 resp=AHB_RESP_OKAY waits=5 wdata=0xacd793c4
# UVM_INFO ../src/mst/ahb_master_monitor.sv(128) @ 4185000: uvm_test_top.env.master_agent.mon [ahb_master_monitor] Beat[2] addr=0x0000d3d8 wdata=0xacd793c4 resp=AHB_RESP_OKAY
# UVM_INFO ../src/mst/ahb_master_driver.sv(332) @ 4225000: uvm_test_top.env.master_agent.drv [ahb_master_driver] Beat[3/4] addr=0x0000d3da trans=AHB_TRANS_SEQ resp=AHB_RESP_OKAY wdata=0xc03853ab
# UVM_INFO ../src/mst/ahb_master_driver.sv(376) @ 4225000: uvm_test_top.env.master_agent.drv [ahb_master_driver] Transaction complete: AHB_WRITE 0x0000d3d4, 4 beats, burst=AHB_BURST_INCR4
# UVM_INFO ../src/mst/ahb_master_driver.sv(127) @ 4225000: uvm_test_top.env.master_agent.drv [ahb_master_driver] Driving [AHB_READ]: HADDR=0x0000d3d4, HBURST=AHB_BURST_INCR4, HSIZE=AHB_SIZE_16B, 4 beats (back-to-back)
# UVM_INFO ../src/slv/ahb_slave_driver.sv(184) @ 4225000: uvm_test_top.env.slave_agent.drv [ahb_slave_driver] Beat AHB_WRITE addr=0x0000d3da resp=AHB_RESP_OKAY waits=3 wdata=0xc03853ab
# UVM_INFO ../src/mst/ahb_master_monitor.sv(128) @ 4225000: uvm_test_top.env.master_agent.mon [ahb_master_monitor] Beat[3] addr=0x0000d3da wdata=0xc03853ab resp=AHB_RESP_OKAY
# UVM_INFO ../src/mst/ahb_master_monitor.sv(231) @ 4225000: uvm_test_top.env.master_agent.mon [ahb_master_monitor] Observed [AHB_WRITE]: HADDR=0x0000d3d4, HBURST=AHB_BURST_INCR4, HSIZE=AHB_SIZE_16B, 4 beats
# UVM_INFO ../src/env/ahb_coverage.sv(174) @ 4225000: uvm_test_top.env.master_cov [ahb_coverage] Sampled [AHB_WRITE]: burst=AHB_BURST_INCR4 size=AHB_SIZE_16B beats=4 error=0
# UVM_INFO ../src/slv/ahb_slave_monitor.sv(212) @ 4225000: uvm_test_top.env.slave_agent.mon [ahb_slave_monitor] Observed [AHB_WRITE]: HADDR=0x0000d3d4, HBURST=AHB_BURST_INCR4, HSIZE=AHB_SIZE_16B, 4 beats
# UVM_INFO ../src/env/ahb_scoreboard.sv(104) @ 4225000: uvm_test_top.env.scb [ahb_scoreboard] MATCH #31: [AHB_WRITE] HADDR=0x0000d3d4 AHB_BURST_INCR4 4 beats
# UVM_INFO ../src/env/ahb_coverage.sv(174) @ 4225000: uvm_test_top.env.slave_cov [ahb_coverage] Sampled [AHB_WRITE]: burst=AHB_BURST_INCR4 size=AHB_SIZE_16B beats=4 error=0
# UVM_INFO ../src/mst/ahb_master_driver.sv(332) @ 4295000: uvm_test_top.env.master_agent.drv [ahb_master_driver] Beat[0/4] addr=0x0000d3d4 trans=AHB_TRANS_NONSEQ resp=AHB_RESP_OKAY rdata=0x12188ddd
# UVM_INFO ../src/slv/ahb_slave_driver.sv(184) @ 4295000: uvm_test_top.env.slave_agent.drv [ahb_slave_driver] Beat AHB_READ addr=0x0000d3d4 resp=AHB_RESP_OKAY waits=6 rdata=0x12188ddd
# UVM_INFO ../src/mst/ahb_master_monitor.sv(128) @ 4295000: uvm_test_top.env.master_agent.mon [ahb_master_monitor] Beat[0] addr=0x0000d3d4 rdata=0x12188ddd resp=AHB_RESP_OKAY
# UVM_INFO ../src/mst/ahb_master_driver.sv(332) @ 4405000: uvm_test_top.env.master_agent.drv [ahb_master_driver] Beat[1/4] addr=0x0000d3d6 trans=AHB_TRANS_SEQ resp=AHB_RESP_OKAY rdata=0x8da1d20a
# UVM_INFO ../src/slv/ahb_slave_driver.sv(184) @ 4405000: uvm_test_top.env.slave_agent.drv [ahb_slave_driver] Beat AHB_READ addr=0x0000d3d6 resp=AHB_RESP_OKAY waits=10 rdata=0x8da1d20a
# UVM_INFO ../src/mst/ahb_master_monitor.sv(128) @ 4405000: uvm_test_top.env.master_agent.mon [ahb_master_monitor] Beat[1] addr=0x0000d3d6 rdata=0x8da1d20a resp=AHB_RESP_OKAY
# UVM_INFO ../src/mst/ahb_master_driver.sv(332) @ 4475000: uvm_test_top.env.master_agent.drv [ahb_master_driver] Beat[2/4] addr=0x0000d3d8 trans=AHB_TRANS_SEQ resp=AHB_RESP_OKAY rdata=0xacd793c4
# UVM_INFO ../src/slv/ahb_slave_driver.sv(184) @ 4475000: uvm_test_top.env.slave_agent.drv [ahb_slave_driver] Beat AHB_READ addr=0x0000d3d8 resp=AHB_RESP_OKAY waits=6 rdata=0xacd793c4
# UVM_INFO ../src/mst/ahb_master_monitor.sv(128) @ 4475000: uvm_test_top.env.master_agent.mon [ahb_master_monitor] Beat[2] addr=0x0000d3d8 rdata=0xacd793c4 resp=AHB_RESP_OKAY
# UVM_INFO ../src/mst/ahb_master_driver.sv(332) @ 4525000: uvm_test_top.env.master_agent.drv [ahb_master_driver] Beat[3/4] addr=0x0000d3da trans=AHB_TRANS_SEQ resp=AHB_RESP_OKAY rdata=0xc03853ab
# UVM_INFO ../src/mst/ahb_master_driver.sv(376) @ 4525000: uvm_test_top.env.master_agent.drv [ahb_master_driver] Transaction complete: AHB_READ 0x0000d3d4, 4 beats, burst=AHB_BURST_INCR4
# UVM_INFO ../src/slv/ahb_slave_driver.sv(184) @ 4525000: uvm_test_top.env.slave_agent.drv [ahb_slave_driver] Beat AHB_READ addr=0x0000d3da resp=AHB_RESP_OKAY waits=4 rdata=0xc03853ab
# UVM_INFO ../src/mst/ahb_master_monitor.sv(128) @ 4525000: uvm_test_top.env.master_agent.mon [ahb_master_monitor] Beat[3] addr=0x0000d3da rdata=0xc03853ab resp=AHB_RESP_OKAY
# UVM_INFO ../src/mst/ahb_master_monitor.sv(231) @ 4525000: uvm_test_top.env.master_agent.mon [ahb_master_monitor] Observed [AHB_READ]: HADDR=0x0000d3d4, HBURST=AHB_BURST_INCR4, HSIZE=AHB_SIZE_16B, 4 beats
# UVM_INFO ../src/env/ahb_coverage.sv(174) @ 4525000: uvm_test_top.env.master_cov [ahb_coverage] Sampled [AHB_READ]: burst=AHB_BURST_INCR4 size=AHB_SIZE_16B beats=4 error=0
# UVM_INFO ../src/slv/ahb_slave_monitor.sv(212) @ 4525000: uvm_test_top.env.slave_agent.mon [ahb_slave_monitor] Observed [AHB_READ]: HADDR=0x0000d3d4, HBURST=AHB_BURST_INCR4, HSIZE=AHB_SIZE_16B, 4 beats
# UVM_INFO ../src/env/ahb_scoreboard.sv(104) @ 4525000: uvm_test_top.env.scb [ahb_scoreboard] MATCH #32: [AHB_READ] HADDR=0x0000d3d4 AHB_BURST_INCR4 4 beats
# UVM_INFO ../src/env/ahb_coverage.sv(174) @ 4525000: uvm_test_top.env.slave_cov [ahb_coverage] Sampled [AHB_READ]: burst=AHB_BURST_INCR4 size=AHB_SIZE_16B beats=4 error=0
# UVM_INFO ../src/mst_seq/ahb_base_seq.sv(157) @ 4525000: uvm_test_top.env.master_agent.sqr@@seq [ahb_wait_state_seq] AHB_BURST_INCR4 AHB_SIZE_16B beat 0 @0x0000d3d4 ok
# UVM_INFO ../src/mst_seq/ahb_base_seq.sv(157) @ 4525000: uvm_test_top.env.master_agent.sqr@@seq [ahb_wait_state_seq] AHB_BURST_INCR4 AHB_SIZE_16B beat 1 @0x0000d3d6 ok
# UVM_INFO ../src/mst_seq/ahb_base_seq.sv(157) @ 4525000: uvm_test_top.env.master_agent.sqr@@seq [ahb_wait_state_seq] AHB_BURST_INCR4 AHB_SIZE_16B beat 2 @0x0000d3d8 ok
# UVM_INFO ../src/mst_seq/ahb_base_seq.sv(157) @ 4525000: uvm_test_top.env.master_agent.sqr@@seq [ahb_wait_state_seq] AHB_BURST_INCR4 AHB_SIZE_16B beat 3 @0x0000d3da ok
# UVM_INFO ../src/mst_seq/ahb_wait_state_seq.sv(166) @ 4525000: uvm_test_top.env.master_agent.sqr@@seq [ahb_wait_state_seq] AHB_BURST_INCR4 AHB_SIZE_16B @0x0000d402, 4 beats, waits=0:0, pipelined=0
# UVM_INFO ../src/mst/ahb_master_driver.sv(85) @ 4525000: uvm_test_top.env.master_agent.drv [ahb_master_driver] Queueing [AHB_WRITE]: HADDR=0x0000d402, HBURST=AHB_BURST_INCR4, HSIZE=AHB_SIZE_16B, 4 beats
# UVM_INFO ../src/mst/ahb_master_driver.sv(127) @ 4525000: uvm_test_top.env.master_agent.drv [ahb_master_driver] Driving [AHB_WRITE]: HADDR=0x0000d402, HBURST=AHB_BURST_INCR4, HSIZE=AHB_SIZE_16B, 4 beats               
