# vsim -c -coverage -sv_seed 15629220 "+UVM_TESTNAME=ahb_error_response_test" "+UVM_VERBOSITY=UVM_HIGH" "+DUMP_VCD" -l ./report/logs/ahb_error_response_test_run_3_seed_15629220.log -do "coverage save -onexit ./report/coverage/ahb_error_response_test_run_3_seed_15629220.ucdb; run -all; quit -f" opt_tb_top 
# Start time: 12:12:03 on Aug 06,2026
# //  Questa Sim-64
# //  Version 10.6b linux_x86_64 May 25 2017
# //
# //  Copyright 1991-2017 Mentor Graphics Corporation
# //  All Rights Reserved.
# //
# //  QuestaSim and its associated documentation contain trade
# //  secrets and commercial or financial information that are the property of
# //  Mentor Graphics Corporation and are privileged, confidential,
# //  and exempt from disclosure under the Freedom of Information Act,
# //  5 U.S.C. Section 552. Furthermore, this information
# //  is prohibited from disclosure under the Trade Secrets Act,
# //  18 U.S.C. Section 1905.
# //
# Loading sv_std.std
# Loading work.ahb_if(fast)
# Loading mtiUvm.uvm_pkg
# Loading work.ahb_pkg(fast)
# Loading work.ahb_seq_pkg(fast)
# Loading work.ahb_test_pkg(fast)
# Loading work.tb_top(fast)
# Loading work.ahb_if(fast)
# Loading work.ahb_sva(fast)
# Loading mtiUvm.questa_uvm_pkg(fast)
# Loading /cadtools/mentor/Questa_10.6b/questasim/uvm-1.1d/linux_x86_64/uvm_dpi.so
# coverage save -onexit ./report/coverage/ahb_error_response_test_run_3_seed_15629220.ucdb
#  run -all
# ----------------------------------------------------------------
# UVM-1.1d
# (C) 2007-2013 Mentor Graphics Corporation
# (C) 2007-2013 Cadence Design Systems, Inc.
# (C) 2006-2013 Synopsys, Inc.
# (C) 2011-2013 Cypress Semiconductor Corp.
# ----------------------------------------------------------------
# 
#   ***********       IMPORTANT RELEASE NOTES         ************
# 
#   You are using a version of the UVM library that has been compiled
#   with `UVM_NO_DEPRECATED undefined.
#   See http://www.eda.org/svdb/view.php?id=3313 for more details.
# 
#   You are using a version of the UVM library that has been compiled
#   with `UVM_OBJECT_MUST_HAVE_CONSTRUCTOR undefined.
#   See http://www.eda.org/svdb/view.php?id=3770 for more details.
# 
#       (Specify +UVM_NO_RELNOTES to turn off this notice)
# 
# UVM_INFO verilog_src/questa_uvm_pkg-1.2/src/questa_uvm_pkg.sv(215) @ 0: reporter [Questa UVM] QUESTA_UVM-1.2.3
# UVM_INFO verilog_src/questa_uvm_pkg-1.2/src/questa_uvm_pkg.sv(217) @ 0: reporter [Questa UVM]  questa_uvm::init(+struct)
# UVM_INFO ../src/tb_top.sv(126) @ 0: reporter [TB_TOP] Virtual interface set in config_db
# UVM_INFO @ 0: reporter [RNTST] Running test ahb_error_response_test...
# UVM_INFO ../src/tb_top.sv(140) @ 0: reporter [TB_TOP] Waveform VCD dumping enabled (ahb_lite_vip.vcd)
# UVM_INFO ../src/env/ahb_vip_env.sv(64) @ 0: uvm_test_top.env [ahb_vip_env] slave_vif not set - reusing master_vif (passthrough mode)
# UVM_INFO ../src/env/ahb_vip_env.sv(72) @ 0: uvm_test_top.env [ahb_vip_env] Scoreboard created
# UVM_INFO ../src/env/ahb_vip_env.sv(78) @ 0: uvm_test_top.env [ahb_vip_env] Coverage collectors created
# UVM_INFO ../src/mst/ahb_master_agent.sv(61) @ 0: uvm_test_top.env.master_agent [ahb_master_agent] ACTIVE mode - driver + sequencer created
# UVM_INFO ../src/slv/ahb_slave_agent.sv(64) @ 0: uvm_test_top.env.slave_agent [ahb_slave_agent] ACTIVE mode - driver + sequencer created (sequence responses)
# UVM_INFO ../src/env/ahb_vip_env.sv(92) @ 0: uvm_test_top.env [ahb_vip_env] Scoreboard connected: master_mon.ap -> scb, slave_mon.ap -> scb
# UVM_INFO ../src/env/ahb_vip_env.sv(102) @ 0: uvm_test_top.env [ahb_vip_env] Coverage connected: master_mon.ap/trans_ap -> master_cov, slave_mon.ap/trans_ap -> slave_cov
# UVM_INFO @ 0: reporter [UVMTOP] UVM testbench topology:
# ---------------------------------------------------------------
# Name                       Type                     Size  Value
# ---------------------------------------------------------------
# uvm_test_top               ahb_error_response_test  -     @475 
#   env                      ahb_vip_env              -     @490 
#     master_agent           ahb_master_agent         -     @505 
#       drv                  ahb_master_driver        -     @570 
#         rsp_port           uvm_analysis_port        -     @585 
#         seq_item_port      uvm_seq_item_pull_port   -     @577 
#       mon                  ahb_master_monitor       -     @563 
#         ap                 uvm_analysis_port        -     @704 
#         trans_ap           uvm_analysis_port        -     @712 
#       sqr                  ahb_master_sequencer     -     @593 
#         rsp_export         uvm_analysis_export      -     @600 
#         seq_item_export    uvm_seq_item_pull_imp    -     @694 
#         arbitration_queue  array                    0     -    
#         lock_queue         array                    0     -    
#         num_last_reqs      integral                 32    'd1  
#         num_last_rsps      integral                 32    'd1  
#     master_cov             ahb_coverage             -     @526 
#       analysis_imp         uvm_analysis_imp         -     @533 
#       trans_export         uvm_analysis_imp_trans   -     @726 
#     scb                    ahb_scoreboard           -     @519 
#       master_export        uvm_analysis_imp_master  -     @734 
#       slave_export         uvm_analysis_imp_slave   -     @742 
#     slave_agent            ahb_slave_agent          -     @512 
#       drv                  ahb_slave_driver         -     @764 
#         rsp_port           uvm_analysis_port        -     @779 
#         seq_item_port      uvm_seq_item_pull_port   -     @771 
#       mon                  ahb_slave_monitor        -     @757 
#         ap                 uvm_analysis_port        -     @898 
#         trans_ap           uvm_analysis_port        -     @906 
#       sqr                  ahb_slave_sequencer      -     @787 
#         rsp_export         uvm_analysis_export      -     @794 
#         seq_item_export    uvm_seq_item_pull_imp    -     @888 
#         arbitration_queue  array                    0     -    
#         lock_queue         array                    0     -    
#         num_last_reqs      integral                 32    'd1  
#         num_last_rsps      integral                 32    'd1  
#     slave_cov              ahb_coverage             -     @541 
#       analysis_imp         uvm_analysis_imp         -     @548 
#       trans_export         uvm_analysis_imp_trans   -     @920 
# ---------------------------------------------------------------
# 
# UVM_INFO verilog_src/questa_uvm_pkg-1.2/src/questa_uvm_pkg.sv(277) @ 0: reporter [Questa UVM] End Of Elaboration
# UVM_INFO ../src/mst_seq/ahb_error_seq.sv(69) @ 0: uvm_test_top.env.master_agent.sqr@@mst_seq [ahb_error_seq] Starting ERROR response traffic: 16 bursts
# UVM_INFO ../src/slv_seq/ahb_slave_error_seq.sv(62) @ 0: uvm_test_top.env.slave_agent.sqr@@slv_seq [ahb_slave_error_seq] Slave error injection active: 25% ERROR, up to 2 wait states, unmapped [0x00009000 : 0x00009fff]
# UVM_INFO ../src/mst/ahb_master_driver.sv(183) @ 5000: uvm_test_top.env.master_agent.drv [ahb_master_driver] Flushed pending transactions (reset)
# UVM_INFO ../src/tb_top.sv(48) @ 95000: reporter [TB_TOP] Reset de-asserted
# UVM_INFO ../src/slv/ahb_slave_driver.sv(63) @ 95000: uvm_test_top.env.slave_agent.drv [ahb_slave_driver] Reset deasserted - slave driver active (sequence mode)
# UVM_INFO ../src/mst/ahb_master_driver.sv(72) @ 95000: uvm_test_top.env.master_agent.drv [ahb_master_driver] Reset deasserted - master driver active
# UVM_INFO ../src/mst/ahb_master_monitor.sv(81) @ 95000: uvm_test_top.env.master_agent.mon [ahb_master_monitor] Reset deasserted - master monitor active
# UVM_INFO ../src/slv/ahb_slave_monitor.sv(79) @ 95000: uvm_test_top.env.slave_agent.mon [ahb_slave_monitor] Reset deasserted - slave monitor active
# UVM_INFO ../src/mst/ahb_master_driver.sv(85) @ 95000: uvm_test_top.env.master_agent.drv [ahb_master_driver] Queueing [AHB_WRITE]: HADDR=0x0000700c, HBURST=AHB_BURST_SINGLE, HSIZE=AHB_SIZE_32B, 1 beats
# UVM_INFO ../src/mst/ahb_master_driver.sv(127) @ 95000: uvm_test_top.env.master_agent.drv [ahb_master_driver] Driving [AHB_WRITE]: HADDR=0x0000700c, HBURST=AHB_BURST_SINGLE, HSIZE=AHB_SIZE_32B, 1 beats               
# UVM_INFO ../src/slv_seq/ahb_slave_error_seq.sv(88) @ 105000: uvm_test_top.env.slave_agent.sqr@@slv_seq [ahb_slave_error_seq] Response 1: AHB_WRITE @0x0000700c -> AHB_RESP_ERROR, 0 wait states           
# UVM_INFO ../src/mst/ahb_master_driver.sv(332) @ 125000: uvm_test_top.env.master_agent.drv [ahb_master_driver] Beat[0/1] addr=0x0000700c trans=AHB_TRANS_NONSEQ resp=AHB_RESP_ERROR wdata=0xaf436cd5
# UVM_INFO ../src/mst/ahb_master_driver.sv(342) @ 125000: uvm_test_top.env.master_agent.drv [ahb_master_driver] ERROR response on beat 0/1                             
# UVM_INFO ../src/mst/ahb_master_driver.sv(376) @ 125000: uvm_test_top.env.master_agent.drv [ahb_master_driver] Transaction complete: AHB_WRITE 0x0000700c, 1 beats, burst=AHB_BURST_SINGLE
# UVM_INFO ../src/slv/ahb_slave_driver.sv(184) @ 125000: uvm_test_top.env.slave_agent.drv [ahb_slave_driver] Beat AHB_WRITE addr=0x0000700c resp=AHB_RESP_ERROR waits=0 wdata=0xaf436cd5
# UVM_INFO ../src/mst/ahb_master_monitor.sv(128) @ 125000: uvm_test_top.env.master_agent.mon [ahb_master_monitor] Beat[0] addr=0x0000700c wdata=0xaf436cd5 resp=AHB_RESP_ERROR
# UVM_INFO ../src/mst/ahb_master_monitor.sv(231) @ 125000: uvm_test_top.env.master_agent.mon [ahb_master_monitor] Observed [AHB_WRITE]: HADDR=0x0000700c, HBURST=AHB_BURST_SINGLE, HSIZE=AHB_SIZE_32B, 1 beats
# UVM_INFO ../src/env/ahb_coverage.sv(174) @ 125000: uvm_test_top.env.master_cov [ahb_coverage] Sampled [AHB_WRITE]: burst=AHB_BURST_SINGLE size=AHB_SIZE_32B beats=1 error=1
# UVM_INFO ../src/slv/ahb_slave_monitor.sv(212) @ 125000: uvm_test_top.env.slave_agent.mon [ahb_slave_monitor] Observed [AHB_WRITE]: HADDR=0x0000700c, HBURST=AHB_BURST_SINGLE, HSIZE=AHB_SIZE_32B, 1 beats
# UVM_INFO ../src/env/ahb_scoreboard.sv(104) @ 125000: uvm_test_top.env.scb [ahb_scoreboard] MATCH #1: [AHB_WRITE] HADDR=0x0000700c AHB_BURST_SINGLE 1 beats
# UVM_INFO ../src/env/ahb_coverage.sv(174) @ 125000: uvm_test_top.env.slave_cov [ahb_coverage] Sampled [AHB_WRITE]: burst=AHB_BURST_SINGLE size=AHB_SIZE_32B beats=1 error=1
# UVM_INFO ../src/mst_seq/ahb_error_seq.sv(131) @ 125000: uvm_test_top.env.master_agent.sqr@@mst_seq [ahb_error_seq] AHB_WRITE AHB_BURST_SINGLE @0x0000700c: ERROR on beat 0 of 1, policy=  cancel, drove 1
# UVM_INFO ../src/mst/ahb_master_driver.sv(85) @ 125000: uvm_test_top.env.master_agent.drv [ahb_master_driver] Queueing [AHB_READ]: HADDR=0x00008012, HBURST=AHB_BURST_INCR8, HSIZE=AHB_SIZE_16B, 8 beats
# UVM_INFO ../src/mst/ahb_master_driver.sv(127) @ 125000: uvm_test_top.env.master_agent.drv [ahb_master_driver] Driving [AHB_READ]: HADDR=0x00008012, HBURST=AHB_BURST_INCR8, HSIZE=AHB_SIZE_16B, 8 beats               
# UVM_INFO ../src/slv_seq/ahb_slave_error_seq.sv(88) @ 145000: uvm_test_top.env.slave_agent.sqr@@slv_seq [ahb_slave_error_seq] Response 2: AHB_READ @0x00008012 -> AHB_RESP_OKAY, 1 wait states           
# UVM_INFO ../src/mst/ahb_master_driver.sv(332) @ 165000: uvm_test_top.env.master_agent.drv [ahb_master_driver] Beat[0/8] addr=0x00008012 trans=AHB_TRANS_NONSEQ resp=AHB_RESP_OKAY rdata=0xc31405b1
# UVM_INFO ../src/slv/ahb_slave_driver.sv(184) @ 165000: uvm_test_top.env.slave_agent.drv [ahb_slave_driver] Beat AHB_READ addr=0x00008012 resp=AHB_RESP_OKAY waits=1 rdata=0xc31405b1
# UVM_INFO ../src/mst/ahb_master_monitor.sv(128) @ 165000: uvm_test_top.env.master_agent.mon [ahb_master_monitor] Beat[0] addr=0x00008012 rdata=0xc31405b1 resp=AHB_RESP_OKAY
# UVM_INFO ../src/slv_seq/ahb_slave_error_seq.sv(88) @ 165000: uvm_test_top.env.slave_agent.sqr@@slv_seq [ahb_slave_error_seq] Response 3: AHB_READ @0x00008014 -> AHB_RESP_OKAY, 0 wait states           
# UVM_INFO ../src/mst/ahb_master_driver.sv(332) @ 175000: uvm_test_top.env.master_agent.drv [ahb_master_driver] Beat[1/8] addr=0x00008014 trans=AHB_TRANS_SEQ resp=AHB_RESP_OKAY rdata=0x097290fb
# UVM_INFO ../src/slv/ahb_slave_driver.sv(184) @ 175000: uvm_test_top.env.slave_agent.drv [ahb_slave_driver] Beat AHB_READ addr=0x00008014 resp=AHB_RESP_OKAY waits=0 rdata=0x097290fb
# UVM_INFO ../src/mst/ahb_master_monitor.sv(128) @ 175000: uvm_test_top.env.master_agent.mon [ahb_master_monitor] Beat[1] addr=0x00008014 rdata=0x097290fb resp=AHB_RESP_OKAY
# UVM_INFO ../src/slv_seq/ahb_slave_error_seq.sv(88) @ 175000: uvm_test_top.env.slave_agent.sqr@@slv_seq [ahb_slave_error_seq] Response 4: AHB_READ @0x00008016 -> AHB_RESP_OKAY, 2 wait states           
# UVM_INFO ../src/mst/ahb_master_driver.sv(332) @ 205000: uvm_test_top.env.master_agent.drv [ahb_master_driver] Beat[2/8] addr=0x00008016 trans=AHB_TRANS_SEQ resp=AHB_RESP_OKAY rdata=0x6b2192e1
# UVM_INFO ../src/slv/ahb_slave_driver.sv(184) @ 205000: uvm_test_top.env.slave_agent.drv [ahb_slave_driver] Beat AHB_READ addr=0x00008016 resp=AHB_RESP_OKAY waits=2 rdata=0x6b2192e1
# UVM_INFO ../src/mst/ahb_master_monitor.sv(128) @ 205000: uvm_test_top.env.master_agent.mon [ahb_master_monitor] Beat[2] addr=0x00008016 rdata=0x6b2192e1 resp=AHB_RESP_OKAY
# UVM_INFO ../src/slv_seq/ahb_slave_error_seq.sv(88) @ 205000: uvm_test_top.env.slave_agent.sqr@@slv_seq [ahb_slave_error_seq] Response 5: AHB_READ @0x00008018 -> AHB_RESP_OKAY, 0 wait states           
# UVM_INFO ../src/mst/ahb_master_driver.sv(332) @ 215000: uvm_test_top.env.master_agent.drv [ahb_master_driver] Beat[3/8] addr=0x00008018 trans=AHB_TRANS_SEQ resp=AHB_RESP_OKAY rdata=0x3844b6f5
# UVM_INFO ../src/slv/ahb_slave_driver.sv(184) @ 215000: uvm_test_top.env.slave_agent.drv [ahb_slave_driver] Beat AHB_READ addr=0x00008018 resp=AHB_RESP_OKAY waits=0 rdata=0x3844b6f5
# UVM_INFO ../src/mst/ahb_master_monitor.sv(128) @ 215000: uvm_test_top.env.master_agent.mon [ahb_master_monitor] Beat[3] addr=0x00008018 rdata=0x3844b6f5 resp=AHB_RESP_OKAY
# UVM_INFO ../src/slv_seq/ahb_slave_error_seq.sv(88) @ 215000: uvm_test_top.env.slave_agent.sqr@@slv_seq [ahb_slave_error_seq] Response 6: AHB_READ @0x0000801a -> AHB_RESP_OKAY, 2 wait states           
# UVM_INFO ../src/mst/ahb_master_driver.sv(332) @ 245000: uvm_test_top.env.master_agent.drv [ahb_master_driver] Beat[4/8] addr=0x0000801a trans=AHB_TRANS_SEQ resp=AHB_RESP_OKAY rdata=0x21f83e82
# UVM_INFO ../src/slv/ahb_slave_driver.sv(184) @ 245000: uvm_test_top.env.slave_agent.drv [ahb_slave_driver] Beat AHB_READ addr=0x0000801a resp=AHB_RESP_OKAY waits=2 rdata=0x21f83e82
# UVM_INFO ../src/mst/ahb_master_monitor.sv(128) @ 245000: uvm_test_top.env.master_agent.mon [ahb_master_monitor] Beat[4] addr=0x0000801a rdata=0x21f83e82 resp=AHB_RESP_OKAY
# UVM_INFO ../src/slv_seq/ahb_slave_error_seq.sv(88) @ 245000: uvm_test_top.env.slave_agent.sqr@@slv_seq [ahb_slave_error_seq] Response 7: AHB_READ @0x0000801c -> AHB_RESP_OKAY, 2 wait states           
# UVM_INFO ../src/mst/ahb_master_driver.sv(332) @ 275000: uvm_test_top.env.master_agent.drv [ahb_master_driver] Beat[5/8] addr=0x0000801c trans=AHB_TRANS_SEQ resp=AHB_RESP_OKAY rdata=0x0e2ef88e
# UVM_INFO ../src/slv/ahb_slave_driver.sv(184) @ 275000: uvm_test_top.env.slave_agent.drv [ahb_slave_driver] Beat AHB_READ addr=0x0000801c resp=AHB_RESP_OKAY waits=2 rdata=0x0e2ef88e
# UVM_INFO ../src/mst/ahb_master_monitor.sv(128) @ 275000: uvm_test_top.env.master_agent.mon [ahb_master_monitor] Beat[5] addr=0x0000801c rdata=0x0e2ef88e resp=AHB_RESP_OKAY
# UVM_INFO ../src/slv_seq/ahb_slave_error_seq.sv(88) @ 275000: uvm_test_top.env.slave_agent.sqr@@slv_seq [ahb_slave_error_seq] Response 8: AHB_READ @0x0000801e -> AHB_RESP_OKAY, 0 wait states           
# UVM_INFO ../src/mst/ahb_master_driver.sv(332) @ 285000: uvm_test_top.env.master_agent.drv [ahb_master_driver] Beat[6/8] addr=0x0000801e trans=AHB_TRANS_SEQ resp=AHB_RESP_OKAY rdata=0x98af4d41
# UVM_INFO ../src/slv/ahb_slave_driver.sv(184) @ 285000: uvm_test_top.env.slave_agent.drv [ahb_slave_driver] Beat AHB_READ addr=0x0000801e resp=AHB_RESP_OKAY waits=0 rdata=0x98af4d41
# UVM_INFO ../src/mst/ahb_master_monitor.sv(128) @ 285000: uvm_test_top.env.master_agent.mon [ahb_master_monitor] Beat[6] addr=0x0000801e rdata=0x98af4d41 resp=AHB_RESP_OKAY
# UVM_INFO ../src/slv_seq/ahb_slave_error_seq.sv(88) @ 285000: uvm_test_top.env.slave_agent.sqr@@slv_seq [ahb_slave_error_seq] Response 9: AHB_READ @0x00008020 -> AHB_RESP_OKAY, 2 wait states           
# UVM_INFO ../src/mst/ahb_master_driver.sv(332) @ 315000: uvm_test_top.env.master_agent.drv [ahb_master_driver] Beat[7/8] addr=0x00008020 trans=AHB_TRANS_SEQ resp=AHB_RESP_OKAY rdata=0xfdfb31f3
# UVM_INFO ../src/mst/ahb_master_driver.sv(376) @ 315000: uvm_test_top.env.master_agent.drv [ahb_master_driver] Transaction complete: AHB_READ 0x00008012, 8 beats, burst=AHB_BURST_INCR8
# UVM_INFO ../src/slv/ahb_slave_driver.sv(184) @ 315000: uvm_test_top.env.slave_agent.drv [ahb_slave_driver] Beat AHB_READ addr=0x00008020 resp=AHB_RESP_OKAY waits=2 rdata=0xfdfb31f3
# UVM_INFO ../src/slv/ahb_slave_monitor.sv(212) @ 315000: uvm_test_top.env.slave_agent.mon [ahb_slave_monitor] Observed [AHB_READ]: HADDR=0x00008012, HBURST=AHB_BURST_INCR8, HSIZE=AHB_SIZE_16B, 8 beats
# UVM_INFO ../src/env/ahb_coverage.sv(174) @ 315000: uvm_test_top.env.slave_cov [ahb_coverage] Sampled [AHB_READ]: burst=AHB_BURST_INCR8 size=AHB_SIZE_16B beats=8 error=0
# UVM_INFO ../src/mst/ahb_master_monitor.sv(128) @ 315000: uvm_test_top.env.master_agent.mon [ahb_master_monitor] Beat[7] addr=0x00008020 rdata=0xfdfb31f3 resp=AHB_RESP_OKAY
# UVM_INFO ../src/mst/ahb_master_monitor.sv(231) @ 315000: uvm_test_top.env.master_agent.mon [ahb_master_monitor] Observed [AHB_READ]: HADDR=0x00008012, HBURST=AHB_BURST_INCR8, HSIZE=AHB_SIZE_16B, 8 beats
# UVM_INFO ../src/env/ahb_coverage.sv(174) @ 315000: uvm_test_top.env.master_cov [ahb_coverage] Sampled [AHB_READ]: burst=AHB_BURST_INCR8 size=AHB_SIZE_16B beats=8 error=0
# UVM_INFO ../src/env/ahb_scoreboard.sv(104) @ 315000: uvm_test_top.env.scb [ahb_scoreboard] MATCH #2: [AHB_READ] HADDR=0x00008012 AHB_BURST_INCR8 8 beats
# UVM_INFO ../src/mst/ahb_master_driver.sv(85) @ 315000: uvm_test_top.env.master_agent.drv [ahb_master_driver] Queueing [AHB_WRITE]: HADDR=0x00009017, HBURST=AHB_BURST_SINGLE, HSIZE=AHB_SIZE_8B, 1 beats
# UVM_INFO ../src/mst/ahb_master_driver.sv(127) @ 315000: uvm_test_top.env.master_agent.drv [ahb_master_driver] Driving [AHB_WRITE]: HADDR=0x00009017, HBURST=AHB_BURST_SINGLE, HSIZE=AHB_SIZE_8B, 1 beats               
# UVM_INFO ../src/slv_seq/ahb_slave_error_seq.sv(88) @ 335000: uvm_test_top.env.slave_agent.sqr@@slv_seq [ahb_slave_error_seq] Response 10: AHB_WRITE @0x00009017 -> AHB_RESP_ERROR, 1 wait states (unmapped)
# UVM_INFO ../src/mst/ahb_master_driver.sv(332) @ 365000: uvm_test_top.env.master_agent.drv [ahb_master_driver] Beat[0/1] addr=0x00009017 trans=AHB_TRANS_NONSEQ resp=AHB_RESP_ERROR wdata=0xc62e5aef
# UVM_INFO ../src/mst/ahb_master_driver.sv(349) @ 365000: uvm_test_top.env.master_agent.drv [ahb_master_driver] ERROR response on beat 0/1 - continuing burst (abort_on_error=0)
# UVM_INFO ../src/mst/ahb_master_driver.sv(376) @ 365000: uvm_test_top.env.master_agent.drv [ahb_master_driver] Transaction complete: AHB_WRITE 0x00009017, 1 beats, burst=AHB_BURST_SINGLE
# UVM_INFO ../src/slv/ahb_slave_driver.sv(184) @ 365000: uvm_test_top.env.slave_agent.drv [ahb_slave_driver] Beat AHB_WRITE addr=0x00009017 resp=AHB_RESP_ERROR waits=1 wdata=0xc62e5aef
# UVM_INFO ../src/mst/ahb_master_monitor.sv(128) @ 365000: uvm_test_top.env.master_agent.mon [ahb_master_monitor] Beat[0] addr=0x00009017 wdata=0xc62e5aef resp=AHB_RESP_ERROR
# UVM_INFO ../src/mst/ahb_master_monitor.sv(231) @ 365000: uvm_test_top.env.master_agent.mon [ahb_master_monitor] Observed [AHB_WRITE]: HADDR=0x00009017, HBURST=AHB_BURST_SINGLE, HSIZE=AHB_SIZE_8B, 1 beats
# UVM_INFO ../src/env/ahb_coverage.sv(174) @ 365000: uvm_test_top.env.master_cov [ahb_coverage] Sampled [AHB_WRITE]: burst=AHB_BURST_SINGLE size=AHB_SIZE_8B beats=1 error=1
# UVM_INFO ../src/slv/ahb_slave_monitor.sv(212) @ 365000: uvm_test_top.env.slave_agent.mon [ahb_slave_monitor] Observed [AHB_WRITE]: HADDR=0x00009017, HBURST=AHB_BURST_SINGLE, HSIZE=AHB_SIZE_8B, 1 beats
# UVM_INFO ../src/env/ahb_scoreboard.sv(104) @ 365000: uvm_test_top.env.scb [ahb_scoreboard] MATCH #3: [AHB_WRITE] HADDR=0x00009017 AHB_BURST_SINGLE 1 beats
# UVM_INFO ../src/env/ahb_coverage.sv(174) @ 365000: uvm_test_top.env.slave_cov [ahb_coverage] Sampled [AHB_WRITE]: burst=AHB_BURST_SINGLE size=AHB_SIZE_8B beats=1 error=1
# UVM_INFO ../src/mst_seq/ahb_error_seq.sv(131) @ 365000: uvm_test_top.env.master_agent.sqr@@mst_seq [ahb_error_seq] AHB_WRITE AHB_BURST_SINGLE @0x00009017: ERROR on beat 0 of 1, policy=continue, drove 1
# UVM_INFO ../src/mst/ahb_master_driver.sv(85) @ 365000: uvm_test_top.env.master_agent.drv [ahb_master_driver] Queueing [AHB_READ]: HADDR=0x0000804b, HBURST=AHB_BURST_INCR, HSIZE=AHB_SIZE_8B, 2 beats
# UVM_INFO ../src/mst/ahb_master_driver.sv(127) @ 365000: uvm_test_top.env.master_agent.drv [ahb_master_driver] Driving [AHB_READ]: HADDR=0x0000804b, HBURST=AHB_BURST_INCR, HSIZE=AHB_SIZE_8B, 2 beats               
# UVM_INFO ../src/slv_seq/ahb_slave_error_seq.sv(88) @ 385000: uvm_test_top.env.slave_agent.sqr@@slv_seq [ahb_slave_error_seq] Response 11: AHB_READ @0x0000804b -> AHB_RESP_OKAY, 1 wait states           
# UVM_INFO ../src/mst/ahb_master_driver.sv(332) @ 405000: uvm_test_top.env.master_agent.drv [ahb_master_driver] Beat[0/2] addr=0x0000804b trans=AHB_TRANS_NONSEQ resp=AHB_RESP_OKAY rdata=0x2d859b58
# UVM_INFO ../src/slv/ahb_slave_driver.sv(184) @ 405000: uvm_test_top.env.slave_agent.drv [ahb_slave_driver] Beat AHB_READ addr=0x0000804b resp=AHB_RESP_OKAY waits=1 rdata=0x2d859b58
# UVM_INFO ../src/mst/ahb_master_monitor.sv(128) @ 405000: uvm_test_top.env.master_agent.mon [ahb_master_monitor] Beat[0] addr=0x0000804b rdata=0x2d859b58 resp=AHB_RESP_OKAY
# UVM_INFO ../src/slv_seq/ahb_slave_error_seq.sv(88) @ 405000: uvm_test_top.env.slave_agent.sqr@@slv_seq [ahb_slave_error_seq] Response 12: AHB_READ @0x0000804c -> AHB_RESP_OKAY, 0 wait states           
# UVM_INFO ../src/mst/ahb_master_driver.sv(332) @ 415000: uvm_test_top.env.master_agent.drv [ahb_master_driver] Beat[1/2] addr=0x0000804c trans=AHB_TRANS_SEQ resp=AHB_RESP_OKAY rdata=0xf59b826f
# UVM_INFO ../src/mst/ahb_master_driver.sv(376) @ 415000: uvm_test_top.env.master_agent.drv [ahb_master_driver] Transaction complete: AHB_READ 0x0000804b, 2 beats, burst=AHB_BURST_INCR
# UVM_INFO ../src/slv/ahb_slave_driver.sv(184) @ 415000: uvm_test_top.env.slave_agent.drv [ahb_slave_driver] Beat AHB_READ addr=0x0000804c resp=AHB_RESP_OKAY waits=0 rdata=0xf59b826f
# UVM_INFO ../src/slv/ahb_slave_monitor.sv(212) @ 415000: uvm_test_top.env.slave_agent.mon [ahb_slave_monitor] Observed [AHB_READ]: HADDR=0x0000804b, HBURST=AHB_BURST_INCR, HSIZE=AHB_SIZE_8B, 2 beats
# UVM_INFO ../src/env/ahb_coverage.sv(174) @ 415000: uvm_test_top.env.slave_cov [ahb_coverage] Sampled [AHB_READ]: burst=AHB_BURST_INCR size=AHB_SIZE_8B beats=2 error=0
# UVM_INFO ../src/mst/ahb_master_monitor.sv(128) @ 415000: uvm_test_top.env.master_agent.mon [ahb_master_monitor] Beat[1] addr=0x0000804c rdata=0xf59b826f resp=AHB_RESP_OKAY
# UVM_INFO ../src/mst/ahb_master_monitor.sv(231) @ 415000: uvm_test_top.env.master_agent.mon [ahb_master_monitor] Observed [AHB_READ]: HADDR=0x0000804b, HBURST=AHB_BURST_INCR, HSIZE=AHB_SIZE_8B, 2 beats
# UVM_INFO ../src/env/ahb_coverage.sv(174) @ 415000: uvm_test_top.env.master_cov [ahb_coverage] Sampled [AHB_READ]: burst=AHB_BURST_INCR size=AHB_SIZE_8B beats=2 error=0
# UVM_INFO ../src/env/ahb_scoreboard.sv(104) @ 415000: uvm_test_top.env.scb [ahb_scoreboard] MATCH #4: [AHB_READ] HADDR=0x0000804b AHB_BURST_INCR 2 beats
# UVM_INFO ../src/mst/ahb_master_driver.sv(85) @ 415000: uvm_test_top.env.master_agent.drv [ahb_master_driver] Queueing [AHB_WRITE]: HADDR=0x000070b8, HBURST=AHB_BURST_INCR, HSIZE=AHB_SIZE_32B, 2 beats
# UVM_INFO ../src/mst/ahb_master_driver.sv(127) @ 415000: uvm_test_top.env.master_agent.drv [ahb_master_driver] Driving [AHB_WRITE]: HADDR=0x000070b8, HBURST=AHB_BURST_INCR, HSIZE=AHB_SIZE_32B, 2 beats               
# UVM_INFO ../src/slv_seq/ahb_slave_error_seq.sv(88) @ 435000: uvm_test_top.env.slave_agent.sqr@@slv_seq [ahb_slave_error_seq] Response 13: AHB_WRITE @0x000070b8 -> AHB_RESP_OKAY, 1 wait states           
# UVM_INFO ../src/mst/ahb_master_driver.sv(332) @ 455000: uvm_test_top.env.master_agent.drv [ahb_master_driver] Beat[0/2] addr=0x000070b8 trans=AHB_TRANS_NONSEQ resp=AHB_RESP_OKAY wdata=0xd6bee26b
# UVM_INFO ../src/slv/ahb_slave_driver.sv(184) @ 455000: uvm_test_top.env.slave_agent.drv [ahb_slave_driver] Beat AHB_WRITE addr=0x000070b8 resp=AHB_RESP_OKAY waits=1 wdata=0xd6bee26b
# UVM_INFO ../src/mst/ahb_master_monitor.sv(128) @ 455000: uvm_test_top.env.master_agent.mon [ahb_master_monitor] Beat[0] addr=0x000070b8 wdata=0xd6bee26b resp=AHB_RESP_OKAY
# UVM_INFO ../src/slv_seq/ahb_slave_error_seq.sv(88) @ 455000: uvm_test_top.env.slave_agent.sqr@@slv_seq [ahb_slave_error_seq] Response 14: AHB_WRITE @0x000070bc -> AHB_RESP_OKAY, 2 wait states           
# UVM_INFO ../src/mst/ahb_master_driver.sv(332) @ 485000: uvm_test_top.env.master_agent.drv [ahb_master_driver] Beat[1/2] addr=0x000070bc trans=AHB_TRANS_SEQ resp=AHB_RESP_OKAY wdata=0x4b0638a2
# UVM_INFO ../src/mst/ahb_master_driver.sv(376) @ 485000: uvm_test_top.env.master_agent.drv [ahb_master_driver] Transaction complete: AHB_WRITE 0x000070b8, 2 beats, burst=AHB_BURST_INCR
# UVM_INFO ../src/slv/ahb_slave_driver.sv(184) @ 485000: uvm_test_top.env.slave_agent.drv [ahb_slave_driver] Beat AHB_WRITE addr=0x000070bc resp=AHB_RESP_OKAY waits=2 wdata=0x4b0638a2
# UVM_INFO ../src/mst/ahb_master_monitor.sv(128) @ 485000: uvm_test_top.env.master_agent.mon [ahb_master_monitor] Beat[1] addr=0x000070bc wdata=0x4b0638a2 resp=AHB_RESP_OKAY
# UVM_INFO ../src/mst/ahb_master_monitor.sv(231) @ 485000: uvm_test_top.env.master_agent.mon [ahb_master_monitor] Observed [AHB_WRITE]: HADDR=0x000070b8, HBURST=AHB_BURST_INCR, HSIZE=AHB_SIZE_32B, 2 beats
# UVM_INFO ../src/env/ahb_coverage.sv(174) @ 485000: uvm_test_top.env.master_cov [ahb_coverage] Sampled [AHB_WRITE]: burst=AHB_BURST_INCR size=AHB_SIZE_32B beats=2 error=0
# UVM_INFO ../src/slv/ahb_slave_monitor.sv(212) @ 485000: uvm_test_top.env.slave_agent.mon [ahb_slave_monitor] Observed [AHB_WRITE]: HADDR=0x000070b8, HBURST=AHB_BURST_INCR, HSIZE=AHB_SIZE_32B, 2 beats
# UVM_INFO ../src/env/ahb_scoreboard.sv(104) @ 485000: uvm_test_top.env.scb [ahb_scoreboard] MATCH #5: [AHB_WRITE] HADDR=0x000070b8 AHB_BURST_INCR 2 beats
# UVM_INFO ../src/env/ahb_coverage.sv(174) @ 485000: uvm_test_top.env.slave_cov [ahb_coverage] Sampled [AHB_WRITE]: burst=AHB_BURST_INCR size=AHB_SIZE_32B beats=2 error=0
# UVM_INFO ../src/mst/ahb_master_driver.sv(85) @ 485000: uvm_test_top.env.master_agent.drv [ahb_master_driver] Queueing [AHB_READ]: HADDR=0x00009044, HBURST=AHB_BURST_INCR, HSIZE=AHB_SIZE_8B, 10 beats
# UVM_INFO ../src/mst/ahb_master_driver.sv(127) @ 485000: uvm_test_top.env.master_agent.drv [ahb_master_driver] Driving [AHB_READ]: HADDR=0x00009044, HBURST=AHB_BURST_INCR, HSIZE=AHB_SIZE_8B, 10 beats               
# UVM_INFO ../src/slv_seq/ahb_slave_error_seq.sv(88) @ 505000: uvm_test_top.env.slave_agent.sqr@@slv_seq [ahb_slave_error_seq] Response 15: AHB_READ @0x00009044 -> AHB_RESP_ERROR, 0 wait states (unmapped)
# UVM_INFO ../src/mst/ahb_master_driver.sv(332) @ 525000: uvm_test_top.env.master_agent.drv [ahb_master_driver] Beat[0/10] addr=0x00009044 trans=AHB_TRANS_NONSEQ resp=AHB_RESP_ERROR rdata=0xf59b826f
# UVM_INFO ../src/mst/ahb_master_driver.sv(342) @ 525000: uvm_test_top.env.master_agent.drv [ahb_master_driver] ERROR response on beat 0/10 - cancelling remaining burst
# UVM_INFO ../src/mst/ahb_master_driver.sv(376) @ 525000: uvm_test_top.env.master_agent.drv [ahb_master_driver] Transaction complete: AHB_READ 0x00009044, 10 beats, burst=AHB_BURST_INCR
# UVM_INFO ../src/slv/ahb_slave_driver.sv(184) @ 525000: uvm_test_top.env.slave_agent.drv [ahb_slave_driver] Beat AHB_READ addr=0x00009044 resp=AHB_RESP_ERROR waits=0 rdata=0xa4e3706c
# UVM_INFO ../src/mst/ahb_master_monitor.sv(128) @ 525000: uvm_test_top.env.master_agent.mon [ahb_master_monitor] Beat[0] addr=0x00009044 rdata=0xf59b826f resp=AHB_RESP_ERROR
# UVM_INFO ../src/mst/ahb_master_monitor.sv(231) @ 525000: uvm_test_top.env.master_agent.mon [ahb_master_monitor] Observed [AHB_READ]: HADDR=0x00009044, HBURST=AHB_BURST_INCR, HSIZE=AHB_SIZE_8B, 1 beats
# UVM_INFO ../src/env/ahb_coverage.sv(174) @ 525000: uvm_test_top.env.master_cov [ahb_coverage] Sampled [AHB_READ]: burst=AHB_BURST_INCR size=AHB_SIZE_8B beats=1 error=1
# UVM_INFO ../src/slv/ahb_slave_monitor.sv(212) @ 525000: uvm_test_top.env.slave_agent.mon [ahb_slave_monitor] Observed [AHB_READ]: HADDR=0x00009044, HBURST=AHB_BURST_INCR, HSIZE=AHB_SIZE_8B, 1 beats
# UVM_INFO ../src/env/ahb_scoreboard.sv(104) @ 525000: uvm_test_top.env.scb [ahb_scoreboard] MATCH #6: [AHB_READ] HADDR=0x00009044 AHB_BURST_INCR 1 beats
# UVM_INFO ../src/env/ahb_coverage.sv(174) @ 525000: uvm_test_top.env.slave_cov [ahb_coverage] Sampled [AHB_READ]: burst=AHB_BURST_INCR size=AHB_SIZE_8B beats=1 error=1
# UVM_INFO ../src/mst_seq/ahb_error_seq.sv(131) @ 525000: uvm_test_top.env.master_agent.sqr@@mst_seq [ahb_error_seq] AHB_READ AHB_BURST_INCR @0x00009044: ERROR on beat 0 of 10, policy=  cancel, drove 1
# UVM_INFO ../src/mst/ahb_master_driver.sv(85) @ 525000: uvm_test_top.env.master_agent.drv [ahb_master_driver] Queueing [AHB_WRITE]: HADDR=0x000070d6, HBURST=AHB_BURST_INCR4, HSIZE=AHB_SIZE_16B, 4 beats
# UVM_INFO ../src/mst/ahb_master_driver.sv(127) @ 525000: uvm_test_top.env.master_agent.drv [ahb_master_driver] Driving [AHB_WRITE]: HADDR=0x000070d6, HBURST=AHB_BURST_INCR4, HSIZE=AHB_SIZE_16B, 4 beats               
# UVM_INFO ../src/slv_seq/ahb_slave_error_seq.sv(88) @ 545000: uvm_test_top.env.slave_agent.sqr@@slv_seq [ahb_slave_error_seq] Response 16: AHB_WRITE @0x000070d6 -> AHB_RESP_ERROR, 0 wait states           
# UVM_INFO ../src/mst/ahb_master_driver.sv(332) @ 565000: uvm_test_top.env.master_agent.drv [ahb_master_driver] Beat[0/4] addr=0x000070d6 trans=AHB_TRANS_NONSEQ resp=AHB_RESP_ERROR wdata=0x8b8ad13a
# UVM_INFO ../src/mst/ahb_master_driver.sv(349) @ 565000: uvm_test_top.env.master_agent.drv [ahb_master_driver] ERROR response on beat 0/4 - continuing burst (abort_on_error=0)
# UVM_INFO ../src/slv/ahb_slave_driver.sv(184) @ 565000: uvm_test_top.env.slave_agent.drv [ahb_slave_driver] Beat AHB_WRITE addr=0x000070d6 resp=AHB_RESP_ERROR waits=0 wdata=0x8b8ad13a
# UVM_INFO ../src/mst/ahb_master_monitor.sv(128) @ 565000: uvm_test_top.env.master_agent.mon [ahb_master_monitor] Beat[0] addr=0x000070d6 wdata=0x8b8ad13a resp=AHB_RESP_ERROR
# UVM_INFO ../src/slv_seq/ahb_slave_error_seq.sv(88) @ 565000: uvm_test_top.env.slave_agent.sqr@@slv_seq [ahb_slave_error_seq] Response 17: AHB_WRITE @0x000070d8 -> AHB_RESP_OKAY, 1 wait states           
# UVM_INFO ../src/mst/ahb_master_driver.sv(332) @ 585000: uvm_test_top.env.master_agent.drv [ahb_master_driver] Beat[1/4] addr=0x000070d8 trans=AHB_TRANS_SEQ resp=AHB_RESP_OKAY wdata=0x164f574c
# UVM_INFO ../src/slv/ahb_slave_driver.sv(184) @ 585000: uvm_test_top.env.slave_agent.drv [ahb_slave_driver] Beat AHB_WRITE addr=0x000070d8 resp=AHB_RESP_OKAY waits=1 wdata=0x164f574c
# UVM_INFO ../src/mst/ahb_master_monitor.sv(128) @ 585000: uvm_test_top.env.master_agent.mon [ahb_master_monitor] Beat[1] addr=0x000070d8 wdata=0x164f574c resp=AHB_RESP_OKAY
# UVM_INFO ../src/slv_seq/ahb_slave_error_seq.sv(88) @ 585000: uvm_test_top.env.slave_agent.sqr@@slv_seq [ahb_slave_error_seq] Response 18: AHB_WRITE @0x000070da -> AHB_RESP_OKAY, 1 wait states           
# UVM_INFO ../src/mst/ahb_master_driver.sv(332) @ 605000: uvm_test_top.env.master_agent.drv [ahb_master_driver] Beat[2/4] addr=0x000070da trans=AHB_TRANS_SEQ resp=AHB_RESP_OKAY wdata=0xd0fa1538
# UVM_INFO ../src/slv/ahb_slave_driver.sv(184) @ 605000: uvm_test_top.env.slave_agent.drv [ahb_slave_driver] Beat AHB_WRITE addr=0x000070da resp=AHB_RESP_OKAY waits=1 wdata=0xd0fa1538
# UVM_INFO ../src/mst/ahb_master_monitor.sv(128) @ 605000: uvm_test_top.env.master_agent.mon [ahb_master_monitor] Beat[2] addr=0x000070da wdata=0xd0fa1538 resp=AHB_RESP_OKAY
# UVM_INFO ../src/slv_seq/ahb_slave_error_seq.sv(88) @ 605000: uvm_test_top.env.slave_agent.sqr@@slv_seq [ahb_slave_error_seq] Response 19: AHB_WRITE @0x000070dc -> AHB_RESP_OKAY, 2 wait states           
# UVM_INFO ../src/mst/ahb_master_driver.sv(332) @ 635000: uvm_test_top.env.master_agent.drv [ahb_master_driver] Beat[3/4] addr=0x000070dc trans=AHB_TRANS_SEQ resp=AHB_RESP_OKAY wdata=0xd3ed487b
# UVM_INFO ../src/mst/ahb_master_driver.sv(376) @ 635000: uvm_test_top.env.master_agent.drv [ahb_master_driver] Transaction complete: AHB_WRITE 0x000070d6, 4 beats, burst=AHB_BURST_INCR4
# UVM_INFO ../src/slv/ahb_slave_driver.sv(184) @ 635000: uvm_test_top.env.slave_agent.drv [ahb_slave_driver] Beat AHB_WRITE addr=0x000070dc resp=AHB_RESP_OKAY waits=2 wdata=0xd3ed487b
# UVM_INFO ../src/slv/ahb_slave_monitor.sv(212) @ 635000: uvm_test_top.env.slave_agent.mon [ahb_slave_monitor] Observed [AHB_WRITE]: HADDR=0x000070d6, HBURST=AHB_BURST_INCR4, HSIZE=AHB_SIZE_16B, 4 beats
# UVM_INFO ../src/env/ahb_coverage.sv(174) @ 635000: uvm_test_top.env.slave_cov [ahb_coverage] Sampled [AHB_WRITE]: burst=AHB_BURST_INCR4 size=AHB_SIZE_16B beats=4 error=1
# UVM_INFO ../src/mst/ahb_master_monitor.sv(128) @ 635000: uvm_test_top.env.master_agent.mon [ahb_master_monitor] Beat[3] addr=0x000070dc wdata=0xd3ed487b resp=AHB_RESP_OKAY
# UVM_INFO ../src/mst/ahb_master_monitor.sv(231) @ 635000: uvm_test_top.env.master_agent.mon [ahb_master_monitor] Observed [AHB_WRITE]: HADDR=0x000070d6, HBURST=AHB_BURST_INCR4, HSIZE=AHB_SIZE_16B, 4 beats
# UVM_INFO ../src/env/ahb_coverage.sv(174) @ 635000: uvm_test_top.env.master_cov [ahb_coverage] Sampled [AHB_WRITE]: burst=AHB_BURST_INCR4 size=AHB_SIZE_16B beats=4 error=1
# UVM_INFO ../src/env/ahb_scoreboard.sv(104) @ 635000: uvm_test_top.env.scb [ahb_scoreboard] MATCH #7: [AHB_WRITE] HADDR=0x000070d6 AHB_BURST_INCR4 4 beats
# UVM_INFO ../src/mst_seq/ahb_error_seq.sv(131) @ 635000: uvm_test_top.env.master_agent.sqr@@mst_seq [ahb_error_seq] AHB_WRITE AHB_BURST_INCR4 @0x000070d6: ERROR on beat 0 of 4, policy=continue, drove 4
# UVM_INFO ../src/mst/ahb_master_driver.sv(85) @ 635000: uvm_test_top.env.master_agent.drv [ahb_master_driver] Queueing [AHB_READ]: HADDR=0x000080e7, HBURST=AHB_BURST_INCR, HSIZE=AHB_SIZE_8B, 2 beats
# UVM_INFO ../src/mst/ahb_master_driver.sv(127) @ 635000: uvm_test_top.env.master_agent.drv [ahb_master_driver] Driving [AHB_READ]: HADDR=0x000080e7, HBURST=AHB_BURST_INCR, HSIZE=AHB_SIZE_8B, 2 beats               
# UVM_INFO ../src/slv_seq/ahb_slave_error_seq.sv(88) @ 655000: uvm_test_top.env.slave_agent.sqr@@slv_seq [ahb_slave_error_seq] Response 20: AHB_READ @0x000080e7 -> AHB_RESP_OKAY, 0 wait states           
# UVM_INFO ../src/mst/ahb_master_driver.sv(332) @ 665000: uvm_test_top.env.master_agent.drv [ahb_master_driver] Beat[0/2] addr=0x000080e7 trans=AHB_TRANS_NONSEQ resp=AHB_RESP_OKAY rdata=0x9f346280
# UVM_INFO ../src/slv/ahb_slave_driver.sv(184) @ 665000: uvm_test_top.env.slave_agent.drv [ahb_slave_driver] Beat AHB_READ addr=0x000080e7 resp=AHB_RESP_OKAY waits=0 rdata=0x9f346280
# UVM_INFO ../src/mst/ahb_master_monitor.sv(128) @ 665000: uvm_test_top.env.master_agent.mon [ahb_master_monitor] Beat[0] addr=0x000080e7 rdata=0x9f346280 resp=AHB_RESP_OKAY
# UVM_INFO ../src/slv_seq/ahb_slave_error_seq.sv(88) @ 665000: uvm_test_top.env.slave_agent.sqr@@slv_seq [ahb_slave_error_seq] Response 21: AHB_READ @0x000080e8 -> AHB_RESP_OKAY, 2 wait states           
# UVM_INFO ../src/mst/ahb_master_driver.sv(332) @ 695000: uvm_test_top.env.master_agent.drv [ahb_master_driver] Beat[1/2] addr=0x000080e8 trans=AHB_TRANS_SEQ resp=AHB_RESP_OKAY rdata=0x6a5e73b7
# UVM_INFO ../src/mst/ahb_master_driver.sv(376) @ 695000: uvm_test_top.env.master_agent.drv [ahb_master_driver] Transaction complete: AHB_READ 0x000080e7, 2 beats, burst=AHB_BURST_INCR
# UVM_INFO ../src/slv/ahb_slave_driver.sv(184) @ 695000: uvm_test_top.env.slave_agent.drv [ahb_slave_driver] Beat AHB_READ addr=0x000080e8 resp=AHB_RESP_OKAY waits=2 rdata=0x6a5e73b7
# UVM_INFO ../src/slv/ahb_slave_monitor.sv(212) @ 695000: uvm_test_top.env.slave_agent.mon [ahb_slave_monitor] Observed [AHB_READ]: HADDR=0x000080e7, HBURST=AHB_BURST_INCR, HSIZE=AHB_SIZE_8B, 2 beats
# UVM_INFO ../src/env/ahb_coverage.sv(174) @ 695000: uvm_test_top.env.slave_cov [ahb_coverage] Sampled [AHB_READ]: burst=AHB_BURST_INCR size=AHB_SIZE_8B beats=2 error=0
# UVM_INFO ../src/mst/ahb_master_monitor.sv(128) @ 695000: uvm_test_top.env.master_agent.mon [ahb_master_monitor] Beat[1] addr=0x000080e8 rdata=0x6a5e73b7 resp=AHB_RESP_OKAY
# UVM_INFO ../src/mst/ahb_master_monitor.sv(231) @ 695000: uvm_test_top.env.master_agent.mon [ahb_master_monitor] Observed [AHB_READ]: HADDR=0x000080e7, HBURST=AHB_BURST_INCR, HSIZE=AHB_SIZE_8B, 2 beats
# UVM_INFO ../src/env/ahb_coverage.sv(174) @ 695000: uvm_test_top.env.master_cov [ahb_coverage] Sampled [AHB_READ]: burst=AHB_BURST_INCR size=AHB_SIZE_8B beats=2 error=0
# UVM_INFO ../src/env/ahb_scoreboard.sv(104) @ 695000: uvm_test_top.env.scb [ahb_scoreboard] MATCH #8: [AHB_READ] HADDR=0x000080e7 AHB_BURST_INCR 2 beats
# UVM_INFO ../src/mst/ahb_master_driver.sv(85) @ 695000: uvm_test_top.env.master_agent.drv [ahb_master_driver] Queueing [AHB_WRITE]: HADDR=0x00009080, HBURST=AHB_BURST_WRAP16, HSIZE=AHB_SIZE_32B, 16 beats
# UVM_INFO ../src/mst/ahb_master_driver.sv(127) @ 695000: uvm_test_top.env.master_agent.drv [ahb_master_driver] Driving [AHB_WRITE]: HADDR=0x00009080, HBURST=AHB_BURST_WRAP16, HSIZE=AHB_SIZE_32B, 16 beats               
# UVM_INFO ../src/slv_seq/ahb_slave_error_seq.sv(88) @ 715000: uvm_test_top.env.slave_agent.sqr@@slv_seq [ahb_slave_error_seq] Response 22: AHB_WRITE @0x00009080 -> AHB_RESP_ERROR, 0 wait states (unmapped)
# UVM_INFO ../src/mst/ahb_master_driver.sv(332) @ 735000: uvm_test_top.env.master_agent.drv [ahb_master_driver] Beat[0/16] addr=0x00009080 trans=AHB_TRANS_NONSEQ resp=AHB_RESP_ERROR wdata=0xdbcc6f3e
# UVM_INFO ../src/mst/ahb_master_driver.sv(342) @ 735000: uvm_test_top.env.master_agent.drv [ahb_master_driver] ERROR response on beat 0/16 - cancelling remaining burst
# UVM_INFO ../src/mst/ahb_master_driver.sv(376) @ 735000: uvm_test_top.env.master_agent.drv [ahb_master_driver] Transaction complete: AHB_WRITE 0x00009080, 16 beats, burst=AHB_BURST_WRAP16
# UVM_INFO ../src/slv/ahb_slave_driver.sv(184) @ 735000: uvm_test_top.env.slave_agent.drv [ahb_slave_driver] Beat AHB_WRITE addr=0x00009080 resp=AHB_RESP_ERROR waits=0 wdata=0xdbcc6f3e
# UVM_INFO ../src/slv/ahb_slave_monitor.sv(212) @ 735000: uvm_test_top.env.slave_agent.mon [ahb_slave_monitor] Observed [AHB_WRITE]: HADDR=0x00009080, HBURST=AHB_BURST_WRAP16, HSIZE=AHB_SIZE_32B, 1 beats
# UVM_INFO ../src/env/ahb_coverage.sv(174) @ 735000: uvm_test_top.env.slave_cov [ahb_coverage] Sampled [AHB_WRITE]: burst=AHB_BURST_WRAP16 size=AHB_SIZE_32B beats=16 error=1
# UVM_INFO ../src/mst/ahb_master_monitor.sv(128) @ 735000: uvm_test_top.env.master_agent.mon [ahb_master_monitor] Beat[0] addr=0x00009080 wdata=0xdbcc6f3e resp=AHB_RESP_ERROR
# UVM_INFO ../src/mst/ahb_master_monitor.sv(231) @ 735000: uvm_test_top.env.master_agent.mon [ahb_master_monitor] Observed [AHB_WRITE]: HADDR=0x00009080, HBURST=AHB_BURST_WRAP16, HSIZE=AHB_SIZE_32B, 1 beats
# UVM_INFO ../src/env/ahb_coverage.sv(174) @ 735000: uvm_test_top.env.master_cov [ahb_coverage] Sampled [AHB_WRITE]: burst=AHB_BURST_WRAP16 size=AHB_SIZE_32B beats=16 error=1
# UVM_INFO ../src/env/ahb_scoreboard.sv(104) @ 735000: uvm_test_top.env.scb [ahb_scoreboard] MATCH #9: [AHB_WRITE] HADDR=0x00009080 AHB_BURST_WRAP16 16 beats
# UVM_INFO ../src/mst_seq/ahb_error_seq.sv(131) @ 735000: uvm_test_top.env.master_agent.sqr@@mst_seq [ahb_error_seq] AHB_WRITE AHB_BURST_WRAP16 @0x00009080: ERROR on beat 0 of 16, policy=  cancel, drove 1
# UVM_INFO ../src/mst/ahb_master_driver.sv(85) @ 735000: uvm_test_top.env.master_agent.drv [ahb_master_driver] Queueing [AHB_READ]: HADDR=0x0000810e, HBURST=AHB_BURST_WRAP16, HSIZE=AHB_SIZE_8B, 16 beats
# UVM_INFO ../src/mst/ahb_master_driver.sv(127) @ 735000: uvm_test_top.env.master_agent.drv [ahb_master_driver] Driving [AHB_READ]: HADDR=0x0000810e, HBURST=AHB_BURST_WRAP16, HSIZE=AHB_SIZE_8B, 16 beats               
# UVM_INFO ../src/slv_seq/ahb_slave_error_seq.sv(88) @ 755000: uvm_test_top.env.slave_agent.sqr@@slv_seq [ahb_slave_error_seq] Response 23: AHB_READ @0x0000810e -> AHB_RESP_OKAY, 0 wait states           
# UVM_INFO ../src/mst/ahb_master_driver.sv(332) @ 765000: uvm_test_top.env.master_agent.drv [ahb_master_driver] Beat[0/16] addr=0x0000810e trans=AHB_TRANS_NONSEQ resp=AHB_RESP_OKAY rdata=0x72eeb4e8
# UVM_INFO ../src/slv/ahb_slave_driver.sv(184) @ 765000: uvm_test_top.env.slave_agent.drv [ahb_slave_driver] Beat AHB_READ addr=0x0000810e resp=AHB_RESP_OKAY waits=0 rdata=0x72eeb4e8
# UVM_INFO ../src/mst/ahb_master_monitor.sv(128) @ 765000: uvm_test_top.env.master_agent.mon [ahb_master_monitor] Beat[0] addr=0x0000810e rdata=0x72eeb4e8 resp=AHB_RESP_OKAY
# UVM_INFO ../src/slv_seq/ahb_slave_error_seq.sv(88) @ 765000: uvm_test_top.env.slave_agent.sqr@@slv_seq [ahb_slave_error_seq] Response 24: AHB_READ @0x0000810f -> AHB_RESP_ERROR, 2 wait states           
# UVM_INFO ../src/mst/ahb_master_driver.sv(332) @ 805000: uvm_test_top.env.master_agent.drv [ahb_master_driver] Beat[1/16] addr=0x0000810f trans=AHB_TRANS_SEQ resp=AHB_RESP_ERROR rdata=0x72eeb4e8
# UVM_INFO ../src/mst/ahb_master_driver.sv(342) @ 805000: uvm_test_top.env.master_agent.drv [ahb_master_driver] ERROR response on beat 1/16 - cancelling remaining burst
# UVM_INFO ../src/mst/ahb_master_driver.sv(376) @ 805000: uvm_test_top.env.master_agent.drv [ahb_master_driver] Transaction complete: AHB_READ 0x0000810e, 16 beats, burst=AHB_BURST_WRAP16
# UVM_INFO ../src/slv/ahb_slave_driver.sv(184) @ 805000: uvm_test_top.env.slave_agent.drv [ahb_slave_driver] Beat AHB_READ addr=0x0000810f resp=AHB_RESP_ERROR waits=2 rdata=0x7afe9427
# UVM_INFO ../src/mst/ahb_master_monitor.sv(128) @ 805000: uvm_test_top.env.master_agent.mon [ahb_master_monitor] Beat[1] addr=0x0000810f rdata=0x72eeb4e8 resp=AHB_RESP_ERROR
# UVM_INFO ../src/mst/ahb_master_monitor.sv(231) @ 805000: uvm_test_top.env.master_agent.mon [ahb_master_monitor] Observed [AHB_READ]: HADDR=0x0000810e, HBURST=AHB_BURST_WRAP16, HSIZE=AHB_SIZE_8B, 2 beats
# UVM_INFO ../src/env/ahb_coverage.sv(174) @ 805000: uvm_test_top.env.master_cov [ahb_coverage] Sampled [AHB_READ]: burst=AHB_BURST_WRAP16 size=AHB_SIZE_8B beats=16 error=1
# UVM_INFO ../src/slv/ahb_slave_monitor.sv(212) @ 805000: uvm_test_top.env.slave_agent.mon [ahb_slave_monitor] Observed [AHB_READ]: HADDR=0x0000810e, HBURST=AHB_BURST_WRAP16, HSIZE=AHB_SIZE_8B, 2 beats
# UVM_INFO ../src/env/ahb_scoreboard.sv(104) @ 805000: uvm_test_top.env.scb [ahb_scoreboard] MATCH #10: [AHB_READ] HADDR=0x0000810e AHB_BURST_WRAP16 16 beats
# UVM_INFO ../src/env/ahb_coverage.sv(174) @ 805000: uvm_test_top.env.slave_cov [ahb_coverage] Sampled [AHB_READ]: burst=AHB_BURST_WRAP16 size=AHB_SIZE_8B beats=16 error=1
# UVM_INFO ../src/mst_seq/ahb_error_seq.sv(131) @ 805000: uvm_test_top.env.master_agent.sqr@@mst_seq [ahb_error_seq] AHB_READ AHB_BURST_WRAP16 @0x0000810e: ERROR on beat 1 of 16, policy=  cancel, drove 2
# UVM_INFO ../src/mst/ahb_master_driver.sv(85) @ 805000: uvm_test_top.env.master_agent.drv [ahb_master_driver] Queueing [AHB_WRITE]: HADDR=0x0000715a, HBURST=AHB_BURST_INCR, HSIZE=AHB_SIZE_16B, 16 beats
# UVM_INFO ../src/mst/ahb_master_driver.sv(127) @ 805000: uvm_test_top.env.master_agent.drv [ahb_master_driver] Driving [AHB_WRITE]: HADDR=0x0000715a, HBURST=AHB_BURST_INCR, HSIZE=AHB_SIZE_16B, 16 beats               
# UVM_INFO ../src/slv_seq/ahb_slave_error_seq.sv(88) @ 825000: uvm_test_top.env.slave_agent.sqr@@slv_seq [ahb_slave_error_seq] Response 25: AHB_WRITE @0x0000715a -> AHB_RESP_OKAY, 0 wait states           
# UVM_INFO ../src/mst/ahb_master_driver.sv(332) @ 835000: uvm_test_top.env.master_agent.drv [ahb_master_driver] Beat[0/16] addr=0x0000715a trans=AHB_TRANS_NONSEQ resp=AHB_RESP_OKAY wdata=0x87577be3
# UVM_INFO ../src/slv/ahb_slave_driver.sv(184) @ 835000: uvm_test_top.env.slave_agent.drv [ahb_slave_driver] Beat AHB_WRITE addr=0x0000715a resp=AHB_RESP_OKAY waits=0 wdata=0x87577be3
# UVM_INFO ../src/mst/ahb_master_monitor.sv(128) @ 835000: uvm_test_top.env.master_agent.mon [ahb_master_monitor] Beat[0] addr=0x0000715a wdata=0x87577be3 resp=AHB_RESP_OKAY
# UVM_INFO ../src/slv_seq/ahb_slave_error_seq.sv(88) @ 835000: uvm_test_top.env.slave_agent.sqr@@slv_seq [ahb_slave_error_seq] Response 26: AHB_WRITE @0x0000715c -> AHB_RESP_OKAY, 0 wait states           
# UVM_INFO ../src/mst/ahb_master_driver.sv(332) @ 845000: uvm_test_top.env.master_agent.drv [ahb_master_driver] Beat[1/16] addr=0x0000715c trans=AHB_TRANS_SEQ resp=AHB_RESP_OKAY wdata=0x7e2ddb34
# UVM_INFO ../src/slv/ahb_slave_driver.sv(184) @ 845000: uvm_test_top.env.slave_agent.drv [ahb_slave_driver] Beat AHB_WRITE addr=0x0000715c resp=AHB_RESP_OKAY waits=0 wdata=0x7e2ddb34
# UVM_INFO ../src/mst/ahb_master_monitor.sv(128) @ 845000: uvm_test_top.env.master_agent.mon [ahb_master_monitor] Beat[1] addr=0x0000715c wdata=0x7e2ddb34 resp=AHB_RESP_OKAY
# UVM_INFO ../src/slv_seq/ahb_slave_error_seq.sv(88) @ 845000: uvm_test_top.env.slave_agent.sqr@@slv_seq [ahb_slave_error_seq] Response 27: AHB_WRITE @0x0000715e -> AHB_RESP_OKAY, 1 wait states           
# UVM_INFO ../src/mst/ahb_master_driver.sv(332) @ 865000: uvm_test_top.env.master_agent.drv [ahb_master_driver] Beat[2/16] addr=0x0000715e trans=AHB_TRANS_SEQ resp=AHB_RESP_OKAY wdata=0xe1a24beb
# UVM_INFO ../src/slv/ahb_slave_driver.sv(184) @ 865000: uvm_test_top.env.slave_agent.drv [ahb_slave_driver] Beat AHB_WRITE addr=0x0000715e resp=AHB_RESP_OKAY waits=1 wdata=0xe1a24beb
# UVM_INFO ../src/mst/ahb_master_monitor.sv(128) @ 865000: uvm_test_top.env.master_agent.mon [ahb_master_monitor] Beat[2] addr=0x0000715e wdata=0xe1a24beb resp=AHB_RESP_OKAY
# UVM_INFO ../src/slv_seq/ahb_slave_error_seq.sv(88) @ 865000: uvm_test_top.env.slave_agent.sqr@@slv_seq [ahb_slave_error_seq] Response 28: AHB_WRITE @0x00007160 -> AHB_RESP_ERROR, 0 wait states           
# UVM_INFO ../src/mst/ahb_master_driver.sv(332) @ 885000: uvm_test_top.env.master_agent.drv [ahb_master_driver] Beat[3/16] addr=0x00007160 trans=AHB_TRANS_SEQ resp=AHB_RESP_ERROR wdata=0x3a51bf8f
# UVM_INFO ../src/mst/ahb_master_driver.sv(349) @ 885000: uvm_test_top.env.master_agent.drv [ahb_master_driver] ERROR response on beat 3/16 - continuing burst (abort_on_error=0)
# UVM_INFO ../src/slv/ahb_slave_driver.sv(184) @ 885000: uvm_test_top.env.slave_agent.drv [ahb_slave_driver] Beat AHB_WRITE addr=0x00007160 resp=AHB_RESP_ERROR waits=0 wdata=0x3a51bf8f
# UVM_INFO ../src/mst/ahb_master_monitor.sv(128) @ 885000: uvm_test_top.env.master_agent.mon [ahb_master_monitor] Beat[3] addr=0x00007160 wdata=0x3a51bf8f resp=AHB_RESP_ERROR
# UVM_INFO ../src/slv_seq/ahb_slave_error_seq.sv(88) @ 885000: uvm_test_top.env.slave_agent.sqr@@slv_seq [ahb_slave_error_seq] Response 29: AHB_WRITE @0x00007162 -> AHB_RESP_ERROR, 1 wait states           
# UVM_INFO ../src/mst/ahb_master_driver.sv(332) @ 915000: uvm_test_top.env.master_agent.drv [ahb_master_driver] Beat[4/16] addr=0x00007162 trans=AHB_TRANS_SEQ resp=AHB_RESP_ERROR wdata=0x166cafc1
# UVM_INFO ../src/mst/ahb_master_driver.sv(349) @ 915000: uvm_test_top.env.master_agent.drv [ahb_master_driver] ERROR response on beat 4/16 - continuing burst (abort_on_error=0)
# UVM_INFO ../src/slv/ahb_slave_driver.sv(184) @ 915000: uvm_test_top.env.slave_agent.drv [ahb_slave_driver] Beat AHB_WRITE addr=0x00007162 resp=AHB_RESP_ERROR waits=1 wdata=0x166cafc1
# UVM_INFO ../src/mst/ahb_master_monitor.sv(128) @ 915000: uvm_test_top.env.master_agent.mon [ahb_master_monitor] Beat[4] addr=0x00007162 wdata=0x166cafc1 resp=AHB_RESP_ERROR
# UVM_INFO ../src/slv_seq/ahb_slave_error_seq.sv(88) @ 915000: uvm_test_top.env.slave_agent.sqr@@slv_seq [ahb_slave_error_seq] Response 30: AHB_WRITE @0x00007164 -> AHB_RESP_ERROR, 2 wait states           
# UVM_INFO ../src/mst/ahb_master_driver.sv(332) @ 955000: uvm_test_top.env.master_agent.drv [ahb_master_driver] Beat[5/16] addr=0x00007164 trans=AHB_TRANS_SEQ resp=AHB_RESP_ERROR wdata=0xbef5caba
# UVM_INFO ../src/mst/ahb_master_driver.sv(349) @ 955000: uvm_test_top.env.master_agent.drv [ahb_master_driver] ERROR response on beat 5/16 - continuing burst (abort_on_error=0)
# UVM_INFO ../src/slv/ahb_slave_driver.sv(184) @ 955000: uvm_test_top.env.slave_agent.drv [ahb_slave_driver] Beat AHB_WRITE addr=0x00007164 resp=AHB_RESP_ERROR waits=2 wdata=0xbef5caba
# UVM_INFO ../src/mst/ahb_master_monitor.sv(128) @ 955000: uvm_test_top.env.master_agent.mon [ahb_master_monitor] Beat[5] addr=0x00007164 wdata=0xbef5caba resp=AHB_RESP_ERROR
# UVM_INFO ../src/slv_seq/ahb_slave_error_seq.sv(88) @ 955000: uvm_test_top.env.slave_agent.sqr@@slv_seq [ahb_slave_error_seq] Response 31: AHB_WRITE @0x00007166 -> AHB_RESP_OKAY, 1 wait states           
# UVM_INFO ../src/mst/ahb_master_driver.sv(332) @ 975000: uvm_test_top.env.master_agent.drv [ahb_master_driver] Beat[6/16] addr=0x00007166 trans=AHB_TRANS_SEQ resp=AHB_RESP_OKAY wdata=0x7cce0eb5
# UVM_INFO ../src/slv/ahb_slave_driver.sv(184) @ 975000: uvm_test_top.env.slave_agent.drv [ahb_slave_driver] Beat AHB_WRITE addr=0x00007166 resp=AHB_RESP_OKAY waits=1 wdata=0x7cce0eb5
# UVM_INFO ../src/mst/ahb_master_monitor.sv(128) @ 975000: uvm_test_top.env.master_agent.mon [ahb_master_monitor] Beat[6] addr=0x00007166 wdata=0x7cce0eb5 resp=AHB_RESP_OKAY
# UVM_INFO ../src/slv_seq/ahb_slave_error_seq.sv(88) @ 975000: uvm_test_top.env.slave_agent.sqr@@slv_seq [ahb_slave_error_seq] Response 32: AHB_WRITE @0x00007168 -> AHB_RESP_OKAY, 0 wait states           
# UVM_INFO ../src/mst/ahb_master_driver.sv(332) @ 985000: uvm_test_top.env.master_agent.drv [ahb_master_driver] Beat[7/16] addr=0x00007168 trans=AHB_TRANS_SEQ resp=AHB_RESP_OKAY wdata=0xfc4e21b3
# UVM_INFO ../src/slv/ahb_slave_driver.sv(184) @ 985000: uvm_test_top.env.slave_agent.drv [ahb_slave_driver] Beat AHB_WRITE addr=0x00007168 resp=AHB_RESP_OKAY waits=0 wdata=0xfc4e21b3
# UVM_INFO ../src/mst/ahb_master_monitor.sv(128) @ 985000: uvm_test_top.env.master_agent.mon [ahb_master_monitor] Beat[7] addr=0x00007168 wdata=0xfc4e21b3 resp=AHB_RESP_OKAY
# UVM_INFO ../src/slv_seq/ahb_slave_error_seq.sv(88) @ 985000: uvm_test_top.env.slave_agent.sqr@@slv_seq [ahb_slave_error_seq] Response 33: AHB_WRITE @0x0000716a -> AHB_RESP_OKAY, 1 wait states           
# UVM_INFO ../src/mst/ahb_master_driver.sv(332) @ 1005000: uvm_test_top.env.master_agent.drv [ahb_master_driver] Beat[8/16] addr=0x0000716a trans=AHB_TRANS_SEQ resp=AHB_RESP_OKAY wdata=0x2cddf503
# UVM_INFO ../src/slv/ahb_slave_driver.sv(184) @ 1005000: uvm_test_top.env.slave_agent.drv [ahb_slave_driver] Beat AHB_WRITE addr=0x0000716a resp=AHB_RESP_OKAY waits=1 wdata=0x2cddf503
# UVM_INFO ../src/mst/ahb_master_monitor.sv(128) @ 1005000: uvm_test_top.env.master_agent.mon [ahb_master_monitor] Beat[8] addr=0x0000716a wdata=0x2cddf503 resp=AHB_RESP_OKAY
# UVM_INFO ../src/slv_seq/ahb_slave_error_seq.sv(88) @ 1005000: uvm_test_top.env.slave_agent.sqr@@slv_seq [ahb_slave_error_seq] Response 34: AHB_WRITE @0x0000716c -> AHB_RESP_ERROR, 0 wait states           
# UVM_INFO ../src/mst/ahb_master_driver.sv(332) @ 1025000: uvm_test_top.env.master_agent.drv [ahb_master_driver] Beat[9/16] addr=0x0000716c trans=AHB_TRANS_SEQ resp=AHB_RESP_ERROR wdata=0x5d507f21
# UVM_INFO ../src/mst/ahb_master_driver.sv(349) @ 1025000: uvm_test_top.env.master_agent.drv [ahb_master_driver] ERROR response on beat 9/16 - continuing burst (abort_on_error=0)
# UVM_INFO ../src/slv/ahb_slave_driver.sv(184) @ 1025000: uvm_test_top.env.slave_agent.drv [ahb_slave_driver] Beat AHB_WRITE addr=0x0000716c resp=AHB_RESP_ERROR waits=0 wdata=0x5d507f21
# UVM_INFO ../src/mst/ahb_master_monitor.sv(128) @ 1025000: uvm_test_top.env.master_agent.mon [ahb_master_monitor] Beat[9] addr=0x0000716c wdata=0x5d507f21 resp=AHB_RESP_ERROR
# UVM_INFO ../src/slv_seq/ahb_slave_error_seq.sv(88) @ 1025000: uvm_test_top.env.slave_agent.sqr@@slv_seq [ahb_slave_error_seq] Response 35: AHB_WRITE @0x0000716e -> AHB_RESP_OKAY, 0 wait states           
# UVM_INFO ../src/mst/ahb_master_driver.sv(332) @ 1035000: uvm_test_top.env.master_agent.drv [ahb_master_driver] Beat[10/16] addr=0x0000716e trans=AHB_TRANS_SEQ resp=AHB_RESP_OKAY wdata=0x5dd4e14c
# UVM_INFO ../src/slv/ahb_slave_driver.sv(184) @ 1035000: uvm_test_top.env.slave_agent.drv [ahb_slave_driver] Beat AHB_WRITE addr=0x0000716e resp=AHB_RESP_OKAY waits=0 wdata=0x5dd4e14c
# UVM_INFO ../src/mst/ahb_master_monitor.sv(128) @ 1035000: uvm_test_top.env.master_agent.mon [ahb_master_monitor] Beat[10] addr=0x0000716e wdata=0x5dd4e14c resp=AHB_RESP_OKAY
# UVM_INFO ../src/slv_seq/ahb_slave_error_seq.sv(88) @ 1035000: uvm_test_top.env.slave_agent.sqr@@slv_seq [ahb_slave_error_seq] Response 36: AHB_WRITE @0x00007170 -> AHB_RESP_OKAY, 0 wait states           
# UVM_INFO ../src/mst/ahb_master_driver.sv(332) @ 1045000: uvm_test_top.env.master_agent.drv [ahb_master_driver] Beat[11/16] addr=0x00007170 trans=AHB_TRANS_SEQ resp=AHB_RESP_OKAY wdata=0x736dfafa
# UVM_INFO ../src/slv/ahb_slave_driver.sv(184) @ 1045000: uvm_test_top.env.slave_agent.drv [ahb_slave_driver] Beat AHB_WRITE addr=0x00007170 resp=AHB_RESP_OKAY waits=0 wdata=0x736dfafa
# UVM_INFO ../src/mst/ahb_master_monitor.sv(128) @ 1045000: uvm_test_top.env.master_agent.mon [ahb_master_monitor] Beat[11] addr=0x00007170 wdata=0x736dfafa resp=AHB_RESP_OKAY
# UVM_INFO ../src/slv_seq/ahb_slave_error_seq.sv(88) @ 1045000: uvm_test_top.env.slave_agent.sqr@@slv_seq [ahb_slave_error_seq] Response 37: AHB_WRITE @0x00007172 -> AHB_RESP_OKAY, 1 wait states           
# UVM_INFO ../src/mst/ahb_master_driver.sv(332) @ 1065000: uvm_test_top.env.master_agent.drv [ahb_master_driver] Beat[12/16] addr=0x00007172 trans=AHB_TRANS_SEQ resp=AHB_RESP_OKAY wdata=0x1caea8c5
# UVM_INFO ../src/slv/ahb_slave_driver.sv(184) @ 1065000: uvm_test_top.env.slave_agent.drv [ahb_slave_driver] Beat AHB_WRITE addr=0x00007172 resp=AHB_RESP_OKAY waits=1 wdata=0x1caea8c5
# UVM_INFO ../src/mst/ahb_master_monitor.sv(128) @ 1065000: uvm_test_top.env.master_agent.mon [ahb_master_monitor] Beat[12] addr=0x00007172 wdata=0x1caea8c5 resp=AHB_RESP_OKAY
# UVM_INFO ../src/slv_seq/ahb_slave_error_seq.sv(88) @ 1065000: uvm_test_top.env.slave_agent.sqr@@slv_seq [ahb_slave_error_seq] Response 38: AHB_WRITE @0x00007174 -> AHB_RESP_ERROR, 0 wait states           
# UVM_INFO ../src/mst/ahb_master_driver.sv(332) @ 1085000: uvm_test_top.env.master_agent.drv [ahb_master_driver] Beat[13/16] addr=0x00007174 trans=AHB_TRANS_SEQ resp=AHB_RESP_ERROR wdata=0x23b8ea1c
# UVM_INFO ../src/mst/ahb_master_driver.sv(349) @ 1085000: uvm_test_top.env.master_agent.drv [ahb_master_driver] ERROR response on beat 13/16 - continuing burst (abort_on_error=0)
# UVM_INFO ../src/slv/ahb_slave_driver.sv(184) @ 1085000: uvm_test_top.env.slave_agent.drv [ahb_slave_driver] Beat AHB_WRITE addr=0x00007174 resp=AHB_RESP_ERROR waits=0 wdata=0x23b8ea1c
# UVM_INFO ../src/mst/ahb_master_monitor.sv(128) @ 1085000: uvm_test_top.env.master_agent.mon [ahb_master_monitor] Beat[13] addr=0x00007174 wdata=0x23b8ea1c resp=AHB_RESP_ERROR
# UVM_INFO ../src/slv_seq/ahb_slave_error_seq.sv(88) @ 1085000: uvm_test_top.env.slave_agent.sqr@@slv_seq [ahb_slave_error_seq] Response 39: AHB_WRITE @0x00007176 -> AHB_RESP_OKAY, 0 wait states           
# UVM_INFO ../src/mst/ahb_master_driver.sv(332) @ 1095000: uvm_test_top.env.master_agent.drv [ahb_master_driver] Beat[14/16] addr=0x00007176 trans=AHB_TRANS_SEQ resp=AHB_RESP_OKAY wdata=0x2912108e
# UVM_INFO ../src/slv/ahb_slave_driver.sv(184) @ 1095000: uvm_test_top.env.slave_agent.drv [ahb_slave_driver] Beat AHB_WRITE addr=0x00007176 resp=AHB_RESP_OKAY waits=0 wdata=0x2912108e
# UVM_INFO ../src/mst/ahb_master_monitor.sv(128) @ 1095000: uvm_test_top.env.master_agent.mon [ahb_master_monitor] Beat[14] addr=0x00007176 wdata=0x2912108e resp=AHB_RESP_OKAY
# UVM_INFO ../src/slv_seq/ahb_slave_error_seq.sv(88) @ 1095000: uvm_test_top.env.slave_agent.sqr@@slv_seq [ahb_slave_error_seq] Response 40: AHB_WRITE @0x00007178 -> AHB_RESP_OKAY, 2 wait states           
# UVM_INFO ../src/mst/ahb_master_driver.sv(332) @ 1125000: uvm_test_top.env.master_agent.drv [ahb_master_driver] Beat[15/16] addr=0x00007178 trans=AHB_TRANS_SEQ resp=AHB_RESP_OKAY wdata=0xaa12cfac
# UVM_INFO ../src/mst/ahb_master_driver.sv(376) @ 1125000: uvm_test_top.env.master_agent.drv [ahb_master_driver] Transaction complete: AHB_WRITE 0x0000715a, 16 beats, burst=AHB_BURST_INCR
# UVM_INFO ../src/slv/ahb_slave_driver.sv(184) @ 1125000: uvm_test_top.env.slave_agent.drv [ahb_slave_driver] Beat AHB_WRITE addr=0x00007178 resp=AHB_RESP_OKAY waits=2 wdata=0xaa12cfac
# UVM_INFO ../src/mst/ahb_master_monitor.sv(128) @ 1125000: uvm_test_top.env.master_agent.mon [ahb_master_monitor] Beat[15] addr=0x00007178 wdata=0xaa12cfac resp=AHB_RESP_OKAY
# UVM_INFO ../src/mst/ahb_master_monitor.sv(231) @ 1125000: uvm_test_top.env.master_agent.mon [ahb_master_monitor] Observed [AHB_WRITE]: HADDR=0x0000715a, HBURST=AHB_BURST_INCR, HSIZE=AHB_SIZE_16B, 16 beats
# UVM_INFO ../src/env/ahb_coverage.sv(174) @ 1125000: uvm_test_top.env.master_cov [ahb_coverage] Sampled [AHB_WRITE]: burst=AHB_BURST_INCR size=AHB_SIZE_16B beats=16 error=1
# UVM_INFO ../src/slv/ahb_slave_monitor.sv(212) @ 1125000: uvm_test_top.env.slave_agent.mon [ahb_slave_monitor] Observed [AHB_WRITE]: HADDR=0x0000715a, HBURST=AHB_BURST_INCR, HSIZE=AHB_SIZE_16B, 16 beats
# UVM_INFO ../src/env/ahb_scoreboard.sv(104) @ 1125000: uvm_test_top.env.scb [ahb_scoreboard] MATCH #11: [AHB_WRITE] HADDR=0x0000715a AHB_BURST_INCR 16 beats
# UVM_INFO ../src/env/ahb_coverage.sv(174) @ 1125000: uvm_test_top.env.slave_cov [ahb_coverage] Sampled [AHB_WRITE]: burst=AHB_BURST_INCR size=AHB_SIZE_16B beats=16 error=1
# UVM_INFO ../src/mst_seq/ahb_error_seq.sv(131) @ 1125000: uvm_test_top.env.master_agent.sqr@@mst_seq [ahb_error_seq] AHB_WRITE AHB_BURST_INCR @0x0000715a: ERROR on beat 3 of 16, policy=continue, drove 16
# UVM_INFO ../src/mst/ahb_master_driver.sv(85) @ 1125000: uvm_test_top.env.master_agent.drv [ahb_master_driver] Queueing [AHB_READ]: HADDR=0x000090cc, HBURST=AHB_BURST_SINGLE, HSIZE=AHB_SIZE_32B, 1 beats
# UVM_INFO ../src/mst/ahb_master_driver.sv(127) @ 1125000: uvm_test_top.env.master_agent.drv [ahb_master_driver] Driving [AHB_READ]: HADDR=0x000090cc, HBURST=AHB_BURST_SINGLE, HSIZE=AHB_SIZE_32B, 1 beats               
# UVM_INFO ../src/slv_seq/ahb_slave_error_seq.sv(88) @ 1145000: uvm_test_top.env.slave_agent.sqr@@slv_seq [ahb_slave_error_seq] Response 41: AHB_READ @0x000090cc -> AHB_RESP_ERROR, 1 wait states (unmapped)
# UVM_INFO ../src/mst/ahb_master_driver.sv(332) @ 1175000: uvm_test_top.env.master_agent.drv [ahb_master_driver] Beat[0/1] addr=0x000090cc trans=AHB_TRANS_NONSEQ resp=AHB_RESP_ERROR rdata=0x72eeb4e8
# UVM_INFO ../src/mst/ahb_master_driver.sv(349) @ 1175000: uvm_test_top.env.master_agent.drv [ahb_master_driver] ERROR response on beat 0/1 - continuing burst (abort_on_error=0)
# UVM_INFO ../src/mst/ahb_master_driver.sv(376) @ 1175000: uvm_test_top.env.master_agent.drv [ahb_master_driver] Transaction complete: AHB_READ 0x000090cc, 1 beats, burst=AHB_BURST_SINGLE
# UVM_INFO ../src/slv/ahb_slave_driver.sv(184) @ 1175000: uvm_test_top.env.slave_agent.drv [ahb_slave_driver] Beat AHB_READ addr=0x000090cc resp=AHB_RESP_ERROR waits=1 rdata=0x7b8679ab
# UVM_INFO ../src/slv/ahb_slave_monitor.sv(212) @ 1175000: uvm_test_top.env.slave_agent.mon [ahb_slave_monitor] Observed [AHB_READ]: HADDR=0x000090cc, HBURST=AHB_BURST_SINGLE, HSIZE=AHB_SIZE_32B, 1 beats
# UVM_INFO ../src/env/ahb_coverage.sv(174) @ 1175000: uvm_test_top.env.slave_cov [ahb_coverage] Sampled [AHB_READ]: burst=AHB_BURST_SINGLE size=AHB_SIZE_32B beats=1 error=1
# UVM_INFO ../src/mst/ahb_master_monitor.sv(128) @ 1175000: uvm_test_top.env.master_agent.mon [ahb_master_monitor] Beat[0] addr=0x000090cc rdata=0x72eeb4e8 resp=AHB_RESP_ERROR
# UVM_INFO ../src/mst/ahb_master_monitor.sv(231) @ 1175000: uvm_test_top.env.master_agent.mon [ahb_master_monitor] Observed [AHB_READ]: HADDR=0x000090cc, HBURST=AHB_BURST_SINGLE, HSIZE=AHB_SIZE_32B, 1 beats
# UVM_INFO ../src/env/ahb_coverage.sv(174) @ 1175000: uvm_test_top.env.master_cov [ahb_coverage] Sampled [AHB_READ]: burst=AHB_BURST_SINGLE size=AHB_SIZE_32B beats=1 error=1
# UVM_INFO ../src/env/ahb_scoreboard.sv(104) @ 1175000: uvm_test_top.env.scb [ahb_scoreboard] MATCH #12: [AHB_READ] HADDR=0x000090cc AHB_BURST_SINGLE 1 beats
# UVM_INFO ../src/mst_seq/ahb_error_seq.sv(131) @ 1175000: uvm_test_top.env.master_agent.sqr@@mst_seq [ahb_error_seq] AHB_READ AHB_BURST_SINGLE @0x000090cc: ERROR on beat 0 of 1, policy=continue, drove 1
# UVM_INFO ../src/mst/ahb_master_driver.sv(85) @ 1175000: uvm_test_top.env.master_agent.drv [ahb_master_driver] Queueing [AHB_WRITE]: HADDR=0x0000718c, HBURST=AHB_BURST_INCR, HSIZE=AHB_SIZE_32B, 13 beats
# UVM_INFO ../src/mst/ahb_master_driver.sv(127) @ 1175000: uvm_test_top.env.master_agent.drv [ahb_master_driver] Driving [AHB_WRITE]: HADDR=0x0000718c, HBURST=AHB_BURST_INCR, HSIZE=AHB_SIZE_32B, 13 beats               
# UVM_INFO ../src/slv_seq/ahb_slave_error_seq.sv(88) @ 1195000: uvm_test_top.env.slave_agent.sqr@@slv_seq [ahb_slave_error_seq] Response 42: AHB_WRITE @0x0000718c -> AHB_RESP_OKAY, 0 wait states           
# UVM_INFO ../src/mst/ahb_master_driver.sv(332) @ 1205000: uvm_test_top.env.master_agent.drv [ahb_master_driver] Beat[0/13] addr=0x0000718c trans=AHB_TRANS_NONSEQ resp=AHB_RESP_OKAY wdata=0x73b13ed6
# UVM_INFO ../src/slv/ahb_slave_driver.sv(184) @ 1205000: uvm_test_top.env.slave_agent.drv [ahb_slave_driver] Beat AHB_WRITE addr=0x0000718c resp=AHB_RESP_OKAY waits=0 wdata=0x73b13ed6
# UVM_INFO ../src/mst/ahb_master_monitor.sv(128) @ 1205000: uvm_test_top.env.master_agent.mon [ahb_master_monitor] Beat[0] addr=0x0000718c wdata=0x73b13ed6 resp=AHB_RESP_OKAY
# UVM_INFO ../src/slv_seq/ahb_slave_error_seq.sv(88) @ 1205000: uvm_test_top.env.slave_agent.sqr@@slv_seq [ahb_slave_error_seq] Response 43: AHB_WRITE @0x00007190 -> AHB_RESP_ERROR, 1 wait states           
# UVM_INFO ../src/mst/ahb_master_driver.sv(332) @ 1235000: uvm_test_top.env.master_agent.drv [ahb_master_driver] Beat[1/13] addr=0x00007190 trans=AHB_TRANS_SEQ resp=AHB_RESP_ERROR wdata=0x17722307
# UVM_INFO ../src/mst/ahb_master_driver.sv(342) @ 1235000: uvm_test_top.env.master_agent.drv [ahb_master_driver] ERROR response on beat 1/13 - cancelling remaining burst
# UVM_INFO ../src/mst/ahb_master_driver.sv(376) @ 1235000: uvm_test_top.env.master_agent.drv [ahb_master_driver] Transaction complete: AHB_WRITE 0x0000718c, 13 beats, burst=AHB_BURST_INCR
# UVM_INFO ../src/slv/ahb_slave_driver.sv(184) @ 1235000: uvm_test_top.env.slave_agent.drv [ahb_slave_driver] Beat AHB_WRITE addr=0x00007190 resp=AHB_RESP_ERROR waits=1 wdata=0x17722307
# UVM_INFO ../src/slv/ahb_slave_monitor.sv(212) @ 1235000: uvm_test_top.env.slave_agent.mon [ahb_slave_monitor] Observed [AHB_WRITE]: HADDR=0x0000718c, HBURST=AHB_BURST_INCR, HSIZE=AHB_SIZE_32B, 2 beats
# UVM_INFO ../src/env/ahb_coverage.sv(174) @ 1235000: uvm_test_top.env.slave_cov [ahb_coverage] Sampled [AHB_WRITE]: burst=AHB_BURST_INCR size=AHB_SIZE_32B beats=2 error=1
# UVM_INFO ../src/mst/ahb_master_monitor.sv(128) @ 1235000: uvm_test_top.env.master_agent.mon [ahb_master_monitor] Beat[1] addr=0x00007190 wdata=0x17722307 resp=AHB_RESP_ERROR
# UVM_INFO ../src/mst/ahb_master_monitor.sv(231) @ 1235000: uvm_test_top.env.master_agent.mon [ahb_master_monitor] Observed [AHB_WRITE]: HADDR=0x0000718c, HBURST=AHB_BURST_INCR, HSIZE=AHB_SIZE_32B, 2 beats
# UVM_INFO ../src/env/ahb_coverage.sv(174) @ 1235000: uvm_test_top.env.master_cov [ahb_coverage] Sampled [AHB_WRITE]: burst=AHB_BURST_INCR size=AHB_SIZE_32B beats=2 error=1
# UVM_INFO ../src/env/ahb_scoreboard.sv(104) @ 1235000: uvm_test_top.env.scb [ahb_scoreboard] MATCH #13: [AHB_WRITE] HADDR=0x0000718c AHB_BURST_INCR 2 beats
# UVM_INFO ../src/mst_seq/ahb_error_seq.sv(131) @ 1235000: uvm_test_top.env.master_agent.sqr@@mst_seq [ahb_error_seq] AHB_WRITE AHB_BURST_INCR @0x0000718c: ERROR on beat 1 of 13, policy=  cancel, drove 2
# UVM_INFO ../src/mst/ahb_master_driver.sv(85) @ 1235000: uvm_test_top.env.master_agent.drv [ahb_master_driver] Queueing [AHB_READ]: HADDR=0x0000819e, HBURST=AHB_BURST_WRAP16, HSIZE=AHB_SIZE_16B, 16 beats
# UVM_INFO ../src/mst/ahb_master_driver.sv(127) @ 1235000: uvm_test_top.env.master_agent.drv [ahb_master_driver] Driving [AHB_READ]: HADDR=0x0000819e, HBURST=AHB_BURST_WRAP16, HSIZE=AHB_SIZE_16B, 16 beats               
# UVM_INFO ../src/slv_seq/ahb_slave_error_seq.sv(88) @ 1255000: uvm_test_top.env.slave_agent.sqr@@slv_seq [ahb_slave_error_seq] Response 44: AHB_READ @0x0000819e -> AHB_RESP_ERROR, 1 wait states           
# UVM_INFO ../src/mst/ahb_master_driver.sv(332) @ 1285000: uvm_test_top.env.master_agent.drv [ahb_master_driver] Beat[0/16] addr=0x0000819e trans=AHB_TRANS_NONSEQ resp=AHB_RESP_ERROR rdata=0x72eeb4e8
# UVM_INFO ../src/mst/ahb_master_driver.sv(342) @ 1285000: uvm_test_top.env.master_agent.drv [ahb_master_driver] ERROR response on beat 0/16 - cancelling remaining burst
# UVM_INFO ../src/mst/ahb_master_driver.sv(376) @ 1285000: uvm_test_top.env.master_agent.drv [ahb_master_driver] Transaction complete: AHB_READ 0x0000819e, 16 beats, burst=AHB_BURST_WRAP16
# UVM_INFO ../src/slv/ahb_slave_driver.sv(184) @ 1285000: uvm_test_top.env.slave_agent.drv [ahb_slave_driver] Beat AHB_READ addr=0x0000819e resp=AHB_RESP_ERROR waits=1 rdata=0xbcfd74c0
# UVM_INFO ../src/mst/ahb_master_monitor.sv(128) @ 1285000: uvm_test_top.env.master_agent.mon [ahb_master_monitor] Beat[0] addr=0x0000819e rdata=0x72eeb4e8 resp=AHB_RESP_ERROR
# UVM_INFO ../src/mst/ahb_master_monitor.sv(231) @ 1285000: uvm_test_top.env.master_agent.mon [ahb_master_monitor] Observed [AHB_READ]: HADDR=0x0000819e, HBURST=AHB_BURST_WRAP16, HSIZE=AHB_SIZE_16B, 1 beats
# UVM_INFO ../src/env/ahb_coverage.sv(174) @ 1285000: uvm_test_top.env.master_cov [ahb_coverage] Sampled [AHB_READ]: burst=AHB_BURST_WRAP16 size=AHB_SIZE_16B beats=16 error=1
# UVM_INFO ../src/slv/ahb_slave_monitor.sv(212) @ 1285000: uvm_test_top.env.slave_agent.mon [ahb_slave_monitor] Observed [AHB_READ]: HADDR=0x0000819e, HBURST=AHB_BURST_WRAP16, HSIZE=AHB_SIZE_16B, 1 beats
# UVM_INFO ../src/env/ahb_scoreboard.sv(104) @ 1285000: uvm_test_top.env.scb [ahb_scoreboard] MATCH #14: [AHB_READ] HADDR=0x0000819e AHB_BURST_WRAP16 16 beats
# UVM_INFO ../src/env/ahb_coverage.sv(174) @ 1285000: uvm_test_top.env.slave_cov [ahb_coverage] Sampled [AHB_READ]: burst=AHB_BURST_WRAP16 size=AHB_SIZE_16B beats=16 error=1
# UVM_INFO ../src/mst_seq/ahb_error_seq.sv(131) @ 1285000: uvm_test_top.env.master_agent.sqr@@mst_seq [ahb_error_seq] AHB_READ AHB_BURST_WRAP16 @0x0000819e: ERROR on beat 0 of 16, policy=  cancel, drove 1
# UVM_INFO ../src/mst/ahb_master_driver.sv(85) @ 1285000: uvm_test_top.env.master_agent.drv [ahb_master_driver] Queueing [AHB_WRITE]: HADDR=0x00009114, HBURST=AHB_BURST_INCR8, HSIZE=AHB_SIZE_16B, 8 beats
# UVM_INFO ../src/mst/ahb_master_driver.sv(127) @ 1285000: uvm_test_top.env.master_agent.drv [ahb_master_driver] Driving [AHB_WRITE]: HADDR=0x00009114, HBURST=AHB_BURST_INCR8, HSIZE=AHB_SIZE_16B, 8 beats               
# UVM_INFO ../src/slv_seq/ahb_slave_error_seq.sv(88) @ 1305000: uvm_test_top.env.slave_agent.sqr@@slv_seq [ahb_slave_error_seq] Response 45: AHB_WRITE @0x00009114 -> AHB_RESP_ERROR, 2 wait states (unmapped)
# UVM_INFO ../src/mst/ahb_master_driver.sv(332) @ 1345000: uvm_test_top.env.master_agent.drv [ahb_master_driver] Beat[0/8] addr=0x00009114 trans=AHB_TRANS_NONSEQ resp=AHB_RESP_ERROR wdata=0x9e077253
# UVM_INFO ../src/mst/ahb_master_driver.sv(349) @ 1345000: uvm_test_top.env.master_agent.drv [ahb_master_driver] ERROR response on beat 0/8 - continuing burst (abort_on_error=0)
# UVM_INFO ../src/slv/ahb_slave_driver.sv(184) @ 1345000: uvm_test_top.env.slave_agent.drv [ahb_slave_driver] Beat AHB_WRITE addr=0x00009114 resp=AHB_RESP_ERROR waits=2 wdata=0x9e077253
# UVM_INFO ../src/mst/ahb_master_monitor.sv(128) @ 1345000: uvm_test_top.env.master_agent.mon [ahb_master_monitor] Beat[0] addr=0x00009114 wdata=0x9e077253 resp=AHB_RESP_ERROR
# UVM_INFO ../src/slv_seq/ahb_slave_error_seq.sv(88) @ 1345000: uvm_test_top.env.slave_agent.sqr@@slv_seq [ahb_slave_error_seq] Response 46: AHB_WRITE @0x00009116 -> AHB_RESP_ERROR, 0 wait states (unmapped)
# UVM_INFO ../src/mst/ahb_master_driver.sv(332) @ 1365000: uvm_test_top.env.master_agent.drv [ahb_master_driver] Beat[1/8] addr=0x00009116 trans=AHB_TRANS_SEQ resp=AHB_RESP_ERROR wdata=0xdfd21008
# UVM_INFO ../src/mst/ahb_master_driver.sv(349) @ 1365000: uvm_test_top.env.master_agent.drv [ahb_master_driver] ERROR response on beat 1/8 - continuing burst (abort_on_error=0)
# UVM_INFO ../src/slv/ahb_slave_driver.sv(184) @ 1365000: uvm_test_top.env.slave_agent.drv [ahb_slave_driver] Beat AHB_WRITE addr=0x00009116 resp=AHB_RESP_ERROR waits=0 wdata=0xdfd21008
# UVM_INFO ../src/mst/ahb_master_monitor.sv(128) @ 1365000: uvm_test_top.env.master_agent.mon [ahb_master_monitor] Beat[1] addr=0x00009116 wdata=0xdfd21008 resp=AHB_RESP_ERROR
# UVM_INFO ../src/slv_seq/ahb_slave_error_seq.sv(88) @ 1365000: uvm_test_top.env.slave_agent.sqr@@slv_seq [ahb_slave_error_seq] Response 47: AHB_WRITE @0x00009118 -> AHB_RESP_ERROR, 1 wait states (unmapped)
# UVM_INFO ../src/mst/ahb_master_driver.sv(332) @ 1395000: uvm_test_top.env.master_agent.drv [ahb_master_driver] Beat[2/8] addr=0x00009118 trans=AHB_TRANS_SEQ resp=AHB_RESP_ERROR wdata=0xd09663b0
# UVM_INFO ../src/mst/ahb_master_driver.sv(349) @ 1395000: uvm_test_top.env.master_agent.drv [ahb_master_driver] ERROR response on beat 2/8 - continuing burst (abort_on_error=0)
# UVM_INFO ../src/slv/ahb_slave_driver.sv(184) @ 1395000: uvm_test_top.env.slave_agent.drv [ahb_slave_driver] Beat AHB_WRITE addr=0x00009118 resp=AHB_RESP_ERROR waits=1 wdata=0xd09663b0
# UVM_INFO ../src/mst/ahb_master_monitor.sv(128) @ 1395000: uvm_test_top.env.master_agent.mon [ahb_master_monitor] Beat[2] addr=0x00009118 wdata=0xd09663b0 resp=AHB_RESP_ERROR
# UVM_INFO ../src/slv_seq/ahb_slave_error_seq.sv(88) @ 1395000: uvm_test_top.env.slave_agent.sqr@@slv_seq [ahb_slave_error_seq] Response 48: AHB_WRITE @0x0000911a -> AHB_RESP_ERROR, 2 wait states (unmapped)
# UVM_INFO ../src/mst/ahb_master_driver.sv(332) @ 1435000: uvm_test_top.env.master_agent.drv [ahb_master_driver] Beat[3/8] addr=0x0000911a trans=AHB_TRANS_SEQ resp=AHB_RESP_ERROR wdata=0x14445c7e
# UVM_INFO ../src/mst/ahb_master_driver.sv(349) @ 1435000: uvm_test_top.env.master_agent.drv [ahb_master_driver] ERROR response on beat 3/8 - continuing burst (abort_on_error=0)
# UVM_INFO ../src/slv/ahb_slave_driver.sv(184) @ 1435000: uvm_test_top.env.slave_agent.drv [ahb_slave_driver] Beat AHB_WRITE addr=0x0000911a resp=AHB_RESP_ERROR waits=2 wdata=0x14445c7e
# UVM_INFO ../src/mst/ahb_master_monitor.sv(128) @ 1435000: uvm_test_top.env.master_agent.mon [ahb_master_monitor] Beat[3] addr=0x0000911a wdata=0x14445c7e resp=AHB_RESP_ERROR
# UVM_INFO ../src/slv_seq/ahb_slave_error_seq.sv(88) @ 1435000: uvm_test_top.env.slave_agent.sqr@@slv_seq [ahb_slave_error_seq] Response 49: AHB_WRITE @0x0000911c -> AHB_RESP_ERROR, 0 wait states (unmapped)
# UVM_INFO ../src/mst/ahb_master_driver.sv(332) @ 1455000: uvm_test_top.env.master_agent.drv [ahb_master_driver] Beat[4/8] addr=0x0000911c trans=AHB_TRANS_SEQ resp=AHB_RESP_ERROR wdata=0x346b9ffe
# UVM_INFO ../src/mst/ahb_master_driver.sv(349) @ 1455000: uvm_test_top.env.master_agent.drv [ahb_master_driver] ERROR response on beat 4/8 - continuing burst (abort_on_error=0)
# UVM_INFO ../src/slv/ahb_slave_driver.sv(184) @ 1455000: uvm_test_top.env.slave_agent.drv [ahb_slave_driver] Beat AHB_WRITE addr=0x0000911c resp=AHB_RESP_ERROR waits=0 wdata=0x346b9ffe
# UVM_INFO ../src/mst/ahb_master_monitor.sv(128) @ 1455000: uvm_test_top.env.master_agent.mon [ahb_master_monitor] Beat[4] addr=0x0000911c wdata=0x346b9ffe resp=AHB_RESP_ERROR
# UVM_INFO ../src/slv_seq/ahb_slave_error_seq.sv(88) @ 1455000: uvm_test_top.env.slave_agent.sqr@@slv_seq [ahb_slave_error_seq] Response 50: AHB_WRITE @0x0000911e -> AHB_RESP_ERROR, 2 wait states (unmapped)
# UVM_INFO ../src/mst/ahb_master_driver.sv(332) @ 1495000: uvm_test_top.env.master_agent.drv [ahb_master_driver] Beat[5/8] addr=0x0000911e trans=AHB_TRANS_SEQ resp=AHB_RESP_ERROR wdata=0xbc60ee3e
# UVM_INFO ../src/mst/ahb_master_driver.sv(349) @ 1495000: uvm_test_top.env.master_agent.drv [ahb_master_driver] ERROR response on beat 5/8 - continuing burst (abort_on_error=0)
# UVM_INFO ../src/slv/ahb_slave_driver.sv(184) @ 1495000: uvm_test_top.env.slave_agent.drv [ahb_slave_driver] Beat AHB_WRITE addr=0x0000911e resp=AHB_RESP_ERROR waits=2 wdata=0xbc60ee3e
# UVM_INFO ../src/mst/ahb_master_monitor.sv(128) @ 1495000: uvm_test_top.env.master_agent.mon [ahb_master_monitor] Beat[5] addr=0x0000911e wdata=0xbc60ee3e resp=AHB_RESP_ERROR
# UVM_INFO ../src/slv_seq/ahb_slave_error_seq.sv(88) @ 1495000: uvm_test_top.env.slave_agent.sqr@@slv_seq [ahb_slave_error_seq] Response 51: AHB_WRITE @0x00009120 -> AHB_RESP_ERROR, 1 wait states (unmapped)
# UVM_INFO ../src/mst/ahb_master_driver.sv(332) @ 1525000: uvm_test_top.env.master_agent.drv [ahb_master_driver] Beat[6/8] addr=0x00009120 trans=AHB_TRANS_SEQ resp=AHB_RESP_ERROR wdata=0xff34858d
# UVM_INFO ../src/mst/ahb_master_driver.sv(349) @ 1525000: uvm_test_top.env.master_agent.drv [ahb_master_driver] ERROR response on beat 6/8 - continuing burst (abort_on_error=0)
# UVM_INFO ../src/slv/ahb_slave_driver.sv(184) @ 1525000: uvm_test_top.env.slave_agent.drv [ahb_slave_driver] Beat AHB_WRITE addr=0x00009120 resp=AHB_RESP_ERROR waits=1 wdata=0xff34858d
# UVM_INFO ../src/mst/ahb_master_monitor.sv(128) @ 1525000: uvm_test_top.env.master_agent.mon [ahb_master_monitor] Beat[6] addr=0x00009120 wdata=0xff34858d resp=AHB_RESP_ERROR
# UVM_INFO ../src/slv_seq/ahb_slave_error_seq.sv(88) @ 1525000: uvm_test_top.env.slave_agent.sqr@@slv_seq [ahb_slave_error_seq] Response 52: AHB_WRITE @0x00009122 -> AHB_RESP_ERROR, 2 wait states (unmapped)
# UVM_INFO ../src/mst/ahb_master_driver.sv(332) @ 1565000: uvm_test_top.env.master_agent.drv [ahb_master_driver] Beat[7/8] addr=0x00009122 trans=AHB_TRANS_SEQ resp=AHB_RESP_ERROR wdata=0xff0bc47a
# UVM_INFO ../src/mst/ahb_master_driver.sv(349) @ 1565000: uvm_test_top.env.master_agent.drv [ahb_master_driver] ERROR response on beat 7/8 - continuing burst (abort_on_error=0)
# UVM_INFO ../src/mst/ahb_master_driver.sv(376) @ 1565000: uvm_test_top.env.master_agent.drv [ahb_master_driver] Transaction complete: AHB_WRITE 0x00009114, 8 beats, burst=AHB_BURST_INCR8
# UVM_INFO ../src/slv/ahb_slave_driver.sv(184) @ 1565000: uvm_test_top.env.slave_agent.drv [ahb_slave_driver] Beat AHB_WRITE addr=0x00009122 resp=AHB_RESP_ERROR waits=2 wdata=0xff0bc47a
# UVM_INFO ../src/mst/ahb_master_monitor.sv(128) @ 1565000: uvm_test_top.env.master_agent.mon [ahb_master_monitor] Beat[7] addr=0x00009122 wdata=0xff0bc47a resp=AHB_RESP_ERROR
# UVM_INFO ../src/mst/ahb_master_monitor.sv(231) @ 1565000: uvm_test_top.env.master_agent.mon [ahb_master_monitor] Observed [AHB_WRITE]: HADDR=0x00009114, HBURST=AHB_BURST_INCR8, HSIZE=AHB_SIZE_16B, 8 beats
# UVM_INFO ../src/env/ahb_coverage.sv(174) @ 1565000: uvm_test_top.env.master_cov [ahb_coverage] Sampled [AHB_WRITE]: burst=AHB_BURST_INCR8 size=AHB_SIZE_16B beats=8 error=1
# UVM_INFO ../src/slv/ahb_slave_monitor.sv(212) @ 1565000: uvm_test_top.env.slave_agent.mon [ahb_slave_monitor] Observed [AHB_WRITE]: HADDR=0x00009114, HBURST=AHB_BURST_INCR8, HSIZE=AHB_SIZE_16B, 8 beats
# UVM_INFO ../src/env/ahb_scoreboard.sv(104) @ 1565000: uvm_test_top.env.scb [ahb_scoreboard] MATCH #15: [AHB_WRITE] HADDR=0x00009114 AHB_BURST_INCR8 8 beats
# UVM_INFO ../src/env/ahb_coverage.sv(174) @ 1565000: uvm_test_top.env.slave_cov [ahb_coverage] Sampled [AHB_WRITE]: burst=AHB_BURST_INCR8 size=AHB_SIZE_16B beats=8 error=1
# UVM_INFO ../src/mst_seq/ahb_error_seq.sv(131) @ 1565000: uvm_test_top.env.master_agent.sqr@@mst_seq [ahb_error_seq] AHB_WRITE AHB_BURST_INCR8 @0x00009114: ERROR on beat 0 of 8, policy=continue, drove 8
# UVM_INFO ../src/mst/ahb_master_driver.sv(85) @ 1565000: uvm_test_top.env.master_agent.drv [ahb_master_driver] Queueing [AHB_READ]: HADDR=0x000081e4, HBURST=AHB_BURST_WRAP8, HSIZE=AHB_SIZE_16B, 8 beats
# UVM_INFO ../src/mst/ahb_master_driver.sv(127) @ 1565000: uvm_test_top.env.master_agent.drv [ahb_master_driver] Driving [AHB_READ]: HADDR=0x000081e4, HBURST=AHB_BURST_WRAP8, HSIZE=AHB_SIZE_16B, 8 beats               
# UVM_INFO ../src/slv_seq/ahb_slave_error_seq.sv(88) @ 1585000: uvm_test_top.env.slave_agent.sqr@@slv_seq [ahb_slave_error_seq] Response 53: AHB_READ @0x000081e4 -> AHB_RESP_OKAY, 0 wait states           
# UVM_INFO ../src/mst/ahb_master_driver.sv(332) @ 1595000: uvm_test_top.env.master_agent.drv [ahb_master_driver] Beat[0/8] addr=0x000081e4 trans=AHB_TRANS_NONSEQ resp=AHB_RESP_OKAY rdata=0x0b02022b
# UVM_INFO ../src/slv/ahb_slave_driver.sv(184) @ 1595000: uvm_test_top.env.slave_agent.drv [ahb_slave_driver] Beat AHB_READ addr=0x000081e4 resp=AHB_RESP_OKAY waits=0 rdata=0x0b02022b
# UVM_INFO ../src/mst/ahb_master_monitor.sv(128) @ 1595000: uvm_test_top.env.master_agent.mon [ahb_master_monitor] Beat[0] addr=0x000081e4 rdata=0x0b02022b resp=AHB_RESP_OKAY
# UVM_INFO ../src/slv_seq/ahb_slave_error_seq.sv(88) @ 1595000: uvm_test_top.env.slave_agent.sqr@@slv_seq [ahb_slave_error_seq] Response 54: AHB_READ @0x000081e6 -> AHB_RESP_OKAY, 0 wait states           
# UVM_INFO ../src/mst/ahb_master_driver.sv(332) @ 1605000: uvm_test_top.env.master_agent.drv [ahb_master_driver] Beat[1/8] addr=0x000081e6 trans=AHB_TRANS_SEQ resp=AHB_RESP_OKAY rdata=0xfa0d7936
# UVM_INFO ../src/slv/ahb_slave_driver.sv(184) @ 1605000: uvm_test_top.env.slave_agent.drv [ahb_slave_driver] Beat AHB_READ addr=0x000081e6 resp=AHB_RESP_OKAY waits=0 rdata=0xfa0d7936
# UVM_INFO ../src/mst/ahb_master_monitor.sv(128) @ 1605000: uvm_test_top.env.master_agent.mon [ahb_master_monitor] Beat[1] addr=0x000081e6 rdata=0xfa0d7936 resp=AHB_RESP_OKAY
# UVM_INFO ../src/slv_seq/ahb_slave_error_seq.sv(88) @ 1605000: uvm_test_top.env.slave_agent.sqr@@slv_seq [ahb_slave_error_seq] Response 55: AHB_READ @0x000081e8 -> AHB_RESP_OKAY, 0 wait states           
# UVM_INFO ../src/mst/ahb_master_driver.sv(332) @ 1615000: uvm_test_top.env.master_agent.drv [ahb_master_driver] Beat[2/8] addr=0x000081e8 trans=AHB_TRANS_SEQ resp=AHB_RESP_OKAY rdata=0x8581421c
# UVM_INFO ../src/slv/ahb_slave_driver.sv(184) @ 1615000: uvm_test_top.env.slave_agent.drv [ahb_slave_driver] Beat AHB_READ addr=0x000081e8 resp=AHB_RESP_OKAY waits=0 rdata=0x8581421c
# UVM_INFO ../src/mst/ahb_master_monitor.sv(128) @ 1615000: uvm_test_top.env.master_agent.mon [ahb_master_monitor] Beat[2] addr=0x000081e8 rdata=0x8581421c resp=AHB_RESP_OKAY
# UVM_INFO ../src/slv_seq/ahb_slave_error_seq.sv(88) @ 1615000: uvm_test_top.env.slave_agent.sqr@@slv_seq [ahb_slave_error_seq] Response 56: AHB_READ @0x000081ea -> AHB_RESP_OKAY, 1 wait states           
# UVM_INFO ../src/mst/ahb_master_driver.sv(332) @ 1635000: uvm_test_top.env.master_agent.drv [ahb_master_driver] Beat[3/8] addr=0x000081ea trans=AHB_TRANS_SEQ resp=AHB_RESP_OKAY rdata=0xd0ec957e
# UVM_INFO ../src/slv/ahb_slave_driver.sv(184) @ 1635000: uvm_test_top.env.slave_agent.drv [ahb_slave_driver] Beat AHB_READ addr=0x000081ea resp=AHB_RESP_OKAY waits=1 rdata=0xd0ec957e
# UVM_INFO ../src/mst/ahb_master_monitor.sv(128) @ 1635000: uvm_test_top.env.master_agent.mon [ahb_master_monitor] Beat[3] addr=0x000081ea rdata=0xd0ec957e resp=AHB_RESP_OKAY
# UVM_INFO ../src/slv_seq/ahb_slave_error_seq.sv(88) @ 1635000: uvm_test_top.env.slave_agent.sqr@@slv_seq [ahb_slave_error_seq] Response 57: AHB_READ @0x000081ec -> AHB_RESP_ERROR, 1 wait states           
# UVM_INFO ../src/mst/ahb_master_driver.sv(332) @ 1665000: uvm_test_top.env.master_agent.drv [ahb_master_driver] Beat[4/8] addr=0x000081ec trans=AHB_TRANS_SEQ resp=AHB_RESP_ERROR rdata=0xd0ec957e
# UVM_INFO ../src/mst/ahb_master_driver.sv(349) @ 1665000: uvm_test_top.env.master_agent.drv [ahb_master_driver] ERROR response on beat 4/8 - continuing burst (abort_on_error=0)
# UVM_INFO ../src/slv/ahb_slave_driver.sv(184) @ 1665000: uvm_test_top.env.slave_agent.drv [ahb_slave_driver] Beat AHB_READ addr=0x000081ec resp=AHB_RESP_ERROR waits=1 rdata=0xaa1642eb
# UVM_INFO ../src/mst/ahb_master_monitor.sv(128) @ 1665000: uvm_test_top.env.master_agent.mon [ahb_master_monitor] Beat[4] addr=0x000081ec rdata=0xd0ec957e resp=AHB_RESP_ERROR
# UVM_INFO ../src/slv_seq/ahb_slave_error_seq.sv(88) @ 1665000: uvm_test_top.env.slave_agent.sqr@@slv_seq [ahb_slave_error_seq] Response 58: AHB_READ @0x000081ee -> AHB_RESP_OKAY, 0 wait states           
# UVM_INFO ../src/mst/ahb_master_driver.sv(332) @ 1675000: uvm_test_top.env.master_agent.drv [ahb_master_driver] Beat[5/8] addr=0x000081ee trans=AHB_TRANS_SEQ resp=AHB_RESP_OKAY rdata=0xcff44035
# UVM_INFO ../src/slv/ahb_slave_driver.sv(184) @ 1675000: uvm_test_top.env.slave_agent.drv [ahb_slave_driver] Beat AHB_READ addr=0x000081ee resp=AHB_RESP_OKAY waits=0 rdata=0xcff44035
# UVM_INFO ../src/mst/ahb_master_monitor.sv(128) @ 1675000: uvm_test_top.env.master_agent.mon [ahb_master_monitor] Beat[5] addr=0x000081ee rdata=0xcff44035 resp=AHB_RESP_OKAY
# UVM_INFO ../src/slv_seq/ahb_slave_error_seq.sv(88) @ 1675000: uvm_test_top.env.slave_agent.sqr@@slv_seq [ahb_slave_error_seq] Response 59: AHB_READ @0x000081e0 -> AHB_RESP_OKAY, 0 wait states           
# UVM_INFO ../src/mst/ahb_master_driver.sv(332) @ 1685000: uvm_test_top.env.master_agent.drv [ahb_master_driver] Beat[6/8] addr=0x000081e0 trans=AHB_TRANS_SEQ resp=AHB_RESP_OKAY rdata=0xce5a51a7
# UVM_INFO ../src/slv/ahb_slave_driver.sv(184) @ 1685000: uvm_test_top.env.slave_agent.drv [ahb_slave_driver] Beat AHB_READ addr=0x000081e0 resp=AHB_RESP_OKAY waits=0 rdata=0xce5a51a7
# UVM_INFO ../src/mst/ahb_master_monitor.sv(128) @ 1685000: uvm_test_top.env.master_agent.mon [ahb_master_monitor] Beat[6] addr=0x000081e0 rdata=0xce5a51a7 resp=AHB_RESP_OKAY
# UVM_INFO ../src/slv_seq/ahb_slave_error_seq.sv(88) @ 1685000: uvm_test_top.env.slave_agent.sqr@@slv_seq [ahb_slave_error_seq] Response 60: AHB_READ @0x000081e2 -> AHB_RESP_OKAY, 2 wait states           
# UVM_INFO ../src/mst/ahb_master_driver.sv(332) @ 1715000: uvm_test_top.env.master_agent.drv [ahb_master_driver] Beat[7/8] addr=0x000081e2 trans=AHB_TRANS_SEQ resp=AHB_RESP_OKAY rdata=0x97ff318e
# UVM_INFO ../src/mst/ahb_master_driver.sv(376) @ 1715000: uvm_test_top.env.master_agent.drv [ahb_master_driver] Transaction complete: AHB_READ 0x000081e4, 8 beats, burst=AHB_BURST_WRAP8
# UVM_INFO ../src/slv/ahb_slave_driver.sv(184) @ 1715000: uvm_test_top.env.slave_agent.drv [ahb_slave_driver] Beat AHB_READ addr=0x000081e2 resp=AHB_RESP_OKAY waits=2 rdata=0x97ff318e
# UVM_INFO ../src/slv/ahb_slave_monitor.sv(212) @ 1715000: uvm_test_top.env.slave_agent.mon [ahb_slave_monitor] Observed [AHB_READ]: HADDR=0x000081e4, HBURST=AHB_BURST_WRAP8, HSIZE=AHB_SIZE_16B, 8 beats
# UVM_INFO ../src/env/ahb_coverage.sv(174) @ 1715000: uvm_test_top.env.slave_cov [ahb_coverage] Sampled [AHB_READ]: burst=AHB_BURST_WRAP8 size=AHB_SIZE_16B beats=8 error=1
# UVM_INFO ../src/mst/ahb_master_monitor.sv(128) @ 1715000: uvm_test_top.env.master_agent.mon [ahb_master_monitor] Beat[7] addr=0x000081e2 rdata=0x97ff318e resp=AHB_RESP_OKAY
# UVM_INFO ../src/mst/ahb_master_monitor.sv(231) @ 1715000: uvm_test_top.env.master_agent.mon [ahb_master_monitor] Observed [AHB_READ]: HADDR=0x000081e4, HBURST=AHB_BURST_WRAP8, HSIZE=AHB_SIZE_16B, 8 beats
# UVM_INFO ../src/env/ahb_coverage.sv(174) @ 1715000: uvm_test_top.env.master_cov [ahb_coverage] Sampled [AHB_READ]: burst=AHB_BURST_WRAP8 size=AHB_SIZE_16B beats=8 error=1
# UVM_INFO ../src/env/ahb_scoreboard.sv(104) @ 1715000: uvm_test_top.env.scb [ahb_scoreboard] MATCH #16: [AHB_READ] HADDR=0x000081e4 AHB_BURST_WRAP8 8 beats
# UVM_INFO ../src/mst_seq/ahb_error_seq.sv(131) @ 1715000: uvm_test_top.env.master_agent.sqr@@mst_seq [ahb_error_seq] AHB_READ AHB_BURST_WRAP8 @0x000081e4: ERROR on beat 4 of 8, policy=continue, drove 8
# UVM_INFO ../src/mst_seq/ahb_error_seq.sv(150) @ 1715000: uvm_test_top.env.master_agent.sqr@@mst_seq [ahb_error_seq] ERROR response traffic done: bursts=16 with_error=12 cancelled=6 unmapped=5
# UVM_INFO ../src/test/ahb_error_response_test.sv(74) @ 1715000: uvm_test_top [ahb_error_response_test] Slave answered 60 beats: 23 ERROR, 12 in the unmapped region
# UVM_INFO verilog_src/uvm-1.1d/src/base/uvm_objection.svh(1268) @ 1715200: reporter [TEST_DONE] 'run' phase is ready to proceed to the 'extract' phase
# UVM_INFO ../src/env/ahb_coverage.sv(195) @ 1715200: uvm_test_top.env.master_cov [ahb_coverage] [master_cov] functional coverage: ahb_cg = 78.75%, ahb_trans_cg = 75.00%
# UVM_INFO ../src/env/ahb_scoreboard.sv(208) @ 1715200: uvm_test_top.env.scb [ahb_scoreboard] Passthrough : compared=16 matched=16 mismatched=0
# UVM_INFO ../src/env/ahb_scoreboard.sv(212) @ 1715200: uvm_test_top.env.scb [ahb_scoreboard] Ref-memory  : wr_bytes=40 rd_checked=0 rd_uninit=35 rd_mismatch=0
# UVM_INFO ../src/env/ahb_coverage.sv(195) @ 1715200: uvm_test_top.env.slave_cov [ahb_coverage] [slave_cov] functional coverage: ahb_cg = 78.75%, ahb_trans_cg = 75.00%
# UVM_INFO ../src/test/ahb_base_test.sv(74) @ 1715200: uvm_test_top [ahb_error_response_test] 
# === TEST PASSED ===
# 
# 
# --- UVM Report Summary ---
# 
# ** Report counts by severity
# UVM_INFO :  433
# UVM_WARNING :    0
# UVM_ERROR :    0
# UVM_FATAL :    0
# ** Report counts by id
# [Questa UVM]     3
# [RNTST]     1
# [TB_TOP]     3
# [TEST_DONE]     1
# [UVMTOP]     1
# [ahb_coverage]    34
# [ahb_error_response_test]     2
# [ahb_error_seq]    14
# [ahb_master_agent]     1
# [ahb_master_driver]   133
# [ahb_master_monitor]    77
# [ahb_scoreboard]    18
# [ahb_slave_agent]     1
# [ahb_slave_driver]    61
# [ahb_slave_error_seq]    61
# [ahb_slave_monitor]    17
# [ahb_vip_env]     5
# ** Note: $finish    : /cadtools/mentor/Questa_10.6b/questasim/linux_x86_64/../verilog_src/uvm-1.1d/src/base/uvm_root.svh(430)
#    Time: 1715200 ps  Iteration: 53  Instance: /tb_top
# Saving coverage database on exit...
# End time: 12:12:04 on Aug 06,2026, Elapsed time: 0:00:01
# Errors: 0, Warnings: 0
