# vsim -c -coverage -sv_seed 18836387 "+UVM_TESTNAME=ahb_error_response_test" "+UVM_VERBOSITY=UVM_HIGH" "+DUMP_VCD" -l ./report/logs/ahb_error_response_test_run_2_seed_18836387.log -do "coverage save -onexit ./report/coverage/ahb_error_response_test_run_2_seed_18836387.ucdb; run -all; quit -f" opt_tb_top 
# Start time: 12:29:37 on Aug 03,2026
# //  Questa Sim-64
# //  Version 10.6b linux_x86_64 May 25 2017
# //
# //  Copyright 1991-2017 Mentor Graphics Corporation
# //  All Rights Reserved.
# //
# //  QuestaSim and its associated documentation contain trade
# //  secrets and commercial or financial information that are the property of
# //  Mentor Graphics Corporation and are privileged, confidential,
# //  and exempt from disclosure under the Freedom of Information Act,
# //  5 U.S.C. Section 552. Furthermore, this information
# //  is prohibited from disclosure under the Trade Secrets Act,
# //  18 U.S.C. Section 1905.
# //
# Loading sv_std.std
# Loading work.ahb_if(fast)
# Loading mtiUvm.uvm_pkg
# Loading work.ahb_pkg(fast)
# Loading work.ahb_seq_pkg(fast)
# Loading work.ahb_test_pkg(fast)
# Loading work.tb_top(fast)
# Loading work.ahb_if(fast)
# Loading work.ahb_sva(fast)
# Loading mtiUvm.questa_uvm_pkg(fast)
# Loading /cadtools/mentor/Questa_10.6b/questasim/uvm-1.1d/linux_x86_64/uvm_dpi.so
# coverage save -onexit ./report/coverage/ahb_error_response_test_run_2_seed_18836387.ucdb
#  run -all
# ----------------------------------------------------------------
# UVM-1.1d
# (C) 2007-2013 Mentor Graphics Corporation
# (C) 2007-2013 Cadence Design Systems, Inc.
# (C) 2006-2013 Synopsys, Inc.
# (C) 2011-2013 Cypress Semiconductor Corp.
# ----------------------------------------------------------------
# 
#   ***********       IMPORTANT RELEASE NOTES         ************
# 
#   You are using a version of the UVM library that has been compiled
#   with `UVM_NO_DEPRECATED undefined.
#   See http://www.eda.org/svdb/view.php?id=3313 for more details.
# 
#   You are using a version of the UVM library that has been compiled
#   with `UVM_OBJECT_MUST_HAVE_CONSTRUCTOR undefined.
#   See http://www.eda.org/svdb/view.php?id=3770 for more details.
# 
#       (Specify +UVM_NO_RELNOTES to turn off this notice)
# 
# UVM_INFO verilog_src/questa_uvm_pkg-1.2/src/questa_uvm_pkg.sv(215) @ 0: reporter [Questa UVM] QUESTA_UVM-1.2.3
# UVM_INFO verilog_src/questa_uvm_pkg-1.2/src/questa_uvm_pkg.sv(217) @ 0: reporter [Questa UVM]  questa_uvm::init(+struct)
# UVM_INFO ../src/tb_top.sv(126) @ 0: reporter [TB_TOP] Virtual interface set in config_db
# UVM_INFO @ 0: reporter [RNTST] Running test ahb_error_response_test...
# UVM_INFO ../src/tb_top.sv(140) @ 0: reporter [TB_TOP] Waveform VCD dumping enabled (ahb_lite_vip.vcd)
# UVM_INFO ../src/env/ahb_vip_env.sv(64) @ 0: uvm_test_top.env [ahb_vip_env] slave_vif not set - reusing master_vif (passthrough mode)
# UVM_INFO ../src/env/ahb_vip_env.sv(72) @ 0: uvm_test_top.env [ahb_vip_env] Scoreboard created
# UVM_INFO ../src/env/ahb_vip_env.sv(78) @ 0: uvm_test_top.env [ahb_vip_env] Coverage collectors created
# UVM_INFO ../src/mst/ahb_master_agent.sv(61) @ 0: uvm_test_top.env.master_agent [ahb_master_agent] ACTIVE mode - driver + sequencer created
# UVM_INFO ../src/slv/ahb_slave_agent.sv(64) @ 0: uvm_test_top.env.slave_agent [ahb_slave_agent] ACTIVE mode - driver + sequencer created (sequence responses)
# UVM_INFO ../src/env/ahb_vip_env.sv(92) @ 0: uvm_test_top.env [ahb_vip_env] Scoreboard connected: master_mon.ap -> scb, slave_mon.ap -> scb
# UVM_INFO ../src/env/ahb_vip_env.sv(99) @ 0: uvm_test_top.env [ahb_vip_env] Coverage connected: master_mon.ap -> master_cov, slave_mon.ap -> slave_cov
# UVM_INFO @ 0: reporter [UVMTOP] UVM testbench topology:
# ---------------------------------------------------------------
# Name                       Type                     Size  Value
# ---------------------------------------------------------------
# uvm_test_top               ahb_error_response_test  -     @475 
#   env                      ahb_vip_env              -     @490 
#     master_agent           ahb_master_agent         -     @505 
#       drv                  ahb_master_driver        -     @570 
#         rsp_port           uvm_analysis_port        -     @585 
#         seq_item_port      uvm_seq_item_pull_port   -     @577 
#       mon                  ahb_master_monitor       -     @563 
#         ap                 uvm_analysis_port        -     @704 
#       sqr                  ahb_master_sequencer     -     @593 
#         rsp_export         uvm_analysis_export      -     @600 
#         seq_item_export    uvm_seq_item_pull_imp    -     @694 
#         arbitration_queue  array                    0     -    
#         lock_queue         array                    0     -    
#         num_last_reqs      integral                 32    'd1  
#         num_last_rsps      integral                 32    'd1  
#     master_cov             ahb_coverage             -     @526 
#       analysis_imp         uvm_analysis_imp         -     @533 
#     scb                    ahb_scoreboard           -     @519 
#       master_export        uvm_analysis_imp_master  -     @718 
#       slave_export         uvm_analysis_imp_slave   -     @726 
#     slave_agent            ahb_slave_agent          -     @512 
#       drv                  ahb_slave_driver         -     @748 
#         rsp_port           uvm_analysis_port        -     @763 
#         seq_item_port      uvm_seq_item_pull_port   -     @755 
#       mon                  ahb_slave_monitor        -     @741 
#         ap                 uvm_analysis_port        -     @882 
#       sqr                  ahb_slave_sequencer      -     @771 
#         rsp_export         uvm_analysis_export      -     @778 
#         seq_item_export    uvm_seq_item_pull_imp    -     @872 
#         arbitration_queue  array                    0     -    
#         lock_queue         array                    0     -    
#         num_last_reqs      integral                 32    'd1  
#         num_last_rsps      integral                 32    'd1  
#     slave_cov              ahb_coverage             -     @541 
#       analysis_imp         uvm_analysis_imp         -     @548 
# ---------------------------------------------------------------
# 
# UVM_INFO verilog_src/questa_uvm_pkg-1.2/src/questa_uvm_pkg.sv(277) @ 0: reporter [Questa UVM] End Of Elaboration
# UVM_INFO ../src/mst_seq/ahb_error_seq.sv(71) @ 0: uvm_test_top.env.master_agent.sqr@@mst_seq [ahb_error_seq] Starting ERROR response traffic: 16 bursts
# UVM_INFO ../src/slv_seq/ahb_slave_error_seq.sv(63) @ 0: uvm_test_top.env.slave_agent.sqr@@slv_seq [ahb_slave_error_seq] Slave error injection active: 25% ERROR, up to 2 wait states, unmapped [0x00009000 : 0x00009fff]
# UVM_INFO ../src/mst/ahb_master_driver.sv(181) @ 5000: uvm_test_top.env.master_agent.drv [ahb_master_driver] Flushed pending transactions (reset)
# UVM_INFO ../src/tb_top.sv(48) @ 95000: reporter [TB_TOP] Reset de-asserted
# UVM_INFO ../src/slv/ahb_slave_driver.sv(63) @ 95000: uvm_test_top.env.slave_agent.drv [ahb_slave_driver] Reset deasserted - slave driver active (sequence mode)
# UVM_INFO ../src/mst/ahb_master_driver.sv(68) @ 95000: uvm_test_top.env.master_agent.drv [ahb_master_driver] Reset deasserted - master driver active
# UVM_INFO ../src/mst/ahb_master_monitor.sv(75) @ 95000: uvm_test_top.env.master_agent.mon [ahb_master_monitor] Reset deasserted - master monitor active
# UVM_INFO ../src/slv/ahb_slave_monitor.sv(69) @ 95000: uvm_test_top.env.slave_agent.mon [ahb_slave_monitor] Reset deasserted - slave monitor active
# UVM_INFO ../src/mst/ahb_master_driver.sv(82) @ 95000: uvm_test_top.env.master_agent.drv [ahb_master_driver] Queueing [AHB_WRITE]: HADDR=0x0000702f, HBURST=AHB_BURST_WRAP8, HSIZE=AHB_SIZE_8B, 8 beats
# UVM_INFO ../src/mst/ahb_master_driver.sv(124) @ 95000: uvm_test_top.env.master_agent.drv [ahb_master_driver] Driving [AHB_WRITE]: HADDR=0x0000702f, HBURST=AHB_BURST_WRAP8, HSIZE=AHB_SIZE_8B, 8 beats               
# UVM_INFO ../src/slv_seq/ahb_slave_error_seq.sv(89) @ 105000: uvm_test_top.env.slave_agent.sqr@@slv_seq [ahb_slave_error_seq] Response 1: AHB_WRITE @0x0000702f -> AHB_RESP_OKAY, 0 wait states           
# UVM_INFO ../src/mst/ahb_master_driver.sv(317) @ 115000: uvm_test_top.env.master_agent.drv [ahb_master_driver] Beat[0/8] addr=0x0000702f trans=AHB_TRANS_NONSEQ resp=AHB_RESP_OKAY wdata=0xcacf747b
# UVM_INFO ../src/slv/ahb_slave_driver.sv(184) @ 115000: uvm_test_top.env.slave_agent.drv [ahb_slave_driver] Beat AHB_WRITE addr=0x0000702f resp=AHB_RESP_OKAY waits=0 wdata=0xcacf747b
# UVM_INFO ../src/mst/ahb_master_monitor.sv(117) @ 115000: uvm_test_top.env.master_agent.mon [ahb_master_monitor] Beat[0] addr=0x0000702f wdata=0xcacf747b resp=AHB_RESP_OKAY
# UVM_INFO ../src/slv_seq/ahb_slave_error_seq.sv(89) @ 115000: uvm_test_top.env.slave_agent.sqr@@slv_seq [ahb_slave_error_seq] Response 2: AHB_WRITE @0x00007028 -> AHB_RESP_OKAY, 1 wait states           
# UVM_INFO ../src/mst/ahb_master_driver.sv(317) @ 135000: uvm_test_top.env.master_agent.drv [ahb_master_driver] Beat[1/8] addr=0x00007028 trans=AHB_TRANS_SEQ resp=AHB_RESP_OKAY wdata=0x54f0cb14
# UVM_INFO ../src/slv/ahb_slave_driver.sv(184) @ 135000: uvm_test_top.env.slave_agent.drv [ahb_slave_driver] Beat AHB_WRITE addr=0x00007028 resp=AHB_RESP_OKAY waits=1 wdata=0x54f0cb14
# UVM_INFO ../src/mst/ahb_master_monitor.sv(117) @ 135000: uvm_test_top.env.master_agent.mon [ahb_master_monitor] Beat[1] addr=0x00007028 wdata=0x54f0cb14 resp=AHB_RESP_OKAY
# UVM_INFO ../src/slv_seq/ahb_slave_error_seq.sv(89) @ 135000: uvm_test_top.env.slave_agent.sqr@@slv_seq [ahb_slave_error_seq] Response 3: AHB_WRITE @0x00007029 -> AHB_RESP_OKAY, 2 wait states           
# UVM_INFO ../src/mst/ahb_master_driver.sv(317) @ 165000: uvm_test_top.env.master_agent.drv [ahb_master_driver] Beat[2/8] addr=0x00007029 trans=AHB_TRANS_SEQ resp=AHB_RESP_OKAY wdata=0x287b76a8
# UVM_INFO ../src/slv/ahb_slave_driver.sv(184) @ 165000: uvm_test_top.env.slave_agent.drv [ahb_slave_driver] Beat AHB_WRITE addr=0x00007029 resp=AHB_RESP_OKAY waits=2 wdata=0x287b76a8
# UVM_INFO ../src/mst/ahb_master_monitor.sv(117) @ 165000: uvm_test_top.env.master_agent.mon [ahb_master_monitor] Beat[2] addr=0x00007029 wdata=0x287b76a8 resp=AHB_RESP_OKAY
# UVM_INFO ../src/slv_seq/ahb_slave_error_seq.sv(89) @ 165000: uvm_test_top.env.slave_agent.sqr@@slv_seq [ahb_slave_error_seq] Response 4: AHB_WRITE @0x0000702a -> AHB_RESP_OKAY, 1 wait states           
# UVM_INFO ../src/mst/ahb_master_driver.sv(317) @ 185000: uvm_test_top.env.master_agent.drv [ahb_master_driver] Beat[3/8] addr=0x0000702a trans=AHB_TRANS_SEQ resp=AHB_RESP_OKAY wdata=0x021f44e6
# UVM_INFO ../src/slv/ahb_slave_driver.sv(184) @ 185000: uvm_test_top.env.slave_agent.drv [ahb_slave_driver] Beat AHB_WRITE addr=0x0000702a resp=AHB_RESP_OKAY waits=1 wdata=0x021f44e6
# UVM_INFO ../src/mst/ahb_master_monitor.sv(117) @ 185000: uvm_test_top.env.master_agent.mon [ahb_master_monitor] Beat[3] addr=0x0000702a wdata=0x021f44e6 resp=AHB_RESP_OKAY
# UVM_INFO ../src/slv_seq/ahb_slave_error_seq.sv(89) @ 185000: uvm_test_top.env.slave_agent.sqr@@slv_seq [ahb_slave_error_seq] Response 5: AHB_WRITE @0x0000702b -> AHB_RESP_OKAY, 0 wait states           
# UVM_INFO ../src/mst/ahb_master_driver.sv(317) @ 195000: uvm_test_top.env.master_agent.drv [ahb_master_driver] Beat[4/8] addr=0x0000702b trans=AHB_TRANS_SEQ resp=AHB_RESP_OKAY wdata=0x14cdf24d
# UVM_INFO ../src/slv/ahb_slave_driver.sv(184) @ 195000: uvm_test_top.env.slave_agent.drv [ahb_slave_driver] Beat AHB_WRITE addr=0x0000702b resp=AHB_RESP_OKAY waits=0 wdata=0x14cdf24d
# UVM_INFO ../src/mst/ahb_master_monitor.sv(117) @ 195000: uvm_test_top.env.master_agent.mon [ahb_master_monitor] Beat[4] addr=0x0000702b wdata=0x14cdf24d resp=AHB_RESP_OKAY
# UVM_INFO ../src/slv_seq/ahb_slave_error_seq.sv(89) @ 195000: uvm_test_top.env.slave_agent.sqr@@slv_seq [ahb_slave_error_seq] Response 6: AHB_WRITE @0x0000702c -> AHB_RESP_OKAY, 2 wait states           
# UVM_INFO ../src/mst/ahb_master_driver.sv(317) @ 225000: uvm_test_top.env.master_agent.drv [ahb_master_driver] Beat[5/8] addr=0x0000702c trans=AHB_TRANS_SEQ resp=AHB_RESP_OKAY wdata=0x3e08457a
# UVM_INFO ../src/slv/ahb_slave_driver.sv(184) @ 225000: uvm_test_top.env.slave_agent.drv [ahb_slave_driver] Beat AHB_WRITE addr=0x0000702c resp=AHB_RESP_OKAY waits=2 wdata=0x3e08457a
# UVM_INFO ../src/mst/ahb_master_monitor.sv(117) @ 225000: uvm_test_top.env.master_agent.mon [ahb_master_monitor] Beat[5] addr=0x0000702c wdata=0x3e08457a resp=AHB_RESP_OKAY
# UVM_INFO ../src/slv_seq/ahb_slave_error_seq.sv(89) @ 225000: uvm_test_top.env.slave_agent.sqr@@slv_seq [ahb_slave_error_seq] Response 7: AHB_WRITE @0x0000702d -> AHB_RESP_OKAY, 1 wait states           
# UVM_INFO ../src/mst/ahb_master_driver.sv(317) @ 245000: uvm_test_top.env.master_agent.drv [ahb_master_driver] Beat[6/8] addr=0x0000702d trans=AHB_TRANS_SEQ resp=AHB_RESP_OKAY wdata=0x78aa2bf3
# UVM_INFO ../src/slv/ahb_slave_driver.sv(184) @ 245000: uvm_test_top.env.slave_agent.drv [ahb_slave_driver] Beat AHB_WRITE addr=0x0000702d resp=AHB_RESP_OKAY waits=1 wdata=0x78aa2bf3
# UVM_INFO ../src/mst/ahb_master_monitor.sv(117) @ 245000: uvm_test_top.env.master_agent.mon [ahb_master_monitor] Beat[6] addr=0x0000702d wdata=0x78aa2bf3 resp=AHB_RESP_OKAY
# UVM_INFO ../src/slv_seq/ahb_slave_error_seq.sv(89) @ 245000: uvm_test_top.env.slave_agent.sqr@@slv_seq [ahb_slave_error_seq] Response 8: AHB_WRITE @0x0000702e -> AHB_RESP_OKAY, 1 wait states           
# UVM_INFO ../src/mst/ahb_master_driver.sv(317) @ 265000: uvm_test_top.env.master_agent.drv [ahb_master_driver] Beat[7/8] addr=0x0000702e trans=AHB_TRANS_SEQ resp=AHB_RESP_OKAY wdata=0xf16195f5
# UVM_INFO ../src/mst/ahb_master_driver.sv(362) @ 265000: uvm_test_top.env.master_agent.drv [ahb_master_driver] Transaction complete: AHB_WRITE 0x0000702f, 8 beats, burst=AHB_BURST_WRAP8
# UVM_INFO ../src/slv/ahb_slave_driver.sv(184) @ 265000: uvm_test_top.env.slave_agent.drv [ahb_slave_driver] Beat AHB_WRITE addr=0x0000702e resp=AHB_RESP_OKAY waits=1 wdata=0xf16195f5
# UVM_INFO ../src/mst/ahb_master_monitor.sv(117) @ 265000: uvm_test_top.env.master_agent.mon [ahb_master_monitor] Beat[7] addr=0x0000702e wdata=0xf16195f5 resp=AHB_RESP_OKAY
# UVM_INFO ../src/mst/ahb_master_monitor.sv(222) @ 265000: uvm_test_top.env.master_agent.mon [ahb_master_monitor] Observed [AHB_WRITE]: HADDR=0x0000702f, HBURST=AHB_BURST_WRAP8, HSIZE=AHB_SIZE_8B, 8 beats
# UVM_INFO ../src/env/ahb_coverage.sv(127) @ 265000: uvm_test_top.env.master_cov [ahb_coverage] Sampled [AHB_WRITE]: burst=AHB_BURST_WRAP8 size=AHB_SIZE_8B beats=8 error=0
# UVM_INFO ../src/slv/ahb_slave_monitor.sv(197) @ 265000: uvm_test_top.env.slave_agent.mon [ahb_slave_monitor] Observed [AHB_WRITE]: HADDR=0x0000702f, HBURST=AHB_BURST_WRAP8, HSIZE=AHB_SIZE_8B, 8 beats
# UVM_INFO ../src/env/ahb_scoreboard.sv(104) @ 265000: uvm_test_top.env.scb [ahb_scoreboard] MATCH #1: [AHB_WRITE] HADDR=0x0000702f AHB_BURST_WRAP8 8 beats
# UVM_INFO ../src/env/ahb_coverage.sv(127) @ 265000: uvm_test_top.env.slave_cov [ahb_coverage] Sampled [AHB_WRITE]: burst=AHB_BURST_WRAP8 size=AHB_SIZE_8B beats=8 error=0
# UVM_INFO ../src/mst/ahb_master_driver.sv(82) @ 265000: uvm_test_top.env.master_agent.drv [ahb_master_driver] Queueing [AHB_READ]: HADDR=0x00008028, HBURST=AHB_BURST_WRAP4, HSIZE=AHB_SIZE_32B, 4 beats
# UVM_INFO ../src/mst/ahb_master_driver.sv(124) @ 265000: uvm_test_top.env.master_agent.drv [ahb_master_driver] Driving [AHB_READ]: HADDR=0x00008028, HBURST=AHB_BURST_WRAP4, HSIZE=AHB_SIZE_32B, 4 beats               
# UVM_INFO ../src/slv_seq/ahb_slave_error_seq.sv(89) @ 285000: uvm_test_top.env.slave_agent.sqr@@slv_seq [ahb_slave_error_seq] Response 9: AHB_READ @0x00008028 -> AHB_RESP_OKAY, 1 wait states           
# UVM_INFO ../src/mst/ahb_master_driver.sv(317) @ 305000: uvm_test_top.env.master_agent.drv [ahb_master_driver] Beat[0/4] addr=0x00008028 trans=AHB_TRANS_NONSEQ resp=AHB_RESP_OKAY rdata=0xf1b5ba38
# UVM_INFO ../src/slv/ahb_slave_driver.sv(184) @ 305000: uvm_test_top.env.slave_agent.drv [ahb_slave_driver] Beat AHB_READ addr=0x00008028 resp=AHB_RESP_OKAY waits=1 rdata=0xf1b5ba38
# UVM_INFO ../src/mst/ahb_master_monitor.sv(117) @ 305000: uvm_test_top.env.master_agent.mon [ahb_master_monitor] Beat[0] addr=0x00008028 rdata=0xf1b5ba38 resp=AHB_RESP_OKAY
# UVM_INFO ../src/slv_seq/ahb_slave_error_seq.sv(89) @ 305000: uvm_test_top.env.slave_agent.sqr@@slv_seq [ahb_slave_error_seq] Response 10: AHB_READ @0x0000802c -> AHB_RESP_OKAY, 1 wait states           
# UVM_INFO ../src/mst/ahb_master_driver.sv(317) @ 325000: uvm_test_top.env.master_agent.drv [ahb_master_driver] Beat[1/4] addr=0x0000802c trans=AHB_TRANS_SEQ resp=AHB_RESP_OKAY rdata=0x152fb82b
# UVM_INFO ../src/slv/ahb_slave_driver.sv(184) @ 325000: uvm_test_top.env.slave_agent.drv [ahb_slave_driver] Beat AHB_READ addr=0x0000802c resp=AHB_RESP_OKAY waits=1 rdata=0x152fb82b
# UVM_INFO ../src/mst/ahb_master_monitor.sv(117) @ 325000: uvm_test_top.env.master_agent.mon [ahb_master_monitor] Beat[1] addr=0x0000802c rdata=0x152fb82b resp=AHB_RESP_OKAY
# UVM_INFO ../src/slv_seq/ahb_slave_error_seq.sv(89) @ 325000: uvm_test_top.env.slave_agent.sqr@@slv_seq [ahb_slave_error_seq] Response 11: AHB_READ @0x00008020 -> AHB_RESP_ERROR, 2 wait states           
# UVM_INFO ../src/mst/ahb_master_driver.sv(317) @ 365000: uvm_test_top.env.master_agent.drv [ahb_master_driver] Beat[2/4] addr=0x00008020 trans=AHB_TRANS_SEQ resp=AHB_RESP_ERROR rdata=0x152fb82b
# UVM_INFO ../src/mst/ahb_master_driver.sv(327) @ 365000: uvm_test_top.env.master_agent.drv [ahb_master_driver] ERROR response on beat 2/4 - cancelling remaining burst
# UVM_INFO ../src/mst/ahb_master_driver.sv(362) @ 365000: uvm_test_top.env.master_agent.drv [ahb_master_driver] Transaction complete: AHB_READ 0x00008028, 4 beats, burst=AHB_BURST_WRAP4
# UVM_INFO ../src/slv/ahb_slave_driver.sv(184) @ 365000: uvm_test_top.env.slave_agent.drv [ahb_slave_driver] Beat AHB_READ addr=0x00008020 resp=AHB_RESP_ERROR waits=2 rdata=0x26608fe5
# UVM_INFO ../src/mst/ahb_master_monitor.sv(117) @ 365000: uvm_test_top.env.master_agent.mon [ahb_master_monitor] Beat[2] addr=0x00008020 rdata=0x152fb82b resp=AHB_RESP_ERROR
# UVM_INFO ../src/mst/ahb_master_monitor.sv(222) @ 365000: uvm_test_top.env.master_agent.mon [ahb_master_monitor] Observed [AHB_READ]: HADDR=0x00008028, HBURST=AHB_BURST_WRAP4, HSIZE=AHB_SIZE_32B, 3 beats
# UVM_INFO ../src/env/ahb_coverage.sv(127) @ 365000: uvm_test_top.env.master_cov [ahb_coverage] Sampled [AHB_READ]: burst=AHB_BURST_WRAP4 size=AHB_SIZE_32B beats=4 error=1
# UVM_INFO ../src/slv/ahb_slave_monitor.sv(197) @ 365000: uvm_test_top.env.slave_agent.mon [ahb_slave_monitor] Observed [AHB_READ]: HADDR=0x00008028, HBURST=AHB_BURST_WRAP4, HSIZE=AHB_SIZE_32B, 3 beats
# UVM_INFO ../src/env/ahb_scoreboard.sv(104) @ 365000: uvm_test_top.env.scb [ahb_scoreboard] MATCH #2: [AHB_READ] HADDR=0x00008028 AHB_BURST_WRAP4 4 beats
# UVM_INFO ../src/env/ahb_coverage.sv(127) @ 365000: uvm_test_top.env.slave_cov [ahb_coverage] Sampled [AHB_READ]: burst=AHB_BURST_WRAP4 size=AHB_SIZE_32B beats=4 error=1
# UVM_INFO ../src/mst_seq/ahb_error_seq.sv(134) @ 365000: uvm_test_top.env.master_agent.sqr@@mst_seq [ahb_error_seq] AHB_READ AHB_BURST_WRAP4 @0x00008028: ERROR on beat 2 of 4, policy=  cancel, drove 3
# UVM_INFO ../src/mst/ahb_master_driver.sv(82) @ 365000: uvm_test_top.env.master_agent.drv [ahb_master_driver] Queueing [AHB_WRITE]: HADDR=0x00009016, HBURST=AHB_BURST_INCR8, HSIZE=AHB_SIZE_8B, 8 beats
# UVM_INFO ../src/mst/ahb_master_driver.sv(124) @ 365000: uvm_test_top.env.master_agent.drv [ahb_master_driver] Driving [AHB_WRITE]: HADDR=0x00009016, HBURST=AHB_BURST_INCR8, HSIZE=AHB_SIZE_8B, 8 beats               
# UVM_INFO ../src/slv_seq/ahb_slave_error_seq.sv(89) @ 385000: uvm_test_top.env.slave_agent.sqr@@slv_seq [ahb_slave_error_seq] Response 12: AHB_WRITE @0x00009016 -> AHB_RESP_ERROR, 0 wait states (unmapped)
# UVM_INFO ../src/mst/ahb_master_driver.sv(317) @ 405000: uvm_test_top.env.master_agent.drv [ahb_master_driver] Beat[0/8] addr=0x00009016 trans=AHB_TRANS_NONSEQ resp=AHB_RESP_ERROR wdata=0x75eac67d
# UVM_INFO ../src/mst/ahb_master_driver.sv(334) @ 405000: uvm_test_top.env.master_agent.drv [ahb_master_driver] ERROR response on beat 0/8 - continuing burst (abort_on_error=0)
# UVM_INFO ../src/slv/ahb_slave_driver.sv(184) @ 405000: uvm_test_top.env.slave_agent.drv [ahb_slave_driver] Beat AHB_WRITE addr=0x00009016 resp=AHB_RESP_ERROR waits=0 wdata=0x75eac67d
# UVM_INFO ../src/mst/ahb_master_monitor.sv(117) @ 405000: uvm_test_top.env.master_agent.mon [ahb_master_monitor] Beat[0] addr=0x00009016 wdata=0x75eac67d resp=AHB_RESP_ERROR
# UVM_INFO ../src/slv_seq/ahb_slave_error_seq.sv(89) @ 405000: uvm_test_top.env.slave_agent.sqr@@slv_seq [ahb_slave_error_seq] Response 13: AHB_WRITE @0x00009017 -> AHB_RESP_ERROR, 1 wait states (unmapped)
# UVM_INFO ../src/mst/ahb_master_driver.sv(317) @ 435000: uvm_test_top.env.master_agent.drv [ahb_master_driver] Beat[1/8] addr=0x00009017 trans=AHB_TRANS_SEQ resp=AHB_RESP_ERROR wdata=0x64911ee6
# UVM_INFO ../src/mst/ahb_master_driver.sv(334) @ 435000: uvm_test_top.env.master_agent.drv [ahb_master_driver] ERROR response on beat 1/8 - continuing burst (abort_on_error=0)
# UVM_INFO ../src/slv/ahb_slave_driver.sv(184) @ 435000: uvm_test_top.env.slave_agent.drv [ahb_slave_driver] Beat AHB_WRITE addr=0x00009017 resp=AHB_RESP_ERROR waits=1 wdata=0x64911ee6
# UVM_INFO ../src/mst/ahb_master_monitor.sv(117) @ 435000: uvm_test_top.env.master_agent.mon [ahb_master_monitor] Beat[1] addr=0x00009017 wdata=0x64911ee6 resp=AHB_RESP_ERROR
# UVM_INFO ../src/slv_seq/ahb_slave_error_seq.sv(89) @ 435000: uvm_test_top.env.slave_agent.sqr@@slv_seq [ahb_slave_error_seq] Response 14: AHB_WRITE @0x00009018 -> AHB_RESP_ERROR, 1 wait states (unmapped)
# UVM_INFO ../src/mst/ahb_master_driver.sv(317) @ 465000: uvm_test_top.env.master_agent.drv [ahb_master_driver] Beat[2/8] addr=0x00009018 trans=AHB_TRANS_SEQ resp=AHB_RESP_ERROR wdata=0x93562378
# UVM_INFO ../src/mst/ahb_master_driver.sv(334) @ 465000: uvm_test_top.env.master_agent.drv [ahb_master_driver] ERROR response on beat 2/8 - continuing burst (abort_on_error=0)
# UVM_INFO ../src/slv/ahb_slave_driver.sv(184) @ 465000: uvm_test_top.env.slave_agent.drv [ahb_slave_driver] Beat AHB_WRITE addr=0x00009018 resp=AHB_RESP_ERROR waits=1 wdata=0x93562378
# UVM_INFO ../src/mst/ahb_master_monitor.sv(117) @ 465000: uvm_test_top.env.master_agent.mon [ahb_master_monitor] Beat[2] addr=0x00009018 wdata=0x93562378 resp=AHB_RESP_ERROR
# UVM_INFO ../src/slv_seq/ahb_slave_error_seq.sv(89) @ 465000: uvm_test_top.env.slave_agent.sqr@@slv_seq [ahb_slave_error_seq] Response 15: AHB_WRITE @0x00009019 -> AHB_RESP_ERROR, 0 wait states (unmapped)
# UVM_INFO ../src/mst/ahb_master_driver.sv(317) @ 485000: uvm_test_top.env.master_agent.drv [ahb_master_driver] Beat[3/8] addr=0x00009019 trans=AHB_TRANS_SEQ resp=AHB_RESP_ERROR wdata=0x755be71f
# UVM_INFO ../src/mst/ahb_master_driver.sv(334) @ 485000: uvm_test_top.env.master_agent.drv [ahb_master_driver] ERROR response on beat 3/8 - continuing burst (abort_on_error=0)
# UVM_INFO ../src/slv/ahb_slave_driver.sv(184) @ 485000: uvm_test_top.env.slave_agent.drv [ahb_slave_driver] Beat AHB_WRITE addr=0x00009019 resp=AHB_RESP_ERROR waits=0 wdata=0x755be71f
# UVM_INFO ../src/mst/ahb_master_monitor.sv(117) @ 485000: uvm_test_top.env.master_agent.mon [ahb_master_monitor] Beat[3] addr=0x00009019 wdata=0x755be71f resp=AHB_RESP_ERROR
# UVM_INFO ../src/slv_seq/ahb_slave_error_seq.sv(89) @ 485000: uvm_test_top.env.slave_agent.sqr@@slv_seq [ahb_slave_error_seq] Response 16: AHB_WRITE @0x0000901a -> AHB_RESP_ERROR, 1 wait states (unmapped)
# UVM_INFO ../src/mst/ahb_master_driver.sv(317) @ 515000: uvm_test_top.env.master_agent.drv [ahb_master_driver] Beat[4/8] addr=0x0000901a trans=AHB_TRANS_SEQ resp=AHB_RESP_ERROR wdata=0x5d1c9695
# UVM_INFO ../src/mst/ahb_master_driver.sv(334) @ 515000: uvm_test_top.env.master_agent.drv [ahb_master_driver] ERROR response on beat 4/8 - continuing burst (abort_on_error=0)
# UVM_INFO ../src/slv/ahb_slave_driver.sv(184) @ 515000: uvm_test_top.env.slave_agent.drv [ahb_slave_driver] Beat AHB_WRITE addr=0x0000901a resp=AHB_RESP_ERROR waits=1 wdata=0x5d1c9695
# UVM_INFO ../src/mst/ahb_master_monitor.sv(117) @ 515000: uvm_test_top.env.master_agent.mon [ahb_master_monitor] Beat[4] addr=0x0000901a wdata=0x5d1c9695 resp=AHB_RESP_ERROR
# UVM_INFO ../src/slv_seq/ahb_slave_error_seq.sv(89) @ 515000: uvm_test_top.env.slave_agent.sqr@@slv_seq [ahb_slave_error_seq] Response 17: AHB_WRITE @0x0000901b -> AHB_RESP_ERROR, 2 wait states (unmapped)
# UVM_INFO ../src/mst/ahb_master_driver.sv(317) @ 555000: uvm_test_top.env.master_agent.drv [ahb_master_driver] Beat[5/8] addr=0x0000901b trans=AHB_TRANS_SEQ resp=AHB_RESP_ERROR wdata=0x01b3674a
# UVM_INFO ../src/mst/ahb_master_driver.sv(334) @ 555000: uvm_test_top.env.master_agent.drv [ahb_master_driver] ERROR response on beat 5/8 - continuing burst (abort_on_error=0)
# UVM_INFO ../src/slv/ahb_slave_driver.sv(184) @ 555000: uvm_test_top.env.slave_agent.drv [ahb_slave_driver] Beat AHB_WRITE addr=0x0000901b resp=AHB_RESP_ERROR waits=2 wdata=0x01b3674a
# UVM_INFO ../src/mst/ahb_master_monitor.sv(117) @ 555000: uvm_test_top.env.master_agent.mon [ahb_master_monitor] Beat[5] addr=0x0000901b wdata=0x01b3674a resp=AHB_RESP_ERROR
# UVM_INFO ../src/slv_seq/ahb_slave_error_seq.sv(89) @ 555000: uvm_test_top.env.slave_agent.sqr@@slv_seq [ahb_slave_error_seq] Response 18: AHB_WRITE @0x0000901c -> AHB_RESP_ERROR, 0 wait states (unmapped)
# UVM_INFO ../src/mst/ahb_master_driver.sv(317) @ 575000: uvm_test_top.env.master_agent.drv [ahb_master_driver] Beat[6/8] addr=0x0000901c trans=AHB_TRANS_SEQ resp=AHB_RESP_ERROR wdata=0x320963c8
# UVM_INFO ../src/mst/ahb_master_driver.sv(334) @ 575000: uvm_test_top.env.master_agent.drv [ahb_master_driver] ERROR response on beat 6/8 - continuing burst (abort_on_error=0)
# UVM_INFO ../src/slv/ahb_slave_driver.sv(184) @ 575000: uvm_test_top.env.slave_agent.drv [ahb_slave_driver] Beat AHB_WRITE addr=0x0000901c resp=AHB_RESP_ERROR waits=0 wdata=0x320963c8
# UVM_INFO ../src/mst/ahb_master_monitor.sv(117) @ 575000: uvm_test_top.env.master_agent.mon [ahb_master_monitor] Beat[6] addr=0x0000901c wdata=0x320963c8 resp=AHB_RESP_ERROR
# UVM_INFO ../src/slv_seq/ahb_slave_error_seq.sv(89) @ 575000: uvm_test_top.env.slave_agent.sqr@@slv_seq [ahb_slave_error_seq] Response 19: AHB_WRITE @0x0000901d -> AHB_RESP_ERROR, 1 wait states (unmapped)
# UVM_INFO ../src/mst/ahb_master_driver.sv(317) @ 605000: uvm_test_top.env.master_agent.drv [ahb_master_driver] Beat[7/8] addr=0x0000901d trans=AHB_TRANS_SEQ resp=AHB_RESP_ERROR wdata=0xd4ebee40
# UVM_INFO ../src/mst/ahb_master_driver.sv(334) @ 605000: uvm_test_top.env.master_agent.drv [ahb_master_driver] ERROR response on beat 7/8 - continuing burst (abort_on_error=0)
# UVM_INFO ../src/mst/ahb_master_driver.sv(362) @ 605000: uvm_test_top.env.master_agent.drv [ahb_master_driver] Transaction complete: AHB_WRITE 0x00009016, 8 beats, burst=AHB_BURST_INCR8
# UVM_INFO ../src/slv/ahb_slave_driver.sv(184) @ 605000: uvm_test_top.env.slave_agent.drv [ahb_slave_driver] Beat AHB_WRITE addr=0x0000901d resp=AHB_RESP_ERROR waits=1 wdata=0xd4ebee40
# UVM_INFO ../src/mst/ahb_master_monitor.sv(117) @ 605000: uvm_test_top.env.master_agent.mon [ahb_master_monitor] Beat[7] addr=0x0000901d wdata=0xd4ebee40 resp=AHB_RESP_ERROR
# UVM_INFO ../src/mst/ahb_master_monitor.sv(222) @ 605000: uvm_test_top.env.master_agent.mon [ahb_master_monitor] Observed [AHB_WRITE]: HADDR=0x00009016, HBURST=AHB_BURST_INCR8, HSIZE=AHB_SIZE_8B, 8 beats
# UVM_INFO ../src/env/ahb_coverage.sv(127) @ 605000: uvm_test_top.env.master_cov [ahb_coverage] Sampled [AHB_WRITE]: burst=AHB_BURST_INCR8 size=AHB_SIZE_8B beats=8 error=1
# UVM_INFO ../src/slv/ahb_slave_monitor.sv(197) @ 605000: uvm_test_top.env.slave_agent.mon [ahb_slave_monitor] Observed [AHB_WRITE]: HADDR=0x00009016, HBURST=AHB_BURST_INCR8, HSIZE=AHB_SIZE_8B, 8 beats
# UVM_INFO ../src/env/ahb_scoreboard.sv(104) @ 605000: uvm_test_top.env.scb [ahb_scoreboard] MATCH #3: [AHB_WRITE] HADDR=0x00009016 AHB_BURST_INCR8 8 beats
# UVM_INFO ../src/env/ahb_coverage.sv(127) @ 605000: uvm_test_top.env.slave_cov [ahb_coverage] Sampled [AHB_WRITE]: burst=AHB_BURST_INCR8 size=AHB_SIZE_8B beats=8 error=1
# UVM_INFO ../src/mst_seq/ahb_error_seq.sv(134) @ 605000: uvm_test_top.env.master_agent.sqr@@mst_seq [ahb_error_seq] AHB_WRITE AHB_BURST_INCR8 @0x00009016: ERROR on beat 0 of 8, policy=continue, drove 8
# UVM_INFO ../src/mst/ahb_master_driver.sv(82) @ 605000: uvm_test_top.env.master_agent.drv [ahb_master_driver] Queueing [AHB_READ]: HADDR=0x00008064, HBURST=AHB_BURST_SINGLE, HSIZE=AHB_SIZE_32B, 1 beats
# UVM_INFO ../src/mst/ahb_master_driver.sv(124) @ 605000: uvm_test_top.env.master_agent.drv [ahb_master_driver] Driving [AHB_READ]: HADDR=0x00008064, HBURST=AHB_BURST_SINGLE, HSIZE=AHB_SIZE_32B, 1 beats               
# UVM_INFO ../src/slv_seq/ahb_slave_error_seq.sv(89) @ 625000: uvm_test_top.env.slave_agent.sqr@@slv_seq [ahb_slave_error_seq] Response 20: AHB_READ @0x00008064 -> AHB_RESP_OKAY, 1 wait states           
# UVM_INFO ../src/mst/ahb_master_driver.sv(317) @ 645000: uvm_test_top.env.master_agent.drv [ahb_master_driver] Beat[0/1] addr=0x00008064 trans=AHB_TRANS_NONSEQ resp=AHB_RESP_OKAY rdata=0x24a8635b
# UVM_INFO ../src/mst/ahb_master_driver.sv(362) @ 645000: uvm_test_top.env.master_agent.drv [ahb_master_driver] Transaction complete: AHB_READ 0x00008064, 1 beats, burst=AHB_BURST_SINGLE
# UVM_INFO ../src/slv/ahb_slave_driver.sv(184) @ 645000: uvm_test_top.env.slave_agent.drv [ahb_slave_driver] Beat AHB_READ addr=0x00008064 resp=AHB_RESP_OKAY waits=1 rdata=0x24a8635b
# UVM_INFO ../src/mst/ahb_master_monitor.sv(117) @ 645000: uvm_test_top.env.master_agent.mon [ahb_master_monitor] Beat[0] addr=0x00008064 rdata=0x24a8635b resp=AHB_RESP_OKAY
# UVM_INFO ../src/mst/ahb_master_monitor.sv(222) @ 645000: uvm_test_top.env.master_agent.mon [ahb_master_monitor] Observed [AHB_READ]: HADDR=0x00008064, HBURST=AHB_BURST_SINGLE, HSIZE=AHB_SIZE_32B, 1 beats
# UVM_INFO ../src/env/ahb_coverage.sv(127) @ 645000: uvm_test_top.env.master_cov [ahb_coverage] Sampled [AHB_READ]: burst=AHB_BURST_SINGLE size=AHB_SIZE_32B beats=1 error=0
# UVM_INFO ../src/slv/ahb_slave_monitor.sv(197) @ 645000: uvm_test_top.env.slave_agent.mon [ahb_slave_monitor] Observed [AHB_READ]: HADDR=0x00008064, HBURST=AHB_BURST_SINGLE, HSIZE=AHB_SIZE_32B, 1 beats
# UVM_INFO ../src/env/ahb_scoreboard.sv(104) @ 645000: uvm_test_top.env.scb [ahb_scoreboard] MATCH #4: [AHB_READ] HADDR=0x00008064 AHB_BURST_SINGLE 1 beats
# UVM_INFO ../src/env/ahb_coverage.sv(127) @ 645000: uvm_test_top.env.slave_cov [ahb_coverage] Sampled [AHB_READ]: burst=AHB_BURST_SINGLE size=AHB_SIZE_32B beats=1 error=0
# UVM_INFO ../src/mst/ahb_master_driver.sv(82) @ 645000: uvm_test_top.env.master_agent.drv [ahb_master_driver] Queueing [AHB_WRITE]: HADDR=0x000070bb, HBURST=AHB_BURST_SINGLE, HSIZE=AHB_SIZE_8B, 1 beats
# UVM_INFO ../src/mst/ahb_master_driver.sv(124) @ 645000: uvm_test_top.env.master_agent.drv [ahb_master_driver] Driving [AHB_WRITE]: HADDR=0x000070bb, HBURST=AHB_BURST_SINGLE, HSIZE=AHB_SIZE_8B, 1 beats               
# UVM_INFO ../src/slv_seq/ahb_slave_error_seq.sv(89) @ 665000: uvm_test_top.env.slave_agent.sqr@@slv_seq [ahb_slave_error_seq] Response 21: AHB_WRITE @0x000070bb -> AHB_RESP_OKAY, 0 wait states           
# UVM_INFO ../src/mst/ahb_master_driver.sv(317) @ 675000: uvm_test_top.env.master_agent.drv [ahb_master_driver] Beat[0/1] addr=0x000070bb trans=AHB_TRANS_NONSEQ resp=AHB_RESP_OKAY wdata=0xcfc97074
# UVM_INFO ../src/mst/ahb_master_driver.sv(362) @ 675000: uvm_test_top.env.master_agent.drv [ahb_master_driver] Transaction complete: AHB_WRITE 0x000070bb, 1 beats, burst=AHB_BURST_SINGLE
# UVM_INFO ../src/slv/ahb_slave_driver.sv(184) @ 675000: uvm_test_top.env.slave_agent.drv [ahb_slave_driver] Beat AHB_WRITE addr=0x000070bb resp=AHB_RESP_OKAY waits=0 wdata=0xcfc97074
# UVM_INFO ../src/slv/ahb_slave_monitor.sv(197) @ 675000: uvm_test_top.env.slave_agent.mon [ahb_slave_monitor] Observed [AHB_WRITE]: HADDR=0x000070bb, HBURST=AHB_BURST_SINGLE, HSIZE=AHB_SIZE_8B, 1 beats
# UVM_INFO ../src/env/ahb_coverage.sv(127) @ 675000: uvm_test_top.env.slave_cov [ahb_coverage] Sampled [AHB_WRITE]: burst=AHB_BURST_SINGLE size=AHB_SIZE_8B beats=1 error=0
# UVM_INFO ../src/mst/ahb_master_monitor.sv(117) @ 675000: uvm_test_top.env.master_agent.mon [ahb_master_monitor] Beat[0] addr=0x000070bb wdata=0xcfc97074 resp=AHB_RESP_OKAY
# UVM_INFO ../src/mst/ahb_master_monitor.sv(222) @ 675000: uvm_test_top.env.master_agent.mon [ahb_master_monitor] Observed [AHB_WRITE]: HADDR=0x000070bb, HBURST=AHB_BURST_SINGLE, HSIZE=AHB_SIZE_8B, 1 beats
# UVM_INFO ../src/env/ahb_coverage.sv(127) @ 675000: uvm_test_top.env.master_cov [ahb_coverage] Sampled [AHB_WRITE]: burst=AHB_BURST_SINGLE size=AHB_SIZE_8B beats=1 error=0
# UVM_INFO ../src/env/ahb_scoreboard.sv(104) @ 675000: uvm_test_top.env.scb [ahb_scoreboard] MATCH #5: [AHB_WRITE] HADDR=0x000070bb AHB_BURST_SINGLE 1 beats
# UVM_INFO ../src/mst/ahb_master_driver.sv(82) @ 675000: uvm_test_top.env.master_agent.drv [ahb_master_driver] Queueing [AHB_READ]: HADDR=0x00009053, HBURST=AHB_BURST_INCR, HSIZE=AHB_SIZE_8B, 3 beats
# UVM_INFO ../src/mst/ahb_master_driver.sv(124) @ 675000: uvm_test_top.env.master_agent.drv [ahb_master_driver] Driving [AHB_READ]: HADDR=0x00009053, HBURST=AHB_BURST_INCR, HSIZE=AHB_SIZE_8B, 3 beats               
# UVM_INFO ../src/slv_seq/ahb_slave_error_seq.sv(89) @ 695000: uvm_test_top.env.slave_agent.sqr@@slv_seq [ahb_slave_error_seq] Response 22: AHB_READ @0x00009053 -> AHB_RESP_ERROR, 0 wait states (unmapped)
# UVM_INFO ../src/mst/ahb_master_driver.sv(317) @ 715000: uvm_test_top.env.master_agent.drv [ahb_master_driver] Beat[0/3] addr=0x00009053 trans=AHB_TRANS_NONSEQ resp=AHB_RESP_ERROR rdata=0x24a8635b
# UVM_INFO ../src/mst/ahb_master_driver.sv(327) @ 715000: uvm_test_top.env.master_agent.drv [ahb_master_driver] ERROR response on beat 0/3 - cancelling remaining burst
# UVM_INFO ../src/mst/ahb_master_driver.sv(362) @ 715000: uvm_test_top.env.master_agent.drv [ahb_master_driver] Transaction complete: AHB_READ 0x00009053, 3 beats, burst=AHB_BURST_INCR
# UVM_INFO ../src/slv/ahb_slave_driver.sv(184) @ 715000: uvm_test_top.env.slave_agent.drv [ahb_slave_driver] Beat AHB_READ addr=0x00009053 resp=AHB_RESP_ERROR waits=0 rdata=0x3ee5e73d
# UVM_INFO ../src/slv/ahb_slave_monitor.sv(197) @ 715000: uvm_test_top.env.slave_agent.mon [ahb_slave_monitor] Observed [AHB_READ]: HADDR=0x00009053, HBURST=AHB_BURST_INCR, HSIZE=AHB_SIZE_8B, 1 beats
# UVM_INFO ../src/env/ahb_coverage.sv(127) @ 715000: uvm_test_top.env.slave_cov [ahb_coverage] Sampled [AHB_READ]: burst=AHB_BURST_INCR size=AHB_SIZE_8B beats=1 error=1
# UVM_INFO ../src/mst/ahb_master_monitor.sv(117) @ 715000: uvm_test_top.env.master_agent.mon [ahb_master_monitor] Beat[0] addr=0x00009053 rdata=0x24a8635b resp=AHB_RESP_ERROR
# UVM_INFO ../src/mst/ahb_master_monitor.sv(222) @ 715000: uvm_test_top.env.master_agent.mon [ahb_master_monitor] Observed [AHB_READ]: HADDR=0x00009053, HBURST=AHB_BURST_INCR, HSIZE=AHB_SIZE_8B, 1 beats
# UVM_INFO ../src/env/ahb_coverage.sv(127) @ 715000: uvm_test_top.env.master_cov [ahb_coverage] Sampled [AHB_READ]: burst=AHB_BURST_INCR size=AHB_SIZE_8B beats=1 error=1
# UVM_INFO ../src/env/ahb_scoreboard.sv(104) @ 715000: uvm_test_top.env.scb [ahb_scoreboard] MATCH #6: [AHB_READ] HADDR=0x00009053 AHB_BURST_INCR 1 beats
# UVM_INFO ../src/mst_seq/ahb_error_seq.sv(134) @ 715000: uvm_test_top.env.master_agent.sqr@@mst_seq [ahb_error_seq] AHB_READ AHB_BURST_INCR @0x00009053: ERROR on beat 0 of 3, policy=  cancel, drove 1
# UVM_INFO ../src/mst/ahb_master_driver.sv(82) @ 715000: uvm_test_top.env.master_agent.drv [ahb_master_driver] Queueing [AHB_WRITE]: HADDR=0x000070d4, HBURST=AHB_BURST_INCR8, HSIZE=AHB_SIZE_32B, 8 beats
# UVM_INFO ../src/mst/ahb_master_driver.sv(124) @ 715000: uvm_test_top.env.master_agent.drv [ahb_master_driver] Driving [AHB_WRITE]: HADDR=0x000070d4, HBURST=AHB_BURST_INCR8, HSIZE=AHB_SIZE_32B, 8 beats               
# UVM_INFO ../src/slv_seq/ahb_slave_error_seq.sv(89) @ 735000: uvm_test_top.env.slave_agent.sqr@@slv_seq [ahb_slave_error_seq] Response 23: AHB_WRITE @0x000070d4 -> AHB_RESP_OKAY, 2 wait states           
# UVM_INFO ../src/mst/ahb_master_driver.sv(317) @ 765000: uvm_test_top.env.master_agent.drv [ahb_master_driver] Beat[0/8] addr=0x000070d4 trans=AHB_TRANS_NONSEQ resp=AHB_RESP_OKAY wdata=0xe0c8eced
# UVM_INFO ../src/slv/ahb_slave_driver.sv(184) @ 765000: uvm_test_top.env.slave_agent.drv [ahb_slave_driver] Beat AHB_WRITE addr=0x000070d4 resp=AHB_RESP_OKAY waits=2 wdata=0xe0c8eced
# UVM_INFO ../src/mst/ahb_master_monitor.sv(117) @ 765000: uvm_test_top.env.master_agent.mon [ahb_master_monitor] Beat[0] addr=0x000070d4 wdata=0xe0c8eced resp=AHB_RESP_OKAY
# UVM_INFO ../src/slv_seq/ahb_slave_error_seq.sv(89) @ 765000: uvm_test_top.env.slave_agent.sqr@@slv_seq [ahb_slave_error_seq] Response 24: AHB_WRITE @0x000070d8 -> AHB_RESP_OKAY, 2 wait states           
# UVM_INFO ../src/mst/ahb_master_driver.sv(317) @ 795000: uvm_test_top.env.master_agent.drv [ahb_master_driver] Beat[1/8] addr=0x000070d8 trans=AHB_TRANS_SEQ resp=AHB_RESP_OKAY wdata=0xe1d93591
# UVM_INFO ../src/slv/ahb_slave_driver.sv(184) @ 795000: uvm_test_top.env.slave_agent.drv [ahb_slave_driver] Beat AHB_WRITE addr=0x000070d8 resp=AHB_RESP_OKAY waits=2 wdata=0xe1d93591
# UVM_INFO ../src/mst/ahb_master_monitor.sv(117) @ 795000: uvm_test_top.env.master_agent.mon [ahb_master_monitor] Beat[1] addr=0x000070d8 wdata=0xe1d93591 resp=AHB_RESP_OKAY
# UVM_INFO ../src/slv_seq/ahb_slave_error_seq.sv(89) @ 795000: uvm_test_top.env.slave_agent.sqr@@slv_seq [ahb_slave_error_seq] Response 25: AHB_WRITE @0x000070dc -> AHB_RESP_OKAY, 2 wait states           
# UVM_INFO ../src/mst/ahb_master_driver.sv(317) @ 825000: uvm_test_top.env.master_agent.drv [ahb_master_driver] Beat[2/8] addr=0x000070dc trans=AHB_TRANS_SEQ resp=AHB_RESP_OKAY wdata=0x2260eb0a
# UVM_INFO ../src/slv/ahb_slave_driver.sv(184) @ 825000: uvm_test_top.env.slave_agent.drv [ahb_slave_driver] Beat AHB_WRITE addr=0x000070dc resp=AHB_RESP_OKAY waits=2 wdata=0x2260eb0a
# UVM_INFO ../src/mst/ahb_master_monitor.sv(117) @ 825000: uvm_test_top.env.master_agent.mon [ahb_master_monitor] Beat[2] addr=0x000070dc wdata=0x2260eb0a resp=AHB_RESP_OKAY
# UVM_INFO ../src/slv_seq/ahb_slave_error_seq.sv(89) @ 825000: uvm_test_top.env.slave_agent.sqr@@slv_seq [ahb_slave_error_seq] Response 26: AHB_WRITE @0x000070e0 -> AHB_RESP_OKAY, 1 wait states           
# UVM_INFO ../src/mst/ahb_master_driver.sv(317) @ 845000: uvm_test_top.env.master_agent.drv [ahb_master_driver] Beat[3/8] addr=0x000070e0 trans=AHB_TRANS_SEQ resp=AHB_RESP_OKAY wdata=0xba552b79
# UVM_INFO ../src/slv/ahb_slave_driver.sv(184) @ 845000: uvm_test_top.env.slave_agent.drv [ahb_slave_driver] Beat AHB_WRITE addr=0x000070e0 resp=AHB_RESP_OKAY waits=1 wdata=0xba552b79
# UVM_INFO ../src/mst/ahb_master_monitor.sv(117) @ 845000: uvm_test_top.env.master_agent.mon [ahb_master_monitor] Beat[3] addr=0x000070e0 wdata=0xba552b79 resp=AHB_RESP_OKAY
# UVM_INFO ../src/slv_seq/ahb_slave_error_seq.sv(89) @ 845000: uvm_test_top.env.slave_agent.sqr@@slv_seq [ahb_slave_error_seq] Response 27: AHB_WRITE @0x000070e4 -> AHB_RESP_OKAY, 2 wait states           
# UVM_INFO ../src/mst/ahb_master_driver.sv(317) @ 875000: uvm_test_top.env.master_agent.drv [ahb_master_driver] Beat[4/8] addr=0x000070e4 trans=AHB_TRANS_SEQ resp=AHB_RESP_OKAY wdata=0x2d6335c3
# UVM_INFO ../src/slv/ahb_slave_driver.sv(184) @ 875000: uvm_test_top.env.slave_agent.drv [ahb_slave_driver] Beat AHB_WRITE addr=0x000070e4 resp=AHB_RESP_OKAY waits=2 wdata=0x2d6335c3
# UVM_INFO ../src/mst/ahb_master_monitor.sv(117) @ 875000: uvm_test_top.env.master_agent.mon [ahb_master_monitor] Beat[4] addr=0x000070e4 wdata=0x2d6335c3 resp=AHB_RESP_OKAY
# UVM_INFO ../src/slv_seq/ahb_slave_error_seq.sv(89) @ 875000: uvm_test_top.env.slave_agent.sqr@@slv_seq [ahb_slave_error_seq] Response 28: AHB_WRITE @0x000070e8 -> AHB_RESP_ERROR, 2 wait states           
# UVM_INFO ../src/mst/ahb_master_driver.sv(317) @ 915000: uvm_test_top.env.master_agent.drv [ahb_master_driver] Beat[5/8] addr=0x000070e8 trans=AHB_TRANS_SEQ resp=AHB_RESP_ERROR wdata=0x82c91743
# UVM_INFO ../src/mst/ahb_master_driver.sv(334) @ 915000: uvm_test_top.env.master_agent.drv [ahb_master_driver] ERROR response on beat 5/8 - continuing burst (abort_on_error=0)
# UVM_INFO ../src/slv/ahb_slave_driver.sv(184) @ 915000: uvm_test_top.env.slave_agent.drv [ahb_slave_driver] Beat AHB_WRITE addr=0x000070e8 resp=AHB_RESP_ERROR waits=2 wdata=0x82c91743
# UVM_INFO ../src/mst/ahb_master_monitor.sv(117) @ 915000: uvm_test_top.env.master_agent.mon [ahb_master_monitor] Beat[5] addr=0x000070e8 wdata=0x82c91743 resp=AHB_RESP_ERROR
# UVM_INFO ../src/slv_seq/ahb_slave_error_seq.sv(89) @ 915000: uvm_test_top.env.slave_agent.sqr@@slv_seq [ahb_slave_error_seq] Response 29: AHB_WRITE @0x000070ec -> AHB_RESP_OKAY, 0 wait states           
# UVM_INFO ../src/mst/ahb_master_driver.sv(317) @ 925000: uvm_test_top.env.master_agent.drv [ahb_master_driver] Beat[6/8] addr=0x000070ec trans=AHB_TRANS_SEQ resp=AHB_RESP_OKAY wdata=0xab38396a
# UVM_INFO ../src/slv/ahb_slave_driver.sv(184) @ 925000: uvm_test_top.env.slave_agent.drv [ahb_slave_driver] Beat AHB_WRITE addr=0x000070ec resp=AHB_RESP_OKAY waits=0 wdata=0xab38396a
# UVM_INFO ../src/mst/ahb_master_monitor.sv(117) @ 925000: uvm_test_top.env.master_agent.mon [ahb_master_monitor] Beat[6] addr=0x000070ec wdata=0xab38396a resp=AHB_RESP_OKAY
# UVM_INFO ../src/slv_seq/ahb_slave_error_seq.sv(89) @ 925000: uvm_test_top.env.slave_agent.sqr@@slv_seq [ahb_slave_error_seq] Response 30: AHB_WRITE @0x000070f0 -> AHB_RESP_OKAY, 1 wait states           
# UVM_INFO ../src/mst/ahb_master_driver.sv(317) @ 945000: uvm_test_top.env.master_agent.drv [ahb_master_driver] Beat[7/8] addr=0x000070f0 trans=AHB_TRANS_SEQ resp=AHB_RESP_OKAY wdata=0x8f79120f
# UVM_INFO ../src/mst/ahb_master_driver.sv(362) @ 945000: uvm_test_top.env.master_agent.drv [ahb_master_driver] Transaction complete: AHB_WRITE 0x000070d4, 8 beats, burst=AHB_BURST_INCR8
# UVM_INFO ../src/slv/ahb_slave_driver.sv(184) @ 945000: uvm_test_top.env.slave_agent.drv [ahb_slave_driver] Beat AHB_WRITE addr=0x000070f0 resp=AHB_RESP_OKAY waits=1 wdata=0x8f79120f
# UVM_INFO ../src/mst/ahb_master_monitor.sv(117) @ 945000: uvm_test_top.env.master_agent.mon [ahb_master_monitor] Beat[7] addr=0x000070f0 wdata=0x8f79120f resp=AHB_RESP_OKAY
# UVM_INFO ../src/mst/ahb_master_monitor.sv(222) @ 945000: uvm_test_top.env.master_agent.mon [ahb_master_monitor] Observed [AHB_WRITE]: HADDR=0x000070d4, HBURST=AHB_BURST_INCR8, HSIZE=AHB_SIZE_32B, 8 beats
# UVM_INFO ../src/env/ahb_coverage.sv(127) @ 945000: uvm_test_top.env.master_cov [ahb_coverage] Sampled [AHB_WRITE]: burst=AHB_BURST_INCR8 size=AHB_SIZE_32B beats=8 error=1
# UVM_INFO ../src/slv/ahb_slave_monitor.sv(197) @ 945000: uvm_test_top.env.slave_agent.mon [ahb_slave_monitor] Observed [AHB_WRITE]: HADDR=0x000070d4, HBURST=AHB_BURST_INCR8, HSIZE=AHB_SIZE_32B, 8 beats
# UVM_INFO ../src/env/ahb_scoreboard.sv(104) @ 945000: uvm_test_top.env.scb [ahb_scoreboard] MATCH #7: [AHB_WRITE] HADDR=0x000070d4 AHB_BURST_INCR8 8 beats
# UVM_INFO ../src/env/ahb_coverage.sv(127) @ 945000: uvm_test_top.env.slave_cov [ahb_coverage] Sampled [AHB_WRITE]: burst=AHB_BURST_INCR8 size=AHB_SIZE_32B beats=8 error=1
# UVM_INFO ../src/mst_seq/ahb_error_seq.sv(134) @ 945000: uvm_test_top.env.master_agent.sqr@@mst_seq [ahb_error_seq] AHB_WRITE AHB_BURST_INCR8 @0x000070d4: ERROR on beat 5 of 8, policy=continue, drove 8
# UVM_INFO ../src/mst/ahb_master_driver.sv(82) @ 945000: uvm_test_top.env.master_agent.drv [ahb_master_driver] Queueing [AHB_READ]: HADDR=0x000080ff, HBURST=AHB_BURST_SINGLE, HSIZE=AHB_SIZE_8B, 1 beats
# UVM_INFO ../src/mst/ahb_master_driver.sv(124) @ 945000: uvm_test_top.env.master_agent.drv [ahb_master_driver] Driving [AHB_READ]: HADDR=0x000080ff, HBURST=AHB_BURST_SINGLE, HSIZE=AHB_SIZE_8B, 1 beats               
# UVM_INFO ../src/slv_seq/ahb_slave_error_seq.sv(89) @ 965000: uvm_test_top.env.slave_agent.sqr@@slv_seq [ahb_slave_error_seq] Response 31: AHB_READ @0x000080ff -> AHB_RESP_ERROR, 0 wait states           
# UVM_INFO ../src/mst/ahb_master_driver.sv(317) @ 985000: uvm_test_top.env.master_agent.drv [ahb_master_driver] Beat[0/1] addr=0x000080ff trans=AHB_TRANS_NONSEQ resp=AHB_RESP_ERROR rdata=0x24a8635b
# UVM_INFO ../src/mst/ahb_master_driver.sv(334) @ 985000: uvm_test_top.env.master_agent.drv [ahb_master_driver] ERROR response on beat 0/1 - continuing burst (abort_on_error=0)
# UVM_INFO ../src/mst/ahb_master_driver.sv(362) @ 985000: uvm_test_top.env.master_agent.drv [ahb_master_driver] Transaction complete: AHB_READ 0x000080ff, 1 beats, burst=AHB_BURST_SINGLE
# UVM_INFO ../src/slv/ahb_slave_driver.sv(184) @ 985000: uvm_test_top.env.slave_agent.drv [ahb_slave_driver] Beat AHB_READ addr=0x000080ff resp=AHB_RESP_ERROR waits=0 rdata=0x6f2587b3
# UVM_INFO ../src/mst/ahb_master_monitor.sv(117) @ 985000: uvm_test_top.env.master_agent.mon [ahb_master_monitor] Beat[0] addr=0x000080ff rdata=0x24a8635b resp=AHB_RESP_ERROR
# UVM_INFO ../src/mst/ahb_master_monitor.sv(222) @ 985000: uvm_test_top.env.master_agent.mon [ahb_master_monitor] Observed [AHB_READ]: HADDR=0x000080ff, HBURST=AHB_BURST_SINGLE, HSIZE=AHB_SIZE_8B, 1 beats
# UVM_INFO ../src/env/ahb_coverage.sv(127) @ 985000: uvm_test_top.env.master_cov [ahb_coverage] Sampled [AHB_READ]: burst=AHB_BURST_SINGLE size=AHB_SIZE_8B beats=1 error=1
# UVM_INFO ../src/slv/ahb_slave_monitor.sv(197) @ 985000: uvm_test_top.env.slave_agent.mon [ahb_slave_monitor] Observed [AHB_READ]: HADDR=0x000080ff, HBURST=AHB_BURST_SINGLE, HSIZE=AHB_SIZE_8B, 1 beats
# UVM_INFO ../src/env/ahb_scoreboard.sv(104) @ 985000: uvm_test_top.env.scb [ahb_scoreboard] MATCH #8: [AHB_READ] HADDR=0x000080ff AHB_BURST_SINGLE 1 beats
# UVM_INFO ../src/env/ahb_coverage.sv(127) @ 985000: uvm_test_top.env.slave_cov [ahb_coverage] Sampled [AHB_READ]: burst=AHB_BURST_SINGLE size=AHB_SIZE_8B beats=1 error=1
# UVM_INFO ../src/mst_seq/ahb_error_seq.sv(134) @ 985000: uvm_test_top.env.master_agent.sqr@@mst_seq [ahb_error_seq] AHB_READ AHB_BURST_SINGLE @0x000080ff: ERROR on beat 0 of 1, policy=continue, drove 1
# UVM_INFO ../src/mst/ahb_master_driver.sv(82) @ 985000: uvm_test_top.env.master_agent.drv [ahb_master_driver] Queueing [AHB_WRITE]: HADDR=0x000090a6, HBURST=AHB_BURST_SINGLE, HSIZE=AHB_SIZE_16B, 1 beats
# UVM_INFO ../src/mst/ahb_master_driver.sv(124) @ 985000: uvm_test_top.env.master_agent.drv [ahb_master_driver] Driving [AHB_WRITE]: HADDR=0x000090a6, HBURST=AHB_BURST_SINGLE, HSIZE=AHB_SIZE_16B, 1 beats               
# UVM_INFO ../src/slv_seq/ahb_slave_error_seq.sv(89) @ 1005000: uvm_test_top.env.slave_agent.sqr@@slv_seq [ahb_slave_error_seq] Response 32: AHB_WRITE @0x000090a6 -> AHB_RESP_ERROR, 0 wait states (unmapped)
# UVM_INFO ../src/mst/ahb_master_driver.sv(317) @ 1025000: uvm_test_top.env.master_agent.drv [ahb_master_driver] Beat[0/1] addr=0x000090a6 trans=AHB_TRANS_NONSEQ resp=AHB_RESP_ERROR wdata=0x8f778f60
# UVM_INFO ../src/mst/ahb_master_driver.sv(327) @ 1025000: uvm_test_top.env.master_agent.drv [ahb_master_driver] ERROR response on beat 0/1                             
# UVM_INFO ../src/mst/ahb_master_driver.sv(362) @ 1025000: uvm_test_top.env.master_agent.drv [ahb_master_driver] Transaction complete: AHB_WRITE 0x000090a6, 1 beats, burst=AHB_BURST_SINGLE
# UVM_INFO ../src/slv/ahb_slave_driver.sv(184) @ 1025000: uvm_test_top.env.slave_agent.drv [ahb_slave_driver] Beat AHB_WRITE addr=0x000090a6 resp=AHB_RESP_ERROR waits=0 wdata=0x8f778f60
# UVM_INFO ../src/mst/ahb_master_monitor.sv(117) @ 1025000: uvm_test_top.env.master_agent.mon [ahb_master_monitor] Beat[0] addr=0x000090a6 wdata=0x8f778f60 resp=AHB_RESP_ERROR
# UVM_INFO ../src/mst/ahb_master_monitor.sv(222) @ 1025000: uvm_test_top.env.master_agent.mon [ahb_master_monitor] Observed [AHB_WRITE]: HADDR=0x000090a6, HBURST=AHB_BURST_SINGLE, HSIZE=AHB_SIZE_16B, 1 beats
# UVM_INFO ../src/env/ahb_coverage.sv(127) @ 1025000: uvm_test_top.env.master_cov [ahb_coverage] Sampled [AHB_WRITE]: burst=AHB_BURST_SINGLE size=AHB_SIZE_16B beats=1 error=1
# UVM_INFO ../src/slv/ahb_slave_monitor.sv(197) @ 1025000: uvm_test_top.env.slave_agent.mon [ahb_slave_monitor] Observed [AHB_WRITE]: HADDR=0x000090a6, HBURST=AHB_BURST_SINGLE, HSIZE=AHB_SIZE_16B, 1 beats
# UVM_INFO ../src/env/ahb_scoreboard.sv(104) @ 1025000: uvm_test_top.env.scb [ahb_scoreboard] MATCH #9: [AHB_WRITE] HADDR=0x000090a6 AHB_BURST_SINGLE 1 beats
# UVM_INFO ../src/env/ahb_coverage.sv(127) @ 1025000: uvm_test_top.env.slave_cov [ahb_coverage] Sampled [AHB_WRITE]: burst=AHB_BURST_SINGLE size=AHB_SIZE_16B beats=1 error=1
# UVM_INFO ../src/mst_seq/ahb_error_seq.sv(134) @ 1025000: uvm_test_top.env.master_agent.sqr@@mst_seq [ahb_error_seq] AHB_WRITE AHB_BURST_SINGLE @0x000090a6: ERROR on beat 0 of 1, policy=  cancel, drove 1
# UVM_INFO ../src/mst/ahb_master_driver.sv(82) @ 1025000: uvm_test_top.env.master_agent.drv [ahb_master_driver] Queueing [AHB_READ]: HADDR=0x00008125, HBURST=AHB_BURST_SINGLE, HSIZE=AHB_SIZE_8B, 1 beats
# UVM_INFO ../src/mst/ahb_master_driver.sv(124) @ 1025000: uvm_test_top.env.master_agent.drv [ahb_master_driver] Driving [AHB_READ]: HADDR=0x00008125, HBURST=AHB_BURST_SINGLE, HSIZE=AHB_SIZE_8B, 1 beats               
# UVM_INFO ../src/slv_seq/ahb_slave_error_seq.sv(89) @ 1045000: uvm_test_top.env.slave_agent.sqr@@slv_seq [ahb_slave_error_seq] Response 33: AHB_READ @0x00008125 -> AHB_RESP_OKAY, 2 wait states           
# UVM_INFO ../src/mst/ahb_master_driver.sv(317) @ 1075000: uvm_test_top.env.master_agent.drv [ahb_master_driver] Beat[0/1] addr=0x00008125 trans=AHB_TRANS_NONSEQ resp=AHB_RESP_OKAY rdata=0x868956fe
# UVM_INFO ../src/mst/ahb_master_driver.sv(362) @ 1075000: uvm_test_top.env.master_agent.drv [ahb_master_driver] Transaction complete: AHB_READ 0x00008125, 1 beats, burst=AHB_BURST_SINGLE
# UVM_INFO ../src/slv/ahb_slave_driver.sv(184) @ 1075000: uvm_test_top.env.slave_agent.drv [ahb_slave_driver] Beat AHB_READ addr=0x00008125 resp=AHB_RESP_OKAY waits=2 rdata=0x868956fe
# UVM_INFO ../src/slv/ahb_slave_monitor.sv(197) @ 1075000: uvm_test_top.env.slave_agent.mon [ahb_slave_monitor] Observed [AHB_READ]: HADDR=0x00008125, HBURST=AHB_BURST_SINGLE, HSIZE=AHB_SIZE_8B, 1 beats
# UVM_INFO ../src/env/ahb_coverage.sv(127) @ 1075000: uvm_test_top.env.slave_cov [ahb_coverage] Sampled [AHB_READ]: burst=AHB_BURST_SINGLE size=AHB_SIZE_8B beats=1 error=0
# UVM_INFO ../src/mst/ahb_master_monitor.sv(117) @ 1075000: uvm_test_top.env.master_agent.mon [ahb_master_monitor] Beat[0] addr=0x00008125 rdata=0x868956fe resp=AHB_RESP_OKAY
# UVM_INFO ../src/mst/ahb_master_monitor.sv(222) @ 1075000: uvm_test_top.env.master_agent.mon [ahb_master_monitor] Observed [AHB_READ]: HADDR=0x00008125, HBURST=AHB_BURST_SINGLE, HSIZE=AHB_SIZE_8B, 1 beats
# UVM_INFO ../src/env/ahb_coverage.sv(127) @ 1075000: uvm_test_top.env.master_cov [ahb_coverage] Sampled [AHB_READ]: burst=AHB_BURST_SINGLE size=AHB_SIZE_8B beats=1 error=0
# UVM_INFO ../src/env/ahb_scoreboard.sv(104) @ 1075000: uvm_test_top.env.scb [ahb_scoreboard] MATCH #10: [AHB_READ] HADDR=0x00008125 AHB_BURST_SINGLE 1 beats
# UVM_INFO ../src/mst/ahb_master_driver.sv(82) @ 1075000: uvm_test_top.env.master_agent.drv [ahb_master_driver] Queueing [AHB_WRITE]: HADDR=0x00007146, HBURST=AHB_BURST_SINGLE, HSIZE=AHB_SIZE_8B, 1 beats
# UVM_INFO ../src/mst/ahb_master_driver.sv(124) @ 1075000: uvm_test_top.env.master_agent.drv [ahb_master_driver] Driving [AHB_WRITE]: HADDR=0x00007146, HBURST=AHB_BURST_SINGLE, HSIZE=AHB_SIZE_8B, 1 beats               
# UVM_INFO ../src/slv_seq/ahb_slave_error_seq.sv(89) @ 1095000: uvm_test_top.env.slave_agent.sqr@@slv_seq [ahb_slave_error_seq] Response 34: AHB_WRITE @0x00007146 -> AHB_RESP_OKAY, 1 wait states           
# UVM_INFO ../src/mst/ahb_master_driver.sv(317) @ 1115000: uvm_test_top.env.master_agent.drv [ahb_master_driver] Beat[0/1] addr=0x00007146 trans=AHB_TRANS_NONSEQ resp=AHB_RESP_OKAY wdata=0x72f6c628
# UVM_INFO ../src/mst/ahb_master_driver.sv(362) @ 1115000: uvm_test_top.env.master_agent.drv [ahb_master_driver] Transaction complete: AHB_WRITE 0x00007146, 1 beats, burst=AHB_BURST_SINGLE
# UVM_INFO ../src/slv/ahb_slave_driver.sv(184) @ 1115000: uvm_test_top.env.slave_agent.drv [ahb_slave_driver] Beat AHB_WRITE addr=0x00007146 resp=AHB_RESP_OKAY waits=1 wdata=0x72f6c628
# UVM_INFO ../src/slv/ahb_slave_monitor.sv(197) @ 1115000: uvm_test_top.env.slave_agent.mon [ahb_slave_monitor] Observed [AHB_WRITE]: HADDR=0x00007146, HBURST=AHB_BURST_SINGLE, HSIZE=AHB_SIZE_8B, 1 beats
# UVM_INFO ../src/env/ahb_coverage.sv(127) @ 1115000: uvm_test_top.env.slave_cov [ahb_coverage] Sampled [AHB_WRITE]: burst=AHB_BURST_SINGLE size=AHB_SIZE_8B beats=1 error=0
# UVM_INFO ../src/mst/ahb_master_monitor.sv(117) @ 1115000: uvm_test_top.env.master_agent.mon [ahb_master_monitor] Beat[0] addr=0x00007146 wdata=0x72f6c628 resp=AHB_RESP_OKAY
# UVM_INFO ../src/mst/ahb_master_monitor.sv(222) @ 1115000: uvm_test_top.env.master_agent.mon [ahb_master_monitor] Observed [AHB_WRITE]: HADDR=0x00007146, HBURST=AHB_BURST_SINGLE, HSIZE=AHB_SIZE_8B, 1 beats
# UVM_INFO ../src/env/ahb_coverage.sv(127) @ 1115000: uvm_test_top.env.master_cov [ahb_coverage] Sampled [AHB_WRITE]: burst=AHB_BURST_SINGLE size=AHB_SIZE_8B beats=1 error=0
# UVM_INFO ../src/env/ahb_scoreboard.sv(104) @ 1115000: uvm_test_top.env.scb [ahb_scoreboard] MATCH #11: [AHB_WRITE] HADDR=0x00007146 AHB_BURST_SINGLE 1 beats
# UVM_INFO ../src/mst/ahb_master_driver.sv(82) @ 1115000: uvm_test_top.env.master_agent.drv [ahb_master_driver] Queueing [AHB_READ]: HADDR=0x000090d4, HBURST=AHB_BURST_WRAP16, HSIZE=AHB_SIZE_16B, 16 beats
# UVM_INFO ../src/mst/ahb_master_driver.sv(124) @ 1115000: uvm_test_top.env.master_agent.drv [ahb_master_driver] Driving [AHB_READ]: HADDR=0x000090d4, HBURST=AHB_BURST_WRAP16, HSIZE=AHB_SIZE_16B, 16 beats               
# UVM_INFO ../src/slv_seq/ahb_slave_error_seq.sv(89) @ 1135000: uvm_test_top.env.slave_agent.sqr@@slv_seq [ahb_slave_error_seq] Response 35: AHB_READ @0x000090d4 -> AHB_RESP_ERROR, 0 wait states (unmapped)
# UVM_INFO ../src/mst/ahb_master_driver.sv(317) @ 1155000: uvm_test_top.env.master_agent.drv [ahb_master_driver] Beat[0/16] addr=0x000090d4 trans=AHB_TRANS_NONSEQ resp=AHB_RESP_ERROR rdata=0x868956fe
# UVM_INFO ../src/mst/ahb_master_driver.sv(334) @ 1155000: uvm_test_top.env.master_agent.drv [ahb_master_driver] ERROR response on beat 0/16 - continuing burst (abort_on_error=0)
# UVM_INFO ../src/slv/ahb_slave_driver.sv(184) @ 1155000: uvm_test_top.env.slave_agent.drv [ahb_slave_driver] Beat AHB_READ addr=0x000090d4 resp=AHB_RESP_ERROR waits=0 rdata=0x6411b611
# UVM_INFO ../src/mst/ahb_master_monitor.sv(117) @ 1155000: uvm_test_top.env.master_agent.mon [ahb_master_monitor] Beat[0] addr=0x000090d4 rdata=0x868956fe resp=AHB_RESP_ERROR
# UVM_INFO ../src/slv_seq/ahb_slave_error_seq.sv(89) @ 1155000: uvm_test_top.env.slave_agent.sqr@@slv_seq [ahb_slave_error_seq] Response 36: AHB_READ @0x000090d6 -> AHB_RESP_ERROR, 0 wait states (unmapped)
# UVM_INFO ../src/mst/ahb_master_driver.sv(317) @ 1175000: uvm_test_top.env.master_agent.drv [ahb_master_driver] Beat[1/16] addr=0x000090d6 trans=AHB_TRANS_SEQ resp=AHB_RESP_ERROR rdata=0x868956fe
# UVM_INFO ../src/mst/ahb_master_driver.sv(334) @ 1175000: uvm_test_top.env.master_agent.drv [ahb_master_driver] ERROR response on beat 1/16 - continuing burst (abort_on_error=0)
# UVM_INFO ../src/slv/ahb_slave_driver.sv(184) @ 1175000: uvm_test_top.env.slave_agent.drv [ahb_slave_driver] Beat AHB_READ addr=0x000090d6 resp=AHB_RESP_ERROR waits=0 rdata=0x00eb949a
# UVM_INFO ../src/mst/ahb_master_monitor.sv(117) @ 1175000: uvm_test_top.env.master_agent.mon [ahb_master_monitor] Beat[1] addr=0x000090d6 rdata=0x868956fe resp=AHB_RESP_ERROR
# UVM_INFO ../src/slv_seq/ahb_slave_error_seq.sv(89) @ 1175000: uvm_test_top.env.slave_agent.sqr@@slv_seq [ahb_slave_error_seq] Response 37: AHB_READ @0x000090d8 -> AHB_RESP_ERROR, 2 wait states (unmapped)
# UVM_INFO ../src/mst/ahb_master_driver.sv(317) @ 1215000: uvm_test_top.env.master_agent.drv [ahb_master_driver] Beat[2/16] addr=0x000090d8 trans=AHB_TRANS_SEQ resp=AHB_RESP_ERROR rdata=0x868956fe
# UVM_INFO ../src/mst/ahb_master_driver.sv(334) @ 1215000: uvm_test_top.env.master_agent.drv [ahb_master_driver] ERROR response on beat 2/16 - continuing burst (abort_on_error=0)
# UVM_INFO ../src/slv/ahb_slave_driver.sv(184) @ 1215000: uvm_test_top.env.slave_agent.drv [ahb_slave_driver] Beat AHB_READ addr=0x000090d8 resp=AHB_RESP_ERROR waits=2 rdata=0xe23a9960
# UVM_INFO ../src/mst/ahb_master_monitor.sv(117) @ 1215000: uvm_test_top.env.master_agent.mon [ahb_master_monitor] Beat[2] addr=0x000090d8 rdata=0x868956fe resp=AHB_RESP_ERROR
# UVM_INFO ../src/slv_seq/ahb_slave_error_seq.sv(89) @ 1215000: uvm_test_top.env.slave_agent.sqr@@slv_seq [ahb_slave_error_seq] Response 38: AHB_READ @0x000090da -> AHB_RESP_ERROR, 0 wait states (unmapped)
# UVM_INFO ../src/mst/ahb_master_driver.sv(317) @ 1235000: uvm_test_top.env.master_agent.drv [ahb_master_driver] Beat[3/16] addr=0x000090da trans=AHB_TRANS_SEQ resp=AHB_RESP_ERROR rdata=0x868956fe
# UVM_INFO ../src/mst/ahb_master_driver.sv(334) @ 1235000: uvm_test_top.env.master_agent.drv [ahb_master_driver] ERROR response on beat 3/16 - continuing burst (abort_on_error=0)
# UVM_INFO ../src/slv/ahb_slave_driver.sv(184) @ 1235000: uvm_test_top.env.slave_agent.drv [ahb_slave_driver] Beat AHB_READ addr=0x000090da resp=AHB_RESP_ERROR waits=0 rdata=0x498fdb77
# UVM_INFO ../src/mst/ahb_master_monitor.sv(117) @ 1235000: uvm_test_top.env.master_agent.mon [ahb_master_monitor] Beat[3] addr=0x000090da rdata=0x868956fe resp=AHB_RESP_ERROR
# UVM_INFO ../src/slv_seq/ahb_slave_error_seq.sv(89) @ 1235000: uvm_test_top.env.slave_agent.sqr@@slv_seq [ahb_slave_error_seq] Response 39: AHB_READ @0x000090dc -> AHB_RESP_ERROR, 2 wait states (unmapped)
# UVM_INFO ../src/mst/ahb_master_driver.sv(317) @ 1275000: uvm_test_top.env.master_agent.drv [ahb_master_driver] Beat[4/16] addr=0x000090dc trans=AHB_TRANS_SEQ resp=AHB_RESP_ERROR rdata=0x868956fe
# UVM_INFO ../src/mst/ahb_master_driver.sv(334) @ 1275000: uvm_test_top.env.master_agent.drv [ahb_master_driver] ERROR response on beat 4/16 - continuing burst (abort_on_error=0)
# UVM_INFO ../src/slv/ahb_slave_driver.sv(184) @ 1275000: uvm_test_top.env.slave_agent.drv [ahb_slave_driver] Beat AHB_READ addr=0x000090dc resp=AHB_RESP_ERROR waits=2 rdata=0x6124f77c
# UVM_INFO ../src/mst/ahb_master_monitor.sv(117) @ 1275000: uvm_test_top.env.master_agent.mon [ahb_master_monitor] Beat[4] addr=0x000090dc rdata=0x868956fe resp=AHB_RESP_ERROR
# UVM_INFO ../src/slv_seq/ahb_slave_error_seq.sv(89) @ 1275000: uvm_test_top.env.slave_agent.sqr@@slv_seq [ahb_slave_error_seq] Response 40: AHB_READ @0x000090de -> AHB_RESP_ERROR, 1 wait states (unmapped)
# UVM_INFO ../src/mst/ahb_master_driver.sv(317) @ 1305000: uvm_test_top.env.master_agent.drv [ahb_master_driver] Beat[5/16] addr=0x000090de trans=AHB_TRANS_SEQ resp=AHB_RESP_ERROR rdata=0x868956fe
# UVM_INFO ../src/mst/ahb_master_driver.sv(334) @ 1305000: uvm_test_top.env.master_agent.drv [ahb_master_driver] ERROR response on beat 5/16 - continuing burst (abort_on_error=0)
# UVM_INFO ../src/slv/ahb_slave_driver.sv(184) @ 1305000: uvm_test_top.env.slave_agent.drv [ahb_slave_driver] Beat AHB_READ addr=0x000090de resp=AHB_RESP_ERROR waits=1 rdata=0x222eaf11
# UVM_INFO ../src/mst/ahb_master_monitor.sv(117) @ 1305000: uvm_test_top.env.master_agent.mon [ahb_master_monitor] Beat[5] addr=0x000090de rdata=0x868956fe resp=AHB_RESP_ERROR
# UVM_INFO ../src/slv_seq/ahb_slave_error_seq.sv(89) @ 1305000: uvm_test_top.env.slave_agent.sqr@@slv_seq [ahb_slave_error_seq] Response 41: AHB_READ @0x000090c0 -> AHB_RESP_ERROR, 1 wait states (unmapped)
# UVM_INFO ../src/mst/ahb_master_driver.sv(317) @ 1335000: uvm_test_top.env.master_agent.drv [ahb_master_driver] Beat[6/16] addr=0x000090c0 trans=AHB_TRANS_SEQ resp=AHB_RESP_ERROR rdata=0x868956fe
# UVM_INFO ../src/mst/ahb_master_driver.sv(334) @ 1335000: uvm_test_top.env.master_agent.drv [ahb_master_driver] ERROR response on beat 6/16 - continuing burst (abort_on_error=0)
# UVM_INFO ../src/slv/ahb_slave_driver.sv(184) @ 1335000: uvm_test_top.env.slave_agent.drv [ahb_slave_driver] Beat AHB_READ addr=0x000090c0 resp=AHB_RESP_ERROR waits=1 rdata=0xc4f54d0c
# UVM_INFO ../src/mst/ahb_master_monitor.sv(117) @ 1335000: uvm_test_top.env.master_agent.mon [ahb_master_monitor] Beat[6] addr=0x000090c0 rdata=0x868956fe resp=AHB_RESP_ERROR
# UVM_INFO ../src/slv_seq/ahb_slave_error_seq.sv(89) @ 1335000: uvm_test_top.env.slave_agent.sqr@@slv_seq [ahb_slave_error_seq] Response 42: AHB_READ @0x000090c2 -> AHB_RESP_ERROR, 0 wait states (unmapped)
# UVM_INFO ../src/mst/ahb_master_driver.sv(317) @ 1355000: uvm_test_top.env.master_agent.drv [ahb_master_driver] Beat[7/16] addr=0x000090c2 trans=AHB_TRANS_SEQ resp=AHB_RESP_ERROR rdata=0x868956fe
# UVM_INFO ../src/mst/ahb_master_driver.sv(334) @ 1355000: uvm_test_top.env.master_agent.drv [ahb_master_driver] ERROR response on beat 7/16 - continuing burst (abort_on_error=0)
# UVM_INFO ../src/slv/ahb_slave_driver.sv(184) @ 1355000: uvm_test_top.env.slave_agent.drv [ahb_slave_driver] Beat AHB_READ addr=0x000090c2 resp=AHB_RESP_ERROR waits=0 rdata=0xfb6923a1
# UVM_INFO ../src/mst/ahb_master_monitor.sv(117) @ 1355000: uvm_test_top.env.master_agent.mon [ahb_master_monitor] Beat[7] addr=0x000090c2 rdata=0x868956fe resp=AHB_RESP_ERROR
# UVM_INFO ../src/slv_seq/ahb_slave_error_seq.sv(89) @ 1355000: uvm_test_top.env.slave_agent.sqr@@slv_seq [ahb_slave_error_seq] Response 43: AHB_READ @0x000090c4 -> AHB_RESP_ERROR, 1 wait states (unmapped)
# UVM_INFO ../src/mst/ahb_master_driver.sv(317) @ 1385000: uvm_test_top.env.master_agent.drv [ahb_master_driver] Beat[8/16] addr=0x000090c4 trans=AHB_TRANS_SEQ resp=AHB_RESP_ERROR rdata=0x868956fe
# UVM_INFO ../src/mst/ahb_master_driver.sv(334) @ 1385000: uvm_test_top.env.master_agent.drv [ahb_master_driver] ERROR response on beat 8/16 - continuing burst (abort_on_error=0)
# UVM_INFO ../src/slv/ahb_slave_driver.sv(184) @ 1385000: uvm_test_top.env.slave_agent.drv [ahb_slave_driver] Beat AHB_READ addr=0x000090c4 resp=AHB_RESP_ERROR waits=1 rdata=0x90e8f81f
# UVM_INFO ../src/mst/ahb_master_monitor.sv(117) @ 1385000: uvm_test_top.env.master_agent.mon [ahb_master_monitor] Beat[8] addr=0x000090c4 rdata=0x868956fe resp=AHB_RESP_ERROR
# UVM_INFO ../src/slv_seq/ahb_slave_error_seq.sv(89) @ 1385000: uvm_test_top.env.slave_agent.sqr@@slv_seq [ahb_slave_error_seq] Response 44: AHB_READ @0x000090c6 -> AHB_RESP_ERROR, 2 wait states (unmapped)
# UVM_INFO ../src/mst/ahb_master_driver.sv(317) @ 1425000: uvm_test_top.env.master_agent.drv [ahb_master_driver] Beat[9/16] addr=0x000090c6 trans=AHB_TRANS_SEQ resp=AHB_RESP_ERROR rdata=0x868956fe
# UVM_INFO ../src/mst/ahb_master_driver.sv(334) @ 1425000: uvm_test_top.env.master_agent.drv [ahb_master_driver] ERROR response on beat 9/16 - continuing burst (abort_on_error=0)
# UVM_INFO ../src/slv/ahb_slave_driver.sv(184) @ 1425000: uvm_test_top.env.slave_agent.drv [ahb_slave_driver] Beat AHB_READ addr=0x000090c6 resp=AHB_RESP_ERROR waits=2 rdata=0x188ea440
# UVM_INFO ../src/mst/ahb_master_monitor.sv(117) @ 1425000: uvm_test_top.env.master_agent.mon [ahb_master_monitor] Beat[9] addr=0x000090c6 rdata=0x868956fe resp=AHB_RESP_ERROR
# UVM_INFO ../src/slv_seq/ahb_slave_error_seq.sv(89) @ 1425000: uvm_test_top.env.slave_agent.sqr@@slv_seq [ahb_slave_error_seq] Response 45: AHB_READ @0x000090c8 -> AHB_RESP_ERROR, 0 wait states (unmapped)
# UVM_INFO ../src/mst/ahb_master_driver.sv(317) @ 1445000: uvm_test_top.env.master_agent.drv [ahb_master_driver] Beat[10/16] addr=0x000090c8 trans=AHB_TRANS_SEQ resp=AHB_RESP_ERROR rdata=0x868956fe
# UVM_INFO ../src/mst/ahb_master_driver.sv(334) @ 1445000: uvm_test_top.env.master_agent.drv [ahb_master_driver] ERROR response on beat 10/16 - continuing burst (abort_on_error=0)
# UVM_INFO ../src/slv/ahb_slave_driver.sv(184) @ 1445000: uvm_test_top.env.slave_agent.drv [ahb_slave_driver] Beat AHB_READ addr=0x000090c8 resp=AHB_RESP_ERROR waits=0 rdata=0x3d6b3743
# UVM_INFO ../src/mst/ahb_master_monitor.sv(117) @ 1445000: uvm_test_top.env.master_agent.mon [ahb_master_monitor] Beat[10] addr=0x000090c8 rdata=0x868956fe resp=AHB_RESP_ERROR
# UVM_INFO ../src/slv_seq/ahb_slave_error_seq.sv(89) @ 1445000: uvm_test_top.env.slave_agent.sqr@@slv_seq [ahb_slave_error_seq] Response 46: AHB_READ @0x000090ca -> AHB_RESP_ERROR, 0 wait states (unmapped)
# UVM_INFO ../src/mst/ahb_master_driver.sv(317) @ 1465000: uvm_test_top.env.master_agent.drv [ahb_master_driver] Beat[11/16] addr=0x000090ca trans=AHB_TRANS_SEQ resp=AHB_RESP_ERROR rdata=0x868956fe
# UVM_INFO ../src/mst/ahb_master_driver.sv(334) @ 1465000: uvm_test_top.env.master_agent.drv [ahb_master_driver] ERROR response on beat 11/16 - continuing burst (abort_on_error=0)
# UVM_INFO ../src/slv/ahb_slave_driver.sv(184) @ 1465000: uvm_test_top.env.slave_agent.drv [ahb_slave_driver] Beat AHB_READ addr=0x000090ca resp=AHB_RESP_ERROR waits=0 rdata=0xe357e15d
# UVM_INFO ../src/mst/ahb_master_monitor.sv(117) @ 1465000: uvm_test_top.env.master_agent.mon [ahb_master_monitor] Beat[11] addr=0x000090ca rdata=0x868956fe resp=AHB_RESP_ERROR
# UVM_INFO ../src/slv_seq/ahb_slave_error_seq.sv(89) @ 1465000: uvm_test_top.env.slave_agent.sqr@@slv_seq [ahb_slave_error_seq] Response 47: AHB_READ @0x000090cc -> AHB_RESP_ERROR, 1 wait states (unmapped)
# UVM_INFO ../src/mst/ahb_master_driver.sv(317) @ 1495000: uvm_test_top.env.master_agent.drv [ahb_master_driver] Beat[12/16] addr=0x000090cc trans=AHB_TRANS_SEQ resp=AHB_RESP_ERROR rdata=0x868956fe
# UVM_INFO ../src/mst/ahb_master_driver.sv(334) @ 1495000: uvm_test_top.env.master_agent.drv [ahb_master_driver] ERROR response on beat 12/16 - continuing burst (abort_on_error=0)
# UVM_INFO ../src/slv/ahb_slave_driver.sv(184) @ 1495000: uvm_test_top.env.slave_agent.drv [ahb_slave_driver] Beat AHB_READ addr=0x000090cc resp=AHB_RESP_ERROR waits=1 rdata=0xa1dd13ed
# UVM_INFO ../src/mst/ahb_master_monitor.sv(117) @ 1495000: uvm_test_top.env.master_agent.mon [ahb_master_monitor] Beat[12] addr=0x000090cc rdata=0x868956fe resp=AHB_RESP_ERROR
# UVM_INFO ../src/slv_seq/ahb_slave_error_seq.sv(89) @ 1495000: uvm_test_top.env.slave_agent.sqr@@slv_seq [ahb_slave_error_seq] Response 48: AHB_READ @0x000090ce -> AHB_RESP_ERROR, 1 wait states (unmapped)
# UVM_INFO ../src/mst/ahb_master_driver.sv(317) @ 1525000: uvm_test_top.env.master_agent.drv [ahb_master_driver] Beat[13/16] addr=0x000090ce trans=AHB_TRANS_SEQ resp=AHB_RESP_ERROR rdata=0x868956fe
# UVM_INFO ../src/mst/ahb_master_driver.sv(334) @ 1525000: uvm_test_top.env.master_agent.drv [ahb_master_driver] ERROR response on beat 13/16 - continuing burst (abort_on_error=0)
# UVM_INFO ../src/slv/ahb_slave_driver.sv(184) @ 1525000: uvm_test_top.env.slave_agent.drv [ahb_slave_driver] Beat AHB_READ addr=0x000090ce resp=AHB_RESP_ERROR waits=1 rdata=0x9501dc8d
# UVM_INFO ../src/mst/ahb_master_monitor.sv(117) @ 1525000: uvm_test_top.env.master_agent.mon [ahb_master_monitor] Beat[13] addr=0x000090ce rdata=0x868956fe resp=AHB_RESP_ERROR
# UVM_INFO ../src/slv_seq/ahb_slave_error_seq.sv(89) @ 1525000: uvm_test_top.env.slave_agent.sqr@@slv_seq [ahb_slave_error_seq] Response 49: AHB_READ @0x000090d0 -> AHB_RESP_ERROR, 1 wait states (unmapped)
# UVM_INFO ../src/mst/ahb_master_driver.sv(317) @ 1555000: uvm_test_top.env.master_agent.drv [ahb_master_driver] Beat[14/16] addr=0x000090d0 trans=AHB_TRANS_SEQ resp=AHB_RESP_ERROR rdata=0x868956fe
# UVM_INFO ../src/mst/ahb_master_driver.sv(334) @ 1555000: uvm_test_top.env.master_agent.drv [ahb_master_driver] ERROR response on beat 14/16 - continuing burst (abort_on_error=0)
# UVM_INFO ../src/slv/ahb_slave_driver.sv(184) @ 1555000: uvm_test_top.env.slave_agent.drv [ahb_slave_driver] Beat AHB_READ addr=0x000090d0 resp=AHB_RESP_ERROR waits=1 rdata=0xa2fe7e75
# UVM_INFO ../src/mst/ahb_master_monitor.sv(117) @ 1555000: uvm_test_top.env.master_agent.mon [ahb_master_monitor] Beat[14] addr=0x000090d0 rdata=0x868956fe resp=AHB_RESP_ERROR
# UVM_INFO ../src/slv_seq/ahb_slave_error_seq.sv(89) @ 1555000: uvm_test_top.env.slave_agent.sqr@@slv_seq [ahb_slave_error_seq] Response 50: AHB_READ @0x000090d2 -> AHB_RESP_ERROR, 2 wait states (unmapped)
# UVM_INFO ../src/mst/ahb_master_driver.sv(317) @ 1595000: uvm_test_top.env.master_agent.drv [ahb_master_driver] Beat[15/16] addr=0x000090d2 trans=AHB_TRANS_SEQ resp=AHB_RESP_ERROR rdata=0x868956fe
# UVM_INFO ../src/mst/ahb_master_driver.sv(334) @ 1595000: uvm_test_top.env.master_agent.drv [ahb_master_driver] ERROR response on beat 15/16 - continuing burst (abort_on_error=0)
# UVM_INFO ../src/mst/ahb_master_driver.sv(362) @ 1595000: uvm_test_top.env.master_agent.drv [ahb_master_driver] Transaction complete: AHB_READ 0x000090d4, 16 beats, burst=AHB_BURST_WRAP16
# UVM_INFO ../src/slv/ahb_slave_driver.sv(184) @ 1595000: uvm_test_top.env.slave_agent.drv [ahb_slave_driver] Beat AHB_READ addr=0x000090d2 resp=AHB_RESP_ERROR waits=2 rdata=0x23128ea5
# UVM_INFO ../src/slv/ahb_slave_monitor.sv(197) @ 1595000: uvm_test_top.env.slave_agent.mon [ahb_slave_monitor] Observed [AHB_READ]: HADDR=0x000090d4, HBURST=AHB_BURST_WRAP16, HSIZE=AHB_SIZE_16B, 16 beats
# UVM_INFO ../src/env/ahb_coverage.sv(127) @ 1595000: uvm_test_top.env.slave_cov [ahb_coverage] Sampled [AHB_READ]: burst=AHB_BURST_WRAP16 size=AHB_SIZE_16B beats=16 error=1
# UVM_INFO ../src/mst/ahb_master_monitor.sv(117) @ 1595000: uvm_test_top.env.master_agent.mon [ahb_master_monitor] Beat[15] addr=0x000090d2 rdata=0x868956fe resp=AHB_RESP_ERROR
# UVM_INFO ../src/mst/ahb_master_monitor.sv(222) @ 1595000: uvm_test_top.env.master_agent.mon [ahb_master_monitor] Observed [AHB_READ]: HADDR=0x000090d4, HBURST=AHB_BURST_WRAP16, HSIZE=AHB_SIZE_16B, 16 beats
# UVM_INFO ../src/env/ahb_coverage.sv(127) @ 1595000: uvm_test_top.env.master_cov [ahb_coverage] Sampled [AHB_READ]: burst=AHB_BURST_WRAP16 size=AHB_SIZE_16B beats=16 error=1
# UVM_INFO ../src/env/ahb_scoreboard.sv(104) @ 1595000: uvm_test_top.env.scb [ahb_scoreboard] MATCH #12: [AHB_READ] HADDR=0x000090d4 AHB_BURST_WRAP16 16 beats
# UVM_INFO ../src/mst_seq/ahb_error_seq.sv(134) @ 1595000: uvm_test_top.env.master_agent.sqr@@mst_seq [ahb_error_seq] AHB_READ AHB_BURST_WRAP16 @0x000090d4: ERROR on beat 0 of 16, policy=continue, drove 16
# UVM_INFO ../src/mst/ahb_master_driver.sv(82) @ 1595000: uvm_test_top.env.master_agent.drv [ahb_master_driver] Queueing [AHB_WRITE]: HADDR=0x000071b0, HBURST=AHB_BURST_SINGLE, HSIZE=AHB_SIZE_16B, 1 beats
# UVM_INFO ../src/mst/ahb_master_driver.sv(124) @ 1595000: uvm_test_top.env.master_agent.drv [ahb_master_driver] Driving [AHB_WRITE]: HADDR=0x000071b0, HBURST=AHB_BURST_SINGLE, HSIZE=AHB_SIZE_16B, 1 beats               
# UVM_INFO ../src/slv_seq/ahb_slave_error_seq.sv(89) @ 1615000: uvm_test_top.env.slave_agent.sqr@@slv_seq [ahb_slave_error_seq] Response 51: AHB_WRITE @0x000071b0 -> AHB_RESP_ERROR, 1 wait states           
# UVM_INFO ../src/mst/ahb_master_driver.sv(317) @ 1645000: uvm_test_top.env.master_agent.drv [ahb_master_driver] Beat[0/1] addr=0x000071b0 trans=AHB_TRANS_NONSEQ resp=AHB_RESP_ERROR wdata=0x8a9830d2
# UVM_INFO ../src/mst/ahb_master_driver.sv(327) @ 1645000: uvm_test_top.env.master_agent.drv [ahb_master_driver] ERROR response on beat 0/1                             
# UVM_INFO ../src/mst/ahb_master_driver.sv(362) @ 1645000: uvm_test_top.env.master_agent.drv [ahb_master_driver] Transaction complete: AHB_WRITE 0x000071b0, 1 beats, burst=AHB_BURST_SINGLE
# UVM_INFO ../src/slv/ahb_slave_driver.sv(184) @ 1645000: uvm_test_top.env.slave_agent.drv [ahb_slave_driver] Beat AHB_WRITE addr=0x000071b0 resp=AHB_RESP_ERROR waits=1 wdata=0x8a9830d2
# UVM_INFO ../src/mst/ahb_master_monitor.sv(117) @ 1645000: uvm_test_top.env.master_agent.mon [ahb_master_monitor] Beat[0] addr=0x000071b0 wdata=0x8a9830d2 resp=AHB_RESP_ERROR
# UVM_INFO ../src/mst/ahb_master_monitor.sv(222) @ 1645000: uvm_test_top.env.master_agent.mon [ahb_master_monitor] Observed [AHB_WRITE]: HADDR=0x000071b0, HBURST=AHB_BURST_SINGLE, HSIZE=AHB_SIZE_16B, 1 beats
# UVM_INFO ../src/env/ahb_coverage.sv(127) @ 1645000: uvm_test_top.env.master_cov [ahb_coverage] Sampled [AHB_WRITE]: burst=AHB_BURST_SINGLE size=AHB_SIZE_16B beats=1 error=1
# UVM_INFO ../src/slv/ahb_slave_monitor.sv(197) @ 1645000: uvm_test_top.env.slave_agent.mon [ahb_slave_monitor] Observed [AHB_WRITE]: HADDR=0x000071b0, HBURST=AHB_BURST_SINGLE, HSIZE=AHB_SIZE_16B, 1 beats
# UVM_INFO ../src/env/ahb_scoreboard.sv(104) @ 1645000: uvm_test_top.env.scb [ahb_scoreboard] MATCH #13: [AHB_WRITE] HADDR=0x000071b0 AHB_BURST_SINGLE 1 beats
# UVM_INFO ../src/env/ahb_coverage.sv(127) @ 1645000: uvm_test_top.env.slave_cov [ahb_coverage] Sampled [AHB_WRITE]: burst=AHB_BURST_SINGLE size=AHB_SIZE_16B beats=1 error=1
# UVM_INFO ../src/mst_seq/ahb_error_seq.sv(134) @ 1645000: uvm_test_top.env.master_agent.sqr@@mst_seq [ahb_error_seq] AHB_WRITE AHB_BURST_SINGLE @0x000071b0: ERROR on beat 0 of 1, policy=  cancel, drove 1
# UVM_INFO ../src/mst/ahb_master_driver.sv(82) @ 1645000: uvm_test_top.env.master_agent.drv [ahb_master_driver] Queueing [AHB_READ]: HADDR=0x000081b0, HBURST=AHB_BURST_SINGLE, HSIZE=AHB_SIZE_8B, 1 beats
# UVM_INFO ../src/mst/ahb_master_driver.sv(124) @ 1645000: uvm_test_top.env.master_agent.drv [ahb_master_driver] Driving [AHB_READ]: HADDR=0x000081b0, HBURST=AHB_BURST_SINGLE, HSIZE=AHB_SIZE_8B, 1 beats               
# UVM_INFO ../src/slv_seq/ahb_slave_error_seq.sv(89) @ 1665000: uvm_test_top.env.slave_agent.sqr@@slv_seq [ahb_slave_error_seq] Response 52: AHB_READ @0x000081b0 -> AHB_RESP_OKAY, 0 wait states           
# UVM_INFO ../src/mst/ahb_master_driver.sv(317) @ 1675000: uvm_test_top.env.master_agent.drv [ahb_master_driver] Beat[0/1] addr=0x000081b0 trans=AHB_TRANS_NONSEQ resp=AHB_RESP_OKAY rdata=0x8e229d20
# UVM_INFO ../src/mst/ahb_master_driver.sv(362) @ 1675000: uvm_test_top.env.master_agent.drv [ahb_master_driver] Transaction complete: AHB_READ 0x000081b0, 1 beats, burst=AHB_BURST_SINGLE
# UVM_INFO ../src/slv/ahb_slave_driver.sv(184) @ 1675000: uvm_test_top.env.slave_agent.drv [ahb_slave_driver] Beat AHB_READ addr=0x000081b0 resp=AHB_RESP_OKAY waits=0 rdata=0x8e229d20
# UVM_INFO ../src/slv/ahb_slave_monitor.sv(197) @ 1675000: uvm_test_top.env.slave_agent.mon [ahb_slave_monitor] Observed [AHB_READ]: HADDR=0x000081b0, HBURST=AHB_BURST_SINGLE, HSIZE=AHB_SIZE_8B, 1 beats
# UVM_INFO ../src/env/ahb_coverage.sv(127) @ 1675000: uvm_test_top.env.slave_cov [ahb_coverage] Sampled [AHB_READ]: burst=AHB_BURST_SINGLE size=AHB_SIZE_8B beats=1 error=0
# UVM_INFO ../src/mst/ahb_master_monitor.sv(117) @ 1675000: uvm_test_top.env.master_agent.mon [ahb_master_monitor] Beat[0] addr=0x000081b0 rdata=0x8e229d20 resp=AHB_RESP_OKAY
# UVM_INFO ../src/mst/ahb_master_monitor.sv(222) @ 1675000: uvm_test_top.env.master_agent.mon [ahb_master_monitor] Observed [AHB_READ]: HADDR=0x000081b0, HBURST=AHB_BURST_SINGLE, HSIZE=AHB_SIZE_8B, 1 beats
# UVM_INFO ../src/env/ahb_coverage.sv(127) @ 1675000: uvm_test_top.env.master_cov [ahb_coverage] Sampled [AHB_READ]: burst=AHB_BURST_SINGLE size=AHB_SIZE_8B beats=1 error=0
# UVM_INFO ../src/env/ahb_scoreboard.sv(104) @ 1675000: uvm_test_top.env.scb [ahb_scoreboard] MATCH #14: [AHB_READ] HADDR=0x000081b0 AHB_BURST_SINGLE 1 beats
# UVM_INFO ../src/mst/ahb_master_driver.sv(82) @ 1675000: uvm_test_top.env.master_agent.drv [ahb_master_driver] Queueing [AHB_WRITE]: HADDR=0x00009120, HBURST=AHB_BURST_SINGLE, HSIZE=AHB_SIZE_32B, 1 beats
# UVM_INFO ../src/mst/ahb_master_driver.sv(124) @ 1675000: uvm_test_top.env.master_agent.drv [ahb_master_driver] Driving [AHB_WRITE]: HADDR=0x00009120, HBURST=AHB_BURST_SINGLE, HSIZE=AHB_SIZE_32B, 1 beats               
# UVM_INFO ../src/slv_seq/ahb_slave_error_seq.sv(89) @ 1695000: uvm_test_top.env.slave_agent.sqr@@slv_seq [ahb_slave_error_seq] Response 53: AHB_WRITE @0x00009120 -> AHB_RESP_ERROR, 1 wait states (unmapped)
# UVM_INFO ../src/mst/ahb_master_driver.sv(317) @ 1725000: uvm_test_top.env.master_agent.drv [ahb_master_driver] Beat[0/1] addr=0x00009120 trans=AHB_TRANS_NONSEQ resp=AHB_RESP_ERROR wdata=0x5234be36
# UVM_INFO ../src/mst/ahb_master_driver.sv(334) @ 1725000: uvm_test_top.env.master_agent.drv [ahb_master_driver] ERROR response on beat 0/1 - continuing burst (abort_on_error=0)
# UVM_INFO ../src/mst/ahb_master_driver.sv(362) @ 1725000: uvm_test_top.env.master_agent.drv [ahb_master_driver] Transaction complete: AHB_WRITE 0x00009120, 1 beats, burst=AHB_BURST_SINGLE
# UVM_INFO ../src/slv/ahb_slave_driver.sv(184) @ 1725000: uvm_test_top.env.slave_agent.drv [ahb_slave_driver] Beat AHB_WRITE addr=0x00009120 resp=AHB_RESP_ERROR waits=1 wdata=0x5234be36
# UVM_INFO ../src/mst/ahb_master_monitor.sv(117) @ 1725000: uvm_test_top.env.master_agent.mon [ahb_master_monitor] Beat[0] addr=0x00009120 wdata=0x5234be36 resp=AHB_RESP_ERROR
# UVM_INFO ../src/mst/ahb_master_monitor.sv(222) @ 1725000: uvm_test_top.env.master_agent.mon [ahb_master_monitor] Observed [AHB_WRITE]: HADDR=0x00009120, HBURST=AHB_BURST_SINGLE, HSIZE=AHB_SIZE_32B, 1 beats
# UVM_INFO ../src/env/ahb_coverage.sv(127) @ 1725000: uvm_test_top.env.master_cov [ahb_coverage] Sampled [AHB_WRITE]: burst=AHB_BURST_SINGLE size=AHB_SIZE_32B beats=1 error=1
# UVM_INFO ../src/slv/ahb_slave_monitor.sv(197) @ 1725000: uvm_test_top.env.slave_agent.mon [ahb_slave_monitor] Observed [AHB_WRITE]: HADDR=0x00009120, HBURST=AHB_BURST_SINGLE, HSIZE=AHB_SIZE_32B, 1 beats
# UVM_INFO ../src/env/ahb_scoreboard.sv(104) @ 1725000: uvm_test_top.env.scb [ahb_scoreboard] MATCH #15: [AHB_WRITE] HADDR=0x00009120 AHB_BURST_SINGLE 1 beats
# UVM_INFO ../src/env/ahb_coverage.sv(127) @ 1725000: uvm_test_top.env.slave_cov [ahb_coverage] Sampled [AHB_WRITE]: burst=AHB_BURST_SINGLE size=AHB_SIZE_32B beats=1 error=1
# UVM_INFO ../src/mst_seq/ahb_error_seq.sv(134) @ 1725000: uvm_test_top.env.master_agent.sqr@@mst_seq [ahb_error_seq] AHB_WRITE AHB_BURST_SINGLE @0x00009120: ERROR on beat 0 of 1, policy=continue, drove 1
# UVM_INFO ../src/mst/ahb_master_driver.sv(82) @ 1725000: uvm_test_top.env.master_agent.drv [ahb_master_driver] Queueing [AHB_READ]: HADDR=0x000081d9, HBURST=AHB_BURST_SINGLE, HSIZE=AHB_SIZE_8B, 1 beats
# UVM_INFO ../src/mst/ahb_master_driver.sv(124) @ 1725000: uvm_test_top.env.master_agent.drv [ahb_master_driver] Driving [AHB_READ]: HADDR=0x000081d9, HBURST=AHB_BURST_SINGLE, HSIZE=AHB_SIZE_8B, 1 beats               
# UVM_INFO ../src/slv_seq/ahb_slave_error_seq.sv(89) @ 1745000: uvm_test_top.env.slave_agent.sqr@@slv_seq [ahb_slave_error_seq] Response 54: AHB_READ @0x000081d9 -> AHB_RESP_OKAY, 0 wait states           
# UVM_INFO ../src/mst/ahb_master_driver.sv(317) @ 1755000: uvm_test_top.env.master_agent.drv [ahb_master_driver] Beat[0/1] addr=0x000081d9 trans=AHB_TRANS_NONSEQ resp=AHB_RESP_OKAY rdata=0xa9b2565b
# UVM_INFO ../src/mst/ahb_master_driver.sv(362) @ 1755000: uvm_test_top.env.master_agent.drv [ahb_master_driver] Transaction complete: AHB_READ 0x000081d9, 1 beats, burst=AHB_BURST_SINGLE
# UVM_INFO ../src/slv/ahb_slave_driver.sv(184) @ 1755000: uvm_test_top.env.slave_agent.drv [ahb_slave_driver] Beat AHB_READ addr=0x000081d9 resp=AHB_RESP_OKAY waits=0 rdata=0xa9b2565b
# UVM_INFO ../src/slv/ahb_slave_monitor.sv(197) @ 1755000: uvm_test_top.env.slave_agent.mon [ahb_slave_monitor] Observed [AHB_READ]: HADDR=0x000081d9, HBURST=AHB_BURST_SINGLE, HSIZE=AHB_SIZE_8B, 1 beats
# UVM_INFO ../src/env/ahb_coverage.sv(127) @ 1755000: uvm_test_top.env.slave_cov [ahb_coverage] Sampled [AHB_READ]: burst=AHB_BURST_SINGLE size=AHB_SIZE_8B beats=1 error=0
# UVM_INFO ../src/mst/ahb_master_monitor.sv(117) @ 1755000: uvm_test_top.env.master_agent.mon [ahb_master_monitor] Beat[0] addr=0x000081d9 rdata=0xa9b2565b resp=AHB_RESP_OKAY
# UVM_INFO ../src/mst/ahb_master_monitor.sv(222) @ 1755000: uvm_test_top.env.master_agent.mon [ahb_master_monitor] Observed [AHB_READ]: HADDR=0x000081d9, HBURST=AHB_BURST_SINGLE, HSIZE=AHB_SIZE_8B, 1 beats
# UVM_INFO ../src/env/ahb_coverage.sv(127) @ 1755000: uvm_test_top.env.master_cov [ahb_coverage] Sampled [AHB_READ]: burst=AHB_BURST_SINGLE size=AHB_SIZE_8B beats=1 error=0
# UVM_INFO ../src/env/ahb_scoreboard.sv(104) @ 1755000: uvm_test_top.env.scb [ahb_scoreboard] MATCH #16: [AHB_READ] HADDR=0x000081d9 AHB_BURST_SINGLE 1 beats
# UVM_INFO ../src/mst_seq/ahb_error_seq.sv(153) @ 1755000: uvm_test_top.env.master_agent.sqr@@mst_seq [ahb_error_seq] ERROR response traffic done: bursts=16 with_error=9 cancelled=4 unmapped=5
# UVM_INFO ../src/test/ahb_error_response_test.sv(76) @ 1755000: uvm_test_top [ahb_error_response_test] Slave answered 54 beats: 31 ERROR, 27 in the unmapped region
# UVM_INFO verilog_src/uvm-1.1d/src/base/uvm_objection.svh(1268) @ 1755200: reporter [TEST_DONE] 'run' phase is ready to proceed to the 'extract' phase
# UVM_INFO ../src/env/ahb_coverage.sv(137) @ 1755200: uvm_test_top.env.master_cov [ahb_coverage] [master_cov] functional coverage = 79.25%
# UVM_INFO ../src/env/ahb_scoreboard.sv(209) @ 1755200: uvm_test_top.env.scb [ahb_scoreboard] Passthrough : compared=16 matched=16 mismatched=0
# UVM_INFO ../src/env/ahb_scoreboard.sv(213) @ 1755200: uvm_test_top.env.scb [ahb_scoreboard] Ref-memory  : wr_bytes=38 rd_checked=0 rd_uninit=15 rd_mismatch=0
# UVM_INFO ../src/env/ahb_coverage.sv(137) @ 1755200: uvm_test_top.env.slave_cov [ahb_coverage] [slave_cov] functional coverage = 79.25%
# UVM_INFO ../src/test/ahb_base_test.sv(74) @ 1755200: uvm_test_top [ahb_error_response_test] 
# === TEST PASSED ===
# 
# 
# --- UVM Report Summary ---
# 
# ** Report counts by severity
# UVM_INFO :  414
# UVM_WARNING :    0
# UVM_ERROR :    0
# UVM_FATAL :    0
# ** Report counts by id
# [Questa UVM]     3
# [RNTST]     1
# [TB_TOP]     3
# [TEST_DONE]     1
# [UVMTOP]     1
# [ahb_coverage]    34
# [ahb_error_response_test]     2
# [ahb_error_seq]    11
# [ahb_master_agent]     1
# [ahb_master_driver]   135
# [ahb_master_monitor]    71
# [ahb_scoreboard]    18
# [ahb_slave_agent]     1
# [ahb_slave_driver]    55
# [ahb_slave_error_seq]    55
# [ahb_slave_monitor]    17
# [ahb_vip_env]     5
# ** Note: $finish    : /cadtools/mentor/Questa_10.6b/questasim/linux_x86_64/../verilog_src/uvm-1.1d/src/base/uvm_root.svh(430)
#    Time: 1755200 ps  Iteration: 53  Instance: /tb_top
# Saving coverage database on exit...
# End time: 12:29:39 on Aug 03,2026, Elapsed time: 0:00:02
# Errors: 0, Warnings: 0
