# vsim -c -coverage -sv_seed 66171343 "+UVM_TESTNAME=ahb_undefined_burst_test" "+UVM_VERBOSITY=UVM_HIGH" "+DUMP_VCD" -l ./report/logs/ahb_undefined_burst_test_run_2_seed_66171343.log -do "coverage save -onexit ./report/coverage/ahb_undefined_burst_test_run_2_seed_66171343.ucdb; run -all; quit -f" opt_tb_top 
# Start time: 13:03:32 on Aug 03,2026
# //  Questa Sim-64
# //  Version 10.6b linux_x86_64 May 25 2017
# //
# //  Copyright 1991-2017 Mentor Graphics Corporation
# //  All Rights Reserved.
# //
# //  QuestaSim and its associated documentation contain trade
# //  secrets and commercial or financial information that are the property of
# //  Mentor Graphics Corporation and are privileged, confidential,
# //  and exempt from disclosure under the Freedom of Information Act,
# //  5 U.S.C. Section 552. Furthermore, this information
# //  is prohibited from disclosure under the Trade Secrets Act,
# //  18 U.S.C. Section 1905.
# //
# Loading sv_std.std
# Loading work.ahb_if(fast)
# Loading mtiUvm.uvm_pkg
# Loading work.ahb_pkg(fast)
# Loading work.ahb_seq_pkg(fast)
# Loading work.ahb_test_pkg(fast)
# Loading work.tb_top(fast)
# Loading work.ahb_if(fast)
# Loading work.ahb_sva(fast)
# Loading mtiUvm.questa_uvm_pkg(fast)
# Loading /cadtools/mentor/Questa_10.6b/questasim/uvm-1.1d/linux_x86_64/uvm_dpi.so
# coverage save -onexit ./report/coverage/ahb_undefined_burst_test_run_2_seed_66171343.ucdb
#  run -all
# ----------------------------------------------------------------
# UVM-1.1d
# (C) 2007-2013 Mentor Graphics Corporation
# (C) 2007-2013 Cadence Design Systems, Inc.
# (C) 2006-2013 Synopsys, Inc.
# (C) 2011-2013 Cypress Semiconductor Corp.
# ----------------------------------------------------------------
# 
#   ***********       IMPORTANT RELEASE NOTES         ************
# 
#   You are using a version of the UVM library that has been compiled
#   with `UVM_NO_DEPRECATED undefined.
#   See http://www.eda.org/svdb/view.php?id=3313 for more details.
# 
#   You are using a version of the UVM library that has been compiled
#   with `UVM_OBJECT_MUST_HAVE_CONSTRUCTOR undefined.
#   See http://www.eda.org/svdb/view.php?id=3770 for more details.
# 
#       (Specify +UVM_NO_RELNOTES to turn off this notice)
# 
# UVM_INFO verilog_src/questa_uvm_pkg-1.2/src/questa_uvm_pkg.sv(215) @ 0: reporter [Questa UVM] QUESTA_UVM-1.2.3
# UVM_INFO verilog_src/questa_uvm_pkg-1.2/src/questa_uvm_pkg.sv(217) @ 0: reporter [Questa UVM]  questa_uvm::init(+struct)
# UVM_INFO ../src/tb_top.sv(126) @ 0: reporter [TB_TOP] Virtual interface set in config_db
# UVM_INFO @ 0: reporter [RNTST] Running test ahb_undefined_burst_test...
# UVM_INFO ../src/tb_top.sv(140) @ 0: reporter [TB_TOP] Waveform VCD dumping enabled (ahb_lite_vip.vcd)
# UVM_INFO ../src/env/ahb_vip_env.sv(64) @ 0: uvm_test_top.env [ahb_vip_env] slave_vif not set - reusing master_vif (passthrough mode)
# UVM_INFO ../src/env/ahb_vip_env.sv(72) @ 0: uvm_test_top.env [ahb_vip_env] Scoreboard created
# UVM_INFO ../src/env/ahb_vip_env.sv(78) @ 0: uvm_test_top.env [ahb_vip_env] Coverage collectors created
# UVM_INFO ../src/mst/ahb_master_agent.sv(61) @ 0: uvm_test_top.env.master_agent [ahb_master_agent] ACTIVE mode - driver + sequencer created
# UVM_INFO ../src/slv/ahb_slave_agent.sv(64) @ 0: uvm_test_top.env.slave_agent [ahb_slave_agent] ACTIVE mode - driver + sequencer created (    auto responses)
# UVM_INFO ../src/env/ahb_vip_env.sv(92) @ 0: uvm_test_top.env [ahb_vip_env] Scoreboard connected: master_mon.ap -> scb, slave_mon.ap -> scb
# UVM_INFO ../src/env/ahb_vip_env.sv(99) @ 0: uvm_test_top.env [ahb_vip_env] Coverage connected: master_mon.ap -> master_cov, slave_mon.ap -> slave_cov
# UVM_INFO @ 0: reporter [UVMTOP] UVM testbench topology:
# ----------------------------------------------------------------
# Name                       Type                      Size  Value
# ----------------------------------------------------------------
# uvm_test_top               ahb_undefined_burst_test  -     @475 
#   env                      ahb_vip_env               -     @490 
#     master_agent           ahb_master_agent          -     @505 
#       drv                  ahb_master_driver         -     @570 
#         rsp_port           uvm_analysis_port         -     @585 
#         seq_item_port      uvm_seq_item_pull_port    -     @577 
#       mon                  ahb_master_monitor        -     @563 
#         ap                 uvm_analysis_port         -     @704 
#       sqr                  ahb_master_sequencer      -     @593 
#         rsp_export         uvm_analysis_export       -     @600 
#         seq_item_export    uvm_seq_item_pull_imp     -     @694 
#         arbitration_queue  array                     0     -    
#         lock_queue         array                     0     -    
#         num_last_reqs      integral                  32    'd1  
#         num_last_rsps      integral                  32    'd1  
#     master_cov             ahb_coverage              -     @526 
#       analysis_imp         uvm_analysis_imp          -     @533 
#     scb                    ahb_scoreboard            -     @519 
#       master_export        uvm_analysis_imp_master   -     @718 
#       slave_export         uvm_analysis_imp_slave    -     @726 
#     slave_agent            ahb_slave_agent           -     @512 
#       drv                  ahb_slave_driver          -     @748 
#         rsp_port           uvm_analysis_port         -     @763 
#         seq_item_port      uvm_seq_item_pull_port    -     @755 
#       mon                  ahb_slave_monitor         -     @741 
#         ap                 uvm_analysis_port         -     @882 
#       sqr                  ahb_slave_sequencer       -     @771 
#         rsp_export         uvm_analysis_export       -     @778 
#         seq_item_export    uvm_seq_item_pull_imp     -     @872 
#         arbitration_queue  array                     0     -    
#         lock_queue         array                     0     -    
#         num_last_reqs      integral                  32    'd1  
#         num_last_rsps      integral                  32    'd1  
#     slave_cov              ahb_coverage              -     @541 
#       analysis_imp         uvm_analysis_imp          -     @548 
# ----------------------------------------------------------------
# 
# UVM_INFO verilog_src/questa_uvm_pkg-1.2/src/questa_uvm_pkg.sv(277) @ 0: reporter [Questa UVM] End Of Elaboration
# UVM_INFO ../src/mst_seq/ahb_undefined_burst_seq.sv(55) @ 0: uvm_test_top.env.master_agent.sqr@@seq [ahb_undefined_burst_seq] Starting undefined-length INCR bursts: 8 iterations from 0x00005000
# UVM_INFO ../src/mst_seq/ahb_undefined_burst_seq.sv(122) @ 0: uvm_test_top.env.master_agent.sqr@@seq [ahb_undefined_burst_seq] INCR 1 beats, AHB_SIZE_32B @0x000050d4, trailing_busy=0, retract=0, pipelined=0
# UVM_INFO ../src/mst/ahb_master_driver.sv(181) @ 5000: uvm_test_top.env.master_agent.drv [ahb_master_driver] Flushed pending transactions (reset)
# UVM_INFO ../src/tb_top.sv(48) @ 95000: reporter [TB_TOP] Reset de-asserted
# UVM_INFO ../src/slv/ahb_slave_driver.sv(63) @ 95000: uvm_test_top.env.slave_agent.drv [ahb_slave_driver] Reset deasserted - slave driver active (    auto mode)
# UVM_INFO ../src/mst/ahb_master_driver.sv(68) @ 95000: uvm_test_top.env.master_agent.drv [ahb_master_driver] Reset deasserted - master driver active
# UVM_INFO ../src/mst/ahb_master_monitor.sv(75) @ 95000: uvm_test_top.env.master_agent.mon [ahb_master_monitor] Reset deasserted - master monitor active
# UVM_INFO ../src/slv/ahb_slave_monitor.sv(69) @ 95000: uvm_test_top.env.slave_agent.mon [ahb_slave_monitor] Reset deasserted - slave monitor active
# UVM_INFO ../src/mst/ahb_master_driver.sv(82) @ 95000: uvm_test_top.env.master_agent.drv [ahb_master_driver] Queueing [AHB_WRITE]: HADDR=0x000050d4, HBURST=AHB_BURST_INCR, HSIZE=AHB_SIZE_32B, 1 beats
# UVM_INFO ../src/mst/ahb_master_driver.sv(124) @ 95000: uvm_test_top.env.master_agent.drv [ahb_master_driver] Driving [AHB_WRITE]: HADDR=0x000050d4, HBURST=AHB_BURST_INCR, HSIZE=AHB_SIZE_32B, 1 beats               
# UVM_INFO ../src/mst/ahb_master_driver.sv(317) @ 115000: uvm_test_top.env.master_agent.drv [ahb_master_driver] Beat[0/1] addr=0x000050d4 trans=AHB_TRANS_NONSEQ resp=AHB_RESP_OKAY wdata=0x0f6d013b
# UVM_INFO ../src/mst/ahb_master_driver.sv(362) @ 115000: uvm_test_top.env.master_agent.drv [ahb_master_driver] Transaction complete: AHB_WRITE 0x000050d4, 1 beats, burst=AHB_BURST_INCR
# UVM_INFO ../src/slv/ahb_slave_driver.sv(184) @ 115000: uvm_test_top.env.slave_agent.drv [ahb_slave_driver] Beat AHB_WRITE addr=0x000050d4 resp=AHB_RESP_OKAY waits=0 wdata=0x0f6d013b
# UVM_INFO ../src/slv/ahb_slave_monitor.sv(197) @ 115000: uvm_test_top.env.slave_agent.mon [ahb_slave_monitor] Observed [AHB_WRITE]: HADDR=0x000050d4, HBURST=AHB_BURST_INCR, HSIZE=AHB_SIZE_32B, 1 beats
# UVM_INFO ../src/env/ahb_coverage.sv(127) @ 115000: uvm_test_top.env.slave_cov [ahb_coverage] Sampled [AHB_WRITE]: burst=AHB_BURST_INCR size=AHB_SIZE_32B beats=1 error=0
# UVM_INFO ../src/mst/ahb_master_monitor.sv(117) @ 115000: uvm_test_top.env.master_agent.mon [ahb_master_monitor] Beat[0] addr=0x000050d4 wdata=0x0f6d013b resp=AHB_RESP_OKAY
# UVM_INFO ../src/mst/ahb_master_monitor.sv(222) @ 115000: uvm_test_top.env.master_agent.mon [ahb_master_monitor] Observed [AHB_WRITE]: HADDR=0x000050d4, HBURST=AHB_BURST_INCR, HSIZE=AHB_SIZE_32B, 1 beats
# UVM_INFO ../src/env/ahb_coverage.sv(127) @ 115000: uvm_test_top.env.master_cov [ahb_coverage] Sampled [AHB_WRITE]: burst=AHB_BURST_INCR size=AHB_SIZE_32B beats=1 error=0
# UVM_INFO ../src/env/ahb_scoreboard.sv(104) @ 115000: uvm_test_top.env.scb [ahb_scoreboard] MATCH #1: [AHB_WRITE] HADDR=0x000050d4 AHB_BURST_INCR 1 beats
# UVM_INFO ../src/mst/ahb_master_driver.sv(82) @ 115000: uvm_test_top.env.master_agent.drv [ahb_master_driver] Queueing [AHB_READ]: HADDR=0x000050d4, HBURST=AHB_BURST_INCR, HSIZE=AHB_SIZE_32B, 1 beats
# UVM_INFO ../src/mst/ahb_master_driver.sv(124) @ 115000: uvm_test_top.env.master_agent.drv [ahb_master_driver] Driving [AHB_READ]: HADDR=0x000050d4, HBURST=AHB_BURST_INCR, HSIZE=AHB_SIZE_32B, 1 beats               
# UVM_INFO ../src/mst/ahb_master_driver.sv(317) @ 155000: uvm_test_top.env.master_agent.drv [ahb_master_driver] Beat[0/1] addr=0x000050d4 trans=AHB_TRANS_NONSEQ resp=AHB_RESP_OKAY rdata=0x0f6d013b
# UVM_INFO ../src/mst/ahb_master_driver.sv(362) @ 155000: uvm_test_top.env.master_agent.drv [ahb_master_driver] Transaction complete: AHB_READ 0x000050d4, 1 beats, burst=AHB_BURST_INCR
# UVM_INFO ../src/slv/ahb_slave_driver.sv(184) @ 155000: uvm_test_top.env.slave_agent.drv [ahb_slave_driver] Beat AHB_READ addr=0x000050d4 resp=AHB_RESP_OKAY waits=1 rdata=0x0f6d013b
# UVM_INFO ../src/slv/ahb_slave_monitor.sv(197) @ 155000: uvm_test_top.env.slave_agent.mon [ahb_slave_monitor] Observed [AHB_READ]: HADDR=0x000050d4, HBURST=AHB_BURST_INCR, HSIZE=AHB_SIZE_32B, 1 beats
# UVM_INFO ../src/env/ahb_coverage.sv(127) @ 155000: uvm_test_top.env.slave_cov [ahb_coverage] Sampled [AHB_READ]: burst=AHB_BURST_INCR size=AHB_SIZE_32B beats=1 error=0
# UVM_INFO ../src/mst/ahb_master_monitor.sv(117) @ 155000: uvm_test_top.env.master_agent.mon [ahb_master_monitor] Beat[0] addr=0x000050d4 rdata=0x0f6d013b resp=AHB_RESP_OKAY
# UVM_INFO ../src/mst/ahb_master_monitor.sv(222) @ 155000: uvm_test_top.env.master_agent.mon [ahb_master_monitor] Observed [AHB_READ]: HADDR=0x000050d4, HBURST=AHB_BURST_INCR, HSIZE=AHB_SIZE_32B, 1 beats
# UVM_INFO ../src/env/ahb_coverage.sv(127) @ 155000: uvm_test_top.env.master_cov [ahb_coverage] Sampled [AHB_READ]: burst=AHB_BURST_INCR size=AHB_SIZE_32B beats=1 error=0
# UVM_INFO ../src/env/ahb_scoreboard.sv(104) @ 155000: uvm_test_top.env.scb [ahb_scoreboard] MATCH #2: [AHB_READ] HADDR=0x000050d4 AHB_BURST_INCR 1 beats
# UVM_INFO ../src/mst_seq/ahb_base_seq.sv(164) @ 155000: uvm_test_top.env.master_agent.sqr@@seq [ahb_undefined_burst_seq] AHB_BURST_INCR AHB_SIZE_32B beat 0 @0x000050d4 ok
# UVM_INFO ../src/mst_seq/ahb_undefined_burst_seq.sv(122) @ 155000: uvm_test_top.env.master_agent.sqr@@seq [ahb_undefined_burst_seq] INCR 256 beats, AHB_SIZE_32B @0x00005400, trailing_busy=3, retract=0, pipelined=0
# UVM_INFO ../src/mst/ahb_master_driver.sv(82) @ 155000: uvm_test_top.env.master_agent.drv [ahb_master_driver] Queueing [AHB_WRITE]: HADDR=0x00005400, HBURST=AHB_BURST_INCR, HSIZE=AHB_SIZE_32B, 256 beats
# UVM_INFO ../src/mst/ahb_master_driver.sv(124) @ 155000: uvm_test_top.env.master_agent.drv [ahb_master_driver] Driving [AHB_WRITE]: HADDR=0x00005400, HBURST=AHB_BURST_INCR, HSIZE=AHB_SIZE_32B, 256 beats               
# UVM_INFO ../src/mst/ahb_master_driver.sv(317) @ 205000: uvm_test_top.env.master_agent.drv [ahb_master_driver] Beat[0/256] addr=0x00005400 trans=AHB_TRANS_NONSEQ resp=AHB_RESP_OKAY wdata=0x758ca99c
# UVM_INFO ../src/slv/ahb_slave_driver.sv(184) @ 205000: uvm_test_top.env.slave_agent.drv [ahb_slave_driver] Beat AHB_WRITE addr=0x00005400 resp=AHB_RESP_OKAY waits=2 wdata=0x758ca99c
# UVM_INFO ../src/mst/ahb_master_monitor.sv(117) @ 205000: uvm_test_top.env.master_agent.mon [ahb_master_monitor] Beat[0] addr=0x00005400 wdata=0x758ca99c resp=AHB_RESP_OKAY
# UVM_INFO ../src/mst/ahb_master_driver.sv(317) @ 215000: uvm_test_top.env.master_agent.drv [ahb_master_driver] Beat[1/256] addr=0x00005404 trans=AHB_TRANS_SEQ resp=AHB_RESP_OKAY wdata=0x0223b8d8
# UVM_INFO ../src/slv/ahb_slave_driver.sv(184) @ 215000: uvm_test_top.env.slave_agent.drv [ahb_slave_driver] Beat AHB_WRITE addr=0x00005404 resp=AHB_RESP_OKAY waits=0 wdata=0x0223b8d8
# UVM_INFO ../src/mst/ahb_master_monitor.sv(117) @ 215000: uvm_test_top.env.master_agent.mon [ahb_master_monitor] Beat[1] addr=0x00005404 wdata=0x0223b8d8 resp=AHB_RESP_OKAY
# UVM_INFO ../src/mst/ahb_master_driver.sv(317) @ 245000: uvm_test_top.env.master_agent.drv [ahb_master_driver] Beat[2/256] addr=0x00005408 trans=AHB_TRANS_SEQ resp=AHB_RESP_OKAY wdata=0x6bfe8012
# UVM_INFO ../src/slv/ahb_slave_driver.sv(184) @ 245000: uvm_test_top.env.slave_agent.drv [ahb_slave_driver] Beat AHB_WRITE addr=0x00005408 resp=AHB_RESP_OKAY waits=2 wdata=0x6bfe8012
# UVM_INFO ../src/mst/ahb_master_monitor.sv(117) @ 245000: uvm_test_top.env.master_agent.mon [ahb_master_monitor] Beat[2] addr=0x00005408 wdata=0x6bfe8012 resp=AHB_RESP_OKAY
# UVM_INFO ../src/mst/ahb_master_driver.sv(317) @ 255000: uvm_test_top.env.master_agent.drv [ahb_master_driver] Beat[3/256] addr=0x0000540c trans=AHB_TRANS_SEQ resp=AHB_RESP_OKAY wdata=0x66b7418a
# UVM_INFO ../src/slv/ahb_slave_driver.sv(184) @ 255000: uvm_test_top.env.slave_agent.drv [ahb_slave_driver] Beat AHB_WRITE addr=0x0000540c resp=AHB_RESP_OKAY waits=0 wdata=0x66b7418a
# UVM_INFO ../src/mst/ahb_master_monitor.sv(117) @ 255000: uvm_test_top.env.master_agent.mon [ahb_master_monitor] Beat[3] addr=0x0000540c wdata=0x66b7418a resp=AHB_RESP_OKAY
# UVM_INFO ../src/mst/ahb_master_driver.sv(317) @ 275000: uvm_test_top.env.master_agent.drv [ahb_master_driver] Beat[4/256] addr=0x00005410 trans=AHB_TRANS_SEQ resp=AHB_RESP_OKAY wdata=0xcdc6a82f
# UVM_INFO ../src/slv/ahb_slave_driver.sv(184) @ 275000: uvm_test_top.env.slave_agent.drv [ahb_slave_driver] Beat AHB_WRITE addr=0x00005410 resp=AHB_RESP_OKAY waits=1 wdata=0xcdc6a82f
# UVM_INFO ../src/mst/ahb_master_monitor.sv(117) @ 275000: uvm_test_top.env.master_agent.mon [ahb_master_monitor] Beat[4] addr=0x00005410 wdata=0xcdc6a82f resp=AHB_RESP_OKAY
# UVM_INFO ../src/mst/ahb_master_driver.sv(317) @ 295000: uvm_test_top.env.master_agent.drv [ahb_master_driver] Beat[5/256] addr=0x00005414 trans=AHB_TRANS_SEQ resp=AHB_RESP_OKAY wdata=0x75223feb
# UVM_INFO ../src/slv/ahb_slave_driver.sv(184) @ 295000: uvm_test_top.env.slave_agent.drv [ahb_slave_driver] Beat AHB_WRITE addr=0x00005414 resp=AHB_RESP_OKAY waits=1 wdata=0x75223feb
# UVM_INFO ../src/mst/ahb_master_monitor.sv(117) @ 295000: uvm_test_top.env.master_agent.mon [ahb_master_monitor] Beat[5] addr=0x00005414 wdata=0x75223feb resp=AHB_RESP_OKAY
# UVM_INFO ../src/mst/ahb_master_driver.sv(317) @ 305000: uvm_test_top.env.master_agent.drv [ahb_master_driver] Beat[6/256] addr=0x00005418 trans=AHB_TRANS_SEQ resp=AHB_RESP_OKAY wdata=0x25f11bcd
# UVM_INFO ../src/slv/ahb_slave_driver.sv(184) @ 305000: uvm_test_top.env.slave_agent.drv [ahb_slave_driver] Beat AHB_WRITE addr=0x00005418 resp=AHB_RESP_OKAY waits=0 wdata=0x25f11bcd
# UVM_INFO ../src/mst/ahb_master_monitor.sv(117) @ 305000: uvm_test_top.env.master_agent.mon [ahb_master_monitor] Beat[6] addr=0x00005418 wdata=0x25f11bcd resp=AHB_RESP_OKAY
# UVM_INFO ../src/mst/ahb_master_driver.sv(317) @ 325000: uvm_test_top.env.master_agent.drv [ahb_master_driver] Beat[7/256] addr=0x0000541c trans=AHB_TRANS_SEQ resp=AHB_RESP_OKAY wdata=0x016da9f1
# UVM_INFO ../src/slv/ahb_slave_driver.sv(184) @ 325000: uvm_test_top.env.slave_agent.drv [ahb_slave_driver] Beat AHB_WRITE addr=0x0000541c resp=AHB_RESP_OKAY waits=1 wdata=0x016da9f1
# UVM_INFO ../src/mst/ahb_master_monitor.sv(117) @ 325000: uvm_test_top.env.master_agent.mon [ahb_master_monitor] Beat[7] addr=0x0000541c wdata=0x016da9f1 resp=AHB_RESP_OKAY
# UVM_INFO ../src/mst/ahb_master_driver.sv(317) @ 355000: uvm_test_top.env.master_agent.drv [ahb_master_driver] Beat[8/256] addr=0x00005420 trans=AHB_TRANS_SEQ resp=AHB_RESP_OKAY wdata=0xc0693715
# UVM_INFO ../src/slv/ahb_slave_driver.sv(184) @ 355000: uvm_test_top.env.slave_agent.drv [ahb_slave_driver] Beat AHB_WRITE addr=0x00005420 resp=AHB_RESP_OKAY waits=1 wdata=0xc0693715
# UVM_INFO ../src/mst/ahb_master_monitor.sv(117) @ 355000: uvm_test_top.env.master_agent.mon [ahb_master_monitor] Beat[8] addr=0x00005420 wdata=0xc0693715 resp=AHB_RESP_OKAY
# UVM_INFO ../src/mst/ahb_master_driver.sv(317) @ 375000: uvm_test_top.env.master_agent.drv [ahb_master_driver] Beat[9/256] addr=0x00005424 trans=AHB_TRANS_SEQ resp=AHB_RESP_OKAY wdata=0x54d312c6
# UVM_INFO ../src/slv/ahb_slave_driver.sv(184) @ 375000: uvm_test_top.env.slave_agent.drv [ahb_slave_driver] Beat AHB_WRITE addr=0x00005424 resp=AHB_RESP_OKAY waits=1 wdata=0x54d312c6
# UVM_INFO ../src/mst/ahb_master_monitor.sv(117) @ 375000: uvm_test_top.env.master_agent.mon [ahb_master_monitor] Beat[9] addr=0x00005424 wdata=0x54d312c6 resp=AHB_RESP_OKAY
# UVM_INFO ../src/mst/ahb_master_driver.sv(317) @ 385000: uvm_test_top.env.master_agent.drv [ahb_master_driver] Beat[10/256] addr=0x00005428 trans=AHB_TRANS_SEQ resp=AHB_RESP_OKAY wdata=0xb8a7fff9
# UVM_INFO ../src/slv/ahb_slave_driver.sv(184) @ 385000: uvm_test_top.env.slave_agent.drv [ahb_slave_driver] Beat AHB_WRITE addr=0x00005428 resp=AHB_RESP_OKAY waits=0 wdata=0xb8a7fff9
# UVM_INFO ../src/mst/ahb_master_monitor.sv(117) @ 385000: uvm_test_top.env.master_agent.mon [ahb_master_monitor] Beat[10] addr=0x00005428 wdata=0xb8a7fff9 resp=AHB_RESP_OKAY
# UVM_INFO ../src/mst/ahb_master_driver.sv(317) @ 405000: uvm_test_top.env.master_agent.drv [ahb_master_driver] Beat[11/256] addr=0x0000542c trans=AHB_TRANS_SEQ resp=AHB_RESP_OKAY wdata=0x2ffe7087
# UVM_INFO ../src/slv/ahb_slave_driver.sv(184) @ 405000: uvm_test_top.env.slave_agent.drv [ahb_slave_driver] Beat AHB_WRITE addr=0x0000542c resp=AHB_RESP_OKAY waits=1 wdata=0x2ffe7087
# UVM_INFO ../src/mst/ahb_master_monitor.sv(117) @ 405000: uvm_test_top.env.master_agent.mon [ahb_master_monitor] Beat[11] addr=0x0000542c wdata=0x2ffe7087 resp=AHB_RESP_OKAY
# UVM_INFO ../src/mst/ahb_master_driver.sv(317) @ 425000: uvm_test_top.env.master_agent.drv [ahb_master_driver] Beat[12/256] addr=0x00005430 trans=AHB_TRANS_SEQ resp=AHB_RESP_OKAY wdata=0x21a3be7b
# UVM_INFO ../src/slv/ahb_slave_driver.sv(184) @ 425000: uvm_test_top.env.slave_agent.drv [ahb_slave_driver] Beat AHB_WRITE addr=0x00005430 resp=AHB_RESP_OKAY waits=1 wdata=0x21a3be7b
# UVM_INFO ../src/mst/ahb_master_monitor.sv(117) @ 425000: uvm_test_top.env.master_agent.mon [ahb_master_monitor] Beat[12] addr=0x00005430 wdata=0x21a3be7b resp=AHB_RESP_OKAY
# UVM_INFO ../src/mst/ahb_master_driver.sv(317) @ 455000: uvm_test_top.env.master_agent.drv [ahb_master_driver] Beat[13/256] addr=0x00005434 trans=AHB_TRANS_SEQ resp=AHB_RESP_OKAY wdata=0xae845031
# UVM_INFO ../src/slv/ahb_slave_driver.sv(184) @ 455000: uvm_test_top.env.slave_agent.drv [ahb_slave_driver] Beat AHB_WRITE addr=0x00005434 resp=AHB_RESP_OKAY waits=2 wdata=0xae845031
# UVM_INFO ../src/mst/ahb_master_monitor.sv(117) @ 455000: uvm_test_top.env.master_agent.mon [ahb_master_monitor] Beat[13] addr=0x00005434 wdata=0xae845031 resp=AHB_RESP_OKAY
# UVM_INFO ../src/mst/ahb_master_driver.sv(317) @ 485000: uvm_test_top.env.master_agent.drv [ahb_master_driver] Beat[14/256] addr=0x00005438 trans=AHB_TRANS_SEQ resp=AHB_RESP_OKAY wdata=0x0be0d9ab
# UVM_INFO ../src/slv/ahb_slave_driver.sv(184) @ 485000: uvm_test_top.env.slave_agent.drv [ahb_slave_driver] Beat AHB_WRITE addr=0x00005438 resp=AHB_RESP_OKAY waits=2 wdata=0x0be0d9ab
# UVM_INFO ../src/mst/ahb_master_monitor.sv(117) @ 485000: uvm_test_top.env.master_agent.mon [ahb_master_monitor] Beat[14] addr=0x00005438 wdata=0x0be0d9ab resp=AHB_RESP_OKAY
# UVM_INFO ../src/mst/ahb_master_driver.sv(317) @ 495000: uvm_test_top.env.master_agent.drv [ahb_master_driver] Beat[15/256] addr=0x0000543c trans=AHB_TRANS_SEQ resp=AHB_RESP_OKAY wdata=0xbcef8931
# UVM_INFO ../src/slv/ahb_slave_driver.sv(184) @ 495000: uvm_test_top.env.slave_agent.drv [ahb_slave_driver] Beat AHB_WRITE addr=0x0000543c resp=AHB_RESP_OKAY waits=0 wdata=0xbcef8931
# UVM_INFO ../src/mst/ahb_master_monitor.sv(117) @ 495000: uvm_test_top.env.master_agent.mon [ahb_master_monitor] Beat[15] addr=0x0000543c wdata=0xbcef8931 resp=AHB_RESP_OKAY
# UVM_INFO ../src/mst/ahb_master_driver.sv(317) @ 515000: uvm_test_top.env.master_agent.drv [ahb_master_driver] Beat[16/256] addr=0x00005440 trans=AHB_TRANS_SEQ resp=AHB_RESP_OKAY wdata=0x466d9683
# UVM_INFO ../src/slv/ahb_slave_driver.sv(184) @ 515000: uvm_test_top.env.slave_agent.drv [ahb_slave_driver] Beat AHB_WRITE addr=0x00005440 resp=AHB_RESP_OKAY waits=0 wdata=0x466d9683
# UVM_INFO ../src/mst/ahb_master_monitor.sv(117) @ 515000: uvm_test_top.env.master_agent.mon [ahb_master_monitor] Beat[16] addr=0x00005440 wdata=0x466d9683 resp=AHB_RESP_OKAY
# UVM_INFO ../src/mst/ahb_master_driver.sv(317) @ 545000: uvm_test_top.env.master_agent.drv [ahb_master_driver] Beat[17/256] addr=0x00005444 trans=AHB_TRANS_SEQ resp=AHB_RESP_OKAY wdata=0xc89a6057
# UVM_INFO ../src/slv/ahb_slave_driver.sv(184) @ 545000: uvm_test_top.env.slave_agent.drv [ahb_slave_driver] Beat AHB_WRITE addr=0x00005444 resp=AHB_RESP_OKAY waits=2 wdata=0xc89a6057
# UVM_INFO ../src/mst/ahb_master_monitor.sv(117) @ 545000: uvm_test_top.env.master_agent.mon [ahb_master_monitor] Beat[17] addr=0x00005444 wdata=0xc89a6057 resp=AHB_RESP_OKAY
# UVM_INFO ../src/mst/ahb_master_driver.sv(317) @ 555000: uvm_test_top.env.master_agent.drv [ahb_master_driver] Beat[18/256] addr=0x00005448 trans=AHB_TRANS_SEQ resp=AHB_RESP_OKAY wdata=0xa4e21100
# UVM_INFO ../src/slv/ahb_slave_driver.sv(184) @ 555000: uvm_test_top.env.slave_agent.drv [ahb_slave_driver] Beat AHB_WRITE addr=0x00005448 resp=AHB_RESP_OKAY waits=0 wdata=0xa4e21100
# UVM_INFO ../src/mst/ahb_master_monitor.sv(117) @ 555000: uvm_test_top.env.master_agent.mon [ahb_master_monitor] Beat[18] addr=0x00005448 wdata=0xa4e21100 resp=AHB_RESP_OKAY
# UVM_INFO ../src/mst/ahb_master_driver.sv(317) @ 565000: uvm_test_top.env.master_agent.drv [ahb_master_driver] Beat[19/256] addr=0x0000544c trans=AHB_TRANS_SEQ resp=AHB_RESP_OKAY wdata=0x60ed0331
# UVM_INFO ../src/slv/ahb_slave_driver.sv(184) @ 565000: uvm_test_top.env.slave_agent.drv [ahb_slave_driver] Beat AHB_WRITE addr=0x0000544c resp=AHB_RESP_OKAY waits=0 wdata=0x60ed0331
# UVM_INFO ../src/mst/ahb_master_monitor.sv(117) @ 565000: uvm_test_top.env.master_agent.mon [ahb_master_monitor] Beat[19] addr=0x0000544c wdata=0x60ed0331 resp=AHB_RESP_OKAY
# UVM_INFO ../src/mst/ahb_master_driver.sv(317) @ 595000: uvm_test_top.env.master_agent.drv [ahb_master_driver] Beat[20/256] addr=0x00005450 trans=AHB_TRANS_SEQ resp=AHB_RESP_OKAY wdata=0x764774c8
# UVM_INFO ../src/slv/ahb_slave_driver.sv(184) @ 595000: uvm_test_top.env.slave_agent.drv [ahb_slave_driver] Beat AHB_WRITE addr=0x00005450 resp=AHB_RESP_OKAY waits=2 wdata=0x764774c8
# UVM_INFO ../src/mst/ahb_master_monitor.sv(117) @ 595000: uvm_test_top.env.master_agent.mon [ahb_master_monitor] Beat[20] addr=0x00005450 wdata=0x764774c8 resp=AHB_RESP_OKAY
# UVM_INFO ../src/mst/ahb_master_driver.sv(317) @ 625000: uvm_test_top.env.master_agent.drv [ahb_master_driver] Beat[21/256] addr=0x00005454 trans=AHB_TRANS_SEQ resp=AHB_RESP_OKAY wdata=0x2645911f
# UVM_INFO ../src/slv/ahb_slave_driver.sv(184) @ 625000: uvm_test_top.env.slave_agent.drv [ahb_slave_driver] Beat AHB_WRITE addr=0x00005454 resp=AHB_RESP_OKAY waits=2 wdata=0x2645911f
# UVM_INFO ../src/mst/ahb_master_monitor.sv(117) @ 625000: uvm_test_top.env.master_agent.mon [ahb_master_monitor] Beat[21] addr=0x00005454 wdata=0x2645911f resp=AHB_RESP_OKAY
# UVM_INFO ../src/mst/ahb_master_driver.sv(317) @ 655000: uvm_test_top.env.master_agent.drv [ahb_master_driver] Beat[22/256] addr=0x00005458 trans=AHB_TRANS_SEQ resp=AHB_RESP_OKAY wdata=0x0c8ca09f
# UVM_INFO ../src/slv/ahb_slave_driver.sv(184) @ 655000: uvm_test_top.env.slave_agent.drv [ahb_slave_driver] Beat AHB_WRITE addr=0x00005458 resp=AHB_RESP_OKAY waits=2 wdata=0x0c8ca09f
# UVM_INFO ../src/mst/ahb_master_monitor.sv(117) @ 655000: uvm_test_top.env.master_agent.mon [ahb_master_monitor] Beat[22] addr=0x00005458 wdata=0x0c8ca09f resp=AHB_RESP_OKAY
# UVM_INFO ../src/mst/ahb_master_driver.sv(317) @ 675000: uvm_test_top.env.master_agent.drv [ahb_master_driver] Beat[23/256] addr=0x0000545c trans=AHB_TRANS_SEQ resp=AHB_RESP_OKAY wdata=0xaf0e2e69
# UVM_INFO ../src/slv/ahb_slave_driver.sv(184) @ 675000: uvm_test_top.env.slave_agent.drv [ahb_slave_driver] Beat AHB_WRITE addr=0x0000545c resp=AHB_RESP_OKAY waits=1 wdata=0xaf0e2e69
# UVM_INFO ../src/mst/ahb_master_monitor.sv(117) @ 675000: uvm_test_top.env.master_agent.mon [ahb_master_monitor] Beat[23] addr=0x0000545c wdata=0xaf0e2e69 resp=AHB_RESP_OKAY
# UVM_INFO ../src/mst/ahb_master_driver.sv(317) @ 715000: uvm_test_top.env.master_agent.drv [ahb_master_driver] Beat[24/256] addr=0x00005460 trans=AHB_TRANS_SEQ resp=AHB_RESP_OKAY wdata=0xa1979707
# UVM_INFO ../src/slv/ahb_slave_driver.sv(184) @ 715000: uvm_test_top.env.slave_agent.drv [ahb_slave_driver] Beat AHB_WRITE addr=0x00005460 resp=AHB_RESP_OKAY waits=1 wdata=0xa1979707
# UVM_INFO ../src/mst/ahb_master_monitor.sv(117) @ 715000: uvm_test_top.env.master_agent.mon [ahb_master_monitor] Beat[24] addr=0x00005460 wdata=0xa1979707 resp=AHB_RESP_OKAY
# UVM_INFO ../src/mst/ahb_master_driver.sv(317) @ 735000: uvm_test_top.env.master_agent.drv [ahb_master_driver] Beat[25/256] addr=0x00005464 trans=AHB_TRANS_SEQ resp=AHB_RESP_OKAY wdata=0xd3f98d7f
# UVM_INFO ../src/slv/ahb_slave_driver.sv(184) @ 735000: uvm_test_top.env.slave_agent.drv [ahb_slave_driver] Beat AHB_WRITE addr=0x00005464 resp=AHB_RESP_OKAY waits=1 wdata=0xd3f98d7f
# UVM_INFO ../src/mst/ahb_master_monitor.sv(117) @ 735000: uvm_test_top.env.master_agent.mon [ahb_master_monitor] Beat[25] addr=0x00005464 wdata=0xd3f98d7f resp=AHB_RESP_OKAY
# UVM_INFO ../src/mst/ahb_master_driver.sv(317) @ 745000: uvm_test_top.env.master_agent.drv [ahb_master_driver] Beat[26/256] addr=0x00005468 trans=AHB_TRANS_SEQ resp=AHB_RESP_OKAY wdata=0x58cfa60a
# UVM_INFO ../src/slv/ahb_slave_driver.sv(184) @ 745000: uvm_test_top.env.slave_agent.drv [ahb_slave_driver] Beat AHB_WRITE addr=0x00005468 resp=AHB_RESP_OKAY waits=0 wdata=0x58cfa60a
# UVM_INFO ../src/mst/ahb_master_monitor.sv(117) @ 745000: uvm_test_top.env.master_agent.mon [ahb_master_monitor] Beat[26] addr=0x00005468 wdata=0x58cfa60a resp=AHB_RESP_OKAY
# UVM_INFO ../src/mst/ahb_master_driver.sv(317) @ 775000: uvm_test_top.env.master_agent.drv [ahb_master_driver] Beat[27/256] addr=0x0000546c trans=AHB_TRANS_SEQ resp=AHB_RESP_OKAY wdata=0xa9822324
# UVM_INFO ../src/slv/ahb_slave_driver.sv(184) @ 775000: uvm_test_top.env.slave_agent.drv [ahb_slave_driver] Beat AHB_WRITE addr=0x0000546c resp=AHB_RESP_OKAY waits=2 wdata=0xa9822324
# UVM_INFO ../src/mst/ahb_master_monitor.sv(117) @ 775000: uvm_test_top.env.master_agent.mon [ahb_master_monitor] Beat[27] addr=0x0000546c wdata=0xa9822324 resp=AHB_RESP_OKAY
# UVM_INFO ../src/mst/ahb_master_driver.sv(317) @ 785000: uvm_test_top.env.master_agent.drv [ahb_master_driver] Beat[28/256] addr=0x00005470 trans=AHB_TRANS_SEQ resp=AHB_RESP_OKAY wdata=0xca517264
# UVM_INFO ../src/slv/ahb_slave_driver.sv(184) @ 785000: uvm_test_top.env.slave_agent.drv [ahb_slave_driver] Beat AHB_WRITE addr=0x00005470 resp=AHB_RESP_OKAY waits=0 wdata=0xca517264
# UVM_INFO ../src/mst/ahb_master_monitor.sv(117) @ 785000: uvm_test_top.env.master_agent.mon [ahb_master_monitor] Beat[28] addr=0x00005470 wdata=0xca517264 resp=AHB_RESP_OKAY
# UVM_INFO ../src/mst/ahb_master_driver.sv(317) @ 795000: uvm_test_top.env.master_agent.drv [ahb_master_driver] Beat[29/256] addr=0x00005474 trans=AHB_TRANS_SEQ resp=AHB_RESP_OKAY wdata=0x702e3b13
# UVM_INFO ../src/slv/ahb_slave_driver.sv(184) @ 795000: uvm_test_top.env.slave_agent.drv [ahb_slave_driver] Beat AHB_WRITE addr=0x00005474 resp=AHB_RESP_OKAY waits=0 wdata=0x702e3b13
# UVM_INFO ../src/mst/ahb_master_monitor.sv(117) @ 795000: uvm_test_top.env.master_agent.mon [ahb_master_monitor] Beat[29] addr=0x00005474 wdata=0x702e3b13 resp=AHB_RESP_OKAY
# UVM_INFO ../src/mst/ahb_master_driver.sv(317) @ 805000: uvm_test_top.env.master_agent.drv [ahb_master_driver] Beat[30/256] addr=0x00005478 trans=AHB_TRANS_SEQ resp=AHB_RESP_OKAY wdata=0x28d0d829
# UVM_INFO ../src/slv/ahb_slave_driver.sv(184) @ 805000: uvm_test_top.env.slave_agent.drv [ahb_slave_driver] Beat AHB_WRITE addr=0x00005478 resp=AHB_RESP_OKAY waits=0 wdata=0x28d0d829
# UVM_INFO ../src/mst/ahb_master_monitor.sv(117) @ 805000: uvm_test_top.env.master_agent.mon [ahb_master_monitor] Beat[30] addr=0x00005478 wdata=0x28d0d829 resp=AHB_RESP_OKAY
# UVM_INFO ../src/mst/ahb_master_driver.sv(317) @ 835000: uvm_test_top.env.master_agent.drv [ahb_master_driver] Beat[31/256] addr=0x0000547c trans=AHB_TRANS_SEQ resp=AHB_RESP_OKAY wdata=0x15a61dad
# UVM_INFO ../src/slv/ahb_slave_driver.sv(184) @ 835000: uvm_test_top.env.slave_agent.drv [ahb_slave_driver] Beat AHB_WRITE addr=0x0000547c resp=AHB_RESP_OKAY waits=2 wdata=0x15a61dad
# UVM_INFO ../src/mst/ahb_master_monitor.sv(117) @ 835000: uvm_test_top.env.master_agent.mon [ahb_master_monitor] Beat[31] addr=0x0000547c wdata=0x15a61dad resp=AHB_RESP_OKAY
# UVM_INFO ../src/mst/ahb_master_driver.sv(317) @ 885000: uvm_test_top.env.master_agent.drv [ahb_master_driver] Beat[32/256] addr=0x00005480 trans=AHB_TRANS_SEQ resp=AHB_RESP_OKAY wdata=0xf7e34137
# UVM_INFO ../src/slv/ahb_slave_driver.sv(184) @ 885000: uvm_test_top.env.slave_agent.drv [ahb_slave_driver] Beat AHB_WRITE addr=0x00005480 resp=AHB_RESP_OKAY waits=2 wdata=0xf7e34137
# UVM_INFO ../src/mst/ahb_master_monitor.sv(117) @ 885000: uvm_test_top.env.master_agent.mon [ahb_master_monitor] Beat[32] addr=0x00005480 wdata=0xf7e34137 resp=AHB_RESP_OKAY
# UVM_INFO ../src/mst/ahb_master_driver.sv(317) @ 915000: uvm_test_top.env.master_agent.drv [ahb_master_driver] Beat[33/256] addr=0x00005484 trans=AHB_TRANS_SEQ resp=AHB_RESP_OKAY wdata=0x84de8c37
# UVM_INFO ../src/slv/ahb_slave_driver.sv(184) @ 915000: uvm_test_top.env.slave_agent.drv [ahb_slave_driver] Beat AHB_WRITE addr=0x00005484 resp=AHB_RESP_OKAY waits=2 wdata=0x84de8c37
# UVM_INFO ../src/mst/ahb_master_monitor.sv(117) @ 915000: uvm_test_top.env.master_agent.mon [ahb_master_monitor] Beat[33] addr=0x00005484 wdata=0x84de8c37 resp=AHB_RESP_OKAY
# UVM_INFO ../src/mst/ahb_master_driver.sv(317) @ 945000: uvm_test_top.env.master_agent.drv [ahb_master_driver] Beat[34/256] addr=0x00005488 trans=AHB_TRANS_SEQ resp=AHB_RESP_OKAY wdata=0x40796c76
# UVM_INFO ../src/slv/ahb_slave_driver.sv(184) @ 945000: uvm_test_top.env.slave_agent.drv [ahb_slave_driver] Beat AHB_WRITE addr=0x00005488 resp=AHB_RESP_OKAY waits=2 wdata=0x40796c76
# UVM_INFO ../src/mst/ahb_master_monitor.sv(117) @ 945000: uvm_test_top.env.master_agent.mon [ahb_master_monitor] Beat[34] addr=0x00005488 wdata=0x40796c76 resp=AHB_RESP_OKAY
# UVM_INFO ../src/mst/ahb_master_driver.sv(317) @ 975000: uvm_test_top.env.master_agent.drv [ahb_master_driver] Beat[35/256] addr=0x0000548c trans=AHB_TRANS_SEQ resp=AHB_RESP_OKAY wdata=0x5bafc08b
# UVM_INFO ../src/slv/ahb_slave_driver.sv(184) @ 975000: uvm_test_top.env.slave_agent.drv [ahb_slave_driver] Beat AHB_WRITE addr=0x0000548c resp=AHB_RESP_OKAY waits=2 wdata=0x5bafc08b
# UVM_INFO ../src/mst/ahb_master_monitor.sv(117) @ 975000: uvm_test_top.env.master_agent.mon [ahb_master_monitor] Beat[35] addr=0x0000548c wdata=0x5bafc08b resp=AHB_RESP_OKAY
# UVM_INFO ../src/mst/ahb_master_driver.sv(317) @ 985000: uvm_test_top.env.master_agent.drv [ahb_master_driver] Beat[36/256] addr=0x00005490 trans=AHB_TRANS_SEQ resp=AHB_RESP_OKAY wdata=0x37cacf91
# UVM_INFO ../src/slv/ahb_slave_driver.sv(184) @ 985000: uvm_test_top.env.slave_agent.drv [ahb_slave_driver] Beat AHB_WRITE addr=0x00005490 resp=AHB_RESP_OKAY waits=0 wdata=0x37cacf91
# UVM_INFO ../src/mst/ahb_master_monitor.sv(117) @ 985000: uvm_test_top.env.master_agent.mon [ahb_master_monitor] Beat[36] addr=0x00005490 wdata=0x37cacf91 resp=AHB_RESP_OKAY
# UVM_INFO ../src/mst/ahb_master_driver.sv(317) @ 995000: uvm_test_top.env.master_agent.drv [ahb_master_driver] Beat[37/256] addr=0x00005494 trans=AHB_TRANS_SEQ resp=AHB_RESP_OKAY wdata=0x0402b48f
# UVM_INFO ../src/slv/ahb_slave_driver.sv(184) @ 995000: uvm_test_top.env.slave_agent.drv [ahb_slave_driver] Beat AHB_WRITE addr=0x00005494 resp=AHB_RESP_OKAY waits=0 wdata=0x0402b48f
# UVM_INFO ../src/mst/ahb_master_monitor.sv(117) @ 995000: uvm_test_top.env.master_agent.mon [ahb_master_monitor] Beat[37] addr=0x00005494 wdata=0x0402b48f resp=AHB_RESP_OKAY
# UVM_INFO ../src/mst/ahb_master_driver.sv(317) @ 1025000: uvm_test_top.env.master_agent.drv [ahb_master_driver] Beat[38/256] addr=0x00005498 trans=AHB_TRANS_SEQ resp=AHB_RESP_OKAY wdata=0x4e66f559
# UVM_INFO ../src/slv/ahb_slave_driver.sv(184) @ 1025000: uvm_test_top.env.slave_agent.drv [ahb_slave_driver] Beat AHB_WRITE addr=0x00005498 resp=AHB_RESP_OKAY waits=2 wdata=0x4e66f559
# UVM_INFO ../src/mst/ahb_master_monitor.sv(117) @ 1025000: uvm_test_top.env.master_agent.mon [ahb_master_monitor] Beat[38] addr=0x00005498 wdata=0x4e66f559 resp=AHB_RESP_OKAY
# UVM_INFO ../src/mst/ahb_master_driver.sv(317) @ 1035000: uvm_test_top.env.master_agent.drv [ahb_master_driver] Beat[39/256] addr=0x0000549c trans=AHB_TRANS_SEQ resp=AHB_RESP_OKAY wdata=0x914cc6f4
# UVM_INFO ../src/slv/ahb_slave_driver.sv(184) @ 1035000: uvm_test_top.env.slave_agent.drv [ahb_slave_driver] Beat AHB_WRITE addr=0x0000549c resp=AHB_RESP_OKAY waits=0 wdata=0x914cc6f4
# UVM_INFO ../src/mst/ahb_master_monitor.sv(117) @ 1035000: uvm_test_top.env.master_agent.mon [ahb_master_monitor] Beat[39] addr=0x0000549c wdata=0x914cc6f4 resp=AHB_RESP_OKAY
# UVM_INFO ../src/mst/ahb_master_driver.sv(317) @ 1055000: uvm_test_top.env.master_agent.drv [ahb_master_driver] Beat[40/256] addr=0x000054a0 trans=AHB_TRANS_SEQ resp=AHB_RESP_OKAY wdata=0xf5588c33
# UVM_INFO ../src/slv/ahb_slave_driver.sv(184) @ 1055000: uvm_test_top.env.slave_agent.drv [ahb_slave_driver] Beat AHB_WRITE addr=0x000054a0 resp=AHB_RESP_OKAY waits=0 wdata=0xf5588c33
# UVM_INFO ../src/mst/ahb_master_monitor.sv(117) @ 1055000: uvm_test_top.env.master_agent.mon [ahb_master_monitor] Beat[40] addr=0x000054a0 wdata=0xf5588c33 resp=AHB_RESP_OKAY
# UVM_INFO ../src/mst/ahb_master_driver.sv(317) @ 1075000: uvm_test_top.env.master_agent.drv [ahb_master_driver] Beat[41/256] addr=0x000054a4 trans=AHB_TRANS_SEQ resp=AHB_RESP_OKAY wdata=0x6a5ffeb6
# UVM_INFO ../src/slv/ahb_slave_driver.sv(184) @ 1075000: uvm_test_top.env.slave_agent.drv [ahb_slave_driver] Beat AHB_WRITE addr=0x000054a4 resp=AHB_RESP_OKAY waits=1 wdata=0x6a5ffeb6
# UVM_INFO ../src/mst/ahb_master_monitor.sv(117) @ 1075000: uvm_test_top.env.master_agent.mon [ahb_master_monitor] Beat[41] addr=0x000054a4 wdata=0x6a5ffeb6 resp=AHB_RESP_OKAY
# UVM_INFO ../src/mst/ahb_master_driver.sv(317) @ 1085000: uvm_test_top.env.master_agent.drv [ahb_master_driver] Beat[42/256] addr=0x000054a8 trans=AHB_TRANS_SEQ resp=AHB_RESP_OKAY wdata=0x54a4f2bf
# UVM_INFO ../src/slv/ahb_slave_driver.sv(184) @ 1085000: uvm_test_top.env.slave_agent.drv [ahb_slave_driver] Beat AHB_WRITE addr=0x000054a8 resp=AHB_RESP_OKAY waits=0 wdata=0x54a4f2bf
# UVM_INFO ../src/mst/ahb_master_monitor.sv(117) @ 1085000: uvm_test_top.env.master_agent.mon [ahb_master_monitor] Beat[42] addr=0x000054a8 wdata=0x54a4f2bf resp=AHB_RESP_OKAY
# UVM_INFO ../src/mst/ahb_master_driver.sv(317) @ 1115000: uvm_test_top.env.master_agent.drv [ahb_master_driver] Beat[43/256] addr=0x000054ac trans=AHB_TRANS_SEQ resp=AHB_RESP_OKAY wdata=0xcb01c851
# UVM_INFO ../src/slv/ahb_slave_driver.sv(184) @ 1115000: uvm_test_top.env.slave_agent.drv [ahb_slave_driver] Beat AHB_WRITE addr=0x000054ac resp=AHB_RESP_OKAY waits=2 wdata=0xcb01c851
# UVM_INFO ../src/mst/ahb_master_monitor.sv(117) @ 1115000: uvm_test_top.env.master_agent.mon [ahb_master_monitor] Beat[43] addr=0x000054ac wdata=0xcb01c851 resp=AHB_RESP_OKAY
# UVM_INFO ../src/mst/ahb_master_driver.sv(317) @ 1125000: uvm_test_top.env.master_agent.drv [ahb_master_driver] Beat[44/256] addr=0x000054b0 trans=AHB_TRANS_SEQ resp=AHB_RESP_OKAY wdata=0xd3a4e983
# UVM_INFO ../src/slv/ahb_slave_driver.sv(184) @ 1125000: uvm_test_top.env.slave_agent.drv [ahb_slave_driver] Beat AHB_WRITE addr=0x000054b0 resp=AHB_RESP_OKAY waits=0 wdata=0xd3a4e983
# UVM_INFO ../src/mst/ahb_master_monitor.sv(117) @ 1125000: uvm_test_top.env.master_agent.mon [ahb_master_monitor] Beat[44] addr=0x000054b0 wdata=0xd3a4e983 resp=AHB_RESP_OKAY
# UVM_INFO ../src/mst/ahb_master_driver.sv(317) @ 1155000: uvm_test_top.env.master_agent.drv [ahb_master_driver] Beat[45/256] addr=0x000054b4 trans=AHB_TRANS_SEQ resp=AHB_RESP_OKAY wdata=0xcda2b129
# UVM_INFO ../src/slv/ahb_slave_driver.sv(184) @ 1155000: uvm_test_top.env.slave_agent.drv [ahb_slave_driver] Beat AHB_WRITE addr=0x000054b4 resp=AHB_RESP_OKAY waits=2 wdata=0xcda2b129
# UVM_INFO ../src/mst/ahb_master_monitor.sv(117) @ 1155000: uvm_test_top.env.master_agent.mon [ahb_master_monitor] Beat[45] addr=0x000054b4 wdata=0xcda2b129 resp=AHB_RESP_OKAY
# UVM_INFO ../src/mst/ahb_master_driver.sv(317) @ 1175000: uvm_test_top.env.master_agent.drv [ahb_master_driver] Beat[46/256] addr=0x000054b8 trans=AHB_TRANS_SEQ resp=AHB_RESP_OKAY wdata=0x5780da2f
# UVM_INFO ../src/slv/ahb_slave_driver.sv(184) @ 1175000: uvm_test_top.env.slave_agent.drv [ahb_slave_driver] Beat AHB_WRITE addr=0x000054b8 resp=AHB_RESP_OKAY waits=1 wdata=0x5780da2f
# UVM_INFO ../src/mst/ahb_master_monitor.sv(117) @ 1175000: uvm_test_top.env.master_agent.mon [ahb_master_monitor] Beat[46] addr=0x000054b8 wdata=0x5780da2f resp=AHB_RESP_OKAY
# UVM_INFO ../src/mst/ahb_master_driver.sv(317) @ 1205000: uvm_test_top.env.master_agent.drv [ahb_master_driver] Beat[47/256] addr=0x000054bc trans=AHB_TRANS_SEQ resp=AHB_RESP_OKAY wdata=0x94551910
# UVM_INFO ../src/slv/ahb_slave_driver.sv(184) @ 1205000: uvm_test_top.env.slave_agent.drv [ahb_slave_driver] Beat AHB_WRITE addr=0x000054bc resp=AHB_RESP_OKAY waits=2 wdata=0x94551910
# UVM_INFO ../src/mst/ahb_master_monitor.sv(117) @ 1205000: uvm_test_top.env.master_agent.mon [ahb_master_monitor] Beat[47] addr=0x000054bc wdata=0x94551910 resp=AHB_RESP_OKAY
# UVM_INFO ../src/mst/ahb_master_driver.sv(317) @ 1245000: uvm_test_top.env.master_agent.drv [ahb_master_driver] Beat[48/256] addr=0x000054c0 trans=AHB_TRANS_SEQ resp=AHB_RESP_OKAY wdata=0x67dba9fe
# UVM_INFO ../src/slv/ahb_slave_driver.sv(184) @ 1245000: uvm_test_top.env.slave_agent.drv [ahb_slave_driver] Beat AHB_WRITE addr=0x000054c0 resp=AHB_RESP_OKAY waits=1 wdata=0x67dba9fe
# UVM_INFO ../src/mst/ahb_master_monitor.sv(117) @ 1245000: uvm_test_top.env.master_agent.mon [ahb_master_monitor] Beat[48] addr=0x000054c0 wdata=0x67dba9fe resp=AHB_RESP_OKAY
# UVM_INFO ../src/mst/ahb_master_driver.sv(317) @ 1265000: uvm_test_top.env.master_agent.drv [ahb_master_driver] Beat[49/256] addr=0x000054c4 trans=AHB_TRANS_SEQ resp=AHB_RESP_OKAY wdata=0xe123e692
# UVM_INFO ../src/slv/ahb_slave_driver.sv(184) @ 1265000: uvm_test_top.env.slave_agent.drv [ahb_slave_driver] Beat AHB_WRITE addr=0x000054c4 resp=AHB_RESP_OKAY waits=1 wdata=0xe123e692
# UVM_INFO ../src/mst/ahb_master_monitor.sv(117) @ 1265000: uvm_test_top.env.master_agent.mon [ahb_master_monitor] Beat[49] addr=0x000054c4 wdata=0xe123e692 resp=AHB_RESP_OKAY
# UVM_INFO ../src/mst/ahb_master_driver.sv(317) @ 1275000: uvm_test_top.env.master_agent.drv [ahb_master_driver] Beat[50/256] addr=0x000054c8 trans=AHB_TRANS_SEQ resp=AHB_RESP_OKAY wdata=0x5d99ccff
# UVM_INFO ../src/slv/ahb_slave_driver.sv(184) @ 1275000: uvm_test_top.env.slave_agent.drv [ahb_slave_driver] Beat AHB_WRITE addr=0x000054c8 resp=AHB_RESP_OKAY waits=0 wdata=0x5d99ccff
# UVM_INFO ../src/mst/ahb_master_monitor.sv(117) @ 1275000: uvm_test_top.env.master_agent.mon [ahb_master_monitor] Beat[50] addr=0x000054c8 wdata=0x5d99ccff resp=AHB_RESP_OKAY
# UVM_INFO ../src/mst/ahb_master_driver.sv(317) @ 1285000: uvm_test_top.env.master_agent.drv [ahb_master_driver] Beat[51/256] addr=0x000054cc trans=AHB_TRANS_SEQ resp=AHB_RESP_OKAY wdata=0xf2c2d6e7
# UVM_INFO ../src/slv/ahb_slave_driver.sv(184) @ 1285000: uvm_test_top.env.slave_agent.drv [ahb_slave_driver] Beat AHB_WRITE addr=0x000054cc resp=AHB_RESP_OKAY waits=0 wdata=0xf2c2d6e7
# UVM_INFO ../src/mst/ahb_master_monitor.sv(117) @ 1285000: uvm_test_top.env.master_agent.mon [ahb_master_monitor] Beat[51] addr=0x000054cc wdata=0xf2c2d6e7 resp=AHB_RESP_OKAY
# UVM_INFO ../src/mst/ahb_master_driver.sv(317) @ 1315000: uvm_test_top.env.master_agent.drv [ahb_master_driver] Beat[52/256] addr=0x000054d0 trans=AHB_TRANS_SEQ resp=AHB_RESP_OKAY wdata=0xccf3faf0
# UVM_INFO ../src/slv/ahb_slave_driver.sv(184) @ 1315000: uvm_test_top.env.slave_agent.drv [ahb_slave_driver] Beat AHB_WRITE addr=0x000054d0 resp=AHB_RESP_OKAY waits=2 wdata=0xccf3faf0
# UVM_INFO ../src/mst/ahb_master_monitor.sv(117) @ 1315000: uvm_test_top.env.master_agent.mon [ahb_master_monitor] Beat[52] addr=0x000054d0 wdata=0xccf3faf0 resp=AHB_RESP_OKAY
# UVM_INFO ../src/mst/ahb_master_driver.sv(317) @ 1335000: uvm_test_top.env.master_agent.drv [ahb_master_driver] Beat[53/256] addr=0x000054d4 trans=AHB_TRANS_SEQ resp=AHB_RESP_OKAY wdata=0xb240ad59
# UVM_INFO ../src/slv/ahb_slave_driver.sv(184) @ 1335000: uvm_test_top.env.slave_agent.drv [ahb_slave_driver] Beat AHB_WRITE addr=0x000054d4 resp=AHB_RESP_OKAY waits=1 wdata=0xb240ad59
# UVM_INFO ../src/mst/ahb_master_monitor.sv(117) @ 1335000: uvm_test_top.env.master_agent.mon [ahb_master_monitor] Beat[53] addr=0x000054d4 wdata=0xb240ad59 resp=AHB_RESP_OKAY
# UVM_INFO ../src/mst/ahb_master_driver.sv(317) @ 1355000: uvm_test_top.env.master_agent.drv [ahb_master_driver] Beat[54/256] addr=0x000054d8 trans=AHB_TRANS_SEQ resp=AHB_RESP_OKAY wdata=0x2c514209
# UVM_INFO ../src/slv/ahb_slave_driver.sv(184) @ 1355000: uvm_test_top.env.slave_agent.drv [ahb_slave_driver] Beat AHB_WRITE addr=0x000054d8 resp=AHB_RESP_OKAY waits=1 wdata=0x2c514209
# UVM_INFO ../src/mst/ahb_master_monitor.sv(117) @ 1355000: uvm_test_top.env.master_agent.mon [ahb_master_monitor] Beat[54] addr=0x000054d8 wdata=0x2c514209 resp=AHB_RESP_OKAY
# UVM_INFO ../src/mst/ahb_master_driver.sv(317) @ 1365000: uvm_test_top.env.master_agent.drv [ahb_master_driver] Beat[55/256] addr=0x000054dc trans=AHB_TRANS_SEQ resp=AHB_RESP_OKAY wdata=0x0b57b59f
# UVM_INFO ../src/slv/ahb_slave_driver.sv(184) @ 1365000: uvm_test_top.env.slave_agent.drv [ahb_slave_driver] Beat AHB_WRITE addr=0x000054dc resp=AHB_RESP_OKAY waits=0 wdata=0x0b57b59f
# UVM_INFO ../src/mst/ahb_master_monitor.sv(117) @ 1365000: uvm_test_top.env.master_agent.mon [ahb_master_monitor] Beat[55] addr=0x000054dc wdata=0x0b57b59f resp=AHB_RESP_OKAY
# UVM_INFO ../src/mst/ahb_master_driver.sv(317) @ 1395000: uvm_test_top.env.master_agent.drv [ahb_master_driver] Beat[56/256] addr=0x000054e0 trans=AHB_TRANS_SEQ resp=AHB_RESP_OKAY wdata=0xb8be76de
# UVM_INFO ../src/slv/ahb_slave_driver.sv(184) @ 1395000: uvm_test_top.env.slave_agent.drv [ahb_slave_driver] Beat AHB_WRITE addr=0x000054e0 resp=AHB_RESP_OKAY waits=0 wdata=0xb8be76de
# UVM_INFO ../src/mst/ahb_master_monitor.sv(117) @ 1395000: uvm_test_top.env.master_agent.mon [ahb_master_monitor] Beat[56] addr=0x000054e0 wdata=0xb8be76de resp=AHB_RESP_OKAY
# UVM_INFO ../src/mst/ahb_master_driver.sv(317) @ 1405000: uvm_test_top.env.master_agent.drv [ahb_master_driver] Beat[57/256] addr=0x000054e4 trans=AHB_TRANS_SEQ resp=AHB_RESP_OKAY wdata=0xc4c7cf5f
# UVM_INFO ../src/slv/ahb_slave_driver.sv(184) @ 1405000: uvm_test_top.env.slave_agent.drv [ahb_slave_driver] Beat AHB_WRITE addr=0x000054e4 resp=AHB_RESP_OKAY waits=0 wdata=0xc4c7cf5f
# UVM_INFO ../src/mst/ahb_master_monitor.sv(117) @ 1405000: uvm_test_top.env.master_agent.mon [ahb_master_monitor] Beat[57] addr=0x000054e4 wdata=0xc4c7cf5f resp=AHB_RESP_OKAY
# UVM_INFO ../src/mst/ahb_master_driver.sv(317) @ 1435000: uvm_test_top.env.master_agent.drv [ahb_master_driver] Beat[58/256] addr=0x000054e8 trans=AHB_TRANS_SEQ resp=AHB_RESP_OKAY wdata=0xa9108606
# UVM_INFO ../src/slv/ahb_slave_driver.sv(184) @ 1435000: uvm_test_top.env.slave_agent.drv [ahb_slave_driver] Beat AHB_WRITE addr=0x000054e8 resp=AHB_RESP_OKAY waits=2 wdata=0xa9108606
# UVM_INFO ../src/mst/ahb_master_monitor.sv(117) @ 1435000: uvm_test_top.env.master_agent.mon [ahb_master_monitor] Beat[58] addr=0x000054e8 wdata=0xa9108606 resp=AHB_RESP_OKAY
# UVM_INFO ../src/mst/ahb_master_driver.sv(317) @ 1465000: uvm_test_top.env.master_agent.drv [ahb_master_driver] Beat[59/256] addr=0x000054ec trans=AHB_TRANS_SEQ resp=AHB_RESP_OKAY wdata=0x0e96d04b
# UVM_INFO ../src/slv/ahb_slave_driver.sv(184) @ 1465000: uvm_test_top.env.slave_agent.drv [ahb_slave_driver] Beat AHB_WRITE addr=0x000054ec resp=AHB_RESP_OKAY waits=2 wdata=0x0e96d04b
# UVM_INFO ../src/mst/ahb_master_monitor.sv(117) @ 1465000: uvm_test_top.env.master_agent.mon [ahb_master_monitor] Beat[59] addr=0x000054ec wdata=0x0e96d04b resp=AHB_RESP_OKAY
# UVM_INFO ../src/mst/ahb_master_driver.sv(317) @ 1495000: uvm_test_top.env.master_agent.drv [ahb_master_driver] Beat[60/256] addr=0x000054f0 trans=AHB_TRANS_SEQ resp=AHB_RESP_OKAY wdata=0xe0532de9
# UVM_INFO ../src/slv/ahb_slave_driver.sv(184) @ 1495000: uvm_test_top.env.slave_agent.drv [ahb_slave_driver] Beat AHB_WRITE addr=0x000054f0 resp=AHB_RESP_OKAY waits=2 wdata=0xe0532de9
# UVM_INFO ../src/mst/ahb_master_monitor.sv(117) @ 1495000: uvm_test_top.env.master_agent.mon [ahb_master_monitor] Beat[60] addr=0x000054f0 wdata=0xe0532de9 resp=AHB_RESP_OKAY
# UVM_INFO ../src/mst/ahb_master_driver.sv(317) @ 1525000: uvm_test_top.env.master_agent.drv [ahb_master_driver] Beat[61/256] addr=0x000054f4 trans=AHB_TRANS_SEQ resp=AHB_RESP_OKAY wdata=0x9afdeb2f
# UVM_INFO ../src/slv/ahb_slave_driver.sv(184) @ 1525000: uvm_test_top.env.slave_agent.drv [ahb_slave_driver] Beat AHB_WRITE addr=0x000054f4 resp=AHB_RESP_OKAY waits=2 wdata=0x9afdeb2f
# UVM_INFO ../src/mst/ahb_master_monitor.sv(117) @ 1525000: uvm_test_top.env.master_agent.mon [ahb_master_monitor] Beat[61] addr=0x000054f4 wdata=0x9afdeb2f resp=AHB_RESP_OKAY
# UVM_INFO ../src/mst/ahb_master_driver.sv(317) @ 1545000: uvm_test_top.env.master_agent.drv [ahb_master_driver] Beat[62/256] addr=0x000054f8 trans=AHB_TRANS_SEQ resp=AHB_RESP_OKAY wdata=0x9aed81ea
# UVM_INFO ../src/slv/ahb_slave_driver.sv(184) @ 1545000: uvm_test_top.env.slave_agent.drv [ahb_slave_driver] Beat AHB_WRITE addr=0x000054f8 resp=AHB_RESP_OKAY waits=1 wdata=0x9aed81ea
# UVM_INFO ../src/mst/ahb_master_monitor.sv(117) @ 1545000: uvm_test_top.env.master_agent.mon [ahb_master_monitor] Beat[62] addr=0x000054f8 wdata=0x9aed81ea resp=AHB_RESP_OKAY
# UVM_INFO ../src/mst/ahb_master_driver.sv(317) @ 1575000: uvm_test_top.env.master_agent.drv [ahb_master_driver] Beat[63/256] addr=0x000054fc trans=AHB_TRANS_SEQ resp=AHB_RESP_OKAY wdata=0x94dd4125
# UVM_INFO ../src/slv/ahb_slave_driver.sv(184) @ 1575000: uvm_test_top.env.slave_agent.drv [ahb_slave_driver] Beat AHB_WRITE addr=0x000054fc resp=AHB_RESP_OKAY waits=2 wdata=0x94dd4125
# UVM_INFO ../src/mst/ahb_master_monitor.sv(117) @ 1575000: uvm_test_top.env.master_agent.mon [ahb_master_monitor] Beat[63] addr=0x000054fc wdata=0x94dd4125 resp=AHB_RESP_OKAY
# UVM_INFO ../src/mst/ahb_master_driver.sv(317) @ 1605000: uvm_test_top.env.master_agent.drv [ahb_master_driver] Beat[64/256] addr=0x00005500 trans=AHB_TRANS_SEQ resp=AHB_RESP_OKAY wdata=0xb1d43592
# UVM_INFO ../src/slv/ahb_slave_driver.sv(184) @ 1605000: uvm_test_top.env.slave_agent.drv [ahb_slave_driver] Beat AHB_WRITE addr=0x00005500 resp=AHB_RESP_OKAY waits=1 wdata=0xb1d43592
# UVM_INFO ../src/mst/ahb_master_monitor.sv(117) @ 1605000: uvm_test_top.env.master_agent.mon [ahb_master_monitor] Beat[64] addr=0x00005500 wdata=0xb1d43592 resp=AHB_RESP_OKAY
# UVM_INFO ../src/mst/ahb_master_driver.sv(317) @ 1635000: uvm_test_top.env.master_agent.drv [ahb_master_driver] Beat[65/256] addr=0x00005504 trans=AHB_TRANS_SEQ resp=AHB_RESP_OKAY wdata=0x52cfa6d6
# UVM_INFO ../src/slv/ahb_slave_driver.sv(184) @ 1635000: uvm_test_top.env.slave_agent.drv [ahb_slave_driver] Beat AHB_WRITE addr=0x00005504 resp=AHB_RESP_OKAY waits=2 wdata=0x52cfa6d6
# UVM_INFO ../src/mst/ahb_master_monitor.sv(117) @ 1635000: uvm_test_top.env.master_agent.mon [ahb_master_monitor] Beat[65] addr=0x00005504 wdata=0x52cfa6d6 resp=AHB_RESP_OKAY
# UVM_INFO ../src/mst/ahb_master_driver.sv(317) @ 1645000: uvm_test_top.env.master_agent.drv [ahb_master_driver] Beat[66/256] addr=0x00005508 trans=AHB_TRANS_SEQ resp=AHB_RESP_OKAY wdata=0xd3596880
# UVM_INFO ../src/slv/ahb_slave_driver.sv(184) @ 1645000: uvm_test_top.env.slave_agent.drv [ahb_slave_driver] Beat AHB_WRITE addr=0x00005508 resp=AHB_RESP_OKAY waits=0 wdata=0xd3596880
# UVM_INFO ../src/mst/ahb_master_monitor.sv(117) @ 1645000: uvm_test_top.env.master_agent.mon [ahb_master_monitor] Beat[66] addr=0x00005508 wdata=0xd3596880 resp=AHB_RESP_OKAY
# UVM_INFO ../src/mst/ahb_master_driver.sv(317) @ 1655000: uvm_test_top.env.master_agent.drv [ahb_master_driver] Beat[67/256] addr=0x0000550c trans=AHB_TRANS_SEQ resp=AHB_RESP_OKAY wdata=0xac947301
# UVM_INFO ../src/slv/ahb_slave_driver.sv(184) @ 1655000: uvm_test_top.env.slave_agent.drv [ahb_slave_driver] Beat AHB_WRITE addr=0x0000550c resp=AHB_RESP_OKAY waits=0 wdata=0xac947301
# UVM_INFO ../src/mst/ahb_master_monitor.sv(117) @ 1655000: uvm_test_top.env.master_agent.mon [ahb_master_monitor] Beat[67] addr=0x0000550c wdata=0xac947301 resp=AHB_RESP_OKAY
# UVM_INFO ../src/mst/ahb_master_driver.sv(317) @ 1685000: uvm_test_top.env.master_agent.drv [ahb_master_driver] Beat[68/256] addr=0x00005510 trans=AHB_TRANS_SEQ resp=AHB_RESP_OKAY wdata=0x6bf8b350
# UVM_INFO ../src/slv/ahb_slave_driver.sv(184) @ 1685000: uvm_test_top.env.slave_agent.drv [ahb_slave_driver] Beat AHB_WRITE addr=0x00005510 resp=AHB_RESP_OKAY waits=2 wdata=0x6bf8b350
# UVM_INFO ../src/mst/ahb_master_monitor.sv(117) @ 1685000: uvm_test_top.env.master_agent.mon [ahb_master_monitor] Beat[68] addr=0x00005510 wdata=0x6bf8b350 resp=AHB_RESP_OKAY
# UVM_INFO ../src/mst/ahb_master_driver.sv(317) @ 1715000: uvm_test_top.env.master_agent.drv [ahb_master_driver] Beat[69/256] addr=0x00005514 trans=AHB_TRANS_SEQ resp=AHB_RESP_OKAY wdata=0xf7a068dc
# UVM_INFO ../src/slv/ahb_slave_driver.sv(184) @ 1715000: uvm_test_top.env.slave_agent.drv [ahb_slave_driver] Beat AHB_WRITE addr=0x00005514 resp=AHB_RESP_OKAY waits=2 wdata=0xf7a068dc
# UVM_INFO ../src/mst/ahb_master_monitor.sv(117) @ 1715000: uvm_test_top.env.master_agent.mon [ahb_master_monitor] Beat[69] addr=0x00005514 wdata=0xf7a068dc resp=AHB_RESP_OKAY
# UVM_INFO ../src/mst/ahb_master_driver.sv(317) @ 1725000: uvm_test_top.env.master_agent.drv [ahb_master_driver] Beat[70/256] addr=0x00005518 trans=AHB_TRANS_SEQ resp=AHB_RESP_OKAY wdata=0x9a2c7d04
# UVM_INFO ../src/slv/ahb_slave_driver.sv(184) @ 1725000: uvm_test_top.env.slave_agent.drv [ahb_slave_driver] Beat AHB_WRITE addr=0x00005518 resp=AHB_RESP_OKAY waits=0 wdata=0x9a2c7d04
# UVM_INFO ../src/mst/ahb_master_monitor.sv(117) @ 1725000: uvm_test_top.env.master_agent.mon [ahb_master_monitor] Beat[70] addr=0x00005518 wdata=0x9a2c7d04 resp=AHB_RESP_OKAY
# UVM_INFO ../src/mst/ahb_master_driver.sv(317) @ 1735000: uvm_test_top.env.master_agent.drv [ahb_master_driver] Beat[71/256] addr=0x0000551c trans=AHB_TRANS_SEQ resp=AHB_RESP_OKAY wdata=0x92fea2a0
# UVM_INFO ../src/slv/ahb_slave_driver.sv(184) @ 1735000: uvm_test_top.env.slave_agent.drv [ahb_slave_driver] Beat AHB_WRITE addr=0x0000551c resp=AHB_RESP_OKAY waits=0 wdata=0x92fea2a0
# UVM_INFO ../src/mst/ahb_master_monitor.sv(117) @ 1735000: uvm_test_top.env.master_agent.mon [ahb_master_monitor] Beat[71] addr=0x0000551c wdata=0x92fea2a0 resp=AHB_RESP_OKAY
# UVM_INFO ../src/mst/ahb_master_driver.sv(317) @ 1765000: uvm_test_top.env.master_agent.drv [ahb_master_driver] Beat[72/256] addr=0x00005520 trans=AHB_TRANS_SEQ resp=AHB_RESP_OKAY wdata=0x9d432cc3
# UVM_INFO ../src/slv/ahb_slave_driver.sv(184) @ 1765000: uvm_test_top.env.slave_agent.drv [ahb_slave_driver] Beat AHB_WRITE addr=0x00005520 resp=AHB_RESP_OKAY waits=1 wdata=0x9d432cc3
# UVM_INFO ../src/mst/ahb_master_monitor.sv(117) @ 1765000: uvm_test_top.env.master_agent.mon [ahb_master_monitor] Beat[72] addr=0x00005520 wdata=0x9d432cc3 resp=AHB_RESP_OKAY
# UVM_INFO ../src/mst/ahb_master_driver.sv(317) @ 1785000: uvm_test_top.env.master_agent.drv [ahb_master_driver] Beat[73/256] addr=0x00005524 trans=AHB_TRANS_SEQ resp=AHB_RESP_OKAY wdata=0x08d61206
# UVM_INFO ../src/slv/ahb_slave_driver.sv(184) @ 1785000: uvm_test_top.env.slave_agent.drv [ahb_slave_driver] Beat AHB_WRITE addr=0x00005524 resp=AHB_RESP_OKAY waits=1 wdata=0x08d61206
# UVM_INFO ../src/mst/ahb_master_monitor.sv(117) @ 1785000: uvm_test_top.env.master_agent.mon [ahb_master_monitor] Beat[73] addr=0x00005524 wdata=0x08d61206 resp=AHB_RESP_OKAY
# UVM_INFO ../src/mst/ahb_master_driver.sv(317) @ 1815000: uvm_test_top.env.master_agent.drv [ahb_master_driver] Beat[74/256] addr=0x00005528 trans=AHB_TRANS_SEQ resp=AHB_RESP_OKAY wdata=0x63efb7ab
# UVM_INFO ../src/slv/ahb_slave_driver.sv(184) @ 1815000: uvm_test_top.env.slave_agent.drv [ahb_slave_driver] Beat AHB_WRITE addr=0x00005528 resp=AHB_RESP_OKAY waits=2 wdata=0x63efb7ab
# UVM_INFO ../src/mst/ahb_master_monitor.sv(117) @ 1815000: uvm_test_top.env.master_agent.mon [ahb_master_monitor] Beat[74] addr=0x00005528 wdata=0x63efb7ab resp=AHB_RESP_OKAY
# UVM_INFO ../src/mst/ahb_master_driver.sv(317) @ 1845000: uvm_test_top.env.master_agent.drv [ahb_master_driver] Beat[75/256] addr=0x0000552c trans=AHB_TRANS_SEQ resp=AHB_RESP_OKAY wdata=0x25130c68
# UVM_INFO ../src/slv/ahb_slave_driver.sv(184) @ 1845000: uvm_test_top.env.slave_agent.drv [ahb_slave_driver] Beat AHB_WRITE addr=0x0000552c resp=AHB_RESP_OKAY waits=2 wdata=0x25130c68
# UVM_INFO ../src/mst/ahb_master_monitor.sv(117) @ 1845000: uvm_test_top.env.master_agent.mon [ahb_master_monitor] Beat[75] addr=0x0000552c wdata=0x25130c68 resp=AHB_RESP_OKAY
# UVM_INFO ../src/mst/ahb_master_driver.sv(317) @ 1875000: uvm_test_top.env.master_agent.drv [ahb_master_driver] Beat[76/256] addr=0x00005530 trans=AHB_TRANS_SEQ resp=AHB_RESP_OKAY wdata=0x3a5e7d40
# UVM_INFO ../src/slv/ahb_slave_driver.sv(184) @ 1875000: uvm_test_top.env.slave_agent.drv [ahb_slave_driver] Beat AHB_WRITE addr=0x00005530 resp=AHB_RESP_OKAY waits=2 wdata=0x3a5e7d40
# UVM_INFO ../src/mst/ahb_master_monitor.sv(117) @ 1875000: uvm_test_top.env.master_agent.mon [ahb_master_monitor] Beat[76] addr=0x00005530 wdata=0x3a5e7d40 resp=AHB_RESP_OKAY
# UVM_INFO ../src/mst/ahb_master_driver.sv(317) @ 1895000: uvm_test_top.env.master_agent.drv [ahb_master_driver] Beat[77/256] addr=0x00005534 trans=AHB_TRANS_SEQ resp=AHB_RESP_OKAY wdata=0x79af35c1
# UVM_INFO ../src/slv/ahb_slave_driver.sv(184) @ 1895000: uvm_test_top.env.slave_agent.drv [ahb_slave_driver] Beat AHB_WRITE addr=0x00005534 resp=AHB_RESP_OKAY waits=1 wdata=0x79af35c1
# UVM_INFO ../src/mst/ahb_master_monitor.sv(117) @ 1895000: uvm_test_top.env.master_agent.mon [ahb_master_monitor] Beat[77] addr=0x00005534 wdata=0x79af35c1 resp=AHB_RESP_OKAY
# UVM_INFO ../src/mst/ahb_master_driver.sv(317) @ 1915000: uvm_test_top.env.master_agent.drv [ahb_master_driver] Beat[78/256] addr=0x00005538 trans=AHB_TRANS_SEQ resp=AHB_RESP_OKAY wdata=0xf99a55b1
# UVM_INFO ../src/slv/ahb_slave_driver.sv(184) @ 1915000: uvm_test_top.env.slave_agent.drv [ahb_slave_driver] Beat AHB_WRITE addr=0x00005538 resp=AHB_RESP_OKAY waits=1 wdata=0xf99a55b1
# UVM_INFO ../src/mst/ahb_master_monitor.sv(117) @ 1915000: uvm_test_top.env.master_agent.mon [ahb_master_monitor] Beat[78] addr=0x00005538 wdata=0xf99a55b1 resp=AHB_RESP_OKAY
# UVM_INFO ../src/mst/ahb_master_driver.sv(317) @ 1925000: uvm_test_top.env.master_agent.drv [ahb_master_driver] Beat[79/256] addr=0x0000553c trans=AHB_TRANS_SEQ resp=AHB_RESP_OKAY wdata=0xc4abbadc
# UVM_INFO ../src/slv/ahb_slave_driver.sv(184) @ 1925000: uvm_test_top.env.slave_agent.drv [ahb_slave_driver] Beat AHB_WRITE addr=0x0000553c resp=AHB_RESP_OKAY waits=0 wdata=0xc4abbadc
# UVM_INFO ../src/mst/ahb_master_monitor.sv(117) @ 1925000: uvm_test_top.env.master_agent.mon [ahb_master_monitor] Beat[79] addr=0x0000553c wdata=0xc4abbadc resp=AHB_RESP_OKAY
# UVM_INFO ../src/mst/ahb_master_driver.sv(317) @ 1965000: uvm_test_top.env.master_agent.drv [ahb_master_driver] Beat[80/256] addr=0x00005540 trans=AHB_TRANS_SEQ resp=AHB_RESP_OKAY wdata=0x7c3c6cc1
# UVM_INFO ../src/slv/ahb_slave_driver.sv(184) @ 1965000: uvm_test_top.env.slave_agent.drv [ahb_slave_driver] Beat AHB_WRITE addr=0x00005540 resp=AHB_RESP_OKAY waits=1 wdata=0x7c3c6cc1
# UVM_INFO ../src/mst/ahb_master_monitor.sv(117) @ 1965000: uvm_test_top.env.master_agent.mon [ahb_master_monitor] Beat[80] addr=0x00005540 wdata=0x7c3c6cc1 resp=AHB_RESP_OKAY
# UVM_INFO ../src/mst/ahb_master_driver.sv(317) @ 1985000: uvm_test_top.env.master_agent.drv [ahb_master_driver] Beat[81/256] addr=0x00005544 trans=AHB_TRANS_SEQ resp=AHB_RESP_OKAY wdata=0xfe758dc2
# UVM_INFO ../src/slv/ahb_slave_driver.sv(184) @ 1985000: uvm_test_top.env.slave_agent.drv [ahb_slave_driver] Beat AHB_WRITE addr=0x00005544 resp=AHB_RESP_OKAY waits=1 wdata=0xfe758dc2
# UVM_INFO ../src/mst/ahb_master_monitor.sv(117) @ 1985000: uvm_test_top.env.master_agent.mon [ahb_master_monitor] Beat[81] addr=0x00005544 wdata=0xfe758dc2 resp=AHB_RESP_OKAY
# UVM_INFO ../src/mst/ahb_master_driver.sv(317) @ 2015000: uvm_test_top.env.master_agent.drv [ahb_master_driver] Beat[82/256] addr=0x00005548 trans=AHB_TRANS_SEQ resp=AHB_RESP_OKAY wdata=0x4a164d23
# UVM_INFO ../src/slv/ahb_slave_driver.sv(184) @ 2015000: uvm_test_top.env.slave_agent.drv [ahb_slave_driver] Beat AHB_WRITE addr=0x00005548 resp=AHB_RESP_OKAY waits=2 wdata=0x4a164d23
# UVM_INFO ../src/mst/ahb_master_monitor.sv(117) @ 2015000: uvm_test_top.env.master_agent.mon [ahb_master_monitor] Beat[82] addr=0x00005548 wdata=0x4a164d23 resp=AHB_RESP_OKAY
# UVM_INFO ../src/mst/ahb_master_driver.sv(317) @ 2035000: uvm_test_top.env.master_agent.drv [ahb_master_driver] Beat[83/256] addr=0x0000554c trans=AHB_TRANS_SEQ resp=AHB_RESP_OKAY wdata=0x12dfc9ae
# UVM_INFO ../src/slv/ahb_slave_driver.sv(184) @ 2035000: uvm_test_top.env.slave_agent.drv [ahb_slave_driver] Beat AHB_WRITE addr=0x0000554c resp=AHB_RESP_OKAY waits=1 wdata=0x12dfc9ae
# UVM_INFO ../src/mst/ahb_master_monitor.sv(117) @ 2035000: uvm_test_top.env.master_agent.mon [ahb_master_monitor] Beat[83] addr=0x0000554c wdata=0x12dfc9ae resp=AHB_RESP_OKAY
# UVM_INFO ../src/mst/ahb_master_driver.sv(317) @ 2055000: uvm_test_top.env.master_agent.drv [ahb_master_driver] Beat[84/256] addr=0x00005550 trans=AHB_TRANS_SEQ resp=AHB_RESP_OKAY wdata=0xbc7a1ed4
# UVM_INFO ../src/slv/ahb_slave_driver.sv(184) @ 2055000: uvm_test_top.env.slave_agent.drv [ahb_slave_driver] Beat AHB_WRITE addr=0x00005550 resp=AHB_RESP_OKAY waits=1 wdata=0xbc7a1ed4
# UVM_INFO ../src/mst/ahb_master_monitor.sv(117) @ 2055000: uvm_test_top.env.master_agent.mon [ahb_master_monitor] Beat[84] addr=0x00005550 wdata=0xbc7a1ed4 resp=AHB_RESP_OKAY
# UVM_INFO ../src/mst/ahb_master_driver.sv(317) @ 2085000: uvm_test_top.env.master_agent.drv [ahb_master_driver] Beat[85/256] addr=0x00005554 trans=AHB_TRANS_SEQ resp=AHB_RESP_OKAY wdata=0x3ddb81fd
# UVM_INFO ../src/slv/ahb_slave_driver.sv(184) @ 2085000: uvm_test_top.env.slave_agent.drv [ahb_slave_driver] Beat AHB_WRITE addr=0x00005554 resp=AHB_RESP_OKAY waits=2 wdata=0x3ddb81fd
# UVM_INFO ../src/mst/ahb_master_monitor.sv(117) @ 2085000: uvm_test_top.env.master_agent.mon [ahb_master_monitor] Beat[85] addr=0x00005554 wdata=0x3ddb81fd resp=AHB_RESP_OKAY
# UVM_INFO ../src/mst/ahb_master_driver.sv(317) @ 2105000: uvm_test_top.env.master_agent.drv [ahb_master_driver] Beat[86/256] addr=0x00005558 trans=AHB_TRANS_SEQ resp=AHB_RESP_OKAY wdata=0x59b26ca6
# UVM_INFO ../src/slv/ahb_slave_driver.sv(184) @ 2105000: uvm_test_top.env.slave_agent.drv [ahb_slave_driver] Beat AHB_WRITE addr=0x00005558 resp=AHB_RESP_OKAY waits=1 wdata=0x59b26ca6
# UVM_INFO ../src/mst/ahb_master_monitor.sv(117) @ 2105000: uvm_test_top.env.master_agent.mon [ahb_master_monitor] Beat[86] addr=0x00005558 wdata=0x59b26ca6 resp=AHB_RESP_OKAY
# UVM_INFO ../src/mst/ahb_master_driver.sv(317) @ 2125000: uvm_test_top.env.master_agent.drv [ahb_master_driver] Beat[87/256] addr=0x0000555c trans=AHB_TRANS_SEQ resp=AHB_RESP_OKAY wdata=0xf6d61b00
# UVM_INFO ../src/slv/ahb_slave_driver.sv(184) @ 2125000: uvm_test_top.env.slave_agent.drv [ahb_slave_driver] Beat AHB_WRITE addr=0x0000555c resp=AHB_RESP_OKAY waits=1 wdata=0xf6d61b00
# UVM_INFO ../src/mst/ahb_master_monitor.sv(117) @ 2125000: uvm_test_top.env.master_agent.mon [ahb_master_monitor] Beat[87] addr=0x0000555c wdata=0xf6d61b00 resp=AHB_RESP_OKAY
# UVM_INFO ../src/mst/ahb_master_driver.sv(317) @ 2175000: uvm_test_top.env.master_agent.drv [ahb_master_driver] Beat[88/256] addr=0x00005560 trans=AHB_TRANS_SEQ resp=AHB_RESP_OKAY wdata=0x1d17a9d5
# UVM_INFO ../src/slv/ahb_slave_driver.sv(184) @ 2175000: uvm_test_top.env.slave_agent.drv [ahb_slave_driver] Beat AHB_WRITE addr=0x00005560 resp=AHB_RESP_OKAY waits=2 wdata=0x1d17a9d5
# UVM_INFO ../src/mst/ahb_master_monitor.sv(117) @ 2175000: uvm_test_top.env.master_agent.mon [ahb_master_monitor] Beat[88] addr=0x00005560 wdata=0x1d17a9d5 resp=AHB_RESP_OKAY
# UVM_INFO ../src/mst/ahb_master_driver.sv(317) @ 2195000: uvm_test_top.env.master_agent.drv [ahb_master_driver] Beat[89/256] addr=0x00005564 trans=AHB_TRANS_SEQ resp=AHB_RESP_OKAY wdata=0x47fd1c16
# UVM_INFO ../src/slv/ahb_slave_driver.sv(184) @ 2195000: uvm_test_top.env.slave_agent.drv [ahb_slave_driver] Beat AHB_WRITE addr=0x00005564 resp=AHB_RESP_OKAY waits=1 wdata=0x47fd1c16
# UVM_INFO ../src/mst/ahb_master_monitor.sv(117) @ 2195000: uvm_test_top.env.master_agent.mon [ahb_master_monitor] Beat[89] addr=0x00005564 wdata=0x47fd1c16 resp=AHB_RESP_OKAY
# UVM_INFO ../src/mst/ahb_master_driver.sv(317) @ 2215000: uvm_test_top.env.master_agent.drv [ahb_master_driver] Beat[90/256] addr=0x00005568 trans=AHB_TRANS_SEQ resp=AHB_RESP_OKAY wdata=0x8dfae2b8
# UVM_INFO ../src/slv/ahb_slave_driver.sv(184) @ 2215000: uvm_test_top.env.slave_agent.drv [ahb_slave_driver] Beat AHB_WRITE addr=0x00005568 resp=AHB_RESP_OKAY waits=1 wdata=0x8dfae2b8
# UVM_INFO ../src/mst/ahb_master_monitor.sv(117) @ 2215000: uvm_test_top.env.master_agent.mon [ahb_master_monitor] Beat[90] addr=0x00005568 wdata=0x8dfae2b8 resp=AHB_RESP_OKAY
# UVM_INFO ../src/mst/ahb_master_driver.sv(317) @ 2235000: uvm_test_top.env.master_agent.drv [ahb_master_driver] Beat[91/256] addr=0x0000556c trans=AHB_TRANS_SEQ resp=AHB_RESP_OKAY wdata=0x2d16574e
# UVM_INFO ../src/slv/ahb_slave_driver.sv(184) @ 2235000: uvm_test_top.env.slave_agent.drv [ahb_slave_driver] Beat AHB_WRITE addr=0x0000556c resp=AHB_RESP_OKAY waits=1 wdata=0x2d16574e
# UVM_INFO ../src/mst/ahb_master_monitor.sv(117) @ 2235000: uvm_test_top.env.master_agent.mon [ahb_master_monitor] Beat[91] addr=0x0000556c wdata=0x2d16574e resp=AHB_RESP_OKAY
# UVM_INFO ../src/mst/ahb_master_driver.sv(317) @ 2245000: uvm_test_top.env.master_agent.drv [ahb_master_driver] Beat[92/256] addr=0x00005570 trans=AHB_TRANS_SEQ resp=AHB_RESP_OKAY wdata=0x6c0b91c9
# UVM_INFO ../src/slv/ahb_slave_driver.sv(184) @ 2245000: uvm_test_top.env.slave_agent.drv [ahb_slave_driver] Beat AHB_WRITE addr=0x00005570 resp=AHB_RESP_OKAY waits=0 wdata=0x6c0b91c9
# UVM_INFO ../src/mst/ahb_master_monitor.sv(117) @ 2245000: uvm_test_top.env.master_agent.mon [ahb_master_monitor] Beat[92] addr=0x00005570 wdata=0x6c0b91c9 resp=AHB_RESP_OKAY
# UVM_INFO ../src/mst/ahb_master_driver.sv(317) @ 2255000: uvm_test_top.env.master_agent.drv [ahb_master_driver] Beat[93/256] addr=0x00005574 trans=AHB_TRANS_SEQ resp=AHB_RESP_OKAY wdata=0xc7c89022
# UVM_INFO ../src/slv/ahb_slave_driver.sv(184) @ 2255000: uvm_test_top.env.slave_agent.drv [ahb_slave_driver] Beat AHB_WRITE addr=0x00005574 resp=AHB_RESP_OKAY waits=0 wdata=0xc7c89022
# UVM_INFO ../src/mst/ahb_master_monitor.sv(117) @ 2255000: uvm_test_top.env.master_agent.mon [ahb_master_monitor] Beat[93] addr=0x00005574 wdata=0xc7c89022 resp=AHB_RESP_OKAY
# UVM_INFO ../src/mst/ahb_master_driver.sv(317) @ 2275000: uvm_test_top.env.master_agent.drv [ahb_master_driver] Beat[94/256] addr=0x00005578 trans=AHB_TRANS_SEQ resp=AHB_RESP_OKAY wdata=0x117cb984
# UVM_INFO ../src/slv/ahb_slave_driver.sv(184) @ 2275000: uvm_test_top.env.slave_agent.drv [ahb_slave_driver] Beat AHB_WRITE addr=0x00005578 resp=AHB_RESP_OKAY waits=1 wdata=0x117cb984
# UVM_INFO ../src/mst/ahb_master_monitor.sv(117) @ 2275000: uvm_test_top.env.master_agent.mon [ahb_master_monitor] Beat[94] addr=0x00005578 wdata=0x117cb984 resp=AHB_RESP_OKAY
# UVM_INFO ../src/mst/ahb_master_driver.sv(317) @ 2305000: uvm_test_top.env.master_agent.drv [ahb_master_driver] Beat[95/256] addr=0x0000557c trans=AHB_TRANS_SEQ resp=AHB_RESP_OKAY wdata=0x0e086b0f
# UVM_INFO ../src/slv/ahb_slave_driver.sv(184) @ 2305000: uvm_test_top.env.slave_agent.drv [ahb_slave_driver] Beat AHB_WRITE addr=0x0000557c resp=AHB_RESP_OKAY waits=2 wdata=0x0e086b0f
# UVM_INFO ../src/mst/ahb_master_monitor.sv(117) @ 2305000: uvm_test_top.env.master_agent.mon [ahb_master_monitor] Beat[95] addr=0x0000557c wdata=0x0e086b0f resp=AHB_RESP_OKAY
# UVM_INFO ../src/mst/ahb_master_driver.sv(317) @ 2355000: uvm_test_top.env.master_agent.drv [ahb_master_driver] Beat[96/256] addr=0x00005580 trans=AHB_TRANS_SEQ resp=AHB_RESP_OKAY wdata=0x7e7d4fc8
# UVM_INFO ../src/slv/ahb_slave_driver.sv(184) @ 2355000: uvm_test_top.env.slave_agent.drv [ahb_slave_driver] Beat AHB_WRITE addr=0x00005580 resp=AHB_RESP_OKAY waits=2 wdata=0x7e7d4fc8
# UVM_INFO ../src/mst/ahb_master_monitor.sv(117) @ 2355000: uvm_test_top.env.master_agent.mon [ahb_master_monitor] Beat[96] addr=0x00005580 wdata=0x7e7d4fc8 resp=AHB_RESP_OKAY
# UVM_INFO ../src/mst/ahb_master_driver.sv(317) @ 2365000: uvm_test_top.env.master_agent.drv [ahb_master_driver] Beat[97/256] addr=0x00005584 trans=AHB_TRANS_SEQ resp=AHB_RESP_OKAY wdata=0x24bf9e33
# UVM_INFO ../src/slv/ahb_slave_driver.sv(184) @ 2365000: uvm_test_top.env.slave_agent.drv [ahb_slave_driver] Beat AHB_WRITE addr=0x00005584 resp=AHB_RESP_OKAY waits=0 wdata=0x24bf9e33
# UVM_INFO ../src/mst/ahb_master_monitor.sv(117) @ 2365000: uvm_test_top.env.master_agent.mon [ahb_master_monitor] Beat[97] addr=0x00005584 wdata=0x24bf9e33 resp=AHB_RESP_OKAY
# UVM_INFO ../src/mst/ahb_master_driver.sv(317) @ 2375000: uvm_test_top.env.master_agent.drv [ahb_master_driver] Beat[98/256] addr=0x00005588 trans=AHB_TRANS_SEQ resp=AHB_RESP_OKAY wdata=0x1b798117
# UVM_INFO ../src/slv/ahb_slave_driver.sv(184) @ 2375000: uvm_test_top.env.slave_agent.drv [ahb_slave_driver] Beat AHB_WRITE addr=0x00005588 resp=AHB_RESP_OKAY waits=0 wdata=0x1b798117
# UVM_INFO ../src/mst/ahb_master_monitor.sv(117) @ 2375000: uvm_test_top.env.master_agent.mon [ahb_master_monitor] Beat[98] addr=0x00005588 wdata=0x1b798117 resp=AHB_RESP_OKAY
# UVM_INFO ../src/mst/ahb_master_driver.sv(317) @ 2385000: uvm_test_top.env.master_agent.drv [ahb_master_driver] Beat[99/256] addr=0x0000558c trans=AHB_TRANS_SEQ resp=AHB_RESP_OKAY wdata=0x7c1b0c34
# UVM_INFO ../src/slv/ahb_slave_driver.sv(184) @ 2385000: uvm_test_top.env.slave_agent.drv [ahb_slave_driver] Beat AHB_WRITE addr=0x0000558c resp=AHB_RESP_OKAY waits=0 wdata=0x7c1b0c34
# UVM_INFO ../src/mst/ahb_master_monitor.sv(117) @ 2385000: uvm_test_top.env.master_agent.mon [ahb_master_monitor] Beat[99] addr=0x0000558c wdata=0x7c1b0c34 resp=AHB_RESP_OKAY
# UVM_INFO ../src/mst/ahb_master_driver.sv(317) @ 2405000: uvm_test_top.env.master_agent.drv [ahb_master_driver] Beat[100/256] addr=0x00005590 trans=AHB_TRANS_SEQ resp=AHB_RESP_OKAY wdata=0x3ac404ab
# UVM_INFO ../src/slv/ahb_slave_driver.sv(184) @ 2405000: uvm_test_top.env.slave_agent.drv [ahb_slave_driver] Beat AHB_WRITE addr=0x00005590 resp=AHB_RESP_OKAY waits=1 wdata=0x3ac404ab
# UVM_INFO ../src/mst/ahb_master_monitor.sv(117) @ 2405000: uvm_test_top.env.master_agent.mon [ahb_master_monitor] Beat[100] addr=0x00005590 wdata=0x3ac404ab resp=AHB_RESP_OKAY
# UVM_INFO ../src/mst/ahb_master_driver.sv(317) @ 2415000: uvm_test_top.env.master_agent.drv [ahb_master_driver] Beat[101/256] addr=0x00005594 trans=AHB_TRANS_SEQ resp=AHB_RESP_OKAY wdata=0x9048a016
# UVM_INFO ../src/slv/ahb_slave_driver.sv(184) @ 2415000: uvm_test_top.env.slave_agent.drv [ahb_slave_driver] Beat AHB_WRITE addr=0x00005594 resp=AHB_RESP_OKAY waits=0 wdata=0x9048a016
# UVM_INFO ../src/mst/ahb_master_monitor.sv(117) @ 2415000: uvm_test_top.env.master_agent.mon [ahb_master_monitor] Beat[101] addr=0x00005594 wdata=0x9048a016 resp=AHB_RESP_OKAY
# UVM_INFO ../src/mst/ahb_master_driver.sv(317) @ 2425000: uvm_test_top.env.master_agent.drv [ahb_master_driver] Beat[102/256] addr=0x00005598 trans=AHB_TRANS_SEQ resp=AHB_RESP_OKAY wdata=0xfe61be60
# UVM_INFO ../src/slv/ahb_slave_driver.sv(184) @ 2425000: uvm_test_top.env.slave_agent.drv [ahb_slave_driver] Beat AHB_WRITE addr=0x00005598 resp=AHB_RESP_OKAY waits=0 wdata=0xfe61be60
# UVM_INFO ../src/mst/ahb_master_monitor.sv(117) @ 2425000: uvm_test_top.env.master_agent.mon [ahb_master_monitor] Beat[102] addr=0x00005598 wdata=0xfe61be60 resp=AHB_RESP_OKAY
# UVM_INFO ../src/mst/ahb_master_driver.sv(317) @ 2435000: uvm_test_top.env.master_agent.drv [ahb_master_driver] Beat[103/256] addr=0x0000559c trans=AHB_TRANS_SEQ resp=AHB_RESP_OKAY wdata=0xcd0b87f1
# UVM_INFO ../src/slv/ahb_slave_driver.sv(184) @ 2435000: uvm_test_top.env.slave_agent.drv [ahb_slave_driver] Beat AHB_WRITE addr=0x0000559c resp=AHB_RESP_OKAY waits=0 wdata=0xcd0b87f1
# UVM_INFO ../src/mst/ahb_master_monitor.sv(117) @ 2435000: uvm_test_top.env.master_agent.mon [ahb_master_monitor] Beat[103] addr=0x0000559c wdata=0xcd0b87f1 resp=AHB_RESP_OKAY
# UVM_INFO ../src/mst/ahb_master_driver.sv(317) @ 2485000: uvm_test_top.env.master_agent.drv [ahb_master_driver] Beat[104/256] addr=0x000055a0 trans=AHB_TRANS_SEQ resp=AHB_RESP_OKAY wdata=0x97a97569
# UVM_INFO ../src/slv/ahb_slave_driver.sv(184) @ 2485000: uvm_test_top.env.slave_agent.drv [ahb_slave_driver] Beat AHB_WRITE addr=0x000055a0 resp=AHB_RESP_OKAY waits=2 wdata=0x97a97569
# UVM_INFO ../src/mst/ahb_master_monitor.sv(117) @ 2485000: uvm_test_top.env.master_agent.mon [ahb_master_monitor] Beat[104] addr=0x000055a0 wdata=0x97a97569 resp=AHB_RESP_OKAY
# UVM_INFO ../src/mst/ahb_master_driver.sv(317) @ 2505000: uvm_test_top.env.master_agent.drv [ahb_master_driver] Beat[105/256] addr=0x000055a4 trans=AHB_TRANS_SEQ resp=AHB_RESP_OKAY wdata=0x6dbb31f8
# UVM_INFO ../src/slv/ahb_slave_driver.sv(184) @ 2505000: uvm_test_top.env.slave_agent.drv [ahb_slave_driver] Beat AHB_WRITE addr=0x000055a4 resp=AHB_RESP_OKAY waits=1 wdata=0x6dbb31f8
# UVM_INFO ../src/mst/ahb_master_monitor.sv(117) @ 2505000: uvm_test_top.env.master_agent.mon [ahb_master_monitor] Beat[105] addr=0x000055a4 wdata=0x6dbb31f8 resp=AHB_RESP_OKAY
# UVM_INFO ../src/mst/ahb_master_driver.sv(317) @ 2515000: uvm_test_top.env.master_agent.drv [ahb_master_driver] Beat[106/256] addr=0x000055a8 trans=AHB_TRANS_SEQ resp=AHB_RESP_OKAY wdata=0xb56f05dc
# UVM_INFO ../src/slv/ahb_slave_driver.sv(184) @ 2515000: uvm_test_top.env.slave_agent.drv [ahb_slave_driver] Beat AHB_WRITE addr=0x000055a8 resp=AHB_RESP_OKAY waits=0 wdata=0xb56f05dc
# UVM_INFO ../src/mst/ahb_master_monitor.sv(117) @ 2515000: uvm_test_top.env.master_agent.mon [ahb_master_monitor] Beat[106] addr=0x000055a8 wdata=0xb56f05dc resp=AHB_RESP_OKAY
# UVM_INFO ../src/mst/ahb_master_driver.sv(317) @ 2525000: uvm_test_top.env.master_agent.drv [ahb_master_driver] Beat[107/256] addr=0x000055ac trans=AHB_TRANS_SEQ resp=AHB_RESP_OKAY wdata=0x4a4dab45
# UVM_INFO ../src/slv/ahb_slave_driver.sv(184) @ 2525000: uvm_test_top.env.slave_agent.drv [ahb_slave_driver] Beat AHB_WRITE addr=0x000055ac resp=AHB_RESP_OKAY waits=0 wdata=0x4a4dab45
# UVM_INFO ../src/mst/ahb_master_monitor.sv(117) @ 2525000: uvm_test_top.env.master_agent.mon [ahb_master_monitor] Beat[107] addr=0x000055ac wdata=0x4a4dab45 resp=AHB_RESP_OKAY
# UVM_INFO ../src/mst/ahb_master_driver.sv(317) @ 2535000: uvm_test_top.env.master_agent.drv [ahb_master_driver] Beat[108/256] addr=0x000055b0 trans=AHB_TRANS_SEQ resp=AHB_RESP_OKAY wdata=0x70e30f07
# UVM_INFO ../src/slv/ahb_slave_driver.sv(184) @ 2535000: uvm_test_top.env.slave_agent.drv [ahb_slave_driver] Beat AHB_WRITE addr=0x000055b0 resp=AHB_RESP_OKAY waits=0 wdata=0x70e30f07
# UVM_INFO ../src/mst/ahb_master_monitor.sv(117) @ 2535000: uvm_test_top.env.master_agent.mon [ahb_master_monitor] Beat[108] addr=0x000055b0 wdata=0x70e30f07 resp=AHB_RESP_OKAY
# UVM_INFO ../src/mst/ahb_master_driver.sv(317) @ 2555000: uvm_test_top.env.master_agent.drv [ahb_master_driver] Beat[109/256] addr=0x000055b4 trans=AHB_TRANS_SEQ resp=AHB_RESP_OKAY wdata=0xaae85681
# UVM_INFO ../src/slv/ahb_slave_driver.sv(184) @ 2555000: uvm_test_top.env.slave_agent.drv [ahb_slave_driver] Beat AHB_WRITE addr=0x000055b4 resp=AHB_RESP_OKAY waits=1 wdata=0xaae85681
# UVM_INFO ../src/mst/ahb_master_monitor.sv(117) @ 2555000: uvm_test_top.env.master_agent.mon [ahb_master_monitor] Beat[109] addr=0x000055b4 wdata=0xaae85681 resp=AHB_RESP_OKAY
# UVM_INFO ../src/mst/ahb_master_driver.sv(317) @ 2585000: uvm_test_top.env.master_agent.drv [ahb_master_driver] Beat[110/256] addr=0x000055b8 trans=AHB_TRANS_SEQ resp=AHB_RESP_OKAY wdata=0x6383c3bb
# UVM_INFO ../src/slv/ahb_slave_driver.sv(184) @ 2585000: uvm_test_top.env.slave_agent.drv [ahb_slave_driver] Beat AHB_WRITE addr=0x000055b8 resp=AHB_RESP_OKAY waits=2 wdata=0x6383c3bb
# UVM_INFO ../src/mst/ahb_master_monitor.sv(117) @ 2585000: uvm_test_top.env.master_agent.mon [ahb_master_monitor] Beat[110] addr=0x000055b8 wdata=0x6383c3bb resp=AHB_RESP_OKAY
# UVM_INFO ../src/mst/ahb_master_driver.sv(317) @ 2615000: uvm_test_top.env.master_agent.drv [ahb_master_driver] Beat[111/256] addr=0x000055bc trans=AHB_TRANS_SEQ resp=AHB_RESP_OKAY wdata=0xd8716d42
# UVM_INFO ../src/slv/ahb_slave_driver.sv(184) @ 2615000: uvm_test_top.env.slave_agent.drv [ahb_slave_driver] Beat AHB_WRITE addr=0x000055bc resp=AHB_RESP_OKAY waits=2 wdata=0xd8716d42
# UVM_INFO ../src/mst/ahb_master_monitor.sv(117) @ 2615000: uvm_test_top.env.master_agent.mon [ahb_master_monitor] Beat[111] addr=0x000055bc wdata=0xd8716d42 resp=AHB_RESP_OKAY
# UVM_INFO ../src/mst/ahb_master_driver.sv(317) @ 2645000: uvm_test_top.env.master_agent.drv [ahb_master_driver] Beat[112/256] addr=0x000055c0 trans=AHB_TRANS_SEQ resp=AHB_RESP_OKAY wdata=0xe0787c41
# UVM_INFO ../src/slv/ahb_slave_driver.sv(184) @ 2645000: uvm_test_top.env.slave_agent.drv [ahb_slave_driver] Beat AHB_WRITE addr=0x000055c0 resp=AHB_RESP_OKAY waits=1 wdata=0xe0787c41
# UVM_INFO ../src/mst/ahb_master_monitor.sv(117) @ 2645000: uvm_test_top.env.master_agent.mon [ahb_master_monitor] Beat[112] addr=0x000055c0 wdata=0xe0787c41 resp=AHB_RESP_OKAY
# UVM_INFO ../src/mst/ahb_master_driver.sv(317) @ 2675000: uvm_test_top.env.master_agent.drv [ahb_master_driver] Beat[113/256] addr=0x000055c4 trans=AHB_TRANS_SEQ resp=AHB_RESP_OKAY wdata=0x3fefe2b3
# UVM_INFO ../src/slv/ahb_slave_driver.sv(184) @ 2675000: uvm_test_top.env.slave_agent.drv [ahb_slave_driver] Beat AHB_WRITE addr=0x000055c4 resp=AHB_RESP_OKAY waits=2 wdata=0x3fefe2b3
# UVM_INFO ../src/mst/ahb_master_monitor.sv(117) @ 2675000: uvm_test_top.env.master_agent.mon [ahb_master_monitor] Beat[113] addr=0x000055c4 wdata=0x3fefe2b3 resp=AHB_RESP_OKAY
# UVM_INFO ../src/mst/ahb_master_driver.sv(317) @ 2695000: uvm_test_top.env.master_agent.drv [ahb_master_driver] Beat[114/256] addr=0x000055c8 trans=AHB_TRANS_SEQ resp=AHB_RESP_OKAY wdata=0x5d0b9866
# UVM_INFO ../src/slv/ahb_slave_driver.sv(184) @ 2695000: uvm_test_top.env.slave_agent.drv [ahb_slave_driver] Beat AHB_WRITE addr=0x000055c8 resp=AHB_RESP_OKAY waits=1 wdata=0x5d0b9866
# UVM_INFO ../src/mst/ahb_master_monitor.sv(117) @ 2695000: uvm_test_top.env.master_agent.mon [ahb_master_monitor] Beat[114] addr=0x000055c8 wdata=0x5d0b9866 resp=AHB_RESP_OKAY
# UVM_INFO ../src/mst/ahb_master_driver.sv(317) @ 2705000: uvm_test_top.env.master_agent.drv [ahb_master_driver] Beat[115/256] addr=0x000055cc trans=AHB_TRANS_SEQ resp=AHB_RESP_OKAY wdata=0x3e7cd363
# UVM_INFO ../src/slv/ahb_slave_driver.sv(184) @ 2705000: uvm_test_top.env.slave_agent.drv [ahb_slave_driver] Beat AHB_WRITE addr=0x000055cc resp=AHB_RESP_OKAY waits=0 wdata=0x3e7cd363
# UVM_INFO ../src/mst/ahb_master_monitor.sv(117) @ 2705000: uvm_test_top.env.master_agent.mon [ahb_master_monitor] Beat[115] addr=0x000055cc wdata=0x3e7cd363 resp=AHB_RESP_OKAY
# UVM_INFO ../src/mst/ahb_master_driver.sv(317) @ 2735000: uvm_test_top.env.master_agent.drv [ahb_master_driver] Beat[116/256] addr=0x000055d0 trans=AHB_TRANS_SEQ resp=AHB_RESP_OKAY wdata=0x2b69f60b
# UVM_INFO ../src/slv/ahb_slave_driver.sv(184) @ 2735000: uvm_test_top.env.slave_agent.drv [ahb_slave_driver] Beat AHB_WRITE addr=0x000055d0 resp=AHB_RESP_OKAY waits=2 wdata=0x2b69f60b
# UVM_INFO ../src/mst/ahb_master_monitor.sv(117) @ 2735000: uvm_test_top.env.master_agent.mon [ahb_master_monitor] Beat[116] addr=0x000055d0 wdata=0x2b69f60b resp=AHB_RESP_OKAY
# UVM_INFO ../src/mst/ahb_master_driver.sv(317) @ 2765000: uvm_test_top.env.master_agent.drv [ahb_master_driver] Beat[117/256] addr=0x000055d4 trans=AHB_TRANS_SEQ resp=AHB_RESP_OKAY wdata=0xd3216b24
# UVM_INFO ../src/slv/ahb_slave_driver.sv(184) @ 2765000: uvm_test_top.env.slave_agent.drv [ahb_slave_driver] Beat AHB_WRITE addr=0x000055d4 resp=AHB_RESP_OKAY waits=2 wdata=0xd3216b24
# UVM_INFO ../src/mst/ahb_master_monitor.sv(117) @ 2765000: uvm_test_top.env.master_agent.mon [ahb_master_monitor] Beat[117] addr=0x000055d4 wdata=0xd3216b24 resp=AHB_RESP_OKAY
# UVM_INFO ../src/mst/ahb_master_driver.sv(317) @ 2795000: uvm_test_top.env.master_agent.drv [ahb_master_driver] Beat[118/256] addr=0x000055d8 trans=AHB_TRANS_SEQ resp=AHB_RESP_OKAY wdata=0x40ac1d74
# UVM_INFO ../src/slv/ahb_slave_driver.sv(184) @ 2795000: uvm_test_top.env.slave_agent.drv [ahb_slave_driver] Beat AHB_WRITE addr=0x000055d8 resp=AHB_RESP_OKAY waits=2 wdata=0x40ac1d74
# UVM_INFO ../src/mst/ahb_master_monitor.sv(117) @ 2795000: uvm_test_top.env.master_agent.mon [ahb_master_monitor] Beat[118] addr=0x000055d8 wdata=0x40ac1d74 resp=AHB_RESP_OKAY
# UVM_INFO ../src/mst/ahb_master_driver.sv(317) @ 2825000: uvm_test_top.env.master_agent.drv [ahb_master_driver] Beat[119/256] addr=0x000055dc trans=AHB_TRANS_SEQ resp=AHB_RESP_OKAY wdata=0xec10d2bf
# UVM_INFO ../src/slv/ahb_slave_driver.sv(184) @ 2825000: uvm_test_top.env.slave_agent.drv [ahb_slave_driver] Beat AHB_WRITE addr=0x000055dc resp=AHB_RESP_OKAY waits=2 wdata=0xec10d2bf
# UVM_INFO ../src/mst/ahb_master_monitor.sv(117) @ 2825000: uvm_test_top.env.master_agent.mon [ahb_master_monitor] Beat[119] addr=0x000055dc wdata=0xec10d2bf resp=AHB_RESP_OKAY
# UVM_INFO ../src/mst/ahb_master_driver.sv(317) @ 2875000: uvm_test_top.env.master_agent.drv [ahb_master_driver] Beat[120/256] addr=0x000055e0 trans=AHB_TRANS_SEQ resp=AHB_RESP_OKAY wdata=0x1a3ba53f
# UVM_INFO ../src/slv/ahb_slave_driver.sv(184) @ 2875000: uvm_test_top.env.slave_agent.drv [ahb_slave_driver] Beat AHB_WRITE addr=0x000055e0 resp=AHB_RESP_OKAY waits=2 wdata=0x1a3ba53f
# UVM_INFO ../src/mst/ahb_master_monitor.sv(117) @ 2875000: uvm_test_top.env.master_agent.mon [ahb_master_monitor] Beat[120] addr=0x000055e0 wdata=0x1a3ba53f resp=AHB_RESP_OKAY
# UVM_INFO ../src/mst/ahb_master_driver.sv(317) @ 2885000: uvm_test_top.env.master_agent.drv [ahb_master_driver] Beat[121/256] addr=0x000055e4 trans=AHB_TRANS_SEQ resp=AHB_RESP_OKAY wdata=0x8e7979ee
# UVM_INFO ../src/slv/ahb_slave_driver.sv(184) @ 2885000: uvm_test_top.env.slave_agent.drv [ahb_slave_driver] Beat AHB_WRITE addr=0x000055e4 resp=AHB_RESP_OKAY waits=0 wdata=0x8e7979ee
# UVM_INFO ../src/mst/ahb_master_monitor.sv(117) @ 2885000: uvm_test_top.env.master_agent.mon [ahb_master_monitor] Beat[121] addr=0x000055e4 wdata=0x8e7979ee resp=AHB_RESP_OKAY
# UVM_INFO ../src/mst/ahb_master_driver.sv(317) @ 2915000: uvm_test_top.env.master_agent.drv [ahb_master_driver] Beat[122/256] addr=0x000055e8 trans=AHB_TRANS_SEQ resp=AHB_RESP_OKAY wdata=0x6e63ef1e
# UVM_INFO ../src/slv/ahb_slave_driver.sv(184) @ 2915000: uvm_test_top.env.slave_agent.drv [ahb_slave_driver] Beat AHB_WRITE addr=0x000055e8 resp=AHB_RESP_OKAY waits=2 wdata=0x6e63ef1e
# UVM_INFO ../src/mst/ahb_master_monitor.sv(117) @ 2915000: uvm_test_top.env.master_agent.mon [ahb_master_monitor] Beat[122] addr=0x000055e8 wdata=0x6e63ef1e resp=AHB_RESP_OKAY
# UVM_INFO ../src/mst/ahb_master_driver.sv(317) @ 2925000: uvm_test_top.env.master_agent.drv [ahb_master_driver] Beat[123/256] addr=0x000055ec trans=AHB_TRANS_SEQ resp=AHB_RESP_OKAY wdata=0xacc71aa5
# UVM_INFO ../src/slv/ahb_slave_driver.sv(184) @ 2925000: uvm_test_top.env.slave_agent.drv [ahb_slave_driver] Beat AHB_WRITE addr=0x000055ec resp=AHB_RESP_OKAY waits=0 wdata=0xacc71aa5
# UVM_INFO ../src/mst/ahb_master_monitor.sv(117) @ 2925000: uvm_test_top.env.master_agent.mon [ahb_master_monitor] Beat[123] addr=0x000055ec wdata=0xacc71aa5 resp=AHB_RESP_OKAY
# UVM_INFO ../src/mst/ahb_master_driver.sv(317) @ 2935000: uvm_test_top.env.master_agent.drv [ahb_master_driver] Beat[124/256] addr=0x000055f0 trans=AHB_TRANS_SEQ resp=AHB_RESP_OKAY wdata=0xe026c427
# UVM_INFO ../src/slv/ahb_slave_driver.sv(184) @ 2935000: uvm_test_top.env.slave_agent.drv [ahb_slave_driver] Beat AHB_WRITE addr=0x000055f0 resp=AHB_RESP_OKAY waits=0 wdata=0xe026c427
# UVM_INFO ../src/mst/ahb_master_monitor.sv(117) @ 2935000: uvm_test_top.env.master_agent.mon [ahb_master_monitor] Beat[124] addr=0x000055f0 wdata=0xe026c427 resp=AHB_RESP_OKAY
# UVM_INFO ../src/mst/ahb_master_driver.sv(317) @ 2945000: uvm_test_top.env.master_agent.drv [ahb_master_driver] Beat[125/256] addr=0x000055f4 trans=AHB_TRANS_SEQ resp=AHB_RESP_OKAY wdata=0x60751643
# UVM_INFO ../src/slv/ahb_slave_driver.sv(184) @ 2945000: uvm_test_top.env.slave_agent.drv [ahb_slave_driver] Beat AHB_WRITE addr=0x000055f4 resp=AHB_RESP_OKAY waits=0 wdata=0x60751643
# UVM_INFO ../src/mst/ahb_master_monitor.sv(117) @ 2945000: uvm_test_top.env.master_agent.mon [ahb_master_monitor] Beat[125] addr=0x000055f4 wdata=0x60751643 resp=AHB_RESP_OKAY
# UVM_INFO ../src/mst/ahb_master_driver.sv(317) @ 2975000: uvm_test_top.env.master_agent.drv [ahb_master_driver] Beat[126/256] addr=0x000055f8 trans=AHB_TRANS_SEQ resp=AHB_RESP_OKAY wdata=0xf3c81b64
# UVM_INFO ../src/slv/ahb_slave_driver.sv(184) @ 2975000: uvm_test_top.env.slave_agent.drv [ahb_slave_driver] Beat AHB_WRITE addr=0x000055f8 resp=AHB_RESP_OKAY waits=2 wdata=0xf3c81b64
# UVM_INFO ../src/mst/ahb_master_monitor.sv(117) @ 2975000: uvm_test_top.env.master_agent.mon [ahb_master_monitor] Beat[126] addr=0x000055f8 wdata=0xf3c81b64 resp=AHB_RESP_OKAY
# UVM_INFO ../src/mst/ahb_master_driver.sv(317) @ 2995000: uvm_test_top.env.master_agent.drv [ahb_master_driver] Beat[127/256] addr=0x000055fc trans=AHB_TRANS_SEQ resp=AHB_RESP_OKAY wdata=0xcbc916db
# UVM_INFO ../src/slv/ahb_slave_driver.sv(184) @ 2995000: uvm_test_top.env.slave_agent.drv [ahb_slave_driver] Beat AHB_WRITE addr=0x000055fc resp=AHB_RESP_OKAY waits=1 wdata=0xcbc916db
# UVM_INFO ../src/mst/ahb_master_monitor.sv(117) @ 2995000: uvm_test_top.env.master_agent.mon [ahb_master_monitor] Beat[127] addr=0x000055fc wdata=0xcbc916db resp=AHB_RESP_OKAY
# UVM_INFO ../src/mst/ahb_master_driver.sv(317) @ 3025000: uvm_test_top.env.master_agent.drv [ahb_master_driver] Beat[128/256] addr=0x00005600 trans=AHB_TRANS_SEQ resp=AHB_RESP_OKAY wdata=0x85ee445d
# UVM_INFO ../src/slv/ahb_slave_driver.sv(184) @ 3025000: uvm_test_top.env.slave_agent.drv [ahb_slave_driver] Beat AHB_WRITE addr=0x00005600 resp=AHB_RESP_OKAY waits=1 wdata=0x85ee445d
# UVM_INFO ../src/mst/ahb_master_monitor.sv(117) @ 3025000: uvm_test_top.env.master_agent.mon [ahb_master_monitor] Beat[128] addr=0x00005600 wdata=0x85ee445d resp=AHB_RESP_OKAY
# UVM_INFO ../src/mst/ahb_master_driver.sv(317) @ 3035000: uvm_test_top.env.master_agent.drv [ahb_master_driver] Beat[129/256] addr=0x00005604 trans=AHB_TRANS_SEQ resp=AHB_RESP_OKAY wdata=0xc06e2aad
# UVM_INFO ../src/slv/ahb_slave_driver.sv(184) @ 3035000: uvm_test_top.env.slave_agent.drv [ahb_slave_driver] Beat AHB_WRITE addr=0x00005604 resp=AHB_RESP_OKAY waits=0 wdata=0xc06e2aad
# UVM_INFO ../src/mst/ahb_master_monitor.sv(117) @ 3035000: uvm_test_top.env.master_agent.mon [ahb_master_monitor] Beat[129] addr=0x00005604 wdata=0xc06e2aad resp=AHB_RESP_OKAY
# UVM_INFO ../src/mst/ahb_master_driver.sv(317) @ 3045000: uvm_test_top.env.master_agent.drv [ahb_master_driver] Beat[130/256] addr=0x00005608 trans=AHB_TRANS_SEQ resp=AHB_RESP_OKAY wdata=0x556b5b9f
# UVM_INFO ../src/slv/ahb_slave_driver.sv(184) @ 3045000: uvm_test_top.env.slave_agent.drv [ahb_slave_driver] Beat AHB_WRITE addr=0x00005608 resp=AHB_RESP_OKAY waits=0 wdata=0x556b5b9f
# UVM_INFO ../src/mst/ahb_master_monitor.sv(117) @ 3045000: uvm_test_top.env.master_agent.mon [ahb_master_monitor] Beat[130] addr=0x00005608 wdata=0x556b5b9f resp=AHB_RESP_OKAY
# UVM_INFO ../src/mst/ahb_master_driver.sv(317) @ 3065000: uvm_test_top.env.master_agent.drv [ahb_master_driver] Beat[131/256] addr=0x0000560c trans=AHB_TRANS_SEQ resp=AHB_RESP_OKAY wdata=0xdbdc56fb
# UVM_INFO ../src/slv/ahb_slave_driver.sv(184) @ 3065000: uvm_test_top.env.slave_agent.drv [ahb_slave_driver] Beat AHB_WRITE addr=0x0000560c resp=AHB_RESP_OKAY waits=1 wdata=0xdbdc56fb
# UVM_INFO ../src/mst/ahb_master_monitor.sv(117) @ 3065000: uvm_test_top.env.master_agent.mon [ahb_master_monitor] Beat[131] addr=0x0000560c wdata=0xdbdc56fb resp=AHB_RESP_OKAY
# UVM_INFO ../src/mst/ahb_master_driver.sv(317) @ 3085000: uvm_test_top.env.master_agent.drv [ahb_master_driver] Beat[132/256] addr=0x00005610 trans=AHB_TRANS_SEQ resp=AHB_RESP_OKAY wdata=0xc6943a1c
# UVM_INFO ../src/slv/ahb_slave_driver.sv(184) @ 3085000: uvm_test_top.env.slave_agent.drv [ahb_slave_driver] Beat AHB_WRITE addr=0x00005610 resp=AHB_RESP_OKAY waits=1 wdata=0xc6943a1c
# UVM_INFO ../src/mst/ahb_master_monitor.sv(117) @ 3085000: uvm_test_top.env.master_agent.mon [ahb_master_monitor] Beat[132] addr=0x00005610 wdata=0xc6943a1c resp=AHB_RESP_OKAY
# UVM_INFO ../src/mst/ahb_master_driver.sv(317) @ 3105000: uvm_test_top.env.master_agent.drv [ahb_master_driver] Beat[133/256] addr=0x00005614 trans=AHB_TRANS_SEQ resp=AHB_RESP_OKAY wdata=0xe43174cb
# UVM_INFO ../src/slv/ahb_slave_driver.sv(184) @ 3105000: uvm_test_top.env.slave_agent.drv [ahb_slave_driver] Beat AHB_WRITE addr=0x00005614 resp=AHB_RESP_OKAY waits=1 wdata=0xe43174cb
# UVM_INFO ../src/mst/ahb_master_monitor.sv(117) @ 3105000: uvm_test_top.env.master_agent.mon [ahb_master_monitor] Beat[133] addr=0x00005614 wdata=0xe43174cb resp=AHB_RESP_OKAY
# UVM_INFO ../src/mst/ahb_master_driver.sv(317) @ 3125000: uvm_test_top.env.master_agent.drv [ahb_master_driver] Beat[134/256] addr=0x00005618 trans=AHB_TRANS_SEQ resp=AHB_RESP_OKAY wdata=0x3ba9fc58
# UVM_INFO ../src/slv/ahb_slave_driver.sv(184) @ 3125000: uvm_test_top.env.slave_agent.drv [ahb_slave_driver] Beat AHB_WRITE addr=0x00005618 resp=AHB_RESP_OKAY waits=1 wdata=0x3ba9fc58
# UVM_INFO ../src/mst/ahb_master_monitor.sv(117) @ 3125000: uvm_test_top.env.master_agent.mon [ahb_master_monitor] Beat[134] addr=0x00005618 wdata=0x3ba9fc58 resp=AHB_RESP_OKAY
# UVM_INFO ../src/mst/ahb_master_driver.sv(317) @ 3135000: uvm_test_top.env.master_agent.drv [ahb_master_driver] Beat[135/256] addr=0x0000561c trans=AHB_TRANS_SEQ resp=AHB_RESP_OKAY wdata=0x0345b4c2
# UVM_INFO ../src/slv/ahb_slave_driver.sv(184) @ 3135000: uvm_test_top.env.slave_agent.drv [ahb_slave_driver] Beat AHB_WRITE addr=0x0000561c resp=AHB_RESP_OKAY waits=0 wdata=0x0345b4c2
# UVM_INFO ../src/mst/ahb_master_monitor.sv(117) @ 3135000: uvm_test_top.env.master_agent.mon [ahb_master_monitor] Beat[135] addr=0x0000561c wdata=0x0345b4c2 resp=AHB_RESP_OKAY
# UVM_INFO ../src/mst/ahb_master_driver.sv(317) @ 3155000: uvm_test_top.env.master_agent.drv [ahb_master_driver] Beat[136/256] addr=0x00005620 trans=AHB_TRANS_SEQ resp=AHB_RESP_OKAY wdata=0x79882f69
# UVM_INFO ../src/slv/ahb_slave_driver.sv(184) @ 3155000: uvm_test_top.env.slave_agent.drv [ahb_slave_driver] Beat AHB_WRITE addr=0x00005620 resp=AHB_RESP_OKAY waits=0 wdata=0x79882f69
# UVM_INFO ../src/mst/ahb_master_monitor.sv(117) @ 3155000: uvm_test_top.env.master_agent.mon [ahb_master_monitor] Beat[136] addr=0x00005620 wdata=0x79882f69 resp=AHB_RESP_OKAY
# UVM_INFO ../src/mst/ahb_master_driver.sv(317) @ 3185000: uvm_test_top.env.master_agent.drv [ahb_master_driver] Beat[137/256] addr=0x00005624 trans=AHB_TRANS_SEQ resp=AHB_RESP_OKAY wdata=0xd665e53f
# UVM_INFO ../src/slv/ahb_slave_driver.sv(184) @ 3185000: uvm_test_top.env.slave_agent.drv [ahb_slave_driver] Beat AHB_WRITE addr=0x00005624 resp=AHB_RESP_OKAY waits=2 wdata=0xd665e53f
# UVM_INFO ../src/mst/ahb_master_monitor.sv(117) @ 3185000: uvm_test_top.env.master_agent.mon [ahb_master_monitor] Beat[137] addr=0x00005624 wdata=0xd665e53f resp=AHB_RESP_OKAY
# UVM_INFO ../src/mst/ahb_master_driver.sv(317) @ 3205000: uvm_test_top.env.master_agent.drv [ahb_master_driver] Beat[138/256] addr=0x00005628 trans=AHB_TRANS_SEQ resp=AHB_RESP_OKAY wdata=0xd2193398
# UVM_INFO ../src/slv/ahb_slave_driver.sv(184) @ 3205000: uvm_test_top.env.slave_agent.drv [ahb_slave_driver] Beat AHB_WRITE addr=0x00005628 resp=AHB_RESP_OKAY waits=1 wdata=0xd2193398
# UVM_INFO ../src/mst/ahb_master_monitor.sv(117) @ 3205000: uvm_test_top.env.master_agent.mon [ahb_master_monitor] Beat[138] addr=0x00005628 wdata=0xd2193398 resp=AHB_RESP_OKAY
# UVM_INFO ../src/mst/ahb_master_driver.sv(317) @ 3225000: uvm_test_top.env.master_agent.drv [ahb_master_driver] Beat[139/256] addr=0x0000562c trans=AHB_TRANS_SEQ resp=AHB_RESP_OKAY wdata=0x2ed1b031
# UVM_INFO ../src/slv/ahb_slave_driver.sv(184) @ 3225000: uvm_test_top.env.slave_agent.drv [ahb_slave_driver] Beat AHB_WRITE addr=0x0000562c resp=AHB_RESP_OKAY waits=1 wdata=0x2ed1b031
# UVM_INFO ../src/mst/ahb_master_monitor.sv(117) @ 3225000: uvm_test_top.env.master_agent.mon [ahb_master_monitor] Beat[139] addr=0x0000562c wdata=0x2ed1b031 resp=AHB_RESP_OKAY
# UVM_INFO ../src/mst/ahb_master_driver.sv(317) @ 3245000: uvm_test_top.env.master_agent.drv [ahb_master_driver] Beat[140/256] addr=0x00005630 trans=AHB_TRANS_SEQ resp=AHB_RESP_OKAY wdata=0x768464f8
# UVM_INFO ../src/slv/ahb_slave_driver.sv(184) @ 3245000: uvm_test_top.env.slave_agent.drv [ahb_slave_driver] Beat AHB_WRITE addr=0x00005630 resp=AHB_RESP_OKAY waits=1 wdata=0x768464f8
# UVM_INFO ../src/mst/ahb_master_monitor.sv(117) @ 3245000: uvm_test_top.env.master_agent.mon [ahb_master_monitor] Beat[140] addr=0x00005630 wdata=0x768464f8 resp=AHB_RESP_OKAY
# UVM_INFO ../src/mst/ahb_master_driver.sv(317) @ 3265000: uvm_test_top.env.master_agent.drv [ahb_master_driver] Beat[141/256] addr=0x00005634 trans=AHB_TRANS_SEQ resp=AHB_RESP_OKAY wdata=0x7b16b7f1
# UVM_INFO ../src/slv/ahb_slave_driver.sv(184) @ 3265000: uvm_test_top.env.slave_agent.drv [ahb_slave_driver] Beat AHB_WRITE addr=0x00005634 resp=AHB_RESP_OKAY waits=1 wdata=0x7b16b7f1
# UVM_INFO ../src/mst/ahb_master_monitor.sv(117) @ 3265000: uvm_test_top.env.master_agent.mon [ahb_master_monitor] Beat[141] addr=0x00005634 wdata=0x7b16b7f1 resp=AHB_RESP_OKAY
# UVM_INFO ../src/mst/ahb_master_driver.sv(317) @ 3295000: uvm_test_top.env.master_agent.drv [ahb_master_driver] Beat[142/256] addr=0x00005638 trans=AHB_TRANS_SEQ resp=AHB_RESP_OKAY wdata=0x0d08d21d
# UVM_INFO ../src/slv/ahb_slave_driver.sv(184) @ 3295000: uvm_test_top.env.slave_agent.drv [ahb_slave_driver] Beat AHB_WRITE addr=0x00005638 resp=AHB_RESP_OKAY waits=2 wdata=0x0d08d21d
# UVM_INFO ../src/mst/ahb_master_monitor.sv(117) @ 3295000: uvm_test_top.env.master_agent.mon [ahb_master_monitor] Beat[142] addr=0x00005638 wdata=0x0d08d21d resp=AHB_RESP_OKAY
# UVM_INFO ../src/mst/ahb_master_driver.sv(317) @ 3325000: uvm_test_top.env.master_agent.drv [ahb_master_driver] Beat[143/256] addr=0x0000563c trans=AHB_TRANS_SEQ resp=AHB_RESP_OKAY wdata=0x28bb56d5
# UVM_INFO ../src/slv/ahb_slave_driver.sv(184) @ 3325000: uvm_test_top.env.slave_agent.drv [ahb_slave_driver] Beat AHB_WRITE addr=0x0000563c resp=AHB_RESP_OKAY waits=2 wdata=0x28bb56d5
# UVM_INFO ../src/mst/ahb_master_monitor.sv(117) @ 3325000: uvm_test_top.env.master_agent.mon [ahb_master_monitor] Beat[143] addr=0x0000563c wdata=0x28bb56d5 resp=AHB_RESP_OKAY
# UVM_INFO ../src/mst/ahb_master_driver.sv(317) @ 3355000: uvm_test_top.env.master_agent.drv [ahb_master_driver] Beat[144/256] addr=0x00005640 trans=AHB_TRANS_SEQ resp=AHB_RESP_OKAY wdata=0x95b75640
# UVM_INFO ../src/slv/ahb_slave_driver.sv(184) @ 3355000: uvm_test_top.env.slave_agent.drv [ahb_slave_driver] Beat AHB_WRITE addr=0x00005640 resp=AHB_RESP_OKAY waits=1 wdata=0x95b75640
# UVM_INFO ../src/mst/ahb_master_monitor.sv(117) @ 3355000: uvm_test_top.env.master_agent.mon [ahb_master_monitor] Beat[144] addr=0x00005640 wdata=0x95b75640 resp=AHB_RESP_OKAY
# UVM_INFO ../src/mst/ahb_master_driver.sv(317) @ 3365000: uvm_test_top.env.master_agent.drv [ahb_master_driver] Beat[145/256] addr=0x00005644 trans=AHB_TRANS_SEQ resp=AHB_RESP_OKAY wdata=0xc57f1569
# UVM_INFO ../src/slv/ahb_slave_driver.sv(184) @ 3365000: uvm_test_top.env.slave_agent.drv [ahb_slave_driver] Beat AHB_WRITE addr=0x00005644 resp=AHB_RESP_OKAY waits=0 wdata=0xc57f1569
# UVM_INFO ../src/mst/ahb_master_monitor.sv(117) @ 3365000: uvm_test_top.env.master_agent.mon [ahb_master_monitor] Beat[145] addr=0x00005644 wdata=0xc57f1569 resp=AHB_RESP_OKAY
# UVM_INFO ../src/mst/ahb_master_driver.sv(317) @ 3375000: uvm_test_top.env.master_agent.drv [ahb_master_driver] Beat[146/256] addr=0x00005648 trans=AHB_TRANS_SEQ resp=AHB_RESP_OKAY wdata=0xf0afbd1b
# UVM_INFO ../src/slv/ahb_slave_driver.sv(184) @ 3375000: uvm_test_top.env.slave_agent.drv [ahb_slave_driver] Beat AHB_WRITE addr=0x00005648 resp=AHB_RESP_OKAY waits=0 wdata=0xf0afbd1b
# UVM_INFO ../src/mst/ahb_master_monitor.sv(117) @ 3375000: uvm_test_top.env.master_agent.mon [ahb_master_monitor] Beat[146] addr=0x00005648 wdata=0xf0afbd1b resp=AHB_RESP_OKAY
# UVM_INFO ../src/mst/ahb_master_driver.sv(317) @ 3395000: uvm_test_top.env.master_agent.drv [ahb_master_driver] Beat[147/256] addr=0x0000564c trans=AHB_TRANS_SEQ resp=AHB_RESP_OKAY wdata=0xa558fcf8
# UVM_INFO ../src/slv/ahb_slave_driver.sv(184) @ 3395000: uvm_test_top.env.slave_agent.drv [ahb_slave_driver] Beat AHB_WRITE addr=0x0000564c resp=AHB_RESP_OKAY waits=1 wdata=0xa558fcf8
# UVM_INFO ../src/mst/ahb_master_monitor.sv(117) @ 3395000: uvm_test_top.env.master_agent.mon [ahb_master_monitor] Beat[147] addr=0x0000564c wdata=0xa558fcf8 resp=AHB_RESP_OKAY
# UVM_INFO ../src/mst/ahb_master_driver.sv(317) @ 3425000: uvm_test_top.env.master_agent.drv [ahb_master_driver] Beat[148/256] addr=0x00005650 trans=AHB_TRANS_SEQ resp=AHB_RESP_OKAY wdata=0xfc957345
# UVM_INFO ../src/slv/ahb_slave_driver.sv(184) @ 3425000: uvm_test_top.env.slave_agent.drv [ahb_slave_driver] Beat AHB_WRITE addr=0x00005650 resp=AHB_RESP_OKAY waits=2 wdata=0xfc957345
# UVM_INFO ../src/mst/ahb_master_monitor.sv(117) @ 3425000: uvm_test_top.env.master_agent.mon [ahb_master_monitor] Beat[148] addr=0x00005650 wdata=0xfc957345 resp=AHB_RESP_OKAY
# UVM_INFO ../src/mst/ahb_master_driver.sv(317) @ 3435000: uvm_test_top.env.master_agent.drv [ahb_master_driver] Beat[149/256] addr=0x00005654 trans=AHB_TRANS_SEQ resp=AHB_RESP_OKAY wdata=0xaa0ff4e9
# UVM_INFO ../src/slv/ahb_slave_driver.sv(184) @ 3435000: uvm_test_top.env.slave_agent.drv [ahb_slave_driver] Beat AHB_WRITE addr=0x00005654 resp=AHB_RESP_OKAY waits=0 wdata=0xaa0ff4e9
# UVM_INFO ../src/mst/ahb_master_monitor.sv(117) @ 3435000: uvm_test_top.env.master_agent.mon [ahb_master_monitor] Beat[149] addr=0x00005654 wdata=0xaa0ff4e9 resp=AHB_RESP_OKAY
# UVM_INFO ../src/mst/ahb_master_driver.sv(317) @ 3455000: uvm_test_top.env.master_agent.drv [ahb_master_driver] Beat[150/256] addr=0x00005658 trans=AHB_TRANS_SEQ resp=AHB_RESP_OKAY wdata=0xcc3d8948
# UVM_INFO ../src/slv/ahb_slave_driver.sv(184) @ 3455000: uvm_test_top.env.slave_agent.drv [ahb_slave_driver] Beat AHB_WRITE addr=0x00005658 resp=AHB_RESP_OKAY waits=1 wdata=0xcc3d8948
# UVM_INFO ../src/mst/ahb_master_monitor.sv(117) @ 3455000: uvm_test_top.env.master_agent.mon [ahb_master_monitor] Beat[150] addr=0x00005658 wdata=0xcc3d8948 resp=AHB_RESP_OKAY
# UVM_INFO ../src/mst/ahb_master_driver.sv(317) @ 3475000: uvm_test_top.env.master_agent.drv [ahb_master_driver] Beat[151/256] addr=0x0000565c trans=AHB_TRANS_SEQ resp=AHB_RESP_OKAY wdata=0x7e9c35ae
# UVM_INFO ../src/slv/ahb_slave_driver.sv(184) @ 3475000: uvm_test_top.env.slave_agent.drv [ahb_slave_driver] Beat AHB_WRITE addr=0x0000565c resp=AHB_RESP_OKAY waits=1 wdata=0x7e9c35ae
# UVM_INFO ../src/mst/ahb_master_monitor.sv(117) @ 3475000: uvm_test_top.env.master_agent.mon [ahb_master_monitor] Beat[151] addr=0x0000565c wdata=0x7e9c35ae resp=AHB_RESP_OKAY
# UVM_INFO ../src/mst/ahb_master_driver.sv(317) @ 3505000: uvm_test_top.env.master_agent.drv [ahb_master_driver] Beat[152/256] addr=0x00005660 trans=AHB_TRANS_SEQ resp=AHB_RESP_OKAY wdata=0x34dd6d2a
# UVM_INFO ../src/slv/ahb_slave_driver.sv(184) @ 3505000: uvm_test_top.env.slave_agent.drv [ahb_slave_driver] Beat AHB_WRITE addr=0x00005660 resp=AHB_RESP_OKAY waits=1 wdata=0x34dd6d2a
# UVM_INFO ../src/mst/ahb_master_monitor.sv(117) @ 3505000: uvm_test_top.env.master_agent.mon [ahb_master_monitor] Beat[152] addr=0x00005660 wdata=0x34dd6d2a resp=AHB_RESP_OKAY
# UVM_INFO ../src/mst/ahb_master_driver.sv(317) @ 3535000: uvm_test_top.env.master_agent.drv [ahb_master_driver] Beat[153/256] addr=0x00005664 trans=AHB_TRANS_SEQ resp=AHB_RESP_OKAY wdata=0xe4cf4b09
# UVM_INFO ../src/slv/ahb_slave_driver.sv(184) @ 3535000: uvm_test_top.env.slave_agent.drv [ahb_slave_driver] Beat AHB_WRITE addr=0x00005664 resp=AHB_RESP_OKAY waits=2 wdata=0xe4cf4b09
# UVM_INFO ../src/mst/ahb_master_monitor.sv(117) @ 3535000: uvm_test_top.env.master_agent.mon [ahb_master_monitor] Beat[153] addr=0x00005664 wdata=0xe4cf4b09 resp=AHB_RESP_OKAY
# UVM_INFO ../src/mst/ahb_master_driver.sv(317) @ 3565000: uvm_test_top.env.master_agent.drv [ahb_master_driver] Beat[154/256] addr=0x00005668 trans=AHB_TRANS_SEQ resp=AHB_RESP_OKAY wdata=0x1e0573bc
# UVM_INFO ../src/slv/ahb_slave_driver.sv(184) @ 3565000: uvm_test_top.env.slave_agent.drv [ahb_slave_driver] Beat AHB_WRITE addr=0x00005668 resp=AHB_RESP_OKAY waits=2 wdata=0x1e0573bc
# UVM_INFO ../src/mst/ahb_master_monitor.sv(117) @ 3565000: uvm_test_top.env.master_agent.mon [ahb_master_monitor] Beat[154] addr=0x00005668 wdata=0x1e0573bc resp=AHB_RESP_OKAY
# UVM_INFO ../src/mst/ahb_master_driver.sv(317) @ 3595000: uvm_test_top.env.master_agent.drv [ahb_master_driver] Beat[155/256] addr=0x0000566c trans=AHB_TRANS_SEQ resp=AHB_RESP_OKAY wdata=0xa427b012
# UVM_INFO ../src/slv/ahb_slave_driver.sv(184) @ 3595000: uvm_test_top.env.slave_agent.drv [ahb_slave_driver] Beat AHB_WRITE addr=0x0000566c resp=AHB_RESP_OKAY waits=2 wdata=0xa427b012
# UVM_INFO ../src/mst/ahb_master_monitor.sv(117) @ 3595000: uvm_test_top.env.master_agent.mon [ahb_master_monitor] Beat[155] addr=0x0000566c wdata=0xa427b012 resp=AHB_RESP_OKAY
