# vsim -c -coverage -sv_seed 10854984 "+UVM_TESTNAME=ahb_wrap_burst_test" "+UVM_VERBOSITY=UVM_HIGH" "+DUMP_VCD" -l ./report/logs/ahb_wrap_burst_test_run_3_seed_10854984.log -do "coverage save -onexit ./report/coverage/ahb_wrap_burst_test_run_3_seed_10854984.ucdb; run -all; quit -f" opt_tb_top 
# Start time: 13:58:17 on Jul 30,2026
# //  Questa Sim-64
# //  Version 10.6b linux_x86_64 May 25 2017
# //
# //  Copyright 1991-2017 Mentor Graphics Corporation
# //  All Rights Reserved.
# //
# //  QuestaSim and its associated documentation contain trade
# //  secrets and commercial or financial information that are the property of
# //  Mentor Graphics Corporation and are privileged, confidential,
# //  and exempt from disclosure under the Freedom of Information Act,
# //  5 U.S.C. Section 552. Furthermore, this information
# //  is prohibited from disclosure under the Trade Secrets Act,
# //  18 U.S.C. Section 1905.
# //
# Loading sv_std.std
# Loading work.ahb_if(fast)
# Loading mtiUvm.uvm_pkg
# Loading work.ahb_pkg(fast)
# Loading work.ahb_seq_pkg(fast)
# Loading work.ahb_test_pkg(fast)
# Loading work.tb_top(fast)
# Loading work.ahb_if(fast)
# Loading work.ahb_sva(fast)
# Loading mtiUvm.questa_uvm_pkg(fast)
# Loading /cadtools/mentor/Questa_10.6b/questasim/uvm-1.1d/linux_x86_64/uvm_dpi.so
# coverage save -onexit ./report/coverage/ahb_wrap_burst_test_run_3_seed_10854984.ucdb
#  run -all
# ----------------------------------------------------------------
# UVM-1.1d
# (C) 2007-2013 Mentor Graphics Corporation
# (C) 2007-2013 Cadence Design Systems, Inc.
# (C) 2006-2013 Synopsys, Inc.
# (C) 2011-2013 Cypress Semiconductor Corp.
# ----------------------------------------------------------------
# 
#   ***********       IMPORTANT RELEASE NOTES         ************
# 
#   You are using a version of the UVM library that has been compiled
#   with `UVM_NO_DEPRECATED undefined.
#   See http://www.eda.org/svdb/view.php?id=3313 for more details.
# 
#   You are using a version of the UVM library that has been compiled
#   with `UVM_OBJECT_MUST_HAVE_CONSTRUCTOR undefined.
#   See http://www.eda.org/svdb/view.php?id=3770 for more details.
# 
#       (Specify +UVM_NO_RELNOTES to turn off this notice)
# 
# UVM_INFO verilog_src/questa_uvm_pkg-1.2/src/questa_uvm_pkg.sv(215) @ 0: reporter [Questa UVM] QUESTA_UVM-1.2.3
# UVM_INFO verilog_src/questa_uvm_pkg-1.2/src/questa_uvm_pkg.sv(217) @ 0: reporter [Questa UVM]  questa_uvm::init(+struct)
# UVM_INFO ../src/tb_top.sv(126) @ 0: reporter [TB_TOP] Virtual interface set in config_db
# UVM_INFO @ 0: reporter [RNTST] Running test ahb_wrap_burst_test...
# UVM_INFO ../src/tb_top.sv(140) @ 0: reporter [TB_TOP] Waveform VCD dumping enabled (ahb_lite_vip.vcd)
# UVM_INFO ../src/env/ahb_vip_env.sv(64) @ 0: uvm_test_top.env [ahb_vip_env] slave_vif not set - reusing master_vif (passthrough mode)
# UVM_INFO ../src/env/ahb_vip_env.sv(72) @ 0: uvm_test_top.env [ahb_vip_env] Scoreboard created
# UVM_INFO ../src/env/ahb_vip_env.sv(78) @ 0: uvm_test_top.env [ahb_vip_env] Coverage collectors created
# UVM_INFO ../src/mst/ahb_master_agent.sv(61) @ 0: uvm_test_top.env.master_agent [ahb_master_agent] ACTIVE mode - driver + sequencer created
# UVM_INFO ../src/slv/ahb_slave_agent.sv(64) @ 0: uvm_test_top.env.slave_agent [ahb_slave_agent] ACTIVE mode - driver + sequencer created (    auto responses)
# UVM_INFO ../src/env/ahb_vip_env.sv(92) @ 0: uvm_test_top.env [ahb_vip_env] Scoreboard connected: master_mon.ap -> scb, slave_mon.ap -> scb
# UVM_INFO ../src/env/ahb_vip_env.sv(99) @ 0: uvm_test_top.env [ahb_vip_env] Coverage connected: master_mon.ap -> master_cov, slave_mon.ap -> slave_cov
# UVM_INFO @ 0: reporter [UVMTOP] UVM testbench topology:
# ---------------------------------------------------------------
# Name                       Type                     Size  Value
# ---------------------------------------------------------------
# uvm_test_top               ahb_wrap_burst_test      -     @475 
#   env                      ahb_vip_env              -     @490 
#     master_agent           ahb_master_agent         -     @505 
#       drv                  ahb_master_driver        -     @570 
#         rsp_port           uvm_analysis_port        -     @585 
#         seq_item_port      uvm_seq_item_pull_port   -     @577 
#       mon                  ahb_master_monitor       -     @563 
#         ap                 uvm_analysis_port        -     @704 
#       sqr                  ahb_master_sequencer     -     @593 
#         rsp_export         uvm_analysis_export      -     @600 
#         seq_item_export    uvm_seq_item_pull_imp    -     @694 
#         arbitration_queue  array                    0     -    
#         lock_queue         array                    0     -    
#         num_last_reqs      integral                 32    'd1  
#         num_last_rsps      integral                 32    'd1  
#     master_cov             ahb_coverage             -     @526 
#       analysis_imp         uvm_analysis_imp         -     @533 
#     scb                    ahb_scoreboard           -     @519 
#       master_export        uvm_analysis_imp_master  -     @718 
#       slave_export         uvm_analysis_imp_slave   -     @726 
#     slave_agent            ahb_slave_agent          -     @512 
#       drv                  ahb_slave_driver         -     @748 
#         rsp_port           uvm_analysis_port        -     @763 
#         seq_item_port      uvm_seq_item_pull_port   -     @755 
#       mon                  ahb_slave_monitor        -     @741 
#         ap                 uvm_analysis_port        -     @882 
#       sqr                  ahb_slave_sequencer      -     @771 
#         rsp_export         uvm_analysis_export      -     @778 
#         seq_item_export    uvm_seq_item_pull_imp    -     @872 
#         arbitration_queue  array                    0     -    
#         lock_queue         array                    0     -    
#         num_last_reqs      integral                 32    'd1  
#         num_last_rsps      integral                 32    'd1  
#     slave_cov              ahb_coverage             -     @541 
#       analysis_imp         uvm_analysis_imp         -     @548 
# ---------------------------------------------------------------
# 
# UVM_INFO verilog_src/questa_uvm_pkg-1.2/src/questa_uvm_pkg.sv(277) @ 0: reporter [Questa UVM] End Of Elaboration
# UVM_INFO ../src/mst_seq/ahb_wrap_burst_seq.sv(49) @ 0: uvm_test_top.env.master_agent.sqr@@seq [ahb_wrap_burst_seq] Starting WRAP bursts: 16 iterations from 0x00004000
# UVM_INFO ../src/mst/ahb_master_driver.sv(181) @ 5000: uvm_test_top.env.master_agent.drv [ahb_master_driver] Flushed pending transactions (reset)
# UVM_INFO ../src/tb_top.sv(48) @ 95000: reporter [TB_TOP] Reset de-asserted
# UVM_INFO ../src/slv/ahb_slave_driver.sv(59) @ 95000: uvm_test_top.env.slave_agent.drv [ahb_slave_driver] Reset deasserted - slave driver active (    auto mode)
# UVM_INFO ../src/mst/ahb_master_driver.sv(68) @ 95000: uvm_test_top.env.master_agent.drv [ahb_master_driver] Reset deasserted - master driver active
# UVM_INFO ../src/mst/ahb_master_monitor.sv(75) @ 95000: uvm_test_top.env.master_agent.mon [ahb_master_monitor] Reset deasserted - master monitor active
# UVM_INFO ../src/slv/ahb_slave_monitor.sv(69) @ 95000: uvm_test_top.env.slave_agent.mon [ahb_slave_monitor] Reset deasserted - slave monitor active
# UVM_INFO ../src/mst/ahb_master_driver.sv(82) @ 95000: uvm_test_top.env.master_agent.drv [ahb_master_driver] Queueing [AHB_WRITE]: HADDR=0x00004034, HBURST=AHB_BURST_WRAP16, HSIZE=AHB_SIZE_32B, 16 beats
# UVM_INFO ../src/mst/ahb_master_driver.sv(124) @ 95000: uvm_test_top.env.master_agent.drv [ahb_master_driver] Driving [AHB_WRITE]: HADDR=0x00004034, HBURST=AHB_BURST_WRAP16, HSIZE=AHB_SIZE_32B, 16 beats               
# UVM_INFO ../src/mst/ahb_master_driver.sv(283) @ 135000: uvm_test_top.env.master_agent.drv [ahb_master_driver] Beat[0/16] addr=0x00004034 trans=AHB_TRANS_NONSEQ resp=AHB_RESP_OKAY wdata=0x55aa42a5
# UVM_INFO ../src/slv/ahb_slave_driver.sv(174) @ 135000: uvm_test_top.env.slave_agent.drv [ahb_slave_driver] Beat AHB_WRITE addr=0x00004034 resp=AHB_RESP_OKAY waits=2 wdata=0x55aa42a5
# UVM_INFO ../src/mst/ahb_master_monitor.sv(117) @ 135000: uvm_test_top.env.master_agent.mon [ahb_master_monitor] Beat[0] addr=0x00004034 wdata=0x55aa42a5 resp=AHB_RESP_OKAY
# UVM_INFO ../src/mst/ahb_master_driver.sv(283) @ 145000: uvm_test_top.env.master_agent.drv [ahb_master_driver] Beat[1/16] addr=0x00004038 trans=AHB_TRANS_SEQ resp=AHB_RESP_OKAY wdata=0xb6768898
# UVM_INFO ../src/slv/ahb_slave_driver.sv(174) @ 145000: uvm_test_top.env.slave_agent.drv [ahb_slave_driver] Beat AHB_WRITE addr=0x00004038 resp=AHB_RESP_OKAY waits=0 wdata=0xb6768898
# UVM_INFO ../src/mst/ahb_master_monitor.sv(117) @ 145000: uvm_test_top.env.master_agent.mon [ahb_master_monitor] Beat[1] addr=0x00004038 wdata=0xb6768898 resp=AHB_RESP_OKAY
# UVM_INFO ../src/mst/ahb_master_driver.sv(283) @ 155000: uvm_test_top.env.master_agent.drv [ahb_master_driver] Beat[2/16] addr=0x0000403c trans=AHB_TRANS_SEQ resp=AHB_RESP_OKAY wdata=0x2d068aef
# UVM_INFO ../src/slv/ahb_slave_driver.sv(174) @ 155000: uvm_test_top.env.slave_agent.drv [ahb_slave_driver] Beat AHB_WRITE addr=0x0000403c resp=AHB_RESP_OKAY waits=0 wdata=0x2d068aef
# UVM_INFO ../src/mst/ahb_master_monitor.sv(117) @ 155000: uvm_test_top.env.master_agent.mon [ahb_master_monitor] Beat[2] addr=0x0000403c wdata=0x2d068aef resp=AHB_RESP_OKAY
# UVM_INFO ../src/mst/ahb_master_driver.sv(283) @ 185000: uvm_test_top.env.master_agent.drv [ahb_master_driver] Beat[3/16] addr=0x00004000 trans=AHB_TRANS_SEQ resp=AHB_RESP_OKAY wdata=0x96cab118
# UVM_INFO ../src/slv/ahb_slave_driver.sv(174) @ 185000: uvm_test_top.env.slave_agent.drv [ahb_slave_driver] Beat AHB_WRITE addr=0x00004000 resp=AHB_RESP_OKAY waits=2 wdata=0x96cab118
# UVM_INFO ../src/mst/ahb_master_monitor.sv(117) @ 185000: uvm_test_top.env.master_agent.mon [ahb_master_monitor] Beat[3] addr=0x00004000 wdata=0x96cab118 resp=AHB_RESP_OKAY
# UVM_INFO ../src/mst/ahb_master_driver.sv(283) @ 205000: uvm_test_top.env.master_agent.drv [ahb_master_driver] Beat[4/16] addr=0x00004004 trans=AHB_TRANS_SEQ resp=AHB_RESP_OKAY wdata=0x0ef86298
# UVM_INFO ../src/slv/ahb_slave_driver.sv(174) @ 205000: uvm_test_top.env.slave_agent.drv [ahb_slave_driver] Beat AHB_WRITE addr=0x00004004 resp=AHB_RESP_OKAY waits=1 wdata=0x0ef86298
# UVM_INFO ../src/mst/ahb_master_monitor.sv(117) @ 205000: uvm_test_top.env.master_agent.mon [ahb_master_monitor] Beat[4] addr=0x00004004 wdata=0x0ef86298 resp=AHB_RESP_OKAY
# UVM_INFO ../src/mst/ahb_master_driver.sv(283) @ 225000: uvm_test_top.env.master_agent.drv [ahb_master_driver] Beat[5/16] addr=0x00004008 trans=AHB_TRANS_SEQ resp=AHB_RESP_OKAY wdata=0xd8805a13
# UVM_INFO ../src/slv/ahb_slave_driver.sv(174) @ 225000: uvm_test_top.env.slave_agent.drv [ahb_slave_driver] Beat AHB_WRITE addr=0x00004008 resp=AHB_RESP_OKAY waits=1 wdata=0xd8805a13
# UVM_INFO ../src/mst/ahb_master_monitor.sv(117) @ 225000: uvm_test_top.env.master_agent.mon [ahb_master_monitor] Beat[5] addr=0x00004008 wdata=0xd8805a13 resp=AHB_RESP_OKAY
# UVM_INFO ../src/mst/ahb_master_driver.sv(283) @ 235000: uvm_test_top.env.master_agent.drv [ahb_master_driver] Beat[6/16] addr=0x0000400c trans=AHB_TRANS_SEQ resp=AHB_RESP_OKAY wdata=0x49e18a5a
# UVM_INFO ../src/slv/ahb_slave_driver.sv(174) @ 235000: uvm_test_top.env.slave_agent.drv [ahb_slave_driver] Beat AHB_WRITE addr=0x0000400c resp=AHB_RESP_OKAY waits=0 wdata=0x49e18a5a
# UVM_INFO ../src/mst/ahb_master_monitor.sv(117) @ 235000: uvm_test_top.env.master_agent.mon [ahb_master_monitor] Beat[6] addr=0x0000400c wdata=0x49e18a5a resp=AHB_RESP_OKAY
# UVM_INFO ../src/mst/ahb_master_driver.sv(283) @ 245000: uvm_test_top.env.master_agent.drv [ahb_master_driver] Beat[7/16] addr=0x00004010 trans=AHB_TRANS_SEQ resp=AHB_RESP_OKAY wdata=0x183c9ce0
# UVM_INFO ../src/slv/ahb_slave_driver.sv(174) @ 245000: uvm_test_top.env.slave_agent.drv [ahb_slave_driver] Beat AHB_WRITE addr=0x00004010 resp=AHB_RESP_OKAY waits=0 wdata=0x183c9ce0
# UVM_INFO ../src/mst/ahb_master_monitor.sv(117) @ 245000: uvm_test_top.env.master_agent.mon [ahb_master_monitor] Beat[7] addr=0x00004010 wdata=0x183c9ce0 resp=AHB_RESP_OKAY
# UVM_INFO ../src/mst/ahb_master_driver.sv(283) @ 255000: uvm_test_top.env.master_agent.drv [ahb_master_driver] Beat[8/16] addr=0x00004014 trans=AHB_TRANS_SEQ resp=AHB_RESP_OKAY wdata=0x7e503f5b
# UVM_INFO ../src/slv/ahb_slave_driver.sv(174) @ 255000: uvm_test_top.env.slave_agent.drv [ahb_slave_driver] Beat AHB_WRITE addr=0x00004014 resp=AHB_RESP_OKAY waits=0 wdata=0x7e503f5b
# UVM_INFO ../src/mst/ahb_master_monitor.sv(117) @ 255000: uvm_test_top.env.master_agent.mon [ahb_master_monitor] Beat[8] addr=0x00004014 wdata=0x7e503f5b resp=AHB_RESP_OKAY
# UVM_INFO ../src/mst/ahb_master_driver.sv(283) @ 275000: uvm_test_top.env.master_agent.drv [ahb_master_driver] Beat[9/16] addr=0x00004018 trans=AHB_TRANS_SEQ resp=AHB_RESP_OKAY wdata=0xe652d7da
# UVM_INFO ../src/slv/ahb_slave_driver.sv(174) @ 275000: uvm_test_top.env.slave_agent.drv [ahb_slave_driver] Beat AHB_WRITE addr=0x00004018 resp=AHB_RESP_OKAY waits=1 wdata=0xe652d7da
# UVM_INFO ../src/mst/ahb_master_monitor.sv(117) @ 275000: uvm_test_top.env.master_agent.mon [ahb_master_monitor] Beat[9] addr=0x00004018 wdata=0xe652d7da resp=AHB_RESP_OKAY
# UVM_INFO ../src/mst/ahb_master_driver.sv(283) @ 285000: uvm_test_top.env.master_agent.drv [ahb_master_driver] Beat[10/16] addr=0x0000401c trans=AHB_TRANS_SEQ resp=AHB_RESP_OKAY wdata=0x709130b7
# UVM_INFO ../src/slv/ahb_slave_driver.sv(174) @ 285000: uvm_test_top.env.slave_agent.drv [ahb_slave_driver] Beat AHB_WRITE addr=0x0000401c resp=AHB_RESP_OKAY waits=0 wdata=0x709130b7
# UVM_INFO ../src/mst/ahb_master_monitor.sv(117) @ 285000: uvm_test_top.env.master_agent.mon [ahb_master_monitor] Beat[10] addr=0x0000401c wdata=0x709130b7 resp=AHB_RESP_OKAY
# UVM_INFO ../src/mst/ahb_master_driver.sv(283) @ 295000: uvm_test_top.env.master_agent.drv [ahb_master_driver] Beat[11/16] addr=0x00004020 trans=AHB_TRANS_SEQ resp=AHB_RESP_OKAY wdata=0x22fe6594
# UVM_INFO ../src/slv/ahb_slave_driver.sv(174) @ 295000: uvm_test_top.env.slave_agent.drv [ahb_slave_driver] Beat AHB_WRITE addr=0x00004020 resp=AHB_RESP_OKAY waits=0 wdata=0x22fe6594
# UVM_INFO ../src/mst/ahb_master_monitor.sv(117) @ 295000: uvm_test_top.env.master_agent.mon [ahb_master_monitor] Beat[11] addr=0x00004020 wdata=0x22fe6594 resp=AHB_RESP_OKAY
# UVM_INFO ../src/mst/ahb_master_driver.sv(283) @ 305000: uvm_test_top.env.master_agent.drv [ahb_master_driver] Beat[12/16] addr=0x00004024 trans=AHB_TRANS_SEQ resp=AHB_RESP_OKAY wdata=0x7e2e6b68
# UVM_INFO ../src/slv/ahb_slave_driver.sv(174) @ 305000: uvm_test_top.env.slave_agent.drv [ahb_slave_driver] Beat AHB_WRITE addr=0x00004024 resp=AHB_RESP_OKAY waits=0 wdata=0x7e2e6b68
# UVM_INFO ../src/mst/ahb_master_monitor.sv(117) @ 305000: uvm_test_top.env.master_agent.mon [ahb_master_monitor] Beat[12] addr=0x00004024 wdata=0x7e2e6b68 resp=AHB_RESP_OKAY
# UVM_INFO ../src/mst/ahb_master_driver.sv(283) @ 335000: uvm_test_top.env.master_agent.drv [ahb_master_driver] Beat[13/16] addr=0x00004028 trans=AHB_TRANS_SEQ resp=AHB_RESP_OKAY wdata=0x38fcc6e9
# UVM_INFO ../src/slv/ahb_slave_driver.sv(174) @ 335000: uvm_test_top.env.slave_agent.drv [ahb_slave_driver] Beat AHB_WRITE addr=0x00004028 resp=AHB_RESP_OKAY waits=2 wdata=0x38fcc6e9
# UVM_INFO ../src/mst/ahb_master_monitor.sv(117) @ 335000: uvm_test_top.env.master_agent.mon [ahb_master_monitor] Beat[13] addr=0x00004028 wdata=0x38fcc6e9 resp=AHB_RESP_OKAY
# UVM_INFO ../src/mst/ahb_master_driver.sv(283) @ 345000: uvm_test_top.env.master_agent.drv [ahb_master_driver] Beat[14/16] addr=0x0000402c trans=AHB_TRANS_SEQ resp=AHB_RESP_OKAY wdata=0xa1580f06
# UVM_INFO ../src/slv/ahb_slave_driver.sv(174) @ 345000: uvm_test_top.env.slave_agent.drv [ahb_slave_driver] Beat AHB_WRITE addr=0x0000402c resp=AHB_RESP_OKAY waits=0 wdata=0xa1580f06
# UVM_INFO ../src/mst/ahb_master_monitor.sv(117) @ 345000: uvm_test_top.env.master_agent.mon [ahb_master_monitor] Beat[14] addr=0x0000402c wdata=0xa1580f06 resp=AHB_RESP_OKAY
# UVM_INFO ../src/mst/ahb_master_driver.sv(283) @ 355000: uvm_test_top.env.master_agent.drv [ahb_master_driver] Beat[15/16] addr=0x00004030 trans=AHB_TRANS_SEQ resp=AHB_RESP_OKAY wdata=0x1d27228d
# UVM_INFO ../src/mst/ahb_master_driver.sv(327) @ 355000: uvm_test_top.env.master_agent.drv [ahb_master_driver] Transaction complete: AHB_WRITE 0x00004034, 16 beats, burst=AHB_BURST_WRAP16
# UVM_INFO ../src/slv/ahb_slave_driver.sv(174) @ 355000: uvm_test_top.env.slave_agent.drv [ahb_slave_driver] Beat AHB_WRITE addr=0x00004030 resp=AHB_RESP_OKAY waits=0 wdata=0x1d27228d
# UVM_INFO ../src/slv/ahb_slave_monitor.sv(197) @ 355000: uvm_test_top.env.slave_agent.mon [ahb_slave_monitor] Observed [AHB_WRITE]: HADDR=0x00004034, HBURST=AHB_BURST_WRAP16, HSIZE=AHB_SIZE_32B, 16 beats
# UVM_INFO ../src/env/ahb_coverage.sv(127) @ 355000: uvm_test_top.env.slave_cov [ahb_coverage] Sampled [AHB_WRITE]: burst=AHB_BURST_WRAP16 size=AHB_SIZE_32B beats=16 error=0
# UVM_INFO ../src/mst/ahb_master_monitor.sv(117) @ 355000: uvm_test_top.env.master_agent.mon [ahb_master_monitor] Beat[15] addr=0x00004030 wdata=0x1d27228d resp=AHB_RESP_OKAY
# UVM_INFO ../src/mst/ahb_master_monitor.sv(222) @ 355000: uvm_test_top.env.master_agent.mon [ahb_master_monitor] Observed [AHB_WRITE]: HADDR=0x00004034, HBURST=AHB_BURST_WRAP16, HSIZE=AHB_SIZE_32B, 16 beats
# UVM_INFO ../src/env/ahb_coverage.sv(127) @ 355000: uvm_test_top.env.master_cov [ahb_coverage] Sampled [AHB_WRITE]: burst=AHB_BURST_WRAP16 size=AHB_SIZE_32B beats=16 error=0
# UVM_INFO ../src/env/ahb_scoreboard.sv(104) @ 355000: uvm_test_top.env.scb [ahb_scoreboard] MATCH #1: [AHB_WRITE] HADDR=0x00004034 AHB_BURST_WRAP16 16 beats
# UVM_INFO ../src/mst/ahb_master_driver.sv(82) @ 355000: uvm_test_top.env.master_agent.drv [ahb_master_driver] Queueing [AHB_READ]: HADDR=0x00004034, HBURST=AHB_BURST_WRAP16, HSIZE=AHB_SIZE_32B, 16 beats
# UVM_INFO ../src/mst/ahb_master_driver.sv(124) @ 355000: uvm_test_top.env.master_agent.drv [ahb_master_driver] Driving [AHB_READ]: HADDR=0x00004034, HBURST=AHB_BURST_WRAP16, HSIZE=AHB_SIZE_32B, 16 beats               
# UVM_INFO ../src/mst/ahb_master_driver.sv(283) @ 385000: uvm_test_top.env.master_agent.drv [ahb_master_driver] Beat[0/16] addr=0x00004034 trans=AHB_TRANS_NONSEQ resp=AHB_RESP_OKAY rdata=0x55aa42a5
# UVM_INFO ../src/slv/ahb_slave_driver.sv(174) @ 385000: uvm_test_top.env.slave_agent.drv [ahb_slave_driver] Beat AHB_READ addr=0x00004034 resp=AHB_RESP_OKAY waits=0 rdata=0x55aa42a5
# UVM_INFO ../src/mst/ahb_master_monitor.sv(117) @ 385000: uvm_test_top.env.master_agent.mon [ahb_master_monitor] Beat[0] addr=0x00004034 rdata=0x55aa42a5 resp=AHB_RESP_OKAY
# UVM_INFO ../src/mst/ahb_master_driver.sv(283) @ 415000: uvm_test_top.env.master_agent.drv [ahb_master_driver] Beat[1/16] addr=0x00004038 trans=AHB_TRANS_SEQ resp=AHB_RESP_OKAY rdata=0xb6768898
# UVM_INFO ../src/slv/ahb_slave_driver.sv(174) @ 415000: uvm_test_top.env.slave_agent.drv [ahb_slave_driver] Beat AHB_READ addr=0x00004038 resp=AHB_RESP_OKAY waits=2 rdata=0xb6768898
# UVM_INFO ../src/mst/ahb_master_monitor.sv(117) @ 415000: uvm_test_top.env.master_agent.mon [ahb_master_monitor] Beat[1] addr=0x00004038 rdata=0xb6768898 resp=AHB_RESP_OKAY
# UVM_INFO ../src/mst/ahb_master_driver.sv(283) @ 435000: uvm_test_top.env.master_agent.drv [ahb_master_driver] Beat[2/16] addr=0x0000403c trans=AHB_TRANS_SEQ resp=AHB_RESP_OKAY rdata=0x2d068aef
# UVM_INFO ../src/slv/ahb_slave_driver.sv(174) @ 435000: uvm_test_top.env.slave_agent.drv [ahb_slave_driver] Beat AHB_READ addr=0x0000403c resp=AHB_RESP_OKAY waits=1 rdata=0x2d068aef
# UVM_INFO ../src/mst/ahb_master_monitor.sv(117) @ 435000: uvm_test_top.env.master_agent.mon [ahb_master_monitor] Beat[2] addr=0x0000403c rdata=0x2d068aef resp=AHB_RESP_OKAY
# UVM_INFO ../src/mst/ahb_master_driver.sv(283) @ 455000: uvm_test_top.env.master_agent.drv [ahb_master_driver] Beat[3/16] addr=0x00004000 trans=AHB_TRANS_SEQ resp=AHB_RESP_OKAY rdata=0x96cab118
# UVM_INFO ../src/slv/ahb_slave_driver.sv(174) @ 455000: uvm_test_top.env.slave_agent.drv [ahb_slave_driver] Beat AHB_READ addr=0x00004000 resp=AHB_RESP_OKAY waits=1 rdata=0x96cab118
# UVM_INFO ../src/mst/ahb_master_monitor.sv(117) @ 455000: uvm_test_top.env.master_agent.mon [ahb_master_monitor] Beat[3] addr=0x00004000 rdata=0x96cab118 resp=AHB_RESP_OKAY
# UVM_INFO ../src/mst/ahb_master_driver.sv(283) @ 465000: uvm_test_top.env.master_agent.drv [ahb_master_driver] Beat[4/16] addr=0x00004004 trans=AHB_TRANS_SEQ resp=AHB_RESP_OKAY rdata=0x0ef86298
# UVM_INFO ../src/slv/ahb_slave_driver.sv(174) @ 465000: uvm_test_top.env.slave_agent.drv [ahb_slave_driver] Beat AHB_READ addr=0x00004004 resp=AHB_RESP_OKAY waits=0 rdata=0x0ef86298
# UVM_INFO ../src/mst/ahb_master_monitor.sv(117) @ 465000: uvm_test_top.env.master_agent.mon [ahb_master_monitor] Beat[4] addr=0x00004004 rdata=0x0ef86298 resp=AHB_RESP_OKAY
# UVM_INFO ../src/mst/ahb_master_driver.sv(283) @ 485000: uvm_test_top.env.master_agent.drv [ahb_master_driver] Beat[5/16] addr=0x00004008 trans=AHB_TRANS_SEQ resp=AHB_RESP_OKAY rdata=0xd8805a13
# UVM_INFO ../src/slv/ahb_slave_driver.sv(174) @ 485000: uvm_test_top.env.slave_agent.drv [ahb_slave_driver] Beat AHB_READ addr=0x00004008 resp=AHB_RESP_OKAY waits=1 rdata=0xd8805a13
# UVM_INFO ../src/mst/ahb_master_monitor.sv(117) @ 485000: uvm_test_top.env.master_agent.mon [ahb_master_monitor] Beat[5] addr=0x00004008 rdata=0xd8805a13 resp=AHB_RESP_OKAY
# UVM_INFO ../src/mst/ahb_master_driver.sv(283) @ 515000: uvm_test_top.env.master_agent.drv [ahb_master_driver] Beat[6/16] addr=0x0000400c trans=AHB_TRANS_SEQ resp=AHB_RESP_OKAY rdata=0x49e18a5a
# UVM_INFO ../src/slv/ahb_slave_driver.sv(174) @ 515000: uvm_test_top.env.slave_agent.drv [ahb_slave_driver] Beat AHB_READ addr=0x0000400c resp=AHB_RESP_OKAY waits=2 rdata=0x49e18a5a
# UVM_INFO ../src/mst/ahb_master_monitor.sv(117) @ 515000: uvm_test_top.env.master_agent.mon [ahb_master_monitor] Beat[6] addr=0x0000400c rdata=0x49e18a5a resp=AHB_RESP_OKAY
# UVM_INFO ../src/mst/ahb_master_driver.sv(283) @ 535000: uvm_test_top.env.master_agent.drv [ahb_master_driver] Beat[7/16] addr=0x00004010 trans=AHB_TRANS_SEQ resp=AHB_RESP_OKAY rdata=0x183c9ce0
# UVM_INFO ../src/slv/ahb_slave_driver.sv(174) @ 535000: uvm_test_top.env.slave_agent.drv [ahb_slave_driver] Beat AHB_READ addr=0x00004010 resp=AHB_RESP_OKAY waits=1 rdata=0x183c9ce0
# UVM_INFO ../src/mst/ahb_master_monitor.sv(117) @ 535000: uvm_test_top.env.master_agent.mon [ahb_master_monitor] Beat[7] addr=0x00004010 rdata=0x183c9ce0 resp=AHB_RESP_OKAY
# UVM_INFO ../src/mst/ahb_master_driver.sv(283) @ 555000: uvm_test_top.env.master_agent.drv [ahb_master_driver] Beat[8/16] addr=0x00004014 trans=AHB_TRANS_SEQ resp=AHB_RESP_OKAY rdata=0x7e503f5b
# UVM_INFO ../src/slv/ahb_slave_driver.sv(174) @ 555000: uvm_test_top.env.slave_agent.drv [ahb_slave_driver] Beat AHB_READ addr=0x00004014 resp=AHB_RESP_OKAY waits=1 rdata=0x7e503f5b
# UVM_INFO ../src/mst/ahb_master_monitor.sv(117) @ 555000: uvm_test_top.env.master_agent.mon [ahb_master_monitor] Beat[8] addr=0x00004014 rdata=0x7e503f5b resp=AHB_RESP_OKAY
# UVM_INFO ../src/mst/ahb_master_driver.sv(283) @ 575000: uvm_test_top.env.master_agent.drv [ahb_master_driver] Beat[9/16] addr=0x00004018 trans=AHB_TRANS_SEQ resp=AHB_RESP_OKAY rdata=0xe652d7da
# UVM_INFO ../src/slv/ahb_slave_driver.sv(174) @ 575000: uvm_test_top.env.slave_agent.drv [ahb_slave_driver] Beat AHB_READ addr=0x00004018 resp=AHB_RESP_OKAY waits=1 rdata=0xe652d7da
# UVM_INFO ../src/mst/ahb_master_monitor.sv(117) @ 575000: uvm_test_top.env.master_agent.mon [ahb_master_monitor] Beat[9] addr=0x00004018 rdata=0xe652d7da resp=AHB_RESP_OKAY
# UVM_INFO ../src/mst/ahb_master_driver.sv(283) @ 605000: uvm_test_top.env.master_agent.drv [ahb_master_driver] Beat[10/16] addr=0x0000401c trans=AHB_TRANS_SEQ resp=AHB_RESP_OKAY rdata=0x709130b7
# UVM_INFO ../src/slv/ahb_slave_driver.sv(174) @ 605000: uvm_test_top.env.slave_agent.drv [ahb_slave_driver] Beat AHB_READ addr=0x0000401c resp=AHB_RESP_OKAY waits=2 rdata=0x709130b7
# UVM_INFO ../src/mst/ahb_master_monitor.sv(117) @ 605000: uvm_test_top.env.master_agent.mon [ahb_master_monitor] Beat[10] addr=0x0000401c rdata=0x709130b7 resp=AHB_RESP_OKAY
# UVM_INFO ../src/mst/ahb_master_driver.sv(283) @ 615000: uvm_test_top.env.master_agent.drv [ahb_master_driver] Beat[11/16] addr=0x00004020 trans=AHB_TRANS_SEQ resp=AHB_RESP_OKAY rdata=0x22fe6594
# UVM_INFO ../src/slv/ahb_slave_driver.sv(174) @ 615000: uvm_test_top.env.slave_agent.drv [ahb_slave_driver] Beat AHB_READ addr=0x00004020 resp=AHB_RESP_OKAY waits=0 rdata=0x22fe6594
# UVM_INFO ../src/mst/ahb_master_monitor.sv(117) @ 615000: uvm_test_top.env.master_agent.mon [ahb_master_monitor] Beat[11] addr=0x00004020 rdata=0x22fe6594 resp=AHB_RESP_OKAY
# UVM_INFO ../src/mst/ahb_master_driver.sv(283) @ 635000: uvm_test_top.env.master_agent.drv [ahb_master_driver] Beat[12/16] addr=0x00004024 trans=AHB_TRANS_SEQ resp=AHB_RESP_OKAY rdata=0x7e2e6b68
# UVM_INFO ../src/slv/ahb_slave_driver.sv(174) @ 635000: uvm_test_top.env.slave_agent.drv [ahb_slave_driver] Beat AHB_READ addr=0x00004024 resp=AHB_RESP_OKAY waits=1 rdata=0x7e2e6b68
# UVM_INFO ../src/mst/ahb_master_monitor.sv(117) @ 635000: uvm_test_top.env.master_agent.mon [ahb_master_monitor] Beat[12] addr=0x00004024 rdata=0x7e2e6b68 resp=AHB_RESP_OKAY
# UVM_INFO ../src/mst/ahb_master_driver.sv(283) @ 665000: uvm_test_top.env.master_agent.drv [ahb_master_driver] Beat[13/16] addr=0x00004028 trans=AHB_TRANS_SEQ resp=AHB_RESP_OKAY rdata=0x38fcc6e9
# UVM_INFO ../src/slv/ahb_slave_driver.sv(174) @ 665000: uvm_test_top.env.slave_agent.drv [ahb_slave_driver] Beat AHB_READ addr=0x00004028 resp=AHB_RESP_OKAY waits=2 rdata=0x38fcc6e9
# UVM_INFO ../src/mst/ahb_master_monitor.sv(117) @ 665000: uvm_test_top.env.master_agent.mon [ahb_master_monitor] Beat[13] addr=0x00004028 rdata=0x38fcc6e9 resp=AHB_RESP_OKAY
# UVM_INFO ../src/mst/ahb_master_driver.sv(283) @ 685000: uvm_test_top.env.master_agent.drv [ahb_master_driver] Beat[14/16] addr=0x0000402c trans=AHB_TRANS_SEQ resp=AHB_RESP_OKAY rdata=0xa1580f06
# UVM_INFO ../src/slv/ahb_slave_driver.sv(174) @ 685000: uvm_test_top.env.slave_agent.drv [ahb_slave_driver] Beat AHB_READ addr=0x0000402c resp=AHB_RESP_OKAY waits=1 rdata=0xa1580f06
# UVM_INFO ../src/mst/ahb_master_monitor.sv(117) @ 685000: uvm_test_top.env.master_agent.mon [ahb_master_monitor] Beat[14] addr=0x0000402c rdata=0xa1580f06 resp=AHB_RESP_OKAY
# UVM_INFO ../src/mst/ahb_master_driver.sv(283) @ 695000: uvm_test_top.env.master_agent.drv [ahb_master_driver] Beat[15/16] addr=0x00004030 trans=AHB_TRANS_SEQ resp=AHB_RESP_OKAY rdata=0x1d27228d
# UVM_INFO ../src/mst/ahb_master_driver.sv(327) @ 695000: uvm_test_top.env.master_agent.drv [ahb_master_driver] Transaction complete: AHB_READ 0x00004034, 16 beats, burst=AHB_BURST_WRAP16
# UVM_INFO ../src/slv/ahb_slave_driver.sv(174) @ 695000: uvm_test_top.env.slave_agent.drv [ahb_slave_driver] Beat AHB_READ addr=0x00004030 resp=AHB_RESP_OKAY waits=0 rdata=0x1d27228d
# UVM_INFO ../src/slv/ahb_slave_monitor.sv(197) @ 695000: uvm_test_top.env.slave_agent.mon [ahb_slave_monitor] Observed [AHB_READ]: HADDR=0x00004034, HBURST=AHB_BURST_WRAP16, HSIZE=AHB_SIZE_32B, 16 beats
# UVM_INFO ../src/env/ahb_coverage.sv(127) @ 695000: uvm_test_top.env.slave_cov [ahb_coverage] Sampled [AHB_READ]: burst=AHB_BURST_WRAP16 size=AHB_SIZE_32B beats=16 error=0
# UVM_INFO ../src/mst/ahb_master_monitor.sv(117) @ 695000: uvm_test_top.env.master_agent.mon [ahb_master_monitor] Beat[15] addr=0x00004030 rdata=0x1d27228d resp=AHB_RESP_OKAY
# UVM_INFO ../src/mst/ahb_master_monitor.sv(222) @ 695000: uvm_test_top.env.master_agent.mon [ahb_master_monitor] Observed [AHB_READ]: HADDR=0x00004034, HBURST=AHB_BURST_WRAP16, HSIZE=AHB_SIZE_32B, 16 beats
# UVM_INFO ../src/env/ahb_coverage.sv(127) @ 695000: uvm_test_top.env.master_cov [ahb_coverage] Sampled [AHB_READ]: burst=AHB_BURST_WRAP16 size=AHB_SIZE_32B beats=16 error=0
# UVM_INFO ../src/env/ahb_scoreboard.sv(104) @ 695000: uvm_test_top.env.scb [ahb_scoreboard] MATCH #2: [AHB_READ] HADDR=0x00004034 AHB_BURST_WRAP16 16 beats
# UVM_INFO ../src/mst_seq/ahb_base_seq.sv(138) @ 695000: uvm_test_top.env.master_agent.sqr@@seq [ahb_wrap_burst_seq] AHB_BURST_WRAP16 AHB_SIZE_32B beat 0 @0x00004034 ok
# UVM_INFO ../src/mst_seq/ahb_base_seq.sv(138) @ 695000: uvm_test_top.env.master_agent.sqr@@seq [ahb_wrap_burst_seq] AHB_BURST_WRAP16 AHB_SIZE_32B beat 1 @0x00004038 ok
# UVM_INFO ../src/mst_seq/ahb_base_seq.sv(138) @ 695000: uvm_test_top.env.master_agent.sqr@@seq [ahb_wrap_burst_seq] AHB_BURST_WRAP16 AHB_SIZE_32B beat 2 @0x0000403c ok
# UVM_INFO ../src/mst_seq/ahb_base_seq.sv(138) @ 695000: uvm_test_top.env.master_agent.sqr@@seq [ahb_wrap_burst_seq] AHB_BURST_WRAP16 AHB_SIZE_32B beat 3 @0x00004000 ok
# UVM_INFO ../src/mst_seq/ahb_base_seq.sv(138) @ 695000: uvm_test_top.env.master_agent.sqr@@seq [ahb_wrap_burst_seq] AHB_BURST_WRAP16 AHB_SIZE_32B beat 4 @0x00004004 ok
# UVM_INFO ../src/mst_seq/ahb_base_seq.sv(138) @ 695000: uvm_test_top.env.master_agent.sqr@@seq [ahb_wrap_burst_seq] AHB_BURST_WRAP16 AHB_SIZE_32B beat 5 @0x00004008 ok
# UVM_INFO ../src/mst_seq/ahb_base_seq.sv(138) @ 695000: uvm_test_top.env.master_agent.sqr@@seq [ahb_wrap_burst_seq] AHB_BURST_WRAP16 AHB_SIZE_32B beat 6 @0x0000400c ok
# UVM_INFO ../src/mst_seq/ahb_base_seq.sv(138) @ 695000: uvm_test_top.env.master_agent.sqr@@seq [ahb_wrap_burst_seq] AHB_BURST_WRAP16 AHB_SIZE_32B beat 7 @0x00004010 ok
# UVM_INFO ../src/mst_seq/ahb_base_seq.sv(138) @ 695000: uvm_test_top.env.master_agent.sqr@@seq [ahb_wrap_burst_seq] AHB_BURST_WRAP16 AHB_SIZE_32B beat 8 @0x00004014 ok
# UVM_INFO ../src/mst_seq/ahb_base_seq.sv(138) @ 695000: uvm_test_top.env.master_agent.sqr@@seq [ahb_wrap_burst_seq] AHB_BURST_WRAP16 AHB_SIZE_32B beat 9 @0x00004018 ok
# UVM_INFO ../src/mst_seq/ahb_base_seq.sv(138) @ 695000: uvm_test_top.env.master_agent.sqr@@seq [ahb_wrap_burst_seq] AHB_BURST_WRAP16 AHB_SIZE_32B beat 10 @0x0000401c ok
# UVM_INFO ../src/mst_seq/ahb_base_seq.sv(138) @ 695000: uvm_test_top.env.master_agent.sqr@@seq [ahb_wrap_burst_seq] AHB_BURST_WRAP16 AHB_SIZE_32B beat 11 @0x00004020 ok
# UVM_INFO ../src/mst_seq/ahb_base_seq.sv(138) @ 695000: uvm_test_top.env.master_agent.sqr@@seq [ahb_wrap_burst_seq] AHB_BURST_WRAP16 AHB_SIZE_32B beat 12 @0x00004024 ok
# UVM_INFO ../src/mst_seq/ahb_base_seq.sv(138) @ 695000: uvm_test_top.env.master_agent.sqr@@seq [ahb_wrap_burst_seq] AHB_BURST_WRAP16 AHB_SIZE_32B beat 13 @0x00004028 ok
# UVM_INFO ../src/mst_seq/ahb_base_seq.sv(138) @ 695000: uvm_test_top.env.master_agent.sqr@@seq [ahb_wrap_burst_seq] AHB_BURST_WRAP16 AHB_SIZE_32B beat 14 @0x0000402c ok
# UVM_INFO ../src/mst_seq/ahb_base_seq.sv(138) @ 695000: uvm_test_top.env.master_agent.sqr@@seq [ahb_wrap_burst_seq] AHB_BURST_WRAP16 AHB_SIZE_32B beat 15 @0x00004030 ok
# UVM_INFO ../src/mst/ahb_master_driver.sv(82) @ 695000: uvm_test_top.env.master_agent.drv [ahb_master_driver] Queueing [AHB_WRITE]: HADDR=0x00004050, HBURST=AHB_BURST_WRAP4, HSIZE=AHB_SIZE_8B, 4 beats
# UVM_INFO ../src/mst/ahb_master_driver.sv(124) @ 695000: uvm_test_top.env.master_agent.drv [ahb_master_driver] Driving [AHB_WRITE]: HADDR=0x00004050, HBURST=AHB_BURST_WRAP4, HSIZE=AHB_SIZE_8B, 4 beats               
# UVM_INFO ../src/mst/ahb_master_driver.sv(283) @ 745000: uvm_test_top.env.master_agent.drv [ahb_master_driver] Beat[0/4] addr=0x00004050 trans=AHB_TRANS_NONSEQ resp=AHB_RESP_OKAY wdata=0xa4183c07
# UVM_INFO ../src/slv/ahb_slave_driver.sv(174) @ 745000: uvm_test_top.env.slave_agent.drv [ahb_slave_driver] Beat AHB_WRITE addr=0x00004050 resp=AHB_RESP_OKAY waits=2 wdata=0xa4183c07
# UVM_INFO ../src/mst/ahb_master_monitor.sv(117) @ 745000: uvm_test_top.env.master_agent.mon [ahb_master_monitor] Beat[0] addr=0x00004050 wdata=0xa4183c07 resp=AHB_RESP_OKAY
# UVM_INFO ../src/mst/ahb_master_driver.sv(283) @ 775000: uvm_test_top.env.master_agent.drv [ahb_master_driver] Beat[1/4] addr=0x00004051 trans=AHB_TRANS_SEQ resp=AHB_RESP_OKAY wdata=0x4c44c92c
# UVM_INFO ../src/slv/ahb_slave_driver.sv(174) @ 775000: uvm_test_top.env.slave_agent.drv [ahb_slave_driver] Beat AHB_WRITE addr=0x00004051 resp=AHB_RESP_OKAY waits=2 wdata=0x4c44c92c
# UVM_INFO ../src/mst/ahb_master_monitor.sv(117) @ 775000: uvm_test_top.env.master_agent.mon [ahb_master_monitor] Beat[1] addr=0x00004051 wdata=0x4c44c92c resp=AHB_RESP_OKAY
# UVM_INFO ../src/mst/ahb_master_driver.sv(283) @ 805000: uvm_test_top.env.master_agent.drv [ahb_master_driver] Beat[2/4] addr=0x00004052 trans=AHB_TRANS_SEQ resp=AHB_RESP_OKAY wdata=0xabe6029a
# UVM_INFO ../src/slv/ahb_slave_driver.sv(174) @ 805000: uvm_test_top.env.slave_agent.drv [ahb_slave_driver] Beat AHB_WRITE addr=0x00004052 resp=AHB_RESP_OKAY waits=2 wdata=0xabe6029a
# UVM_INFO ../src/mst/ahb_master_monitor.sv(117) @ 805000: uvm_test_top.env.master_agent.mon [ahb_master_monitor] Beat[2] addr=0x00004052 wdata=0xabe6029a resp=AHB_RESP_OKAY
# UVM_INFO ../src/mst/ahb_master_driver.sv(283) @ 825000: uvm_test_top.env.master_agent.drv [ahb_master_driver] Beat[3/4] addr=0x00004053 trans=AHB_TRANS_SEQ resp=AHB_RESP_OKAY wdata=0xc49b421b
# UVM_INFO ../src/mst/ahb_master_driver.sv(327) @ 825000: uvm_test_top.env.master_agent.drv [ahb_master_driver] Transaction complete: AHB_WRITE 0x00004050, 4 beats, burst=AHB_BURST_WRAP4
# UVM_INFO ../src/slv/ahb_slave_driver.sv(174) @ 825000: uvm_test_top.env.slave_agent.drv [ahb_slave_driver] Beat AHB_WRITE addr=0x00004053 resp=AHB_RESP_OKAY waits=1 wdata=0xc49b421b
# UVM_INFO ../src/mst/ahb_master_monitor.sv(117) @ 825000: uvm_test_top.env.master_agent.mon [ahb_master_monitor] Beat[3] addr=0x00004053 wdata=0xc49b421b resp=AHB_RESP_OKAY
# UVM_INFO ../src/mst/ahb_master_monitor.sv(222) @ 825000: uvm_test_top.env.master_agent.mon [ahb_master_monitor] Observed [AHB_WRITE]: HADDR=0x00004050, HBURST=AHB_BURST_WRAP4, HSIZE=AHB_SIZE_8B, 4 beats
# UVM_INFO ../src/env/ahb_coverage.sv(127) @ 825000: uvm_test_top.env.master_cov [ahb_coverage] Sampled [AHB_WRITE]: burst=AHB_BURST_WRAP4 size=AHB_SIZE_8B beats=4 error=0
# UVM_INFO ../src/slv/ahb_slave_monitor.sv(197) @ 825000: uvm_test_top.env.slave_agent.mon [ahb_slave_monitor] Observed [AHB_WRITE]: HADDR=0x00004050, HBURST=AHB_BURST_WRAP4, HSIZE=AHB_SIZE_8B, 4 beats
# UVM_INFO ../src/env/ahb_scoreboard.sv(104) @ 825000: uvm_test_top.env.scb [ahb_scoreboard] MATCH #3: [AHB_WRITE] HADDR=0x00004050 AHB_BURST_WRAP4 4 beats
# UVM_INFO ../src/env/ahb_coverage.sv(127) @ 825000: uvm_test_top.env.slave_cov [ahb_coverage] Sampled [AHB_WRITE]: burst=AHB_BURST_WRAP4 size=AHB_SIZE_8B beats=4 error=0
# UVM_INFO ../src/mst/ahb_master_driver.sv(82) @ 825000: uvm_test_top.env.master_agent.drv [ahb_master_driver] Queueing [AHB_READ]: HADDR=0x00004050, HBURST=AHB_BURST_WRAP4, HSIZE=AHB_SIZE_8B, 4 beats
# UVM_INFO ../src/mst/ahb_master_driver.sv(124) @ 825000: uvm_test_top.env.master_agent.drv [ahb_master_driver] Driving [AHB_READ]: HADDR=0x00004050, HBURST=AHB_BURST_WRAP4, HSIZE=AHB_SIZE_8B, 4 beats               
# UVM_INFO ../src/mst/ahb_master_driver.sv(283) @ 865000: uvm_test_top.env.master_agent.drv [ahb_master_driver] Beat[0/4] addr=0x00004050 trans=AHB_TRANS_NONSEQ resp=AHB_RESP_OKAY rdata=0xa4183c07
# UVM_INFO ../src/slv/ahb_slave_driver.sv(174) @ 865000: uvm_test_top.env.slave_agent.drv [ahb_slave_driver] Beat AHB_READ addr=0x00004050 resp=AHB_RESP_OKAY waits=1 rdata=0xa4183c07
# UVM_INFO ../src/mst/ahb_master_monitor.sv(117) @ 865000: uvm_test_top.env.master_agent.mon [ahb_master_monitor] Beat[0] addr=0x00004050 rdata=0xa4183c07 resp=AHB_RESP_OKAY
# UVM_INFO ../src/mst/ahb_master_driver.sv(283) @ 875000: uvm_test_top.env.master_agent.drv [ahb_master_driver] Beat[1/4] addr=0x00004051 trans=AHB_TRANS_SEQ resp=AHB_RESP_OKAY rdata=0x4c44c92c
# UVM_INFO ../src/slv/ahb_slave_driver.sv(174) @ 875000: uvm_test_top.env.slave_agent.drv [ahb_slave_driver] Beat AHB_READ addr=0x00004051 resp=AHB_RESP_OKAY waits=0 rdata=0x4c44c92c
# UVM_INFO ../src/mst/ahb_master_monitor.sv(117) @ 875000: uvm_test_top.env.master_agent.mon [ahb_master_monitor] Beat[1] addr=0x00004051 rdata=0x4c44c92c resp=AHB_RESP_OKAY
# UVM_INFO ../src/mst/ahb_master_driver.sv(283) @ 885000: uvm_test_top.env.master_agent.drv [ahb_master_driver] Beat[2/4] addr=0x00004052 trans=AHB_TRANS_SEQ resp=AHB_RESP_OKAY rdata=0xabe6029a
# UVM_INFO ../src/slv/ahb_slave_driver.sv(174) @ 885000: uvm_test_top.env.slave_agent.drv [ahb_slave_driver] Beat AHB_READ addr=0x00004052 resp=AHB_RESP_OKAY waits=0 rdata=0xabe6029a
# UVM_INFO ../src/mst/ahb_master_monitor.sv(117) @ 885000: uvm_test_top.env.master_agent.mon [ahb_master_monitor] Beat[2] addr=0x00004052 rdata=0xabe6029a resp=AHB_RESP_OKAY
# UVM_INFO ../src/mst/ahb_master_driver.sv(283) @ 895000: uvm_test_top.env.master_agent.drv [ahb_master_driver] Beat[3/4] addr=0x00004053 trans=AHB_TRANS_SEQ resp=AHB_RESP_OKAY rdata=0xc49b421b
# UVM_INFO ../src/mst/ahb_master_driver.sv(327) @ 895000: uvm_test_top.env.master_agent.drv [ahb_master_driver] Transaction complete: AHB_READ 0x00004050, 4 beats, burst=AHB_BURST_WRAP4
# UVM_INFO ../src/slv/ahb_slave_driver.sv(174) @ 895000: uvm_test_top.env.slave_agent.drv [ahb_slave_driver] Beat AHB_READ addr=0x00004053 resp=AHB_RESP_OKAY waits=0 rdata=0xc49b421b
# UVM_INFO ../src/slv/ahb_slave_monitor.sv(197) @ 895000: uvm_test_top.env.slave_agent.mon [ahb_slave_monitor] Observed [AHB_READ]: HADDR=0x00004050, HBURST=AHB_BURST_WRAP4, HSIZE=AHB_SIZE_8B, 4 beats
# UVM_INFO ../src/env/ahb_coverage.sv(127) @ 895000: uvm_test_top.env.slave_cov [ahb_coverage] Sampled [AHB_READ]: burst=AHB_BURST_WRAP4 size=AHB_SIZE_8B beats=4 error=0
# UVM_INFO ../src/mst/ahb_master_monitor.sv(117) @ 895000: uvm_test_top.env.master_agent.mon [ahb_master_monitor] Beat[3] addr=0x00004053 rdata=0xc49b421b resp=AHB_RESP_OKAY
# UVM_INFO ../src/mst/ahb_master_monitor.sv(222) @ 895000: uvm_test_top.env.master_agent.mon [ahb_master_monitor] Observed [AHB_READ]: HADDR=0x00004050, HBURST=AHB_BURST_WRAP4, HSIZE=AHB_SIZE_8B, 4 beats
# UVM_INFO ../src/env/ahb_coverage.sv(127) @ 895000: uvm_test_top.env.master_cov [ahb_coverage] Sampled [AHB_READ]: burst=AHB_BURST_WRAP4 size=AHB_SIZE_8B beats=4 error=0
# UVM_INFO ../src/env/ahb_scoreboard.sv(104) @ 895000: uvm_test_top.env.scb [ahb_scoreboard] MATCH #4: [AHB_READ] HADDR=0x00004050 AHB_BURST_WRAP4 4 beats
# UVM_INFO ../src/mst_seq/ahb_base_seq.sv(138) @ 895000: uvm_test_top.env.master_agent.sqr@@seq [ahb_wrap_burst_seq] AHB_BURST_WRAP4 AHB_SIZE_8B beat 0 @0x00004050 ok
# UVM_INFO ../src/mst_seq/ahb_base_seq.sv(138) @ 895000: uvm_test_top.env.master_agent.sqr@@seq [ahb_wrap_burst_seq] AHB_BURST_WRAP4 AHB_SIZE_8B beat 1 @0x00004051 ok
# UVM_INFO ../src/mst_seq/ahb_base_seq.sv(138) @ 895000: uvm_test_top.env.master_agent.sqr@@seq [ahb_wrap_burst_seq] AHB_BURST_WRAP4 AHB_SIZE_8B beat 2 @0x00004052 ok
# UVM_INFO ../src/mst_seq/ahb_base_seq.sv(138) @ 895000: uvm_test_top.env.master_agent.sqr@@seq [ahb_wrap_burst_seq] AHB_BURST_WRAP4 AHB_SIZE_8B beat 3 @0x00004053 ok
# UVM_INFO ../src/mst/ahb_master_driver.sv(82) @ 895000: uvm_test_top.env.master_agent.drv [ahb_master_driver] Queueing [AHB_WRITE]: HADDR=0x0000409f, HBURST=AHB_BURST_WRAP8, HSIZE=AHB_SIZE_8B, 8 beats
# UVM_INFO ../src/mst/ahb_master_driver.sv(124) @ 895000: uvm_test_top.env.master_agent.drv [ahb_master_driver] Driving [AHB_WRITE]: HADDR=0x0000409f, HBURST=AHB_BURST_WRAP8, HSIZE=AHB_SIZE_8B, 8 beats               
# UVM_INFO ../src/mst/ahb_master_driver.sv(283) @ 945000: uvm_test_top.env.master_agent.drv [ahb_master_driver] Beat[0/8] addr=0x0000409f trans=AHB_TRANS_NONSEQ resp=AHB_RESP_OKAY wdata=0x0546a398
# UVM_INFO ../src/slv/ahb_slave_driver.sv(174) @ 945000: uvm_test_top.env.slave_agent.drv [ahb_slave_driver] Beat AHB_WRITE addr=0x0000409f resp=AHB_RESP_OKAY waits=2 wdata=0x0546a398
# UVM_INFO ../src/mst/ahb_master_monitor.sv(117) @ 945000: uvm_test_top.env.master_agent.mon [ahb_master_monitor] Beat[0] addr=0x0000409f wdata=0x0546a398 resp=AHB_RESP_OKAY
# UVM_INFO ../src/mst/ahb_master_driver.sv(283) @ 975000: uvm_test_top.env.master_agent.drv [ahb_master_driver] Beat[1/8] addr=0x00004098 trans=AHB_TRANS_SEQ resp=AHB_RESP_OKAY wdata=0xde22a3c8
# UVM_INFO ../src/slv/ahb_slave_driver.sv(174) @ 975000: uvm_test_top.env.slave_agent.drv [ahb_slave_driver] Beat AHB_WRITE addr=0x00004098 resp=AHB_RESP_OKAY waits=2 wdata=0xde22a3c8
# UVM_INFO ../src/mst/ahb_master_monitor.sv(117) @ 975000: uvm_test_top.env.master_agent.mon [ahb_master_monitor] Beat[1] addr=0x00004098 wdata=0xde22a3c8 resp=AHB_RESP_OKAY
# UVM_INFO ../src/mst/ahb_master_driver.sv(283) @ 1005000: uvm_test_top.env.master_agent.drv [ahb_master_driver] Beat[2/8] addr=0x00004099 trans=AHB_TRANS_SEQ resp=AHB_RESP_OKAY wdata=0x8d90ed6c
# UVM_INFO ../src/slv/ahb_slave_driver.sv(174) @ 1005000: uvm_test_top.env.slave_agent.drv [ahb_slave_driver] Beat AHB_WRITE addr=0x00004099 resp=AHB_RESP_OKAY waits=2 wdata=0x8d90ed6c
# UVM_INFO ../src/mst/ahb_master_monitor.sv(117) @ 1005000: uvm_test_top.env.master_agent.mon [ahb_master_monitor] Beat[2] addr=0x00004099 wdata=0x8d90ed6c resp=AHB_RESP_OKAY
# UVM_INFO ../src/mst/ahb_master_driver.sv(283) @ 1025000: uvm_test_top.env.master_agent.drv [ahb_master_driver] Beat[3/8] addr=0x0000409a trans=AHB_TRANS_SEQ resp=AHB_RESP_OKAY wdata=0xc5b22e2c
# UVM_INFO ../src/slv/ahb_slave_driver.sv(174) @ 1025000: uvm_test_top.env.slave_agent.drv [ahb_slave_driver] Beat AHB_WRITE addr=0x0000409a resp=AHB_RESP_OKAY waits=1 wdata=0xc5b22e2c
# UVM_INFO ../src/mst/ahb_master_monitor.sv(117) @ 1025000: uvm_test_top.env.master_agent.mon [ahb_master_monitor] Beat[3] addr=0x0000409a wdata=0xc5b22e2c resp=AHB_RESP_OKAY
# UVM_INFO ../src/mst/ahb_master_driver.sv(283) @ 1045000: uvm_test_top.env.master_agent.drv [ahb_master_driver] Beat[4/8] addr=0x0000409b trans=AHB_TRANS_SEQ resp=AHB_RESP_OKAY wdata=0x74451b20
# UVM_INFO ../src/slv/ahb_slave_driver.sv(174) @ 1045000: uvm_test_top.env.slave_agent.drv [ahb_slave_driver] Beat AHB_WRITE addr=0x0000409b resp=AHB_RESP_OKAY waits=1 wdata=0x74451b20
# UVM_INFO ../src/mst/ahb_master_monitor.sv(117) @ 1045000: uvm_test_top.env.master_agent.mon [ahb_master_monitor] Beat[4] addr=0x0000409b wdata=0x74451b20 resp=AHB_RESP_OKAY
# UVM_INFO ../src/mst/ahb_master_driver.sv(283) @ 1075000: uvm_test_top.env.master_agent.drv [ahb_master_driver] Beat[5/8] addr=0x0000409c trans=AHB_TRANS_SEQ resp=AHB_RESP_OKAY wdata=0x037ea269
# UVM_INFO ../src/slv/ahb_slave_driver.sv(174) @ 1075000: uvm_test_top.env.slave_agent.drv [ahb_slave_driver] Beat AHB_WRITE addr=0x0000409c resp=AHB_RESP_OKAY waits=2 wdata=0x037ea269
# UVM_INFO ../src/mst/ahb_master_monitor.sv(117) @ 1075000: uvm_test_top.env.master_agent.mon [ahb_master_monitor] Beat[5] addr=0x0000409c wdata=0x037ea269 resp=AHB_RESP_OKAY
# UVM_INFO ../src/mst/ahb_master_driver.sv(283) @ 1095000: uvm_test_top.env.master_agent.drv [ahb_master_driver] Beat[6/8] addr=0x0000409d trans=AHB_TRANS_SEQ resp=AHB_RESP_OKAY wdata=0xd7ed5e71
# UVM_INFO ../src/slv/ahb_slave_driver.sv(174) @ 1095000: uvm_test_top.env.slave_agent.drv [ahb_slave_driver] Beat AHB_WRITE addr=0x0000409d resp=AHB_RESP_OKAY waits=1 wdata=0xd7ed5e71
# UVM_INFO ../src/mst/ahb_master_monitor.sv(117) @ 1095000: uvm_test_top.env.master_agent.mon [ahb_master_monitor] Beat[6] addr=0x0000409d wdata=0xd7ed5e71 resp=AHB_RESP_OKAY
# UVM_INFO ../src/mst/ahb_master_driver.sv(283) @ 1115000: uvm_test_top.env.master_agent.drv [ahb_master_driver] Beat[7/8] addr=0x0000409e trans=AHB_TRANS_SEQ resp=AHB_RESP_OKAY wdata=0xc4958a7e
# UVM_INFO ../src/mst/ahb_master_driver.sv(327) @ 1115000: uvm_test_top.env.master_agent.drv [ahb_master_driver] Transaction complete: AHB_WRITE 0x0000409f, 8 beats, burst=AHB_BURST_WRAP8
# UVM_INFO ../src/slv/ahb_slave_driver.sv(174) @ 1115000: uvm_test_top.env.slave_agent.drv [ahb_slave_driver] Beat AHB_WRITE addr=0x0000409e resp=AHB_RESP_OKAY waits=1 wdata=0xc4958a7e
# UVM_INFO ../src/slv/ahb_slave_monitor.sv(197) @ 1115000: uvm_test_top.env.slave_agent.mon [ahb_slave_monitor] Observed [AHB_WRITE]: HADDR=0x0000409f, HBURST=AHB_BURST_WRAP8, HSIZE=AHB_SIZE_8B, 8 beats
# UVM_INFO ../src/env/ahb_coverage.sv(127) @ 1115000: uvm_test_top.env.slave_cov [ahb_coverage] Sampled [AHB_WRITE]: burst=AHB_BURST_WRAP8 size=AHB_SIZE_8B beats=8 error=0
# UVM_INFO ../src/mst/ahb_master_monitor.sv(117) @ 1115000: uvm_test_top.env.master_agent.mon [ahb_master_monitor] Beat[7] addr=0x0000409e wdata=0xc4958a7e resp=AHB_RESP_OKAY
# UVM_INFO ../src/mst/ahb_master_monitor.sv(222) @ 1115000: uvm_test_top.env.master_agent.mon [ahb_master_monitor] Observed [AHB_WRITE]: HADDR=0x0000409f, HBURST=AHB_BURST_WRAP8, HSIZE=AHB_SIZE_8B, 8 beats
# UVM_INFO ../src/env/ahb_coverage.sv(127) @ 1115000: uvm_test_top.env.master_cov [ahb_coverage] Sampled [AHB_WRITE]: burst=AHB_BURST_WRAP8 size=AHB_SIZE_8B beats=8 error=0
# UVM_INFO ../src/env/ahb_scoreboard.sv(104) @ 1115000: uvm_test_top.env.scb [ahb_scoreboard] MATCH #5: [AHB_WRITE] HADDR=0x0000409f AHB_BURST_WRAP8 8 beats
# UVM_INFO ../src/mst/ahb_master_driver.sv(82) @ 1115000: uvm_test_top.env.master_agent.drv [ahb_master_driver] Queueing [AHB_READ]: HADDR=0x0000409f, HBURST=AHB_BURST_WRAP8, HSIZE=AHB_SIZE_8B, 8 beats
# UVM_INFO ../src/mst/ahb_master_driver.sv(124) @ 1115000: uvm_test_top.env.master_agent.drv [ahb_master_driver] Driving [AHB_READ]: HADDR=0x0000409f, HBURST=AHB_BURST_WRAP8, HSIZE=AHB_SIZE_8B, 8 beats               
# UVM_INFO ../src/mst/ahb_master_driver.sv(283) @ 1155000: uvm_test_top.env.master_agent.drv [ahb_master_driver] Beat[0/8] addr=0x0000409f trans=AHB_TRANS_NONSEQ resp=AHB_RESP_OKAY rdata=0x0546a398
# UVM_INFO ../src/slv/ahb_slave_driver.sv(174) @ 1155000: uvm_test_top.env.slave_agent.drv [ahb_slave_driver] Beat AHB_READ addr=0x0000409f resp=AHB_RESP_OKAY waits=1 rdata=0x0546a398
# UVM_INFO ../src/mst/ahb_master_monitor.sv(117) @ 1155000: uvm_test_top.env.master_agent.mon [ahb_master_monitor] Beat[0] addr=0x0000409f rdata=0x0546a398 resp=AHB_RESP_OKAY
# UVM_INFO ../src/mst/ahb_master_driver.sv(283) @ 1175000: uvm_test_top.env.master_agent.drv [ahb_master_driver] Beat[1/8] addr=0x00004098 trans=AHB_TRANS_SEQ resp=AHB_RESP_OKAY rdata=0xde22a3c8
# UVM_INFO ../src/slv/ahb_slave_driver.sv(174) @ 1175000: uvm_test_top.env.slave_agent.drv [ahb_slave_driver] Beat AHB_READ addr=0x00004098 resp=AHB_RESP_OKAY waits=1 rdata=0xde22a3c8
# UVM_INFO ../src/mst/ahb_master_monitor.sv(117) @ 1175000: uvm_test_top.env.master_agent.mon [ahb_master_monitor] Beat[1] addr=0x00004098 rdata=0xde22a3c8 resp=AHB_RESP_OKAY
# UVM_INFO ../src/mst/ahb_master_driver.sv(283) @ 1205000: uvm_test_top.env.master_agent.drv [ahb_master_driver] Beat[2/8] addr=0x00004099 trans=AHB_TRANS_SEQ resp=AHB_RESP_OKAY rdata=0x8d90ed6c
# UVM_INFO ../src/slv/ahb_slave_driver.sv(174) @ 1205000: uvm_test_top.env.slave_agent.drv [ahb_slave_driver] Beat AHB_READ addr=0x00004099 resp=AHB_RESP_OKAY waits=2 rdata=0x8d90ed6c
# UVM_INFO ../src/mst/ahb_master_monitor.sv(117) @ 1205000: uvm_test_top.env.master_agent.mon [ahb_master_monitor] Beat[2] addr=0x00004099 rdata=0x8d90ed6c resp=AHB_RESP_OKAY
# UVM_INFO ../src/mst/ahb_master_driver.sv(283) @ 1235000: uvm_test_top.env.master_agent.drv [ahb_master_driver] Beat[3/8] addr=0x0000409a trans=AHB_TRANS_SEQ resp=AHB_RESP_OKAY rdata=0xc5b22e2c
# UVM_INFO ../src/slv/ahb_slave_driver.sv(174) @ 1235000: uvm_test_top.env.slave_agent.drv [ahb_slave_driver] Beat AHB_READ addr=0x0000409a resp=AHB_RESP_OKAY waits=2 rdata=0xc5b22e2c
# UVM_INFO ../src/mst/ahb_master_monitor.sv(117) @ 1235000: uvm_test_top.env.master_agent.mon [ahb_master_monitor] Beat[3] addr=0x0000409a rdata=0xc5b22e2c resp=AHB_RESP_OKAY
# UVM_INFO ../src/mst/ahb_master_driver.sv(283) @ 1245000: uvm_test_top.env.master_agent.drv [ahb_master_driver] Beat[4/8] addr=0x0000409b trans=AHB_TRANS_SEQ resp=AHB_RESP_OKAY rdata=0x74451b20
# UVM_INFO ../src/slv/ahb_slave_driver.sv(174) @ 1245000: uvm_test_top.env.slave_agent.drv [ahb_slave_driver] Beat AHB_READ addr=0x0000409b resp=AHB_RESP_OKAY waits=0 rdata=0x74451b20
# UVM_INFO ../src/mst/ahb_master_monitor.sv(117) @ 1245000: uvm_test_top.env.master_agent.mon [ahb_master_monitor] Beat[4] addr=0x0000409b rdata=0x74451b20 resp=AHB_RESP_OKAY
# UVM_INFO ../src/mst/ahb_master_driver.sv(283) @ 1265000: uvm_test_top.env.master_agent.drv [ahb_master_driver] Beat[5/8] addr=0x0000409c trans=AHB_TRANS_SEQ resp=AHB_RESP_OKAY rdata=0x037ea269
# UVM_INFO ../src/slv/ahb_slave_driver.sv(174) @ 1265000: uvm_test_top.env.slave_agent.drv [ahb_slave_driver] Beat AHB_READ addr=0x0000409c resp=AHB_RESP_OKAY waits=1 rdata=0x037ea269
# UVM_INFO ../src/mst/ahb_master_monitor.sv(117) @ 1265000: uvm_test_top.env.master_agent.mon [ahb_master_monitor] Beat[5] addr=0x0000409c rdata=0x037ea269 resp=AHB_RESP_OKAY
# UVM_INFO ../src/mst/ahb_master_driver.sv(283) @ 1295000: uvm_test_top.env.master_agent.drv [ahb_master_driver] Beat[6/8] addr=0x0000409d trans=AHB_TRANS_SEQ resp=AHB_RESP_OKAY rdata=0xd7ed5e71
# UVM_INFO ../src/slv/ahb_slave_driver.sv(174) @ 1295000: uvm_test_top.env.slave_agent.drv [ahb_slave_driver] Beat AHB_READ addr=0x0000409d resp=AHB_RESP_OKAY waits=2 rdata=0xd7ed5e71
# UVM_INFO ../src/mst/ahb_master_monitor.sv(117) @ 1295000: uvm_test_top.env.master_agent.mon [ahb_master_monitor] Beat[6] addr=0x0000409d rdata=0xd7ed5e71 resp=AHB_RESP_OKAY
# UVM_INFO ../src/mst/ahb_master_driver.sv(283) @ 1315000: uvm_test_top.env.master_agent.drv [ahb_master_driver] Beat[7/8] addr=0x0000409e trans=AHB_TRANS_SEQ resp=AHB_RESP_OKAY rdata=0xc4958a7e
# UVM_INFO ../src/mst/ahb_master_driver.sv(327) @ 1315000: uvm_test_top.env.master_agent.drv [ahb_master_driver] Transaction complete: AHB_READ 0x0000409f, 8 beats, burst=AHB_BURST_WRAP8
# UVM_INFO ../src/slv/ahb_slave_driver.sv(174) @ 1315000: uvm_test_top.env.slave_agent.drv [ahb_slave_driver] Beat AHB_READ addr=0x0000409e resp=AHB_RESP_OKAY waits=1 rdata=0xc4958a7e
# UVM_INFO ../src/slv/ahb_slave_monitor.sv(197) @ 1315000: uvm_test_top.env.slave_agent.mon [ahb_slave_monitor] Observed [AHB_READ]: HADDR=0x0000409f, HBURST=AHB_BURST_WRAP8, HSIZE=AHB_SIZE_8B, 8 beats
# UVM_INFO ../src/env/ahb_coverage.sv(127) @ 1315000: uvm_test_top.env.slave_cov [ahb_coverage] Sampled [AHB_READ]: burst=AHB_BURST_WRAP8 size=AHB_SIZE_8B beats=8 error=0
# UVM_INFO ../src/mst/ahb_master_monitor.sv(117) @ 1315000: uvm_test_top.env.master_agent.mon [ahb_master_monitor] Beat[7] addr=0x0000409e rdata=0xc4958a7e resp=AHB_RESP_OKAY
# UVM_INFO ../src/mst/ahb_master_monitor.sv(222) @ 1315000: uvm_test_top.env.master_agent.mon [ahb_master_monitor] Observed [AHB_READ]: HADDR=0x0000409f, HBURST=AHB_BURST_WRAP8, HSIZE=AHB_SIZE_8B, 8 beats
# UVM_INFO ../src/env/ahb_coverage.sv(127) @ 1315000: uvm_test_top.env.master_cov [ahb_coverage] Sampled [AHB_READ]: burst=AHB_BURST_WRAP8 size=AHB_SIZE_8B beats=8 error=0
# UVM_INFO ../src/env/ahb_scoreboard.sv(104) @ 1315000: uvm_test_top.env.scb [ahb_scoreboard] MATCH #6: [AHB_READ] HADDR=0x0000409f AHB_BURST_WRAP8 8 beats
# UVM_INFO ../src/mst_seq/ahb_base_seq.sv(138) @ 1315000: uvm_test_top.env.master_agent.sqr@@seq [ahb_wrap_burst_seq] AHB_BURST_WRAP8 AHB_SIZE_8B beat 0 @0x0000409f ok
# UVM_INFO ../src/mst_seq/ahb_base_seq.sv(138) @ 1315000: uvm_test_top.env.master_agent.sqr@@seq [ahb_wrap_burst_seq] AHB_BURST_WRAP8 AHB_SIZE_8B beat 1 @0x00004098 ok
# UVM_INFO ../src/mst_seq/ahb_base_seq.sv(138) @ 1315000: uvm_test_top.env.master_agent.sqr@@seq [ahb_wrap_burst_seq] AHB_BURST_WRAP8 AHB_SIZE_8B beat 2 @0x00004099 ok
# UVM_INFO ../src/mst_seq/ahb_base_seq.sv(138) @ 1315000: uvm_test_top.env.master_agent.sqr@@seq [ahb_wrap_burst_seq] AHB_BURST_WRAP8 AHB_SIZE_8B beat 3 @0x0000409a ok
# UVM_INFO ../src/mst_seq/ahb_base_seq.sv(138) @ 1315000: uvm_test_top.env.master_agent.sqr@@seq [ahb_wrap_burst_seq] AHB_BURST_WRAP8 AHB_SIZE_8B beat 4 @0x0000409b ok
# UVM_INFO ../src/mst_seq/ahb_base_seq.sv(138) @ 1315000: uvm_test_top.env.master_agent.sqr@@seq [ahb_wrap_burst_seq] AHB_BURST_WRAP8 AHB_SIZE_8B beat 5 @0x0000409c ok
# UVM_INFO ../src/mst_seq/ahb_base_seq.sv(138) @ 1315000: uvm_test_top.env.master_agent.sqr@@seq [ahb_wrap_burst_seq] AHB_BURST_WRAP8 AHB_SIZE_8B beat 6 @0x0000409d ok
# UVM_INFO ../src/mst_seq/ahb_base_seq.sv(138) @ 1315000: uvm_test_top.env.master_agent.sqr@@seq [ahb_wrap_burst_seq] AHB_BURST_WRAP8 AHB_SIZE_8B beat 7 @0x0000409e ok
# UVM_INFO ../src/mst/ahb_master_driver.sv(82) @ 1315000: uvm_test_top.env.master_agent.drv [ahb_master_driver] Queueing [AHB_WRITE]: HADDR=0x000040e1, HBURST=AHB_BURST_WRAP8, HSIZE=AHB_SIZE_8B, 8 beats
# UVM_INFO ../src/mst/ahb_master_driver.sv(124) @ 1315000: uvm_test_top.env.master_agent.drv [ahb_master_driver] Driving [AHB_WRITE]: HADDR=0x000040e1, HBURST=AHB_BURST_WRAP8, HSIZE=AHB_SIZE_8B, 8 beats               
# UVM_INFO ../src/mst/ahb_master_driver.sv(283) @ 1365000: uvm_test_top.env.master_agent.drv [ahb_master_driver] Beat[0/8] addr=0x000040e1 trans=AHB_TRANS_NONSEQ resp=AHB_RESP_OKAY wdata=0x074977e4
# UVM_INFO ../src/slv/ahb_slave_driver.sv(174) @ 1365000: uvm_test_top.env.slave_agent.drv [ahb_slave_driver] Beat AHB_WRITE addr=0x000040e1 resp=AHB_RESP_OKAY waits=2 wdata=0x074977e4
# UVM_INFO ../src/mst/ahb_master_monitor.sv(117) @ 1365000: uvm_test_top.env.master_agent.mon [ahb_master_monitor] Beat[0] addr=0x000040e1 wdata=0x074977e4 resp=AHB_RESP_OKAY
# UVM_INFO ../src/mst/ahb_master_driver.sv(283) @ 1375000: uvm_test_top.env.master_agent.drv [ahb_master_driver] Beat[1/8] addr=0x000040e2 trans=AHB_TRANS_SEQ resp=AHB_RESP_OKAY wdata=0xd22a4138
# UVM_INFO ../src/slv/ahb_slave_driver.sv(174) @ 1375000: uvm_test_top.env.slave_agent.drv [ahb_slave_driver] Beat AHB_WRITE addr=0x000040e2 resp=AHB_RESP_OKAY waits=0 wdata=0xd22a4138
# UVM_INFO ../src/mst/ahb_master_monitor.sv(117) @ 1375000: uvm_test_top.env.master_agent.mon [ahb_master_monitor] Beat[1] addr=0x000040e2 wdata=0xd22a4138 resp=AHB_RESP_OKAY
# UVM_INFO ../src/mst/ahb_master_driver.sv(283) @ 1405000: uvm_test_top.env.master_agent.drv [ahb_master_driver] Beat[2/8] addr=0x000040e3 trans=AHB_TRANS_SEQ resp=AHB_RESP_OKAY wdata=0x7849de8f
# UVM_INFO ../src/slv/ahb_slave_driver.sv(174) @ 1405000: uvm_test_top.env.slave_agent.drv [ahb_slave_driver] Beat AHB_WRITE addr=0x000040e3 resp=AHB_RESP_OKAY waits=2 wdata=0x7849de8f
# UVM_INFO ../src/mst/ahb_master_monitor.sv(117) @ 1405000: uvm_test_top.env.master_agent.mon [ahb_master_monitor] Beat[2] addr=0x000040e3 wdata=0x7849de8f resp=AHB_RESP_OKAY
# UVM_INFO ../src/mst/ahb_master_driver.sv(283) @ 1415000: uvm_test_top.env.master_agent.drv [ahb_master_driver] Beat[3/8] addr=0x000040e4 trans=AHB_TRANS_SEQ resp=AHB_RESP_OKAY wdata=0x441f37bd
# UVM_INFO ../src/slv/ahb_slave_driver.sv(174) @ 1415000: uvm_test_top.env.slave_agent.drv [ahb_slave_driver] Beat AHB_WRITE addr=0x000040e4 resp=AHB_RESP_OKAY waits=0 wdata=0x441f37bd
# UVM_INFO ../src/mst/ahb_master_monitor.sv(117) @ 1415000: uvm_test_top.env.master_agent.mon [ahb_master_monitor] Beat[3] addr=0x000040e4 wdata=0x441f37bd resp=AHB_RESP_OKAY
# UVM_INFO ../src/mst/ahb_master_driver.sv(283) @ 1445000: uvm_test_top.env.master_agent.drv [ahb_master_driver] Beat[4/8] addr=0x000040e5 trans=AHB_TRANS_SEQ resp=AHB_RESP_OKAY wdata=0xbab9e92c
# UVM_INFO ../src/slv/ahb_slave_driver.sv(174) @ 1445000: uvm_test_top.env.slave_agent.drv [ahb_slave_driver] Beat AHB_WRITE addr=0x000040e5 resp=AHB_RESP_OKAY waits=2 wdata=0xbab9e92c
# UVM_INFO ../src/mst/ahb_master_monitor.sv(117) @ 1445000: uvm_test_top.env.master_agent.mon [ahb_master_monitor] Beat[4] addr=0x000040e5 wdata=0xbab9e92c resp=AHB_RESP_OKAY
# UVM_INFO ../src/mst/ahb_master_driver.sv(283) @ 1465000: uvm_test_top.env.master_agent.drv [ahb_master_driver] Beat[5/8] addr=0x000040e6 trans=AHB_TRANS_SEQ resp=AHB_RESP_OKAY wdata=0xe3e80420
# UVM_INFO ../src/slv/ahb_slave_driver.sv(174) @ 1465000: uvm_test_top.env.slave_agent.drv [ahb_slave_driver] Beat AHB_WRITE addr=0x000040e6 resp=AHB_RESP_OKAY waits=1 wdata=0xe3e80420
# UVM_INFO ../src/mst/ahb_master_monitor.sv(117) @ 1465000: uvm_test_top.env.master_agent.mon [ahb_master_monitor] Beat[5] addr=0x000040e6 wdata=0xe3e80420 resp=AHB_RESP_OKAY
# UVM_INFO ../src/mst/ahb_master_driver.sv(283) @ 1475000: uvm_test_top.env.master_agent.drv [ahb_master_driver] Beat[6/8] addr=0x000040e7 trans=AHB_TRANS_SEQ resp=AHB_RESP_OKAY wdata=0x49793d79
# UVM_INFO ../src/slv/ahb_slave_driver.sv(174) @ 1475000: uvm_test_top.env.slave_agent.drv [ahb_slave_driver] Beat AHB_WRITE addr=0x000040e7 resp=AHB_RESP_OKAY waits=0 wdata=0x49793d79
# UVM_INFO ../src/mst/ahb_master_monitor.sv(117) @ 1475000: uvm_test_top.env.master_agent.mon [ahb_master_monitor] Beat[6] addr=0x000040e7 wdata=0x49793d79 resp=AHB_RESP_OKAY
# UVM_INFO ../src/mst/ahb_master_driver.sv(283) @ 1485000: uvm_test_top.env.master_agent.drv [ahb_master_driver] Beat[7/8] addr=0x000040e0 trans=AHB_TRANS_SEQ resp=AHB_RESP_OKAY wdata=0xc93ecd4f
# UVM_INFO ../src/mst/ahb_master_driver.sv(327) @ 1485000: uvm_test_top.env.master_agent.drv [ahb_master_driver] Transaction complete: AHB_WRITE 0x000040e1, 8 beats, burst=AHB_BURST_WRAP8
# UVM_INFO ../src/slv/ahb_slave_driver.sv(174) @ 1485000: uvm_test_top.env.slave_agent.drv [ahb_slave_driver] Beat AHB_WRITE addr=0x000040e0 resp=AHB_RESP_OKAY waits=0 wdata=0xc93ecd4f
# UVM_INFO ../src/mst/ahb_master_monitor.sv(117) @ 1485000: uvm_test_top.env.master_agent.mon [ahb_master_monitor] Beat[7] addr=0x000040e0 wdata=0xc93ecd4f resp=AHB_RESP_OKAY
# UVM_INFO ../src/mst/ahb_master_monitor.sv(222) @ 1485000: uvm_test_top.env.master_agent.mon [ahb_master_monitor] Observed [AHB_WRITE]: HADDR=0x000040e1, HBURST=AHB_BURST_WRAP8, HSIZE=AHB_SIZE_8B, 8 beats
# UVM_INFO ../src/env/ahb_coverage.sv(127) @ 1485000: uvm_test_top.env.master_cov [ahb_coverage] Sampled [AHB_WRITE]: burst=AHB_BURST_WRAP8 size=AHB_SIZE_8B beats=8 error=0
# UVM_INFO ../src/slv/ahb_slave_monitor.sv(197) @ 1485000: uvm_test_top.env.slave_agent.mon [ahb_slave_monitor] Observed [AHB_WRITE]: HADDR=0x000040e1, HBURST=AHB_BURST_WRAP8, HSIZE=AHB_SIZE_8B, 8 beats
# UVM_INFO ../src/env/ahb_scoreboard.sv(104) @ 1485000: uvm_test_top.env.scb [ahb_scoreboard] MATCH #7: [AHB_WRITE] HADDR=0x000040e1 AHB_BURST_WRAP8 8 beats
# UVM_INFO ../src/env/ahb_coverage.sv(127) @ 1485000: uvm_test_top.env.slave_cov [ahb_coverage] Sampled [AHB_WRITE]: burst=AHB_BURST_WRAP8 size=AHB_SIZE_8B beats=8 error=0
# UVM_INFO ../src/mst/ahb_master_driver.sv(82) @ 1485000: uvm_test_top.env.master_agent.drv [ahb_master_driver] Queueing [AHB_READ]: HADDR=0x000040e1, HBURST=AHB_BURST_WRAP8, HSIZE=AHB_SIZE_8B, 8 beats
# UVM_INFO ../src/mst/ahb_master_driver.sv(124) @ 1485000: uvm_test_top.env.master_agent.drv [ahb_master_driver] Driving [AHB_READ]: HADDR=0x000040e1, HBURST=AHB_BURST_WRAP8, HSIZE=AHB_SIZE_8B, 8 beats               
# UVM_INFO ../src/mst/ahb_master_driver.sv(283) @ 1525000: uvm_test_top.env.master_agent.drv [ahb_master_driver] Beat[0/8] addr=0x000040e1 trans=AHB_TRANS_NONSEQ resp=AHB_RESP_OKAY rdata=0x074977e4
# UVM_INFO ../src/slv/ahb_slave_driver.sv(174) @ 1525000: uvm_test_top.env.slave_agent.drv [ahb_slave_driver] Beat AHB_READ addr=0x000040e1 resp=AHB_RESP_OKAY waits=1 rdata=0x074977e4
# UVM_INFO ../src/mst/ahb_master_monitor.sv(117) @ 1525000: uvm_test_top.env.master_agent.mon [ahb_master_monitor] Beat[0] addr=0x000040e1 rdata=0x074977e4 resp=AHB_RESP_OKAY
# UVM_INFO ../src/mst/ahb_master_driver.sv(283) @ 1555000: uvm_test_top.env.master_agent.drv [ahb_master_driver] Beat[1/8] addr=0x000040e2 trans=AHB_TRANS_SEQ resp=AHB_RESP_OKAY rdata=0xd22a4138
# UVM_INFO ../src/slv/ahb_slave_driver.sv(174) @ 1555000: uvm_test_top.env.slave_agent.drv [ahb_slave_driver] Beat AHB_READ addr=0x000040e2 resp=AHB_RESP_OKAY waits=2 rdata=0xd22a4138
# UVM_INFO ../src/mst/ahb_master_monitor.sv(117) @ 1555000: uvm_test_top.env.master_agent.mon [ahb_master_monitor] Beat[1] addr=0x000040e2 rdata=0xd22a4138 resp=AHB_RESP_OKAY
# UVM_INFO ../src/mst/ahb_master_driver.sv(283) @ 1585000: uvm_test_top.env.master_agent.drv [ahb_master_driver] Beat[2/8] addr=0x000040e3 trans=AHB_TRANS_SEQ resp=AHB_RESP_OKAY rdata=0x7849de8f
# UVM_INFO ../src/slv/ahb_slave_driver.sv(174) @ 1585000: uvm_test_top.env.slave_agent.drv [ahb_slave_driver] Beat AHB_READ addr=0x000040e3 resp=AHB_RESP_OKAY waits=2 rdata=0x7849de8f
# UVM_INFO ../src/mst/ahb_master_monitor.sv(117) @ 1585000: uvm_test_top.env.master_agent.mon [ahb_master_monitor] Beat[2] addr=0x000040e3 rdata=0x7849de8f resp=AHB_RESP_OKAY
# UVM_INFO ../src/mst/ahb_master_driver.sv(283) @ 1605000: uvm_test_top.env.master_agent.drv [ahb_master_driver] Beat[3/8] addr=0x000040e4 trans=AHB_TRANS_SEQ resp=AHB_RESP_OKAY rdata=0x441f37bd
# UVM_INFO ../src/slv/ahb_slave_driver.sv(174) @ 1605000: uvm_test_top.env.slave_agent.drv [ahb_slave_driver] Beat AHB_READ addr=0x000040e4 resp=AHB_RESP_OKAY waits=1 rdata=0x441f37bd
# UVM_INFO ../src/mst/ahb_master_monitor.sv(117) @ 1605000: uvm_test_top.env.master_agent.mon [ahb_master_monitor] Beat[3] addr=0x000040e4 rdata=0x441f37bd resp=AHB_RESP_OKAY
# UVM_INFO ../src/mst/ahb_master_driver.sv(283) @ 1635000: uvm_test_top.env.master_agent.drv [ahb_master_driver] Beat[4/8] addr=0x000040e5 trans=AHB_TRANS_SEQ resp=AHB_RESP_OKAY rdata=0xbab9e92c
# UVM_INFO ../src/slv/ahb_slave_driver.sv(174) @ 1635000: uvm_test_top.env.slave_agent.drv [ahb_slave_driver] Beat AHB_READ addr=0x000040e5 resp=AHB_RESP_OKAY waits=2 rdata=0xbab9e92c
# UVM_INFO ../src/mst/ahb_master_monitor.sv(117) @ 1635000: uvm_test_top.env.master_agent.mon [ahb_master_monitor] Beat[4] addr=0x000040e5 rdata=0xbab9e92c resp=AHB_RESP_OKAY
# UVM_INFO ../src/mst/ahb_master_driver.sv(283) @ 1645000: uvm_test_top.env.master_agent.drv [ahb_master_driver] Beat[5/8] addr=0x000040e6 trans=AHB_TRANS_SEQ resp=AHB_RESP_OKAY rdata=0xe3e80420
# UVM_INFO ../src/slv/ahb_slave_driver.sv(174) @ 1645000: uvm_test_top.env.slave_agent.drv [ahb_slave_driver] Beat AHB_READ addr=0x000040e6 resp=AHB_RESP_OKAY waits=0 rdata=0xe3e80420
# UVM_INFO ../src/mst/ahb_master_monitor.sv(117) @ 1645000: uvm_test_top.env.master_agent.mon [ahb_master_monitor] Beat[5] addr=0x000040e6 rdata=0xe3e80420 resp=AHB_RESP_OKAY
# UVM_INFO ../src/mst/ahb_master_driver.sv(283) @ 1665000: uvm_test_top.env.master_agent.drv [ahb_master_driver] Beat[6/8] addr=0x000040e7 trans=AHB_TRANS_SEQ resp=AHB_RESP_OKAY rdata=0x49793d79
# UVM_INFO ../src/slv/ahb_slave_driver.sv(174) @ 1665000: uvm_test_top.env.slave_agent.drv [ahb_slave_driver] Beat AHB_READ addr=0x000040e7 resp=AHB_RESP_OKAY waits=1 rdata=0x49793d79
# UVM_INFO ../src/mst/ahb_master_monitor.sv(117) @ 1665000: uvm_test_top.env.master_agent.mon [ahb_master_monitor] Beat[6] addr=0x000040e7 rdata=0x49793d79 resp=AHB_RESP_OKAY
# UVM_INFO ../src/mst/ahb_master_driver.sv(283) @ 1675000: uvm_test_top.env.master_agent.drv [ahb_master_driver] Beat[7/8] addr=0x000040e0 trans=AHB_TRANS_SEQ resp=AHB_RESP_OKAY rdata=0xc93ecd4f
# UVM_INFO ../src/mst/ahb_master_driver.sv(327) @ 1675000: uvm_test_top.env.master_agent.drv [ahb_master_driver] Transaction complete: AHB_READ 0x000040e1, 8 beats, burst=AHB_BURST_WRAP8
# UVM_INFO ../src/slv/ahb_slave_driver.sv(174) @ 1675000: uvm_test_top.env.slave_agent.drv [ahb_slave_driver] Beat AHB_READ addr=0x000040e0 resp=AHB_RESP_OKAY waits=0 rdata=0xc93ecd4f
# UVM_INFO ../src/slv/ahb_slave_monitor.sv(197) @ 1675000: uvm_test_top.env.slave_agent.mon [ahb_slave_monitor] Observed [AHB_READ]: HADDR=0x000040e1, HBURST=AHB_BURST_WRAP8, HSIZE=AHB_SIZE_8B, 8 beats
# UVM_INFO ../src/env/ahb_coverage.sv(127) @ 1675000: uvm_test_top.env.slave_cov [ahb_coverage] Sampled [AHB_READ]: burst=AHB_BURST_WRAP8 size=AHB_SIZE_8B beats=8 error=0
# UVM_INFO ../src/mst/ahb_master_monitor.sv(117) @ 1675000: uvm_test_top.env.master_agent.mon [ahb_master_monitor] Beat[7] addr=0x000040e0 rdata=0xc93ecd4f resp=AHB_RESP_OKAY
# UVM_INFO ../src/mst/ahb_master_monitor.sv(222) @ 1675000: uvm_test_top.env.master_agent.mon [ahb_master_monitor] Observed [AHB_READ]: HADDR=0x000040e1, HBURST=AHB_BURST_WRAP8, HSIZE=AHB_SIZE_8B, 8 beats
# UVM_INFO ../src/env/ahb_coverage.sv(127) @ 1675000: uvm_test_top.env.master_cov [ahb_coverage] Sampled [AHB_READ]: burst=AHB_BURST_WRAP8 size=AHB_SIZE_8B beats=8 error=0
# UVM_INFO ../src/env/ahb_scoreboard.sv(104) @ 1675000: uvm_test_top.env.scb [ahb_scoreboard] MATCH #8: [AHB_READ] HADDR=0x000040e1 AHB_BURST_WRAP8 8 beats
# UVM_INFO ../src/mst_seq/ahb_base_seq.sv(138) @ 1675000: uvm_test_top.env.master_agent.sqr@@seq [ahb_wrap_burst_seq] AHB_BURST_WRAP8 AHB_SIZE_8B beat 0 @0x000040e1 ok
# UVM_INFO ../src/mst_seq/ahb_base_seq.sv(138) @ 1675000: uvm_test_top.env.master_agent.sqr@@seq [ahb_wrap_burst_seq] AHB_BURST_WRAP8 AHB_SIZE_8B beat 1 @0x000040e2 ok
# UVM_INFO ../src/mst_seq/ahb_base_seq.sv(138) @ 1675000: uvm_test_top.env.master_agent.sqr@@seq [ahb_wrap_burst_seq] AHB_BURST_WRAP8 AHB_SIZE_8B beat 2 @0x000040e3 ok
# UVM_INFO ../src/mst_seq/ahb_base_seq.sv(138) @ 1675000: uvm_test_top.env.master_agent.sqr@@seq [ahb_wrap_burst_seq] AHB_BURST_WRAP8 AHB_SIZE_8B beat 3 @0x000040e4 ok
# UVM_INFO ../src/mst_seq/ahb_base_seq.sv(138) @ 1675000: uvm_test_top.env.master_agent.sqr@@seq [ahb_wrap_burst_seq] AHB_BURST_WRAP8 AHB_SIZE_8B beat 4 @0x000040e5 ok
# UVM_INFO ../src/mst_seq/ahb_base_seq.sv(138) @ 1675000: uvm_test_top.env.master_agent.sqr@@seq [ahb_wrap_burst_seq] AHB_BURST_WRAP8 AHB_SIZE_8B beat 5 @0x000040e6 ok
# UVM_INFO ../src/mst_seq/ahb_base_seq.sv(138) @ 1675000: uvm_test_top.env.master_agent.sqr@@seq [ahb_wrap_burst_seq] AHB_BURST_WRAP8 AHB_SIZE_8B beat 6 @0x000040e7 ok
# UVM_INFO ../src/mst_seq/ahb_base_seq.sv(138) @ 1675000: uvm_test_top.env.master_agent.sqr@@seq [ahb_wrap_burst_seq] AHB_BURST_WRAP8 AHB_SIZE_8B beat 7 @0x000040e0 ok
# UVM_INFO ../src/mst/ahb_master_driver.sv(82) @ 1675000: uvm_test_top.env.master_agent.drv [ahb_master_driver] Queueing [AHB_WRITE]: HADDR=0x0000410e, HBURST=AHB_BURST_WRAP8, HSIZE=AHB_SIZE_16B, 8 beats
# UVM_INFO ../src/mst/ahb_master_driver.sv(124) @ 1675000: uvm_test_top.env.master_agent.drv [ahb_master_driver] Driving [AHB_WRITE]: HADDR=0x0000410e, HBURST=AHB_BURST_WRAP8, HSIZE=AHB_SIZE_16B, 8 beats               
# UVM_INFO ../src/mst/ahb_master_driver.sv(283) @ 1705000: uvm_test_top.env.master_agent.drv [ahb_master_driver] Beat[0/8] addr=0x0000410e trans=AHB_TRANS_NONSEQ resp=AHB_RESP_OKAY wdata=0xa6ed5b48
# UVM_INFO ../src/slv/ahb_slave_driver.sv(174) @ 1705000: uvm_test_top.env.slave_agent.drv [ahb_slave_driver] Beat AHB_WRITE addr=0x0000410e resp=AHB_RESP_OKAY waits=0 wdata=0xa6ed5b48
# UVM_INFO ../src/mst/ahb_master_monitor.sv(117) @ 1705000: uvm_test_top.env.master_agent.mon [ahb_master_monitor] Beat[0] addr=0x0000410e wdata=0xa6ed5b48 resp=AHB_RESP_OKAY
# UVM_INFO ../src/mst/ahb_master_driver.sv(283) @ 1715000: uvm_test_top.env.master_agent.drv [ahb_master_driver] Beat[1/8] addr=0x00004100 trans=AHB_TRANS_SEQ resp=AHB_RESP_OKAY wdata=0x992acc36
# UVM_INFO ../src/slv/ahb_slave_driver.sv(174) @ 1715000: uvm_test_top.env.slave_agent.drv [ahb_slave_driver] Beat AHB_WRITE addr=0x00004100 resp=AHB_RESP_OKAY waits=0 wdata=0x992acc36
# UVM_INFO ../src/mst/ahb_master_monitor.sv(117) @ 1715000: uvm_test_top.env.master_agent.mon [ahb_master_monitor] Beat[1] addr=0x00004100 wdata=0x992acc36 resp=AHB_RESP_OKAY
# UVM_INFO ../src/mst/ahb_master_driver.sv(283) @ 1725000: uvm_test_top.env.master_agent.drv [ahb_master_driver] Beat[2/8] addr=0x00004102 trans=AHB_TRANS_SEQ resp=AHB_RESP_OKAY wdata=0x049d6613
# UVM_INFO ../src/slv/ahb_slave_driver.sv(174) @ 1725000: uvm_test_top.env.slave_agent.drv [ahb_slave_driver] Beat AHB_WRITE addr=0x00004102 resp=AHB_RESP_OKAY waits=0 wdata=0x049d6613
# UVM_INFO ../src/mst/ahb_master_monitor.sv(117) @ 1725000: uvm_test_top.env.master_agent.mon [ahb_master_monitor] Beat[2] addr=0x00004102 wdata=0x049d6613 resp=AHB_RESP_OKAY
# UVM_INFO ../src/mst/ahb_master_driver.sv(283) @ 1735000: uvm_test_top.env.master_agent.drv [ahb_master_driver] Beat[3/8] addr=0x00004104 trans=AHB_TRANS_SEQ resp=AHB_RESP_OKAY wdata=0x6b7095d6
# UVM_INFO ../src/slv/ahb_slave_driver.sv(174) @ 1735000: uvm_test_top.env.slave_agent.drv [ahb_slave_driver] Beat AHB_WRITE addr=0x00004104 resp=AHB_RESP_OKAY waits=0 wdata=0x6b7095d6
# UVM_INFO ../src/mst/ahb_master_monitor.sv(117) @ 1735000: uvm_test_top.env.master_agent.mon [ahb_master_monitor] Beat[3] addr=0x00004104 wdata=0x6b7095d6 resp=AHB_RESP_OKAY
# UVM_INFO ../src/mst/ahb_master_driver.sv(283) @ 1765000: uvm_test_top.env.master_agent.drv [ahb_master_driver] Beat[4/8] addr=0x00004106 trans=AHB_TRANS_SEQ resp=AHB_RESP_OKAY wdata=0x73f5b530
# UVM_INFO ../src/slv/ahb_slave_driver.sv(174) @ 1765000: uvm_test_top.env.slave_agent.drv [ahb_slave_driver] Beat AHB_WRITE addr=0x00004106 resp=AHB_RESP_OKAY waits=2 wdata=0x73f5b530
# UVM_INFO ../src/mst/ahb_master_monitor.sv(117) @ 1765000: uvm_test_top.env.master_agent.mon [ahb_master_monitor] Beat[4] addr=0x00004106 wdata=0x73f5b530 resp=AHB_RESP_OKAY
# UVM_INFO ../src/mst/ahb_master_driver.sv(283) @ 1785000: uvm_test_top.env.master_agent.drv [ahb_master_driver] Beat[5/8] addr=0x00004108 trans=AHB_TRANS_SEQ resp=AHB_RESP_OKAY wdata=0x5bc4da3c
# UVM_INFO ../src/slv/ahb_slave_driver.sv(174) @ 1785000: uvm_test_top.env.slave_agent.drv [ahb_slave_driver] Beat AHB_WRITE addr=0x00004108 resp=AHB_RESP_OKAY waits=1 wdata=0x5bc4da3c
# UVM_INFO ../src/mst/ahb_master_monitor.sv(117) @ 1785000: uvm_test_top.env.master_agent.mon [ahb_master_monitor] Beat[5] addr=0x00004108 wdata=0x5bc4da3c resp=AHB_RESP_OKAY
# UVM_INFO ../src/mst/ahb_master_driver.sv(283) @ 1795000: uvm_test_top.env.master_agent.drv [ahb_master_driver] Beat[6/8] addr=0x0000410a trans=AHB_TRANS_SEQ resp=AHB_RESP_OKAY wdata=0x82a15574
# UVM_INFO ../src/slv/ahb_slave_driver.sv(174) @ 1795000: uvm_test_top.env.slave_agent.drv [ahb_slave_driver] Beat AHB_WRITE addr=0x0000410a resp=AHB_RESP_OKAY waits=0 wdata=0x82a15574
# UVM_INFO ../src/mst/ahb_master_monitor.sv(117) @ 1795000: uvm_test_top.env.master_agent.mon [ahb_master_monitor] Beat[6] addr=0x0000410a wdata=0x82a15574 resp=AHB_RESP_OKAY
# UVM_INFO ../src/mst/ahb_master_driver.sv(283) @ 1805000: uvm_test_top.env.master_agent.drv [ahb_master_driver] Beat[7/8] addr=0x0000410c trans=AHB_TRANS_SEQ resp=AHB_RESP_OKAY wdata=0xe84c3ac7
# UVM_INFO ../src/mst/ahb_master_driver.sv(327) @ 1805000: uvm_test_top.env.master_agent.drv [ahb_master_driver] Transaction complete: AHB_WRITE 0x0000410e, 8 beats, burst=AHB_BURST_WRAP8
# UVM_INFO ../src/slv/ahb_slave_driver.sv(174) @ 1805000: uvm_test_top.env.slave_agent.drv [ahb_slave_driver] Beat AHB_WRITE addr=0x0000410c resp=AHB_RESP_OKAY waits=0 wdata=0xe84c3ac7
# UVM_INFO ../src/mst/ahb_master_monitor.sv(117) @ 1805000: uvm_test_top.env.master_agent.mon [ahb_master_monitor] Beat[7] addr=0x0000410c wdata=0xe84c3ac7 resp=AHB_RESP_OKAY
# UVM_INFO ../src/mst/ahb_master_monitor.sv(222) @ 1805000: uvm_test_top.env.master_agent.mon [ahb_master_monitor] Observed [AHB_WRITE]: HADDR=0x0000410e, HBURST=AHB_BURST_WRAP8, HSIZE=AHB_SIZE_16B, 8 beats
# UVM_INFO ../src/env/ahb_coverage.sv(127) @ 1805000: uvm_test_top.env.master_cov [ahb_coverage] Sampled [AHB_WRITE]: burst=AHB_BURST_WRAP8 size=AHB_SIZE_16B beats=8 error=0
# UVM_INFO ../src/slv/ahb_slave_monitor.sv(197) @ 1805000: uvm_test_top.env.slave_agent.mon [ahb_slave_monitor] Observed [AHB_WRITE]: HADDR=0x0000410e, HBURST=AHB_BURST_WRAP8, HSIZE=AHB_SIZE_16B, 8 beats
# UVM_INFO ../src/env/ahb_scoreboard.sv(104) @ 1805000: uvm_test_top.env.scb [ahb_scoreboard] MATCH #9: [AHB_WRITE] HADDR=0x0000410e AHB_BURST_WRAP8 8 beats
# UVM_INFO ../src/env/ahb_coverage.sv(127) @ 1805000: uvm_test_top.env.slave_cov [ahb_coverage] Sampled [AHB_WRITE]: burst=AHB_BURST_WRAP8 size=AHB_SIZE_16B beats=8 error=0
# UVM_INFO ../src/mst/ahb_master_driver.sv(82) @ 1805000: uvm_test_top.env.master_agent.drv [ahb_master_driver] Queueing [AHB_READ]: HADDR=0x0000410e, HBURST=AHB_BURST_WRAP8, HSIZE=AHB_SIZE_16B, 8 beats
# UVM_INFO ../src/mst/ahb_master_driver.sv(124) @ 1805000: uvm_test_top.env.master_agent.drv [ahb_master_driver] Driving [AHB_READ]: HADDR=0x0000410e, HBURST=AHB_BURST_WRAP8, HSIZE=AHB_SIZE_16B, 8 beats               
# UVM_INFO ../src/mst/ahb_master_driver.sv(283) @ 1845000: uvm_test_top.env.master_agent.drv [ahb_master_driver] Beat[0/8] addr=0x0000410e trans=AHB_TRANS_NONSEQ resp=AHB_RESP_OKAY rdata=0xa6ed5b48
# UVM_INFO ../src/slv/ahb_slave_driver.sv(174) @ 1845000: uvm_test_top.env.slave_agent.drv [ahb_slave_driver] Beat AHB_READ addr=0x0000410e resp=AHB_RESP_OKAY waits=1 rdata=0xa6ed5b48
# UVM_INFO ../src/mst/ahb_master_monitor.sv(117) @ 1845000: uvm_test_top.env.master_agent.mon [ahb_master_monitor] Beat[0] addr=0x0000410e rdata=0xa6ed5b48 resp=AHB_RESP_OKAY
# UVM_INFO ../src/mst/ahb_master_driver.sv(283) @ 1875000: uvm_test_top.env.master_agent.drv [ahb_master_driver] Beat[1/8] addr=0x00004100 trans=AHB_TRANS_SEQ resp=AHB_RESP_OKAY rdata=0x992acc36
# UVM_INFO ../src/slv/ahb_slave_driver.sv(174) @ 1875000: uvm_test_top.env.slave_agent.drv [ahb_slave_driver] Beat AHB_READ addr=0x00004100 resp=AHB_RESP_OKAY waits=2 rdata=0x992acc36
# UVM_INFO ../src/mst/ahb_master_monitor.sv(117) @ 1875000: uvm_test_top.env.master_agent.mon [ahb_master_monitor] Beat[1] addr=0x00004100 rdata=0x992acc36 resp=AHB_RESP_OKAY
# UVM_INFO ../src/mst/ahb_master_driver.sv(283) @ 1885000: uvm_test_top.env.master_agent.drv [ahb_master_driver] Beat[2/8] addr=0x00004102 trans=AHB_TRANS_SEQ resp=AHB_RESP_OKAY rdata=0x049d6613
# UVM_INFO ../src/slv/ahb_slave_driver.sv(174) @ 1885000: uvm_test_top.env.slave_agent.drv [ahb_slave_driver] Beat AHB_READ addr=0x00004102 resp=AHB_RESP_OKAY waits=0 rdata=0x049d6613
# UVM_INFO ../src/mst/ahb_master_monitor.sv(117) @ 1885000: uvm_test_top.env.master_agent.mon [ahb_master_monitor] Beat[2] addr=0x00004102 rdata=0x049d6613 resp=AHB_RESP_OKAY
# UVM_INFO ../src/mst/ahb_master_driver.sv(283) @ 1915000: uvm_test_top.env.master_agent.drv [ahb_master_driver] Beat[3/8] addr=0x00004104 trans=AHB_TRANS_SEQ resp=AHB_RESP_OKAY rdata=0x6b7095d6
# UVM_INFO ../src/slv/ahb_slave_driver.sv(174) @ 1915000: uvm_test_top.env.slave_agent.drv [ahb_slave_driver] Beat AHB_READ addr=0x00004104 resp=AHB_RESP_OKAY waits=2 rdata=0x6b7095d6
# UVM_INFO ../src/mst/ahb_master_monitor.sv(117) @ 1915000: uvm_test_top.env.master_agent.mon [ahb_master_monitor] Beat[3] addr=0x00004104 rdata=0x6b7095d6 resp=AHB_RESP_OKAY
# UVM_INFO ../src/mst/ahb_master_driver.sv(283) @ 1935000: uvm_test_top.env.master_agent.drv [ahb_master_driver] Beat[4/8] addr=0x00004106 trans=AHB_TRANS_SEQ resp=AHB_RESP_OKAY rdata=0x73f5b530
# UVM_INFO ../src/slv/ahb_slave_driver.sv(174) @ 1935000: uvm_test_top.env.slave_agent.drv [ahb_slave_driver] Beat AHB_READ addr=0x00004106 resp=AHB_RESP_OKAY waits=1 rdata=0x73f5b530
# UVM_INFO ../src/mst/ahb_master_monitor.sv(117) @ 1935000: uvm_test_top.env.master_agent.mon [ahb_master_monitor] Beat[4] addr=0x00004106 rdata=0x73f5b530 resp=AHB_RESP_OKAY
# UVM_INFO ../src/mst/ahb_master_driver.sv(283) @ 1965000: uvm_test_top.env.master_agent.drv [ahb_master_driver] Beat[5/8] addr=0x00004108 trans=AHB_TRANS_SEQ resp=AHB_RESP_OKAY rdata=0x5bc4da3c
# UVM_INFO ../src/slv/ahb_slave_driver.sv(174) @ 1965000: uvm_test_top.env.slave_agent.drv [ahb_slave_driver] Beat AHB_READ addr=0x00004108 resp=AHB_RESP_OKAY waits=2 rdata=0x5bc4da3c
# UVM_INFO ../src/mst/ahb_master_monitor.sv(117) @ 1965000: uvm_test_top.env.master_agent.mon [ahb_master_monitor] Beat[5] addr=0x00004108 rdata=0x5bc4da3c resp=AHB_RESP_OKAY
# UVM_INFO ../src/mst/ahb_master_driver.sv(283) @ 1995000: uvm_test_top.env.master_agent.drv [ahb_master_driver] Beat[6/8] addr=0x0000410a trans=AHB_TRANS_SEQ resp=AHB_RESP_OKAY rdata=0x82a15574
# UVM_INFO ../src/slv/ahb_slave_driver.sv(174) @ 1995000: uvm_test_top.env.slave_agent.drv [ahb_slave_driver] Beat AHB_READ addr=0x0000410a resp=AHB_RESP_OKAY waits=2 rdata=0x82a15574
# UVM_INFO ../src/mst/ahb_master_monitor.sv(117) @ 1995000: uvm_test_top.env.master_agent.mon [ahb_master_monitor] Beat[6] addr=0x0000410a rdata=0x82a15574 resp=AHB_RESP_OKAY
# UVM_INFO ../src/mst/ahb_master_driver.sv(283) @ 2025000: uvm_test_top.env.master_agent.drv [ahb_master_driver] Beat[7/8] addr=0x0000410c trans=AHB_TRANS_SEQ resp=AHB_RESP_OKAY rdata=0xe84c3ac7
# UVM_INFO ../src/mst/ahb_master_driver.sv(327) @ 2025000: uvm_test_top.env.master_agent.drv [ahb_master_driver] Transaction complete: AHB_READ 0x0000410e, 8 beats, burst=AHB_BURST_WRAP8
# UVM_INFO ../src/slv/ahb_slave_driver.sv(174) @ 2025000: uvm_test_top.env.slave_agent.drv [ahb_slave_driver] Beat AHB_READ addr=0x0000410c resp=AHB_RESP_OKAY waits=2 rdata=0xe84c3ac7
# UVM_INFO ../src/mst/ahb_master_monitor.sv(117) @ 2025000: uvm_test_top.env.master_agent.mon [ahb_master_monitor] Beat[7] addr=0x0000410c rdata=0xe84c3ac7 resp=AHB_RESP_OKAY
# UVM_INFO ../src/mst/ahb_master_monitor.sv(222) @ 2025000: uvm_test_top.env.master_agent.mon [ahb_master_monitor] Observed [AHB_READ]: HADDR=0x0000410e, HBURST=AHB_BURST_WRAP8, HSIZE=AHB_SIZE_16B, 8 beats
# UVM_INFO ../src/env/ahb_coverage.sv(127) @ 2025000: uvm_test_top.env.master_cov [ahb_coverage] Sampled [AHB_READ]: burst=AHB_BURST_WRAP8 size=AHB_SIZE_16B beats=8 error=0
# UVM_INFO ../src/slv/ahb_slave_monitor.sv(197) @ 2025000: uvm_test_top.env.slave_agent.mon [ahb_slave_monitor] Observed [AHB_READ]: HADDR=0x0000410e, HBURST=AHB_BURST_WRAP8, HSIZE=AHB_SIZE_16B, 8 beats
# UVM_INFO ../src/env/ahb_scoreboard.sv(104) @ 2025000: uvm_test_top.env.scb [ahb_scoreboard] MATCH #10: [AHB_READ] HADDR=0x0000410e AHB_BURST_WRAP8 8 beats
# UVM_INFO ../src/env/ahb_coverage.sv(127) @ 2025000: uvm_test_top.env.slave_cov [ahb_coverage] Sampled [AHB_READ]: burst=AHB_BURST_WRAP8 size=AHB_SIZE_16B beats=8 error=0
# UVM_INFO ../src/mst_seq/ahb_base_seq.sv(138) @ 2025000: uvm_test_top.env.master_agent.sqr@@seq [ahb_wrap_burst_seq] AHB_BURST_WRAP8 AHB_SIZE_16B beat 0 @0x0000410e ok
# UVM_INFO ../src/mst_seq/ahb_base_seq.sv(138) @ 2025000: uvm_test_top.env.master_agent.sqr@@seq [ahb_wrap_burst_seq] AHB_BURST_WRAP8 AHB_SIZE_16B beat 1 @0x00004100 ok
# UVM_INFO ../src/mst_seq/ahb_base_seq.sv(138) @ 2025000: uvm_test_top.env.master_agent.sqr@@seq [ahb_wrap_burst_seq] AHB_BURST_WRAP8 AHB_SIZE_16B beat 2 @0x00004102 ok
# UVM_INFO ../src/mst_seq/ahb_base_seq.sv(138) @ 2025000: uvm_test_top.env.master_agent.sqr@@seq [ahb_wrap_burst_seq] AHB_BURST_WRAP8 AHB_SIZE_16B beat 3 @0x00004104 ok
# UVM_INFO ../src/mst_seq/ahb_base_seq.sv(138) @ 2025000: uvm_test_top.env.master_agent.sqr@@seq [ahb_wrap_burst_seq] AHB_BURST_WRAP8 AHB_SIZE_16B beat 4 @0x00004106 ok
# UVM_INFO ../src/mst_seq/ahb_base_seq.sv(138) @ 2025000: uvm_test_top.env.master_agent.sqr@@seq [ahb_wrap_burst_seq] AHB_BURST_WRAP8 AHB_SIZE_16B beat 5 @0x00004108 ok
# UVM_INFO ../src/mst_seq/ahb_base_seq.sv(138) @ 2025000: uvm_test_top.env.master_agent.sqr@@seq [ahb_wrap_burst_seq] AHB_BURST_WRAP8 AHB_SIZE_16B beat 6 @0x0000410a ok
# UVM_INFO ../src/mst_seq/ahb_base_seq.sv(138) @ 2025000: uvm_test_top.env.master_agent.sqr@@seq [ahb_wrap_burst_seq] AHB_BURST_WRAP8 AHB_SIZE_16B beat 7 @0x0000410c ok
# UVM_INFO ../src/mst/ahb_master_driver.sv(82) @ 2025000: uvm_test_top.env.master_agent.drv [ahb_master_driver] Queueing [AHB_WRITE]: HADDR=0x00004162, HBURST=AHB_BURST_WRAP16, HSIZE=AHB_SIZE_16B, 16 beats
# UVM_INFO ../src/mst/ahb_master_driver.sv(124) @ 2025000: uvm_test_top.env.master_agent.drv [ahb_master_driver] Driving [AHB_WRITE]: HADDR=0x00004162, HBURST=AHB_BURST_WRAP16, HSIZE=AHB_SIZE_16B, 16 beats               
# UVM_INFO ../src/mst/ahb_master_driver.sv(283) @ 2065000: uvm_test_top.env.master_agent.drv [ahb_master_driver] Beat[0/16] addr=0x00004162 trans=AHB_TRANS_NONSEQ resp=AHB_RESP_OKAY wdata=0x9c22c7f2
# UVM_INFO ../src/slv/ahb_slave_driver.sv(174) @ 2065000: uvm_test_top.env.slave_agent.drv [ahb_slave_driver] Beat AHB_WRITE addr=0x00004162 resp=AHB_RESP_OKAY waits=1 wdata=0x9c22c7f2
# UVM_INFO ../src/mst/ahb_master_monitor.sv(117) @ 2065000: uvm_test_top.env.master_agent.mon [ahb_master_monitor] Beat[0] addr=0x00004162 wdata=0x9c22c7f2 resp=AHB_RESP_OKAY
# UVM_INFO ../src/mst/ahb_master_driver.sv(283) @ 2085000: uvm_test_top.env.master_agent.drv [ahb_master_driver] Beat[1/16] addr=0x00004164 trans=AHB_TRANS_SEQ resp=AHB_RESP_OKAY wdata=0xbfd064b4
# UVM_INFO ../src/slv/ahb_slave_driver.sv(174) @ 2085000: uvm_test_top.env.slave_agent.drv [ahb_slave_driver] Beat AHB_WRITE addr=0x00004164 resp=AHB_RESP_OKAY waits=1 wdata=0xbfd064b4
# UVM_INFO ../src/mst/ahb_master_monitor.sv(117) @ 2085000: uvm_test_top.env.master_agent.mon [ahb_master_monitor] Beat[1] addr=0x00004164 wdata=0xbfd064b4 resp=AHB_RESP_OKAY
# UVM_INFO ../src/mst/ahb_master_driver.sv(283) @ 2115000: uvm_test_top.env.master_agent.drv [ahb_master_driver] Beat[2/16] addr=0x00004166 trans=AHB_TRANS_SEQ resp=AHB_RESP_OKAY wdata=0x2c9e3fce
# UVM_INFO ../src/slv/ahb_slave_driver.sv(174) @ 2115000: uvm_test_top.env.slave_agent.drv [ahb_slave_driver] Beat AHB_WRITE addr=0x00004166 resp=AHB_RESP_OKAY waits=2 wdata=0x2c9e3fce
# UVM_INFO ../src/mst/ahb_master_monitor.sv(117) @ 2115000: uvm_test_top.env.master_agent.mon [ahb_master_monitor] Beat[2] addr=0x00004166 wdata=0x2c9e3fce resp=AHB_RESP_OKAY
# UVM_INFO ../src/mst/ahb_master_driver.sv(283) @ 2125000: uvm_test_top.env.master_agent.drv [ahb_master_driver] Beat[3/16] addr=0x00004168 trans=AHB_TRANS_SEQ resp=AHB_RESP_OKAY wdata=0x6a18510d
# UVM_INFO ../src/slv/ahb_slave_driver.sv(174) @ 2125000: uvm_test_top.env.slave_agent.drv [ahb_slave_driver] Beat AHB_WRITE addr=0x00004168 resp=AHB_RESP_OKAY waits=0 wdata=0x6a18510d
# UVM_INFO ../src/mst/ahb_master_monitor.sv(117) @ 2125000: uvm_test_top.env.master_agent.mon [ahb_master_monitor] Beat[3] addr=0x00004168 wdata=0x6a18510d resp=AHB_RESP_OKAY
# UVM_INFO ../src/mst/ahb_master_driver.sv(283) @ 2135000: uvm_test_top.env.master_agent.drv [ahb_master_driver] Beat[4/16] addr=0x0000416a trans=AHB_TRANS_SEQ resp=AHB_RESP_OKAY wdata=0x6a69aa80
# UVM_INFO ../src/slv/ahb_slave_driver.sv(174) @ 2135000: uvm_test_top.env.slave_agent.drv [ahb_slave_driver] Beat AHB_WRITE addr=0x0000416a resp=AHB_RESP_OKAY waits=0 wdata=0x6a69aa80
# UVM_INFO ../src/mst/ahb_master_monitor.sv(117) @ 2135000: uvm_test_top.env.master_agent.mon [ahb_master_monitor] Beat[4] addr=0x0000416a wdata=0x6a69aa80 resp=AHB_RESP_OKAY
# UVM_INFO ../src/mst/ahb_master_driver.sv(283) @ 2155000: uvm_test_top.env.master_agent.drv [ahb_master_driver] Beat[5/16] addr=0x0000416c trans=AHB_TRANS_SEQ resp=AHB_RESP_OKAY wdata=0x22ed9618
# UVM_INFO ../src/slv/ahb_slave_driver.sv(174) @ 2155000: uvm_test_top.env.slave_agent.drv [ahb_slave_driver] Beat AHB_WRITE addr=0x0000416c resp=AHB_RESP_OKAY waits=1 wdata=0x22ed9618
# UVM_INFO ../src/mst/ahb_master_monitor.sv(117) @ 2155000: uvm_test_top.env.master_agent.mon [ahb_master_monitor] Beat[5] addr=0x0000416c wdata=0x22ed9618 resp=AHB_RESP_OKAY
# UVM_INFO ../src/mst/ahb_master_driver.sv(283) @ 2175000: uvm_test_top.env.master_agent.drv [ahb_master_driver] Beat[6/16] addr=0x0000416e trans=AHB_TRANS_SEQ resp=AHB_RESP_OKAY wdata=0x0d0b92a9
# UVM_INFO ../src/slv/ahb_slave_driver.sv(174) @ 2175000: uvm_test_top.env.slave_agent.drv [ahb_slave_driver] Beat AHB_WRITE addr=0x0000416e resp=AHB_RESP_OKAY waits=1 wdata=0x0d0b92a9
# UVM_INFO ../src/mst/ahb_master_monitor.sv(117) @ 2175000: uvm_test_top.env.master_agent.mon [ahb_master_monitor] Beat[6] addr=0x0000416e wdata=0x0d0b92a9 resp=AHB_RESP_OKAY
# UVM_INFO ../src/mst/ahb_master_driver.sv(283) @ 2205000: uvm_test_top.env.master_agent.drv [ahb_master_driver] Beat[7/16] addr=0x00004170 trans=AHB_TRANS_SEQ resp=AHB_RESP_OKAY wdata=0xf0e2259f
# UVM_INFO ../src/slv/ahb_slave_driver.sv(174) @ 2205000: uvm_test_top.env.slave_agent.drv [ahb_slave_driver] Beat AHB_WRITE addr=0x00004170 resp=AHB_RESP_OKAY waits=2 wdata=0xf0e2259f
# UVM_INFO ../src/mst/ahb_master_monitor.sv(117) @ 2205000: uvm_test_top.env.master_agent.mon [ahb_master_monitor] Beat[7] addr=0x00004170 wdata=0xf0e2259f resp=AHB_RESP_OKAY
# UVM_INFO ../src/mst/ahb_master_driver.sv(283) @ 2235000: uvm_test_top.env.master_agent.drv [ahb_master_driver] Beat[8/16] addr=0x00004172 trans=AHB_TRANS_SEQ resp=AHB_RESP_OKAY wdata=0xbc43cf08
# UVM_INFO ../src/slv/ahb_slave_driver.sv(174) @ 2235000: uvm_test_top.env.slave_agent.drv [ahb_slave_driver] Beat AHB_WRITE addr=0x00004172 resp=AHB_RESP_OKAY waits=2 wdata=0xbc43cf08
# UVM_INFO ../src/mst/ahb_master_monitor.sv(117) @ 2235000: uvm_test_top.env.master_agent.mon [ahb_master_monitor] Beat[8] addr=0x00004172 wdata=0xbc43cf08 resp=AHB_RESP_OKAY
# UVM_INFO ../src/mst/ahb_master_driver.sv(283) @ 2265000: uvm_test_top.env.master_agent.drv [ahb_master_driver] Beat[9/16] addr=0x00004174 trans=AHB_TRANS_SEQ resp=AHB_RESP_OKAY wdata=0x559b324e
# UVM_INFO ../src/slv/ahb_slave_driver.sv(174) @ 2265000: uvm_test_top.env.slave_agent.drv [ahb_slave_driver] Beat AHB_WRITE addr=0x00004174 resp=AHB_RESP_OKAY waits=2 wdata=0x559b324e
# UVM_INFO ../src/mst/ahb_master_monitor.sv(117) @ 2265000: uvm_test_top.env.master_agent.mon [ahb_master_monitor] Beat[9] addr=0x00004174 wdata=0x559b324e resp=AHB_RESP_OKAY
# UVM_INFO ../src/mst/ahb_master_driver.sv(283) @ 2275000: uvm_test_top.env.master_agent.drv [ahb_master_driver] Beat[10/16] addr=0x00004176 trans=AHB_TRANS_SEQ resp=AHB_RESP_OKAY wdata=0x9ff523d8
# UVM_INFO ../src/slv/ahb_slave_driver.sv(174) @ 2275000: uvm_test_top.env.slave_agent.drv [ahb_slave_driver] Beat AHB_WRITE addr=0x00004176 resp=AHB_RESP_OKAY waits=0 wdata=0x9ff523d8
# UVM_INFO ../src/mst/ahb_master_monitor.sv(117) @ 2275000: uvm_test_top.env.master_agent.mon [ahb_master_monitor] Beat[10] addr=0x00004176 wdata=0x9ff523d8 resp=AHB_RESP_OKAY
# UVM_INFO ../src/mst/ahb_master_driver.sv(283) @ 2295000: uvm_test_top.env.master_agent.drv [ahb_master_driver] Beat[11/16] addr=0x00004178 trans=AHB_TRANS_SEQ resp=AHB_RESP_OKAY wdata=0xa259e04d
# UVM_INFO ../src/slv/ahb_slave_driver.sv(174) @ 2295000: uvm_test_top.env.slave_agent.drv [ahb_slave_driver] Beat AHB_WRITE addr=0x00004178 resp=AHB_RESP_OKAY waits=1 wdata=0xa259e04d
# UVM_INFO ../src/mst/ahb_master_monitor.sv(117) @ 2295000: uvm_test_top.env.master_agent.mon [ahb_master_monitor] Beat[11] addr=0x00004178 wdata=0xa259e04d resp=AHB_RESP_OKAY
# UVM_INFO ../src/mst/ahb_master_driver.sv(283) @ 2305000: uvm_test_top.env.master_agent.drv [ahb_master_driver] Beat[12/16] addr=0x0000417a trans=AHB_TRANS_SEQ resp=AHB_RESP_OKAY wdata=0x8821ff88
# UVM_INFO ../src/slv/ahb_slave_driver.sv(174) @ 2305000: uvm_test_top.env.slave_agent.drv [ahb_slave_driver] Beat AHB_WRITE addr=0x0000417a resp=AHB_RESP_OKAY waits=0 wdata=0x8821ff88
# UVM_INFO ../src/mst/ahb_master_monitor.sv(117) @ 2305000: uvm_test_top.env.master_agent.mon [ahb_master_monitor] Beat[12] addr=0x0000417a wdata=0x8821ff88 resp=AHB_RESP_OKAY
# UVM_INFO ../src/mst/ahb_master_driver.sv(283) @ 2335000: uvm_test_top.env.master_agent.drv [ahb_master_driver] Beat[13/16] addr=0x0000417c trans=AHB_TRANS_SEQ resp=AHB_RESP_OKAY wdata=0x5f528c37
# UVM_INFO ../src/slv/ahb_slave_driver.sv(174) @ 2335000: uvm_test_top.env.slave_agent.drv [ahb_slave_driver] Beat AHB_WRITE addr=0x0000417c resp=AHB_RESP_OKAY waits=2 wdata=0x5f528c37
# UVM_INFO ../src/mst/ahb_master_monitor.sv(117) @ 2335000: uvm_test_top.env.master_agent.mon [ahb_master_monitor] Beat[13] addr=0x0000417c wdata=0x5f528c37 resp=AHB_RESP_OKAY
# UVM_INFO ../src/mst/ahb_master_driver.sv(283) @ 2345000: uvm_test_top.env.master_agent.drv [ahb_master_driver] Beat[14/16] addr=0x0000417e trans=AHB_TRANS_SEQ resp=AHB_RESP_OKAY wdata=0xa999135b
# UVM_INFO ../src/slv/ahb_slave_driver.sv(174) @ 2345000: uvm_test_top.env.slave_agent.drv [ahb_slave_driver] Beat AHB_WRITE addr=0x0000417e resp=AHB_RESP_OKAY waits=0 wdata=0xa999135b
# UVM_INFO ../src/mst/ahb_master_monitor.sv(117) @ 2345000: uvm_test_top.env.master_agent.mon [ahb_master_monitor] Beat[14] addr=0x0000417e wdata=0xa999135b resp=AHB_RESP_OKAY
# UVM_INFO ../src/mst/ahb_master_driver.sv(283) @ 2375000: uvm_test_top.env.master_agent.drv [ahb_master_driver] Beat[15/16] addr=0x00004160 trans=AHB_TRANS_SEQ resp=AHB_RESP_OKAY wdata=0x3e13e9ef
# UVM_INFO ../src/mst/ahb_master_driver.sv(327) @ 2375000: uvm_test_top.env.master_agent.drv [ahb_master_driver] Transaction complete: AHB_WRITE 0x00004162, 16 beats, burst=AHB_BURST_WRAP16
# UVM_INFO ../src/slv/ahb_slave_driver.sv(174) @ 2375000: uvm_test_top.env.slave_agent.drv [ahb_slave_driver] Beat AHB_WRITE addr=0x00004160 resp=AHB_RESP_OKAY waits=2 wdata=0x3e13e9ef
# UVM_INFO ../src/slv/ahb_slave_monitor.sv(197) @ 2375000: uvm_test_top.env.slave_agent.mon [ahb_slave_monitor] Observed [AHB_WRITE]: HADDR=0x00004162, HBURST=AHB_BURST_WRAP16, HSIZE=AHB_SIZE_16B, 16 beats
# UVM_INFO ../src/env/ahb_coverage.sv(127) @ 2375000: uvm_test_top.env.slave_cov [ahb_coverage] Sampled [AHB_WRITE]: burst=AHB_BURST_WRAP16 size=AHB_SIZE_16B beats=16 error=0
# UVM_INFO ../src/mst/ahb_master_monitor.sv(117) @ 2375000: uvm_test_top.env.master_agent.mon [ahb_master_monitor] Beat[15] addr=0x00004160 wdata=0x3e13e9ef resp=AHB_RESP_OKAY
# UVM_INFO ../src/mst/ahb_master_monitor.sv(222) @ 2375000: uvm_test_top.env.master_agent.mon [ahb_master_monitor] Observed [AHB_WRITE]: HADDR=0x00004162, HBURST=AHB_BURST_WRAP16, HSIZE=AHB_SIZE_16B, 16 beats
# UVM_INFO ../src/env/ahb_coverage.sv(127) @ 2375000: uvm_test_top.env.master_cov [ahb_coverage] Sampled [AHB_WRITE]: burst=AHB_BURST_WRAP16 size=AHB_SIZE_16B beats=16 error=0
# UVM_INFO ../src/env/ahb_scoreboard.sv(104) @ 2375000: uvm_test_top.env.scb [ahb_scoreboard] MATCH #11: [AHB_WRITE] HADDR=0x00004162 AHB_BURST_WRAP16 16 beats
# UVM_INFO ../src/mst/ahb_master_driver.sv(82) @ 2375000: uvm_test_top.env.master_agent.drv [ahb_master_driver] Queueing [AHB_READ]: HADDR=0x00004162, HBURST=AHB_BURST_WRAP16, HSIZE=AHB_SIZE_16B, 16 beats
# UVM_INFO ../src/mst/ahb_master_driver.sv(124) @ 2375000: uvm_test_top.env.master_agent.drv [ahb_master_driver] Driving [AHB_READ]: HADDR=0x00004162, HBURST=AHB_BURST_WRAP16, HSIZE=AHB_SIZE_16B, 16 beats               
# UVM_INFO ../src/mst/ahb_master_driver.sv(283) @ 2405000: uvm_test_top.env.master_agent.drv [ahb_master_driver] Beat[0/16] addr=0x00004162 trans=AHB_TRANS_NONSEQ resp=AHB_RESP_OKAY rdata=0x9c22c7f2
# UVM_INFO ../src/slv/ahb_slave_driver.sv(174) @ 2405000: uvm_test_top.env.slave_agent.drv [ahb_slave_driver] Beat AHB_READ addr=0x00004162 resp=AHB_RESP_OKAY waits=0 rdata=0x9c22c7f2
# UVM_INFO ../src/mst/ahb_master_monitor.sv(117) @ 2405000: uvm_test_top.env.master_agent.mon [ahb_master_monitor] Beat[0] addr=0x00004162 rdata=0x9c22c7f2 resp=AHB_RESP_OKAY
# UVM_INFO ../src/mst/ahb_master_driver.sv(283) @ 2435000: uvm_test_top.env.master_agent.drv [ahb_master_driver] Beat[1/16] addr=0x00004164 trans=AHB_TRANS_SEQ resp=AHB_RESP_OKAY rdata=0xbfd064b4
# UVM_INFO ../src/slv/ahb_slave_driver.sv(174) @ 2435000: uvm_test_top.env.slave_agent.drv [ahb_slave_driver] Beat AHB_READ addr=0x00004164 resp=AHB_RESP_OKAY waits=2 rdata=0xbfd064b4
# UVM_INFO ../src/mst/ahb_master_monitor.sv(117) @ 2435000: uvm_test_top.env.master_agent.mon [ahb_master_monitor] Beat[1] addr=0x00004164 rdata=0xbfd064b4 resp=AHB_RESP_OKAY
# UVM_INFO ../src/mst/ahb_master_driver.sv(283) @ 2445000: uvm_test_top.env.master_agent.drv [ahb_master_driver] Beat[2/16] addr=0x00004166 trans=AHB_TRANS_SEQ resp=AHB_RESP_OKAY rdata=0x2c9e3fce
# UVM_INFO ../src/slv/ahb_slave_driver.sv(174) @ 2445000: uvm_test_top.env.slave_agent.drv [ahb_slave_driver] Beat AHB_READ addr=0x00004166 resp=AHB_RESP_OKAY waits=0 rdata=0x2c9e3fce
# UVM_INFO ../src/mst/ahb_master_monitor.sv(117) @ 2445000: uvm_test_top.env.master_agent.mon [ahb_master_monitor] Beat[2] addr=0x00004166 rdata=0x2c9e3fce resp=AHB_RESP_OKAY
# UVM_INFO ../src/mst/ahb_master_driver.sv(283) @ 2465000: uvm_test_top.env.master_agent.drv [ahb_master_driver] Beat[3/16] addr=0x00004168 trans=AHB_TRANS_SEQ resp=AHB_RESP_OKAY rdata=0x6a18510d
# UVM_INFO ../src/slv/ahb_slave_driver.sv(174) @ 2465000: uvm_test_top.env.slave_agent.drv [ahb_slave_driver] Beat AHB_READ addr=0x00004168 resp=AHB_RESP_OKAY waits=1 rdata=0x6a18510d
# UVM_INFO ../src/mst/ahb_master_monitor.sv(117) @ 2465000: uvm_test_top.env.master_agent.mon [ahb_master_monitor] Beat[3] addr=0x00004168 rdata=0x6a18510d resp=AHB_RESP_OKAY
# UVM_INFO ../src/mst/ahb_master_driver.sv(283) @ 2485000: uvm_test_top.env.master_agent.drv [ahb_master_driver] Beat[4/16] addr=0x0000416a trans=AHB_TRANS_SEQ resp=AHB_RESP_OKAY rdata=0x6a69aa80
# UVM_INFO ../src/slv/ahb_slave_driver.sv(174) @ 2485000: uvm_test_top.env.slave_agent.drv [ahb_slave_driver] Beat AHB_READ addr=0x0000416a resp=AHB_RESP_OKAY waits=1 rdata=0x6a69aa80
# UVM_INFO ../src/mst/ahb_master_monitor.sv(117) @ 2485000: uvm_test_top.env.master_agent.mon [ahb_master_monitor] Beat[4] addr=0x0000416a rdata=0x6a69aa80 resp=AHB_RESP_OKAY
# UVM_INFO ../src/mst/ahb_master_driver.sv(283) @ 2495000: uvm_test_top.env.master_agent.drv [ahb_master_driver] Beat[5/16] addr=0x0000416c trans=AHB_TRANS_SEQ resp=AHB_RESP_OKAY rdata=0x22ed9618
# UVM_INFO ../src/slv/ahb_slave_driver.sv(174) @ 2495000: uvm_test_top.env.slave_agent.drv [ahb_slave_driver] Beat AHB_READ addr=0x0000416c resp=AHB_RESP_OKAY waits=0 rdata=0x22ed9618
# UVM_INFO ../src/mst/ahb_master_monitor.sv(117) @ 2495000: uvm_test_top.env.master_agent.mon [ahb_master_monitor] Beat[5] addr=0x0000416c rdata=0x22ed9618 resp=AHB_RESP_OKAY
# UVM_INFO ../src/mst/ahb_master_driver.sv(283) @ 2525000: uvm_test_top.env.master_agent.drv [ahb_master_driver] Beat[6/16] addr=0x0000416e trans=AHB_TRANS_SEQ resp=AHB_RESP_OKAY rdata=0x0d0b92a9
# UVM_INFO ../src/slv/ahb_slave_driver.sv(174) @ 2525000: uvm_test_top.env.slave_agent.drv [ahb_slave_driver] Beat AHB_READ addr=0x0000416e resp=AHB_RESP_OKAY waits=2 rdata=0x0d0b92a9
# UVM_INFO ../src/mst/ahb_master_monitor.sv(117) @ 2525000: uvm_test_top.env.master_agent.mon [ahb_master_monitor] Beat[6] addr=0x0000416e rdata=0x0d0b92a9 resp=AHB_RESP_OKAY
# UVM_INFO ../src/mst/ahb_master_driver.sv(283) @ 2555000: uvm_test_top.env.master_agent.drv [ahb_master_driver] Beat[7/16] addr=0x00004170 trans=AHB_TRANS_SEQ resp=AHB_RESP_OKAY rdata=0xf0e2259f
# UVM_INFO ../src/slv/ahb_slave_driver.sv(174) @ 2555000: uvm_test_top.env.slave_agent.drv [ahb_slave_driver] Beat AHB_READ addr=0x00004170 resp=AHB_RESP_OKAY waits=2 rdata=0xf0e2259f
# UVM_INFO ../src/mst/ahb_master_monitor.sv(117) @ 2555000: uvm_test_top.env.master_agent.mon [ahb_master_monitor] Beat[7] addr=0x00004170 rdata=0xf0e2259f resp=AHB_RESP_OKAY
# UVM_INFO ../src/mst/ahb_master_driver.sv(283) @ 2565000: uvm_test_top.env.master_agent.drv [ahb_master_driver] Beat[8/16] addr=0x00004172 trans=AHB_TRANS_SEQ resp=AHB_RESP_OKAY rdata=0xbc43cf08
# UVM_INFO ../src/slv/ahb_slave_driver.sv(174) @ 2565000: uvm_test_top.env.slave_agent.drv [ahb_slave_driver] Beat AHB_READ addr=0x00004172 resp=AHB_RESP_OKAY waits=0 rdata=0xbc43cf08
# UVM_INFO ../src/mst/ahb_master_monitor.sv(117) @ 2565000: uvm_test_top.env.master_agent.mon [ahb_master_monitor] Beat[8] addr=0x00004172 rdata=0xbc43cf08 resp=AHB_RESP_OKAY
# UVM_INFO ../src/mst/ahb_master_driver.sv(283) @ 2595000: uvm_test_top.env.master_agent.drv [ahb_master_driver] Beat[9/16] addr=0x00004174 trans=AHB_TRANS_SEQ resp=AHB_RESP_OKAY rdata=0x559b324e
# UVM_INFO ../src/slv/ahb_slave_driver.sv(174) @ 2595000: uvm_test_top.env.slave_agent.drv [ahb_slave_driver] Beat AHB_READ addr=0x00004174 resp=AHB_RESP_OKAY waits=2 rdata=0x559b324e
# UVM_INFO ../src/mst/ahb_master_monitor.sv(117) @ 2595000: uvm_test_top.env.master_agent.mon [ahb_master_monitor] Beat[9] addr=0x00004174 rdata=0x559b324e resp=AHB_RESP_OKAY
# UVM_INFO ../src/mst/ahb_master_driver.sv(283) @ 2605000: uvm_test_top.env.master_agent.drv [ahb_master_driver] Beat[10/16] addr=0x00004176 trans=AHB_TRANS_SEQ resp=AHB_RESP_OKAY rdata=0x9ff523d8
# UVM_INFO ../src/slv/ahb_slave_driver.sv(174) @ 2605000: uvm_test_top.env.slave_agent.drv [ahb_slave_driver] Beat AHB_READ addr=0x00004176 resp=AHB_RESP_OKAY waits=0 rdata=0x9ff523d8
# UVM_INFO ../src/mst/ahb_master_monitor.sv(117) @ 2605000: uvm_test_top.env.master_agent.mon [ahb_master_monitor] Beat[10] addr=0x00004176 rdata=0x9ff523d8 resp=AHB_RESP_OKAY
# UVM_INFO ../src/mst/ahb_master_driver.sv(283) @ 2615000: uvm_test_top.env.master_agent.drv [ahb_master_driver] Beat[11/16] addr=0x00004178 trans=AHB_TRANS_SEQ resp=AHB_RESP_OKAY rdata=0xa259e04d
# UVM_INFO ../src/slv/ahb_slave_driver.sv(174) @ 2615000: uvm_test_top.env.slave_agent.drv [ahb_slave_driver] Beat AHB_READ addr=0x00004178 resp=AHB_RESP_OKAY waits=0 rdata=0xa259e04d
# UVM_INFO ../src/mst/ahb_master_monitor.sv(117) @ 2615000: uvm_test_top.env.master_agent.mon [ahb_master_monitor] Beat[11] addr=0x00004178 rdata=0xa259e04d resp=AHB_RESP_OKAY
# UVM_INFO ../src/mst/ahb_master_driver.sv(283) @ 2645000: uvm_test_top.env.master_agent.drv [ahb_master_driver] Beat[12/16] addr=0x0000417a trans=AHB_TRANS_SEQ resp=AHB_RESP_OKAY rdata=0x8821ff88
# UVM_INFO ../src/slv/ahb_slave_driver.sv(174) @ 2645000: uvm_test_top.env.slave_agent.drv [ahb_slave_driver] Beat AHB_READ addr=0x0000417a resp=AHB_RESP_OKAY waits=2 rdata=0x8821ff88
# UVM_INFO ../src/mst/ahb_master_monitor.sv(117) @ 2645000: uvm_test_top.env.master_agent.mon [ahb_master_monitor] Beat[12] addr=0x0000417a rdata=0x8821ff88 resp=AHB_RESP_OKAY
# UVM_INFO ../src/mst/ahb_master_driver.sv(283) @ 2665000: uvm_test_top.env.master_agent.drv [ahb_master_driver] Beat[13/16] addr=0x0000417c trans=AHB_TRANS_SEQ resp=AHB_RESP_OKAY rdata=0x5f528c37
# UVM_INFO ../src/slv/ahb_slave_driver.sv(174) @ 2665000: uvm_test_top.env.slave_agent.drv [ahb_slave_driver] Beat AHB_READ addr=0x0000417c resp=AHB_RESP_OKAY waits=1 rdata=0x5f528c37
# UVM_INFO ../src/mst/ahb_master_monitor.sv(117) @ 2665000: uvm_test_top.env.master_agent.mon [ahb_master_monitor] Beat[13] addr=0x0000417c rdata=0x5f528c37 resp=AHB_RESP_OKAY
# UVM_INFO ../src/mst/ahb_master_driver.sv(283) @ 2695000: uvm_test_top.env.master_agent.drv [ahb_master_driver] Beat[14/16] addr=0x0000417e trans=AHB_TRANS_SEQ resp=AHB_RESP_OKAY rdata=0xa999135b
# UVM_INFO ../src/slv/ahb_slave_driver.sv(174) @ 2695000: uvm_test_top.env.slave_agent.drv [ahb_slave_driver] Beat AHB_READ addr=0x0000417e resp=AHB_RESP_OKAY waits=2 rdata=0xa999135b
# UVM_INFO ../src/mst/ahb_master_monitor.sv(117) @ 2695000: uvm_test_top.env.master_agent.mon [ahb_master_monitor] Beat[14] addr=0x0000417e rdata=0xa999135b resp=AHB_RESP_OKAY
# UVM_INFO ../src/mst/ahb_master_driver.sv(283) @ 2705000: uvm_test_top.env.master_agent.drv [ahb_master_driver] Beat[15/16] addr=0x00004160 trans=AHB_TRANS_SEQ resp=AHB_RESP_OKAY rdata=0x3e13e9ef
# UVM_INFO ../src/mst/ahb_master_driver.sv(327) @ 2705000: uvm_test_top.env.master_agent.drv [ahb_master_driver] Transaction complete: AHB_READ 0x00004162, 16 beats, burst=AHB_BURST_WRAP16
# UVM_INFO ../src/slv/ahb_slave_driver.sv(174) @ 2705000: uvm_test_top.env.slave_agent.drv [ahb_slave_driver] Beat AHB_READ addr=0x00004160 resp=AHB_RESP_OKAY waits=0 rdata=0x3e13e9ef
# UVM_INFO ../src/mst/ahb_master_monitor.sv(117) @ 2705000: uvm_test_top.env.master_agent.mon [ahb_master_monitor] Beat[15] addr=0x00004160 rdata=0x3e13e9ef resp=AHB_RESP_OKAY
# UVM_INFO ../src/mst/ahb_master_monitor.sv(222) @ 2705000: uvm_test_top.env.master_agent.mon [ahb_master_monitor] Observed [AHB_READ]: HADDR=0x00004162, HBURST=AHB_BURST_WRAP16, HSIZE=AHB_SIZE_16B, 16 beats
# UVM_INFO ../src/env/ahb_coverage.sv(127) @ 2705000: uvm_test_top.env.master_cov [ahb_coverage] Sampled [AHB_READ]: burst=AHB_BURST_WRAP16 size=AHB_SIZE_16B beats=16 error=0
# UVM_INFO ../src/slv/ahb_slave_monitor.sv(197) @ 2705000: uvm_test_top.env.slave_agent.mon [ahb_slave_monitor] Observed [AHB_READ]: HADDR=0x00004162, HBURST=AHB_BURST_WRAP16, HSIZE=AHB_SIZE_16B, 16 beats
# UVM_INFO ../src/env/ahb_scoreboard.sv(104) @ 2705000: uvm_test_top.env.scb [ahb_scoreboard] MATCH #12: [AHB_READ] HADDR=0x00004162 AHB_BURST_WRAP16 16 beats
# UVM_INFO ../src/env/ahb_coverage.sv(127) @ 2705000: uvm_test_top.env.slave_cov [ahb_coverage] Sampled [AHB_READ]: burst=AHB_BURST_WRAP16 size=AHB_SIZE_16B beats=16 error=0
# UVM_INFO ../src/mst_seq/ahb_base_seq.sv(138) @ 2705000: uvm_test_top.env.master_agent.sqr@@seq [ahb_wrap_burst_seq] AHB_BURST_WRAP16 AHB_SIZE_16B beat 0 @0x00004162 ok
# UVM_INFO ../src/mst_seq/ahb_base_seq.sv(138) @ 2705000: uvm_test_top.env.master_agent.sqr@@seq [ahb_wrap_burst_seq] AHB_BURST_WRAP16 AHB_SIZE_16B beat 1 @0x00004164 ok
