# vsim -c -coverage -sv_seed 93644807 "+UVM_TESTNAME=ahb_undefined_burst_test" "+UVM_VERBOSITY=UVM_HIGH" "+DUMP_VCD" -l ./report/logs/ahb_undefined_burst_test_run_2_seed_93644807.log -do "coverage save -onexit ./report/coverage/ahb_undefined_burst_test_run_2_seed_93644807.ucdb; run -all; quit -f" opt_tb_top 
# Start time: 13:13:09 on Aug 03,2026
# //  Questa Sim-64
# //  Version 10.6b linux_x86_64 May 25 2017
# //
# //  Copyright 1991-2017 Mentor Graphics Corporation
# //  All Rights Reserved.
# //
# //  QuestaSim and its associated documentation contain trade
# //  secrets and commercial or financial information that are the property of
# //  Mentor Graphics Corporation and are privileged, confidential,
# //  and exempt from disclosure under the Freedom of Information Act,
# //  5 U.S.C. Section 552. Furthermore, this information
# //  is prohibited from disclosure under the Trade Secrets Act,
# //  18 U.S.C. Section 1905.
# //
# Loading sv_std.std
# Loading work.ahb_if(fast)
# Loading mtiUvm.uvm_pkg
# Loading work.ahb_pkg(fast)
# Loading work.ahb_seq_pkg(fast)
# Loading work.ahb_test_pkg(fast)
# Loading work.tb_top(fast)
# Loading work.ahb_if(fast)
# Loading work.ahb_sva(fast)
# Loading mtiUvm.questa_uvm_pkg(fast)
# Loading /cadtools/mentor/Questa_10.6b/questasim/uvm-1.1d/linux_x86_64/uvm_dpi.so
# coverage save -onexit ./report/coverage/ahb_undefined_burst_test_run_2_seed_93644807.ucdb
#  run -all
# ----------------------------------------------------------------
# UVM-1.1d
# (C) 2007-2013 Mentor Graphics Corporation
# (C) 2007-2013 Cadence Design Systems, Inc.
# (C) 2006-2013 Synopsys, Inc.
# (C) 2011-2013 Cypress Semiconductor Corp.
# ----------------------------------------------------------------
# 
#   ***********       IMPORTANT RELEASE NOTES         ************
# 
#   You are using a version of the UVM library that has been compiled
#   with `UVM_NO_DEPRECATED undefined.
#   See http://www.eda.org/svdb/view.php?id=3313 for more details.
# 
#   You are using a version of the UVM library that has been compiled
#   with `UVM_OBJECT_MUST_HAVE_CONSTRUCTOR undefined.
#   See http://www.eda.org/svdb/view.php?id=3770 for more details.
# 
#       (Specify +UVM_NO_RELNOTES to turn off this notice)
# 
# UVM_INFO verilog_src/questa_uvm_pkg-1.2/src/questa_uvm_pkg.sv(215) @ 0: reporter [Questa UVM] QUESTA_UVM-1.2.3
# UVM_INFO verilog_src/questa_uvm_pkg-1.2/src/questa_uvm_pkg.sv(217) @ 0: reporter [Questa UVM]  questa_uvm::init(+struct)
# UVM_INFO ../src/tb_top.sv(126) @ 0: reporter [TB_TOP] Virtual interface set in config_db
# UVM_INFO @ 0: reporter [RNTST] Running test ahb_undefined_burst_test...
# UVM_INFO ../src/tb_top.sv(140) @ 0: reporter [TB_TOP] Waveform VCD dumping enabled (ahb_lite_vip.vcd)
# UVM_INFO ../src/env/ahb_vip_env.sv(64) @ 0: uvm_test_top.env [ahb_vip_env] slave_vif not set - reusing master_vif (passthrough mode)
# UVM_INFO ../src/env/ahb_vip_env.sv(72) @ 0: uvm_test_top.env [ahb_vip_env] Scoreboard created
# UVM_INFO ../src/env/ahb_vip_env.sv(78) @ 0: uvm_test_top.env [ahb_vip_env] Coverage collectors created
# UVM_INFO ../src/mst/ahb_master_agent.sv(61) @ 0: uvm_test_top.env.master_agent [ahb_master_agent] ACTIVE mode - driver + sequencer created
# UVM_INFO ../src/slv/ahb_slave_agent.sv(64) @ 0: uvm_test_top.env.slave_agent [ahb_slave_agent] ACTIVE mode - driver + sequencer created (    auto responses)
# UVM_INFO ../src/env/ahb_vip_env.sv(92) @ 0: uvm_test_top.env [ahb_vip_env] Scoreboard connected: master_mon.ap -> scb, slave_mon.ap -> scb
# UVM_INFO ../src/env/ahb_vip_env.sv(99) @ 0: uvm_test_top.env [ahb_vip_env] Coverage connected: master_mon.ap -> master_cov, slave_mon.ap -> slave_cov
# UVM_INFO @ 0: reporter [UVMTOP] UVM testbench topology:
# ----------------------------------------------------------------
# Name                       Type                      Size  Value
# ----------------------------------------------------------------
# uvm_test_top               ahb_undefined_burst_test  -     @475 
#   env                      ahb_vip_env               -     @490 
#     master_agent           ahb_master_agent          -     @505 
#       drv                  ahb_master_driver         -     @570 
#         rsp_port           uvm_analysis_port         -     @585 
#         seq_item_port      uvm_seq_item_pull_port    -     @577 
#       mon                  ahb_master_monitor        -     @563 
#         ap                 uvm_analysis_port         -     @704 
#       sqr                  ahb_master_sequencer      -     @593 
#         rsp_export         uvm_analysis_export       -     @600 
#         seq_item_export    uvm_seq_item_pull_imp     -     @694 
#         arbitration_queue  array                     0     -    
#         lock_queue         array                     0     -    
#         num_last_reqs      integral                  32    'd1  
#         num_last_rsps      integral                  32    'd1  
#     master_cov             ahb_coverage              -     @526 
#       analysis_imp         uvm_analysis_imp          -     @533 
#     scb                    ahb_scoreboard            -     @519 
#       master_export        uvm_analysis_imp_master   -     @718 
#       slave_export         uvm_analysis_imp_slave    -     @726 
#     slave_agent            ahb_slave_agent           -     @512 
#       drv                  ahb_slave_driver          -     @748 
#         rsp_port           uvm_analysis_port         -     @763 
#         seq_item_port      uvm_seq_item_pull_port    -     @755 
#       mon                  ahb_slave_monitor         -     @741 
#         ap                 uvm_analysis_port         -     @882 
#       sqr                  ahb_slave_sequencer       -     @771 
#         rsp_export         uvm_analysis_export       -     @778 
#         seq_item_export    uvm_seq_item_pull_imp     -     @872 
#         arbitration_queue  array                     0     -    
#         lock_queue         array                     0     -    
#         num_last_reqs      integral                  32    'd1  
#         num_last_rsps      integral                  32    'd1  
#     slave_cov              ahb_coverage              -     @541 
#       analysis_imp         uvm_analysis_imp          -     @548 
# ----------------------------------------------------------------
# 
# UVM_INFO verilog_src/questa_uvm_pkg-1.2/src/questa_uvm_pkg.sv(277) @ 0: reporter [Questa UVM] End Of Elaboration
# UVM_INFO ../src/mst_seq/ahb_undefined_burst_seq.sv(55) @ 0: uvm_test_top.env.master_agent.sqr@@seq [ahb_undefined_burst_seq] Starting undefined-length INCR bursts: 8 iterations from 0x00005000
# UVM_INFO ../src/mst_seq/ahb_undefined_burst_seq.sv(122) @ 0: uvm_test_top.env.master_agent.sqr@@seq [ahb_undefined_burst_seq] INCR 1 beats, AHB_SIZE_8B @0x000050de, trailing_busy=0, retract=0, pipelined=0
# UVM_INFO ../src/mst/ahb_master_driver.sv(181) @ 5000: uvm_test_top.env.master_agent.drv [ahb_master_driver] Flushed pending transactions (reset)
# UVM_INFO ../src/tb_top.sv(48) @ 95000: reporter [TB_TOP] Reset de-asserted
# UVM_INFO ../src/slv/ahb_slave_driver.sv(63) @ 95000: uvm_test_top.env.slave_agent.drv [ahb_slave_driver] Reset deasserted - slave driver active (    auto mode)
# UVM_INFO ../src/mst/ahb_master_driver.sv(68) @ 95000: uvm_test_top.env.master_agent.drv [ahb_master_driver] Reset deasserted - master driver active
# UVM_INFO ../src/mst/ahb_master_monitor.sv(75) @ 95000: uvm_test_top.env.master_agent.mon [ahb_master_monitor] Reset deasserted - master monitor active
# UVM_INFO ../src/slv/ahb_slave_monitor.sv(69) @ 95000: uvm_test_top.env.slave_agent.mon [ahb_slave_monitor] Reset deasserted - slave monitor active
# UVM_INFO ../src/mst/ahb_master_driver.sv(82) @ 95000: uvm_test_top.env.master_agent.drv [ahb_master_driver] Queueing [AHB_WRITE]: HADDR=0x000050de, HBURST=AHB_BURST_INCR, HSIZE=AHB_SIZE_8B, 1 beats
# UVM_INFO ../src/mst/ahb_master_driver.sv(124) @ 95000: uvm_test_top.env.master_agent.drv [ahb_master_driver] Driving [AHB_WRITE]: HADDR=0x000050de, HBURST=AHB_BURST_INCR, HSIZE=AHB_SIZE_8B, 1 beats               
# UVM_INFO ../src/mst/ahb_master_driver.sv(317) @ 125000: uvm_test_top.env.master_agent.drv [ahb_master_driver] Beat[0/1] addr=0x000050de trans=AHB_TRANS_NONSEQ resp=AHB_RESP_OKAY wdata=0xe8847569
# UVM_INFO ../src/mst/ahb_master_driver.sv(362) @ 125000: uvm_test_top.env.master_agent.drv [ahb_master_driver] Transaction complete: AHB_WRITE 0x000050de, 1 beats, burst=AHB_BURST_INCR
# UVM_INFO ../src/slv/ahb_slave_driver.sv(184) @ 125000: uvm_test_top.env.slave_agent.drv [ahb_slave_driver] Beat AHB_WRITE addr=0x000050de resp=AHB_RESP_OKAY waits=1 wdata=0xe8847569
# UVM_INFO ../src/mst/ahb_master_monitor.sv(117) @ 125000: uvm_test_top.env.master_agent.mon [ahb_master_monitor] Beat[0] addr=0x000050de wdata=0xe8847569 resp=AHB_RESP_OKAY
# UVM_INFO ../src/mst/ahb_master_monitor.sv(222) @ 125000: uvm_test_top.env.master_agent.mon [ahb_master_monitor] Observed [AHB_WRITE]: HADDR=0x000050de, HBURST=AHB_BURST_INCR, HSIZE=AHB_SIZE_8B, 1 beats
# UVM_INFO ../src/env/ahb_coverage.sv(127) @ 125000: uvm_test_top.env.master_cov [ahb_coverage] Sampled [AHB_WRITE]: burst=AHB_BURST_INCR size=AHB_SIZE_8B beats=1 error=0
# UVM_INFO ../src/slv/ahb_slave_monitor.sv(197) @ 125000: uvm_test_top.env.slave_agent.mon [ahb_slave_monitor] Observed [AHB_WRITE]: HADDR=0x000050de, HBURST=AHB_BURST_INCR, HSIZE=AHB_SIZE_8B, 1 beats
# UVM_INFO ../src/env/ahb_scoreboard.sv(104) @ 125000: uvm_test_top.env.scb [ahb_scoreboard] MATCH #1: [AHB_WRITE] HADDR=0x000050de AHB_BURST_INCR 1 beats
# UVM_INFO ../src/env/ahb_coverage.sv(127) @ 125000: uvm_test_top.env.slave_cov [ahb_coverage] Sampled [AHB_WRITE]: burst=AHB_BURST_INCR size=AHB_SIZE_8B beats=1 error=0
# UVM_INFO ../src/mst/ahb_master_driver.sv(82) @ 125000: uvm_test_top.env.master_agent.drv [ahb_master_driver] Queueing [AHB_READ]: HADDR=0x000050de, HBURST=AHB_BURST_INCR, HSIZE=AHB_SIZE_8B, 1 beats
# UVM_INFO ../src/mst/ahb_master_driver.sv(124) @ 125000: uvm_test_top.env.master_agent.drv [ahb_master_driver] Driving [AHB_READ]: HADDR=0x000050de, HBURST=AHB_BURST_INCR, HSIZE=AHB_SIZE_8B, 1 beats               
# UVM_INFO ../src/mst/ahb_master_driver.sv(317) @ 165000: uvm_test_top.env.master_agent.drv [ahb_master_driver] Beat[0/1] addr=0x000050de trans=AHB_TRANS_NONSEQ resp=AHB_RESP_OKAY rdata=0xe8847569
# UVM_INFO ../src/mst/ahb_master_driver.sv(362) @ 165000: uvm_test_top.env.master_agent.drv [ahb_master_driver] Transaction complete: AHB_READ 0x000050de, 1 beats, burst=AHB_BURST_INCR
# UVM_INFO ../src/slv/ahb_slave_driver.sv(184) @ 165000: uvm_test_top.env.slave_agent.drv [ahb_slave_driver] Beat AHB_READ addr=0x000050de resp=AHB_RESP_OKAY waits=1 rdata=0xe8847569
# UVM_INFO ../src/mst/ahb_master_monitor.sv(117) @ 165000: uvm_test_top.env.master_agent.mon [ahb_master_monitor] Beat[0] addr=0x000050de rdata=0xe8847569 resp=AHB_RESP_OKAY
# UVM_INFO ../src/mst/ahb_master_monitor.sv(222) @ 165000: uvm_test_top.env.master_agent.mon [ahb_master_monitor] Observed [AHB_READ]: HADDR=0x000050de, HBURST=AHB_BURST_INCR, HSIZE=AHB_SIZE_8B, 1 beats
# UVM_INFO ../src/env/ahb_coverage.sv(127) @ 165000: uvm_test_top.env.master_cov [ahb_coverage] Sampled [AHB_READ]: burst=AHB_BURST_INCR size=AHB_SIZE_8B beats=1 error=0
# UVM_INFO ../src/slv/ahb_slave_monitor.sv(197) @ 165000: uvm_test_top.env.slave_agent.mon [ahb_slave_monitor] Observed [AHB_READ]: HADDR=0x000050de, HBURST=AHB_BURST_INCR, HSIZE=AHB_SIZE_8B, 1 beats
# UVM_INFO ../src/env/ahb_scoreboard.sv(104) @ 165000: uvm_test_top.env.scb [ahb_scoreboard] MATCH #2: [AHB_READ] HADDR=0x000050de AHB_BURST_INCR 1 beats
# UVM_INFO ../src/env/ahb_coverage.sv(127) @ 165000: uvm_test_top.env.slave_cov [ahb_coverage] Sampled [AHB_READ]: burst=AHB_BURST_INCR size=AHB_SIZE_8B beats=1 error=0
# UVM_INFO ../src/mst_seq/ahb_base_seq.sv(182) @ 165000: uvm_test_top.env.master_agent.sqr@@seq [ahb_undefined_burst_seq] AHB_BURST_INCR AHB_SIZE_8B beat 0 @0x000050de ok
# UVM_INFO ../src/mst_seq/ahb_undefined_burst_seq.sv(122) @ 165000: uvm_test_top.env.master_agent.sqr@@seq [ahb_undefined_burst_seq] INCR 256 beats, AHB_SIZE_16B @0x00005540, trailing_busy=2, retract=0, pipelined=0
# UVM_INFO ../src/mst/ahb_master_driver.sv(82) @ 165000: uvm_test_top.env.master_agent.drv [ahb_master_driver] Queueing [AHB_WRITE]: HADDR=0x00005540, HBURST=AHB_BURST_INCR, HSIZE=AHB_SIZE_16B, 256 beats
# UVM_INFO ../src/mst/ahb_master_driver.sv(124) @ 165000: uvm_test_top.env.master_agent.drv [ahb_master_driver] Driving [AHB_WRITE]: HADDR=0x00005540, HBURST=AHB_BURST_INCR, HSIZE=AHB_SIZE_16B, 256 beats               
# UVM_INFO ../src/mst/ahb_master_driver.sv(317) @ 215000: uvm_test_top.env.master_agent.drv [ahb_master_driver] Beat[0/256] addr=0x00005540 trans=AHB_TRANS_NONSEQ resp=AHB_RESP_OKAY wdata=0x99bdc674
# UVM_INFO ../src/slv/ahb_slave_driver.sv(184) @ 215000: uvm_test_top.env.slave_agent.drv [ahb_slave_driver] Beat AHB_WRITE addr=0x00005540 resp=AHB_RESP_OKAY waits=2 wdata=0x99bdc674
# UVM_INFO ../src/mst/ahb_master_monitor.sv(117) @ 215000: uvm_test_top.env.master_agent.mon [ahb_master_monitor] Beat[0] addr=0x00005540 wdata=0x99bdc674 resp=AHB_RESP_OKAY
# UVM_INFO ../src/mst/ahb_master_driver.sv(317) @ 225000: uvm_test_top.env.master_agent.drv [ahb_master_driver] Beat[1/256] addr=0x00005542 trans=AHB_TRANS_SEQ resp=AHB_RESP_OKAY wdata=0x2e83824b
# UVM_INFO ../src/slv/ahb_slave_driver.sv(184) @ 225000: uvm_test_top.env.slave_agent.drv [ahb_slave_driver] Beat AHB_WRITE addr=0x00005542 resp=AHB_RESP_OKAY waits=0 wdata=0x2e83824b
# UVM_INFO ../src/mst/ahb_master_monitor.sv(117) @ 225000: uvm_test_top.env.master_agent.mon [ahb_master_monitor] Beat[1] addr=0x00005542 wdata=0x2e83824b resp=AHB_RESP_OKAY
# UVM_INFO ../src/mst/ahb_master_driver.sv(317) @ 235000: uvm_test_top.env.master_agent.drv [ahb_master_driver] Beat[2/256] addr=0x00005544 trans=AHB_TRANS_SEQ resp=AHB_RESP_OKAY wdata=0xdaf51b65
# UVM_INFO ../src/slv/ahb_slave_driver.sv(184) @ 235000: uvm_test_top.env.slave_agent.drv [ahb_slave_driver] Beat AHB_WRITE addr=0x00005544 resp=AHB_RESP_OKAY waits=0 wdata=0xdaf51b65
# UVM_INFO ../src/mst/ahb_master_monitor.sv(117) @ 235000: uvm_test_top.env.master_agent.mon [ahb_master_monitor] Beat[2] addr=0x00005544 wdata=0xdaf51b65 resp=AHB_RESP_OKAY
# UVM_INFO ../src/mst/ahb_master_driver.sv(317) @ 245000: uvm_test_top.env.master_agent.drv [ahb_master_driver] Beat[3/256] addr=0x00005546 trans=AHB_TRANS_SEQ resp=AHB_RESP_OKAY wdata=0xa9e7057a
# UVM_INFO ../src/slv/ahb_slave_driver.sv(184) @ 245000: uvm_test_top.env.slave_agent.drv [ahb_slave_driver] Beat AHB_WRITE addr=0x00005546 resp=AHB_RESP_OKAY waits=0 wdata=0xa9e7057a
# UVM_INFO ../src/mst/ahb_master_monitor.sv(117) @ 245000: uvm_test_top.env.master_agent.mon [ahb_master_monitor] Beat[3] addr=0x00005546 wdata=0xa9e7057a resp=AHB_RESP_OKAY
# UVM_INFO ../src/mst/ahb_master_driver.sv(317) @ 275000: uvm_test_top.env.master_agent.drv [ahb_master_driver] Beat[4/256] addr=0x00005548 trans=AHB_TRANS_SEQ resp=AHB_RESP_OKAY wdata=0x974d6788
# UVM_INFO ../src/slv/ahb_slave_driver.sv(184) @ 275000: uvm_test_top.env.slave_agent.drv [ahb_slave_driver] Beat AHB_WRITE addr=0x00005548 resp=AHB_RESP_OKAY waits=2 wdata=0x974d6788
# UVM_INFO ../src/mst/ahb_master_monitor.sv(117) @ 275000: uvm_test_top.env.master_agent.mon [ahb_master_monitor] Beat[4] addr=0x00005548 wdata=0x974d6788 resp=AHB_RESP_OKAY
# UVM_INFO ../src/mst/ahb_master_driver.sv(317) @ 305000: uvm_test_top.env.master_agent.drv [ahb_master_driver] Beat[5/256] addr=0x0000554a trans=AHB_TRANS_SEQ resp=AHB_RESP_OKAY wdata=0xe453cc65
# UVM_INFO ../src/slv/ahb_slave_driver.sv(184) @ 305000: uvm_test_top.env.slave_agent.drv [ahb_slave_driver] Beat AHB_WRITE addr=0x0000554a resp=AHB_RESP_OKAY waits=2 wdata=0xe453cc65
# UVM_INFO ../src/mst/ahb_master_monitor.sv(117) @ 305000: uvm_test_top.env.master_agent.mon [ahb_master_monitor] Beat[5] addr=0x0000554a wdata=0xe453cc65 resp=AHB_RESP_OKAY
# UVM_INFO ../src/mst/ahb_master_driver.sv(317) @ 335000: uvm_test_top.env.master_agent.drv [ahb_master_driver] Beat[6/256] addr=0x0000554c trans=AHB_TRANS_SEQ resp=AHB_RESP_OKAY wdata=0x514d1ece
# UVM_INFO ../src/slv/ahb_slave_driver.sv(184) @ 335000: uvm_test_top.env.slave_agent.drv [ahb_slave_driver] Beat AHB_WRITE addr=0x0000554c resp=AHB_RESP_OKAY waits=2 wdata=0x514d1ece
# UVM_INFO ../src/mst/ahb_master_monitor.sv(117) @ 335000: uvm_test_top.env.master_agent.mon [ahb_master_monitor] Beat[6] addr=0x0000554c wdata=0x514d1ece resp=AHB_RESP_OKAY
# UVM_INFO ../src/mst/ahb_master_driver.sv(317) @ 355000: uvm_test_top.env.master_agent.drv [ahb_master_driver] Beat[7/256] addr=0x0000554e trans=AHB_TRANS_SEQ resp=AHB_RESP_OKAY wdata=0x8cbd52f9
# UVM_INFO ../src/slv/ahb_slave_driver.sv(184) @ 355000: uvm_test_top.env.slave_agent.drv [ahb_slave_driver] Beat AHB_WRITE addr=0x0000554e resp=AHB_RESP_OKAY waits=1 wdata=0x8cbd52f9
# UVM_INFO ../src/mst/ahb_master_monitor.sv(117) @ 355000: uvm_test_top.env.master_agent.mon [ahb_master_monitor] Beat[7] addr=0x0000554e wdata=0x8cbd52f9 resp=AHB_RESP_OKAY
# UVM_INFO ../src/mst/ahb_master_driver.sv(317) @ 405000: uvm_test_top.env.master_agent.drv [ahb_master_driver] Beat[8/256] addr=0x00005550 trans=AHB_TRANS_SEQ resp=AHB_RESP_OKAY wdata=0xdd9c06bd
# UVM_INFO ../src/slv/ahb_slave_driver.sv(184) @ 405000: uvm_test_top.env.slave_agent.drv [ahb_slave_driver] Beat AHB_WRITE addr=0x00005550 resp=AHB_RESP_OKAY waits=2 wdata=0xdd9c06bd
# UVM_INFO ../src/mst/ahb_master_monitor.sv(117) @ 405000: uvm_test_top.env.master_agent.mon [ahb_master_monitor] Beat[8] addr=0x00005550 wdata=0xdd9c06bd resp=AHB_RESP_OKAY
# UVM_INFO ../src/mst/ahb_master_driver.sv(317) @ 415000: uvm_test_top.env.master_agent.drv [ahb_master_driver] Beat[9/256] addr=0x00005552 trans=AHB_TRANS_SEQ resp=AHB_RESP_OKAY wdata=0xbba32f60
# UVM_INFO ../src/slv/ahb_slave_driver.sv(184) @ 415000: uvm_test_top.env.slave_agent.drv [ahb_slave_driver] Beat AHB_WRITE addr=0x00005552 resp=AHB_RESP_OKAY waits=0 wdata=0xbba32f60
# UVM_INFO ../src/mst/ahb_master_monitor.sv(117) @ 415000: uvm_test_top.env.master_agent.mon [ahb_master_monitor] Beat[9] addr=0x00005552 wdata=0xbba32f60 resp=AHB_RESP_OKAY
# UVM_INFO ../src/mst/ahb_master_driver.sv(317) @ 435000: uvm_test_top.env.master_agent.drv [ahb_master_driver] Beat[10/256] addr=0x00005554 trans=AHB_TRANS_SEQ resp=AHB_RESP_OKAY wdata=0x3c7543db
# UVM_INFO ../src/slv/ahb_slave_driver.sv(184) @ 435000: uvm_test_top.env.slave_agent.drv [ahb_slave_driver] Beat AHB_WRITE addr=0x00005554 resp=AHB_RESP_OKAY waits=1 wdata=0x3c7543db
# UVM_INFO ../src/mst/ahb_master_monitor.sv(117) @ 435000: uvm_test_top.env.master_agent.mon [ahb_master_monitor] Beat[10] addr=0x00005554 wdata=0x3c7543db resp=AHB_RESP_OKAY
# UVM_INFO ../src/mst/ahb_master_driver.sv(317) @ 455000: uvm_test_top.env.master_agent.drv [ahb_master_driver] Beat[11/256] addr=0x00005556 trans=AHB_TRANS_SEQ resp=AHB_RESP_OKAY wdata=0xc005c9cc
# UVM_INFO ../src/slv/ahb_slave_driver.sv(184) @ 455000: uvm_test_top.env.slave_agent.drv [ahb_slave_driver] Beat AHB_WRITE addr=0x00005556 resp=AHB_RESP_OKAY waits=1 wdata=0xc005c9cc
# UVM_INFO ../src/mst/ahb_master_monitor.sv(117) @ 455000: uvm_test_top.env.master_agent.mon [ahb_master_monitor] Beat[11] addr=0x00005556 wdata=0xc005c9cc resp=AHB_RESP_OKAY
# UVM_INFO ../src/mst/ahb_master_driver.sv(317) @ 475000: uvm_test_top.env.master_agent.drv [ahb_master_driver] Beat[12/256] addr=0x00005558 trans=AHB_TRANS_SEQ resp=AHB_RESP_OKAY wdata=0x18d6f54f
# UVM_INFO ../src/slv/ahb_slave_driver.sv(184) @ 475000: uvm_test_top.env.slave_agent.drv [ahb_slave_driver] Beat AHB_WRITE addr=0x00005558 resp=AHB_RESP_OKAY waits=1 wdata=0x18d6f54f
# UVM_INFO ../src/mst/ahb_master_monitor.sv(117) @ 475000: uvm_test_top.env.master_agent.mon [ahb_master_monitor] Beat[12] addr=0x00005558 wdata=0x18d6f54f resp=AHB_RESP_OKAY
# UVM_INFO ../src/mst/ahb_master_driver.sv(317) @ 485000: uvm_test_top.env.master_agent.drv [ahb_master_driver] Beat[13/256] addr=0x0000555a trans=AHB_TRANS_SEQ resp=AHB_RESP_OKAY wdata=0xd44e0929
# UVM_INFO ../src/slv/ahb_slave_driver.sv(184) @ 485000: uvm_test_top.env.slave_agent.drv [ahb_slave_driver] Beat AHB_WRITE addr=0x0000555a resp=AHB_RESP_OKAY waits=0 wdata=0xd44e0929
# UVM_INFO ../src/mst/ahb_master_monitor.sv(117) @ 485000: uvm_test_top.env.master_agent.mon [ahb_master_monitor] Beat[13] addr=0x0000555a wdata=0xd44e0929 resp=AHB_RESP_OKAY
# UVM_INFO ../src/mst/ahb_master_driver.sv(317) @ 505000: uvm_test_top.env.master_agent.drv [ahb_master_driver] Beat[14/256] addr=0x0000555c trans=AHB_TRANS_SEQ resp=AHB_RESP_OKAY wdata=0xf68800d8
# UVM_INFO ../src/slv/ahb_slave_driver.sv(184) @ 505000: uvm_test_top.env.slave_agent.drv [ahb_slave_driver] Beat AHB_WRITE addr=0x0000555c resp=AHB_RESP_OKAY waits=1 wdata=0xf68800d8
# UVM_INFO ../src/mst/ahb_master_monitor.sv(117) @ 505000: uvm_test_top.env.master_agent.mon [ahb_master_monitor] Beat[14] addr=0x0000555c wdata=0xf68800d8 resp=AHB_RESP_OKAY
# UVM_INFO ../src/mst/ahb_master_driver.sv(317) @ 515000: uvm_test_top.env.master_agent.drv [ahb_master_driver] Beat[15/256] addr=0x0000555e trans=AHB_TRANS_SEQ resp=AHB_RESP_OKAY wdata=0x6db570fd
# UVM_INFO ../src/slv/ahb_slave_driver.sv(184) @ 515000: uvm_test_top.env.slave_agent.drv [ahb_slave_driver] Beat AHB_WRITE addr=0x0000555e resp=AHB_RESP_OKAY waits=0 wdata=0x6db570fd
# UVM_INFO ../src/mst/ahb_master_monitor.sv(117) @ 515000: uvm_test_top.env.master_agent.mon [ahb_master_monitor] Beat[15] addr=0x0000555e wdata=0x6db570fd resp=AHB_RESP_OKAY
# UVM_INFO ../src/mst/ahb_master_driver.sv(317) @ 535000: uvm_test_top.env.master_agent.drv [ahb_master_driver] Beat[16/256] addr=0x00005560 trans=AHB_TRANS_SEQ resp=AHB_RESP_OKAY wdata=0x38872c37
# UVM_INFO ../src/slv/ahb_slave_driver.sv(184) @ 535000: uvm_test_top.env.slave_agent.drv [ahb_slave_driver] Beat AHB_WRITE addr=0x00005560 resp=AHB_RESP_OKAY waits=0 wdata=0x38872c37
# UVM_INFO ../src/mst/ahb_master_monitor.sv(117) @ 535000: uvm_test_top.env.master_agent.mon [ahb_master_monitor] Beat[16] addr=0x00005560 wdata=0x38872c37 resp=AHB_RESP_OKAY
# UVM_INFO ../src/mst/ahb_master_driver.sv(317) @ 565000: uvm_test_top.env.master_agent.drv [ahb_master_driver] Beat[17/256] addr=0x00005562 trans=AHB_TRANS_SEQ resp=AHB_RESP_OKAY wdata=0x16559c4f
# UVM_INFO ../src/slv/ahb_slave_driver.sv(184) @ 565000: uvm_test_top.env.slave_agent.drv [ahb_slave_driver] Beat AHB_WRITE addr=0x00005562 resp=AHB_RESP_OKAY waits=2 wdata=0x16559c4f
# UVM_INFO ../src/mst/ahb_master_monitor.sv(117) @ 565000: uvm_test_top.env.master_agent.mon [ahb_master_monitor] Beat[17] addr=0x00005562 wdata=0x16559c4f resp=AHB_RESP_OKAY
# UVM_INFO ../src/mst/ahb_master_driver.sv(317) @ 575000: uvm_test_top.env.master_agent.drv [ahb_master_driver] Beat[18/256] addr=0x00005564 trans=AHB_TRANS_SEQ resp=AHB_RESP_OKAY wdata=0x0c3fc9a8
# UVM_INFO ../src/slv/ahb_slave_driver.sv(184) @ 575000: uvm_test_top.env.slave_agent.drv [ahb_slave_driver] Beat AHB_WRITE addr=0x00005564 resp=AHB_RESP_OKAY waits=0 wdata=0x0c3fc9a8
# UVM_INFO ../src/mst/ahb_master_monitor.sv(117) @ 575000: uvm_test_top.env.master_agent.mon [ahb_master_monitor] Beat[18] addr=0x00005564 wdata=0x0c3fc9a8 resp=AHB_RESP_OKAY
# UVM_INFO ../src/mst/ahb_master_driver.sv(317) @ 595000: uvm_test_top.env.master_agent.drv [ahb_master_driver] Beat[19/256] addr=0x00005566 trans=AHB_TRANS_SEQ resp=AHB_RESP_OKAY wdata=0x6373e294
# UVM_INFO ../src/slv/ahb_slave_driver.sv(184) @ 595000: uvm_test_top.env.slave_agent.drv [ahb_slave_driver] Beat AHB_WRITE addr=0x00005566 resp=AHB_RESP_OKAY waits=1 wdata=0x6373e294
# UVM_INFO ../src/mst/ahb_master_monitor.sv(117) @ 595000: uvm_test_top.env.master_agent.mon [ahb_master_monitor] Beat[19] addr=0x00005566 wdata=0x6373e294 resp=AHB_RESP_OKAY
# UVM_INFO ../src/mst/ahb_master_driver.sv(317) @ 615000: uvm_test_top.env.master_agent.drv [ahb_master_driver] Beat[20/256] addr=0x00005568 trans=AHB_TRANS_SEQ resp=AHB_RESP_OKAY wdata=0xfaea12f4
# UVM_INFO ../src/slv/ahb_slave_driver.sv(184) @ 615000: uvm_test_top.env.slave_agent.drv [ahb_slave_driver] Beat AHB_WRITE addr=0x00005568 resp=AHB_RESP_OKAY waits=1 wdata=0xfaea12f4
# UVM_INFO ../src/mst/ahb_master_monitor.sv(117) @ 615000: uvm_test_top.env.master_agent.mon [ahb_master_monitor] Beat[20] addr=0x00005568 wdata=0xfaea12f4 resp=AHB_RESP_OKAY
# UVM_INFO ../src/mst/ahb_master_driver.sv(317) @ 645000: uvm_test_top.env.master_agent.drv [ahb_master_driver] Beat[21/256] addr=0x0000556a trans=AHB_TRANS_SEQ resp=AHB_RESP_OKAY wdata=0x53770aca
# UVM_INFO ../src/slv/ahb_slave_driver.sv(184) @ 645000: uvm_test_top.env.slave_agent.drv [ahb_slave_driver] Beat AHB_WRITE addr=0x0000556a resp=AHB_RESP_OKAY waits=2 wdata=0x53770aca
# UVM_INFO ../src/mst/ahb_master_monitor.sv(117) @ 645000: uvm_test_top.env.master_agent.mon [ahb_master_monitor] Beat[21] addr=0x0000556a wdata=0x53770aca resp=AHB_RESP_OKAY
# UVM_INFO ../src/mst/ahb_master_driver.sv(317) @ 665000: uvm_test_top.env.master_agent.drv [ahb_master_driver] Beat[22/256] addr=0x0000556c trans=AHB_TRANS_SEQ resp=AHB_RESP_OKAY wdata=0xdc2286c4
# UVM_INFO ../src/slv/ahb_slave_driver.sv(184) @ 665000: uvm_test_top.env.slave_agent.drv [ahb_slave_driver] Beat AHB_WRITE addr=0x0000556c resp=AHB_RESP_OKAY waits=1 wdata=0xdc2286c4
# UVM_INFO ../src/mst/ahb_master_monitor.sv(117) @ 665000: uvm_test_top.env.master_agent.mon [ahb_master_monitor] Beat[22] addr=0x0000556c wdata=0xdc2286c4 resp=AHB_RESP_OKAY
# UVM_INFO ../src/mst/ahb_master_driver.sv(317) @ 695000: uvm_test_top.env.master_agent.drv [ahb_master_driver] Beat[23/256] addr=0x0000556e trans=AHB_TRANS_SEQ resp=AHB_RESP_OKAY wdata=0x15ed9c3f
# UVM_INFO ../src/slv/ahb_slave_driver.sv(184) @ 695000: uvm_test_top.env.slave_agent.drv [ahb_slave_driver] Beat AHB_WRITE addr=0x0000556e resp=AHB_RESP_OKAY waits=2 wdata=0x15ed9c3f
# UVM_INFO ../src/mst/ahb_master_monitor.sv(117) @ 695000: uvm_test_top.env.master_agent.mon [ahb_master_monitor] Beat[23] addr=0x0000556e wdata=0x15ed9c3f resp=AHB_RESP_OKAY
# UVM_INFO ../src/mst/ahb_master_driver.sv(317) @ 745000: uvm_test_top.env.master_agent.drv [ahb_master_driver] Beat[24/256] addr=0x00005570 trans=AHB_TRANS_SEQ resp=AHB_RESP_OKAY wdata=0x927a727a
# UVM_INFO ../src/slv/ahb_slave_driver.sv(184) @ 745000: uvm_test_top.env.slave_agent.drv [ahb_slave_driver] Beat AHB_WRITE addr=0x00005570 resp=AHB_RESP_OKAY waits=2 wdata=0x927a727a
# UVM_INFO ../src/mst/ahb_master_monitor.sv(117) @ 745000: uvm_test_top.env.master_agent.mon [ahb_master_monitor] Beat[24] addr=0x00005570 wdata=0x927a727a resp=AHB_RESP_OKAY
# UVM_INFO ../src/mst/ahb_master_driver.sv(317) @ 755000: uvm_test_top.env.master_agent.drv [ahb_master_driver] Beat[25/256] addr=0x00005572 trans=AHB_TRANS_SEQ resp=AHB_RESP_OKAY wdata=0xe24777d1
# UVM_INFO ../src/slv/ahb_slave_driver.sv(184) @ 755000: uvm_test_top.env.slave_agent.drv [ahb_slave_driver] Beat AHB_WRITE addr=0x00005572 resp=AHB_RESP_OKAY waits=0 wdata=0xe24777d1
# UVM_INFO ../src/mst/ahb_master_monitor.sv(117) @ 755000: uvm_test_top.env.master_agent.mon [ahb_master_monitor] Beat[25] addr=0x00005572 wdata=0xe24777d1 resp=AHB_RESP_OKAY
# UVM_INFO ../src/mst/ahb_master_driver.sv(317) @ 775000: uvm_test_top.env.master_agent.drv [ahb_master_driver] Beat[26/256] addr=0x00005574 trans=AHB_TRANS_SEQ resp=AHB_RESP_OKAY wdata=0x46d063ba
# UVM_INFO ../src/slv/ahb_slave_driver.sv(184) @ 775000: uvm_test_top.env.slave_agent.drv [ahb_slave_driver] Beat AHB_WRITE addr=0x00005574 resp=AHB_RESP_OKAY waits=1 wdata=0x46d063ba
# UVM_INFO ../src/mst/ahb_master_monitor.sv(117) @ 775000: uvm_test_top.env.master_agent.mon [ahb_master_monitor] Beat[26] addr=0x00005574 wdata=0x46d063ba resp=AHB_RESP_OKAY
# UVM_INFO ../src/mst/ahb_master_driver.sv(317) @ 795000: uvm_test_top.env.master_agent.drv [ahb_master_driver] Beat[27/256] addr=0x00005576 trans=AHB_TRANS_SEQ resp=AHB_RESP_OKAY wdata=0xa2f64b88
# UVM_INFO ../src/slv/ahb_slave_driver.sv(184) @ 795000: uvm_test_top.env.slave_agent.drv [ahb_slave_driver] Beat AHB_WRITE addr=0x00005576 resp=AHB_RESP_OKAY waits=1 wdata=0xa2f64b88
# UVM_INFO ../src/mst/ahb_master_monitor.sv(117) @ 795000: uvm_test_top.env.master_agent.mon [ahb_master_monitor] Beat[27] addr=0x00005576 wdata=0xa2f64b88 resp=AHB_RESP_OKAY
# UVM_INFO ../src/mst/ahb_master_driver.sv(317) @ 815000: uvm_test_top.env.master_agent.drv [ahb_master_driver] Beat[28/256] addr=0x00005578 trans=AHB_TRANS_SEQ resp=AHB_RESP_OKAY wdata=0xc2d3f072
# UVM_INFO ../src/slv/ahb_slave_driver.sv(184) @ 815000: uvm_test_top.env.slave_agent.drv [ahb_slave_driver] Beat AHB_WRITE addr=0x00005578 resp=AHB_RESP_OKAY waits=1 wdata=0xc2d3f072
# UVM_INFO ../src/mst/ahb_master_monitor.sv(117) @ 815000: uvm_test_top.env.master_agent.mon [ahb_master_monitor] Beat[28] addr=0x00005578 wdata=0xc2d3f072 resp=AHB_RESP_OKAY
# UVM_INFO ../src/mst/ahb_master_driver.sv(317) @ 845000: uvm_test_top.env.master_agent.drv [ahb_master_driver] Beat[29/256] addr=0x0000557a trans=AHB_TRANS_SEQ resp=AHB_RESP_OKAY wdata=0xffdf4cda
# UVM_INFO ../src/slv/ahb_slave_driver.sv(184) @ 845000: uvm_test_top.env.slave_agent.drv [ahb_slave_driver] Beat AHB_WRITE addr=0x0000557a resp=AHB_RESP_OKAY waits=2 wdata=0xffdf4cda
# UVM_INFO ../src/mst/ahb_master_monitor.sv(117) @ 845000: uvm_test_top.env.master_agent.mon [ahb_master_monitor] Beat[29] addr=0x0000557a wdata=0xffdf4cda resp=AHB_RESP_OKAY
# UVM_INFO ../src/mst/ahb_master_driver.sv(317) @ 865000: uvm_test_top.env.master_agent.drv [ahb_master_driver] Beat[30/256] addr=0x0000557c trans=AHB_TRANS_SEQ resp=AHB_RESP_OKAY wdata=0x7e706a74
# UVM_INFO ../src/slv/ahb_slave_driver.sv(184) @ 865000: uvm_test_top.env.slave_agent.drv [ahb_slave_driver] Beat AHB_WRITE addr=0x0000557c resp=AHB_RESP_OKAY waits=1 wdata=0x7e706a74
# UVM_INFO ../src/mst/ahb_master_monitor.sv(117) @ 865000: uvm_test_top.env.master_agent.mon [ahb_master_monitor] Beat[30] addr=0x0000557c wdata=0x7e706a74 resp=AHB_RESP_OKAY
# UVM_INFO ../src/mst/ahb_master_driver.sv(317) @ 875000: uvm_test_top.env.master_agent.drv [ahb_master_driver] Beat[31/256] addr=0x0000557e trans=AHB_TRANS_SEQ resp=AHB_RESP_OKAY wdata=0x68ddc413
# UVM_INFO ../src/slv/ahb_slave_driver.sv(184) @ 875000: uvm_test_top.env.slave_agent.drv [ahb_slave_driver] Beat AHB_WRITE addr=0x0000557e resp=AHB_RESP_OKAY waits=0 wdata=0x68ddc413
# UVM_INFO ../src/mst/ahb_master_monitor.sv(117) @ 875000: uvm_test_top.env.master_agent.mon [ahb_master_monitor] Beat[31] addr=0x0000557e wdata=0x68ddc413 resp=AHB_RESP_OKAY
# UVM_INFO ../src/mst/ahb_master_driver.sv(317) @ 905000: uvm_test_top.env.master_agent.drv [ahb_master_driver] Beat[32/256] addr=0x00005580 trans=AHB_TRANS_SEQ resp=AHB_RESP_OKAY wdata=0x368c5369
# UVM_INFO ../src/slv/ahb_slave_driver.sv(184) @ 905000: uvm_test_top.env.slave_agent.drv [ahb_slave_driver] Beat AHB_WRITE addr=0x00005580 resp=AHB_RESP_OKAY waits=1 wdata=0x368c5369
# UVM_INFO ../src/mst/ahb_master_monitor.sv(117) @ 905000: uvm_test_top.env.master_agent.mon [ahb_master_monitor] Beat[32] addr=0x00005580 wdata=0x368c5369 resp=AHB_RESP_OKAY
# UVM_INFO ../src/mst/ahb_master_driver.sv(317) @ 925000: uvm_test_top.env.master_agent.drv [ahb_master_driver] Beat[33/256] addr=0x00005582 trans=AHB_TRANS_SEQ resp=AHB_RESP_OKAY wdata=0xeb9ce727
# UVM_INFO ../src/slv/ahb_slave_driver.sv(184) @ 925000: uvm_test_top.env.slave_agent.drv [ahb_slave_driver] Beat AHB_WRITE addr=0x00005582 resp=AHB_RESP_OKAY waits=1 wdata=0xeb9ce727
# UVM_INFO ../src/mst/ahb_master_monitor.sv(117) @ 925000: uvm_test_top.env.master_agent.mon [ahb_master_monitor] Beat[33] addr=0x00005582 wdata=0xeb9ce727 resp=AHB_RESP_OKAY
# UVM_INFO ../src/mst/ahb_master_driver.sv(317) @ 955000: uvm_test_top.env.master_agent.drv [ahb_master_driver] Beat[34/256] addr=0x00005584 trans=AHB_TRANS_SEQ resp=AHB_RESP_OKAY wdata=0x47887f6a
# UVM_INFO ../src/slv/ahb_slave_driver.sv(184) @ 955000: uvm_test_top.env.slave_agent.drv [ahb_slave_driver] Beat AHB_WRITE addr=0x00005584 resp=AHB_RESP_OKAY waits=2 wdata=0x47887f6a
# UVM_INFO ../src/mst/ahb_master_monitor.sv(117) @ 955000: uvm_test_top.env.master_agent.mon [ahb_master_monitor] Beat[34] addr=0x00005584 wdata=0x47887f6a resp=AHB_RESP_OKAY
# UVM_INFO ../src/mst/ahb_master_driver.sv(317) @ 965000: uvm_test_top.env.master_agent.drv [ahb_master_driver] Beat[35/256] addr=0x00005586 trans=AHB_TRANS_SEQ resp=AHB_RESP_OKAY wdata=0xbdbf0b95
# UVM_INFO ../src/slv/ahb_slave_driver.sv(184) @ 965000: uvm_test_top.env.slave_agent.drv [ahb_slave_driver] Beat AHB_WRITE addr=0x00005586 resp=AHB_RESP_OKAY waits=0 wdata=0xbdbf0b95
# UVM_INFO ../src/mst/ahb_master_monitor.sv(117) @ 965000: uvm_test_top.env.master_agent.mon [ahb_master_monitor] Beat[35] addr=0x00005586 wdata=0xbdbf0b95 resp=AHB_RESP_OKAY
# UVM_INFO ../src/mst/ahb_master_driver.sv(317) @ 985000: uvm_test_top.env.master_agent.drv [ahb_master_driver] Beat[36/256] addr=0x00005588 trans=AHB_TRANS_SEQ resp=AHB_RESP_OKAY wdata=0xd0ed99e3
# UVM_INFO ../src/slv/ahb_slave_driver.sv(184) @ 985000: uvm_test_top.env.slave_agent.drv [ahb_slave_driver] Beat AHB_WRITE addr=0x00005588 resp=AHB_RESP_OKAY waits=1 wdata=0xd0ed99e3
# UVM_INFO ../src/mst/ahb_master_monitor.sv(117) @ 985000: uvm_test_top.env.master_agent.mon [ahb_master_monitor] Beat[36] addr=0x00005588 wdata=0xd0ed99e3 resp=AHB_RESP_OKAY
# UVM_INFO ../src/mst/ahb_master_driver.sv(317) @ 1015000: uvm_test_top.env.master_agent.drv [ahb_master_driver] Beat[37/256] addr=0x0000558a trans=AHB_TRANS_SEQ resp=AHB_RESP_OKAY wdata=0x6ae015af
# UVM_INFO ../src/slv/ahb_slave_driver.sv(184) @ 1015000: uvm_test_top.env.slave_agent.drv [ahb_slave_driver] Beat AHB_WRITE addr=0x0000558a resp=AHB_RESP_OKAY waits=2 wdata=0x6ae015af
# UVM_INFO ../src/mst/ahb_master_monitor.sv(117) @ 1015000: uvm_test_top.env.master_agent.mon [ahb_master_monitor] Beat[37] addr=0x0000558a wdata=0x6ae015af resp=AHB_RESP_OKAY
# UVM_INFO ../src/mst/ahb_master_driver.sv(317) @ 1045000: uvm_test_top.env.master_agent.drv [ahb_master_driver] Beat[38/256] addr=0x0000558c trans=AHB_TRANS_SEQ resp=AHB_RESP_OKAY wdata=0x47044ff0
# UVM_INFO ../src/slv/ahb_slave_driver.sv(184) @ 1045000: uvm_test_top.env.slave_agent.drv [ahb_slave_driver] Beat AHB_WRITE addr=0x0000558c resp=AHB_RESP_OKAY waits=2 wdata=0x47044ff0
# UVM_INFO ../src/mst/ahb_master_monitor.sv(117) @ 1045000: uvm_test_top.env.master_agent.mon [ahb_master_monitor] Beat[38] addr=0x0000558c wdata=0x47044ff0 resp=AHB_RESP_OKAY
# UVM_INFO ../src/mst/ahb_master_driver.sv(317) @ 1075000: uvm_test_top.env.master_agent.drv [ahb_master_driver] Beat[39/256] addr=0x0000558e trans=AHB_TRANS_SEQ resp=AHB_RESP_OKAY wdata=0x2a78881d
# UVM_INFO ../src/slv/ahb_slave_driver.sv(184) @ 1075000: uvm_test_top.env.slave_agent.drv [ahb_slave_driver] Beat AHB_WRITE addr=0x0000558e resp=AHB_RESP_OKAY waits=2 wdata=0x2a78881d
# UVM_INFO ../src/mst/ahb_master_monitor.sv(117) @ 1075000: uvm_test_top.env.master_agent.mon [ahb_master_monitor] Beat[39] addr=0x0000558e wdata=0x2a78881d resp=AHB_RESP_OKAY
# UVM_INFO ../src/mst/ahb_master_driver.sv(317) @ 1115000: uvm_test_top.env.master_agent.drv [ahb_master_driver] Beat[40/256] addr=0x00005590 trans=AHB_TRANS_SEQ resp=AHB_RESP_OKAY wdata=0xabac829f
# UVM_INFO ../src/slv/ahb_slave_driver.sv(184) @ 1115000: uvm_test_top.env.slave_agent.drv [ahb_slave_driver] Beat AHB_WRITE addr=0x00005590 resp=AHB_RESP_OKAY waits=1 wdata=0xabac829f
# UVM_INFO ../src/mst/ahb_master_monitor.sv(117) @ 1115000: uvm_test_top.env.master_agent.mon [ahb_master_monitor] Beat[40] addr=0x00005590 wdata=0xabac829f resp=AHB_RESP_OKAY
# UVM_INFO ../src/mst/ahb_master_driver.sv(317) @ 1145000: uvm_test_top.env.master_agent.drv [ahb_master_driver] Beat[41/256] addr=0x00005592 trans=AHB_TRANS_SEQ resp=AHB_RESP_OKAY wdata=0x82fb87e8
# UVM_INFO ../src/slv/ahb_slave_driver.sv(184) @ 1145000: uvm_test_top.env.slave_agent.drv [ahb_slave_driver] Beat AHB_WRITE addr=0x00005592 resp=AHB_RESP_OKAY waits=2 wdata=0x82fb87e8
# UVM_INFO ../src/mst/ahb_master_monitor.sv(117) @ 1145000: uvm_test_top.env.master_agent.mon [ahb_master_monitor] Beat[41] addr=0x00005592 wdata=0x82fb87e8 resp=AHB_RESP_OKAY
# UVM_INFO ../src/mst/ahb_master_driver.sv(317) @ 1175000: uvm_test_top.env.master_agent.drv [ahb_master_driver] Beat[42/256] addr=0x00005594 trans=AHB_TRANS_SEQ resp=AHB_RESP_OKAY wdata=0xd9059b3f
# UVM_INFO ../src/slv/ahb_slave_driver.sv(184) @ 1175000: uvm_test_top.env.slave_agent.drv [ahb_slave_driver] Beat AHB_WRITE addr=0x00005594 resp=AHB_RESP_OKAY waits=2 wdata=0xd9059b3f
# UVM_INFO ../src/mst/ahb_master_monitor.sv(117) @ 1175000: uvm_test_top.env.master_agent.mon [ahb_master_monitor] Beat[42] addr=0x00005594 wdata=0xd9059b3f resp=AHB_RESP_OKAY
# UVM_INFO ../src/mst/ahb_master_driver.sv(317) @ 1205000: uvm_test_top.env.master_agent.drv [ahb_master_driver] Beat[43/256] addr=0x00005596 trans=AHB_TRANS_SEQ resp=AHB_RESP_OKAY wdata=0x8f47f405
# UVM_INFO ../src/slv/ahb_slave_driver.sv(184) @ 1205000: uvm_test_top.env.slave_agent.drv [ahb_slave_driver] Beat AHB_WRITE addr=0x00005596 resp=AHB_RESP_OKAY waits=2 wdata=0x8f47f405
# UVM_INFO ../src/mst/ahb_master_monitor.sv(117) @ 1205000: uvm_test_top.env.master_agent.mon [ahb_master_monitor] Beat[43] addr=0x00005596 wdata=0x8f47f405 resp=AHB_RESP_OKAY
# UVM_INFO ../src/mst/ahb_master_driver.sv(317) @ 1225000: uvm_test_top.env.master_agent.drv [ahb_master_driver] Beat[44/256] addr=0x00005598 trans=AHB_TRANS_SEQ resp=AHB_RESP_OKAY wdata=0xfb03361c
# UVM_INFO ../src/slv/ahb_slave_driver.sv(184) @ 1225000: uvm_test_top.env.slave_agent.drv [ahb_slave_driver] Beat AHB_WRITE addr=0x00005598 resp=AHB_RESP_OKAY waits=1 wdata=0xfb03361c
# UVM_INFO ../src/mst/ahb_master_monitor.sv(117) @ 1225000: uvm_test_top.env.master_agent.mon [ahb_master_monitor] Beat[44] addr=0x00005598 wdata=0xfb03361c resp=AHB_RESP_OKAY
# UVM_INFO ../src/mst/ahb_master_driver.sv(317) @ 1245000: uvm_test_top.env.master_agent.drv [ahb_master_driver] Beat[45/256] addr=0x0000559a trans=AHB_TRANS_SEQ resp=AHB_RESP_OKAY wdata=0x1a5ac647
# UVM_INFO ../src/slv/ahb_slave_driver.sv(184) @ 1245000: uvm_test_top.env.slave_agent.drv [ahb_slave_driver] Beat AHB_WRITE addr=0x0000559a resp=AHB_RESP_OKAY waits=1 wdata=0x1a5ac647
# UVM_INFO ../src/mst/ahb_master_monitor.sv(117) @ 1245000: uvm_test_top.env.master_agent.mon [ahb_master_monitor] Beat[45] addr=0x0000559a wdata=0x1a5ac647 resp=AHB_RESP_OKAY
# UVM_INFO ../src/mst/ahb_master_driver.sv(317) @ 1255000: uvm_test_top.env.master_agent.drv [ahb_master_driver] Beat[46/256] addr=0x0000559c trans=AHB_TRANS_SEQ resp=AHB_RESP_OKAY wdata=0xc1c730cf
# UVM_INFO ../src/slv/ahb_slave_driver.sv(184) @ 1255000: uvm_test_top.env.slave_agent.drv [ahb_slave_driver] Beat AHB_WRITE addr=0x0000559c resp=AHB_RESP_OKAY waits=0 wdata=0xc1c730cf
# UVM_INFO ../src/mst/ahb_master_monitor.sv(117) @ 1255000: uvm_test_top.env.master_agent.mon [ahb_master_monitor] Beat[46] addr=0x0000559c wdata=0xc1c730cf resp=AHB_RESP_OKAY
# UVM_INFO ../src/mst/ahb_master_driver.sv(317) @ 1285000: uvm_test_top.env.master_agent.drv [ahb_master_driver] Beat[47/256] addr=0x0000559e trans=AHB_TRANS_SEQ resp=AHB_RESP_OKAY wdata=0x2bfc8e0b
# UVM_INFO ../src/slv/ahb_slave_driver.sv(184) @ 1285000: uvm_test_top.env.slave_agent.drv [ahb_slave_driver] Beat AHB_WRITE addr=0x0000559e resp=AHB_RESP_OKAY waits=2 wdata=0x2bfc8e0b
# UVM_INFO ../src/mst/ahb_master_monitor.sv(117) @ 1285000: uvm_test_top.env.master_agent.mon [ahb_master_monitor] Beat[47] addr=0x0000559e wdata=0x2bfc8e0b resp=AHB_RESP_OKAY
# UVM_INFO ../src/mst/ahb_master_driver.sv(317) @ 1325000: uvm_test_top.env.master_agent.drv [ahb_master_driver] Beat[48/256] addr=0x000055a0 trans=AHB_TRANS_SEQ resp=AHB_RESP_OKAY wdata=0x19599448
# UVM_INFO ../src/slv/ahb_slave_driver.sv(184) @ 1325000: uvm_test_top.env.slave_agent.drv [ahb_slave_driver] Beat AHB_WRITE addr=0x000055a0 resp=AHB_RESP_OKAY waits=1 wdata=0x19599448
# UVM_INFO ../src/mst/ahb_master_monitor.sv(117) @ 1325000: uvm_test_top.env.master_agent.mon [ahb_master_monitor] Beat[48] addr=0x000055a0 wdata=0x19599448 resp=AHB_RESP_OKAY
# UVM_INFO ../src/mst/ahb_master_driver.sv(317) @ 1345000: uvm_test_top.env.master_agent.drv [ahb_master_driver] Beat[49/256] addr=0x000055a2 trans=AHB_TRANS_SEQ resp=AHB_RESP_OKAY wdata=0xf5ea4dcf
# UVM_INFO ../src/slv/ahb_slave_driver.sv(184) @ 1345000: uvm_test_top.env.slave_agent.drv [ahb_slave_driver] Beat AHB_WRITE addr=0x000055a2 resp=AHB_RESP_OKAY waits=1 wdata=0xf5ea4dcf
# UVM_INFO ../src/mst/ahb_master_monitor.sv(117) @ 1345000: uvm_test_top.env.master_agent.mon [ahb_master_monitor] Beat[49] addr=0x000055a2 wdata=0xf5ea4dcf resp=AHB_RESP_OKAY
# UVM_INFO ../src/mst/ahb_master_driver.sv(317) @ 1365000: uvm_test_top.env.master_agent.drv [ahb_master_driver] Beat[50/256] addr=0x000055a4 trans=AHB_TRANS_SEQ resp=AHB_RESP_OKAY wdata=0xd915cfce
# UVM_INFO ../src/slv/ahb_slave_driver.sv(184) @ 1365000: uvm_test_top.env.slave_agent.drv [ahb_slave_driver] Beat AHB_WRITE addr=0x000055a4 resp=AHB_RESP_OKAY waits=1 wdata=0xd915cfce
# UVM_INFO ../src/mst/ahb_master_monitor.sv(117) @ 1365000: uvm_test_top.env.master_agent.mon [ahb_master_monitor] Beat[50] addr=0x000055a4 wdata=0xd915cfce resp=AHB_RESP_OKAY
# UVM_INFO ../src/mst/ahb_master_driver.sv(317) @ 1385000: uvm_test_top.env.master_agent.drv [ahb_master_driver] Beat[51/256] addr=0x000055a6 trans=AHB_TRANS_SEQ resp=AHB_RESP_OKAY wdata=0xeeb833a3
# UVM_INFO ../src/slv/ahb_slave_driver.sv(184) @ 1385000: uvm_test_top.env.slave_agent.drv [ahb_slave_driver] Beat AHB_WRITE addr=0x000055a6 resp=AHB_RESP_OKAY waits=1 wdata=0xeeb833a3
# UVM_INFO ../src/mst/ahb_master_monitor.sv(117) @ 1385000: uvm_test_top.env.master_agent.mon [ahb_master_monitor] Beat[51] addr=0x000055a6 wdata=0xeeb833a3 resp=AHB_RESP_OKAY
# UVM_INFO ../src/mst/ahb_master_driver.sv(317) @ 1405000: uvm_test_top.env.master_agent.drv [ahb_master_driver] Beat[52/256] addr=0x000055a8 trans=AHB_TRANS_SEQ resp=AHB_RESP_OKAY wdata=0x92d6ec55
# UVM_INFO ../src/slv/ahb_slave_driver.sv(184) @ 1405000: uvm_test_top.env.slave_agent.drv [ahb_slave_driver] Beat AHB_WRITE addr=0x000055a8 resp=AHB_RESP_OKAY waits=1 wdata=0x92d6ec55
# UVM_INFO ../src/mst/ahb_master_monitor.sv(117) @ 1405000: uvm_test_top.env.master_agent.mon [ahb_master_monitor] Beat[52] addr=0x000055a8 wdata=0x92d6ec55 resp=AHB_RESP_OKAY
# UVM_INFO ../src/mst/ahb_master_driver.sv(317) @ 1435000: uvm_test_top.env.master_agent.drv [ahb_master_driver] Beat[53/256] addr=0x000055aa trans=AHB_TRANS_SEQ resp=AHB_RESP_OKAY wdata=0xf93a23ef
# UVM_INFO ../src/slv/ahb_slave_driver.sv(184) @ 1435000: uvm_test_top.env.slave_agent.drv [ahb_slave_driver] Beat AHB_WRITE addr=0x000055aa resp=AHB_RESP_OKAY waits=2 wdata=0xf93a23ef
# UVM_INFO ../src/mst/ahb_master_monitor.sv(117) @ 1435000: uvm_test_top.env.master_agent.mon [ahb_master_monitor] Beat[53] addr=0x000055aa wdata=0xf93a23ef resp=AHB_RESP_OKAY
# UVM_INFO ../src/mst/ahb_master_driver.sv(317) @ 1455000: uvm_test_top.env.master_agent.drv [ahb_master_driver] Beat[54/256] addr=0x000055ac trans=AHB_TRANS_SEQ resp=AHB_RESP_OKAY wdata=0x18d9b858
# UVM_INFO ../src/slv/ahb_slave_driver.sv(184) @ 1455000: uvm_test_top.env.slave_agent.drv [ahb_slave_driver] Beat AHB_WRITE addr=0x000055ac resp=AHB_RESP_OKAY waits=1 wdata=0x18d9b858
# UVM_INFO ../src/mst/ahb_master_monitor.sv(117) @ 1455000: uvm_test_top.env.master_agent.mon [ahb_master_monitor] Beat[54] addr=0x000055ac wdata=0x18d9b858 resp=AHB_RESP_OKAY
# UVM_INFO ../src/mst/ahb_master_driver.sv(317) @ 1465000: uvm_test_top.env.master_agent.drv [ahb_master_driver] Beat[55/256] addr=0x000055ae trans=AHB_TRANS_SEQ resp=AHB_RESP_OKAY wdata=0xff149099
# UVM_INFO ../src/slv/ahb_slave_driver.sv(184) @ 1465000: uvm_test_top.env.slave_agent.drv [ahb_slave_driver] Beat AHB_WRITE addr=0x000055ae resp=AHB_RESP_OKAY waits=0 wdata=0xff149099
# UVM_INFO ../src/mst/ahb_master_monitor.sv(117) @ 1465000: uvm_test_top.env.master_agent.mon [ahb_master_monitor] Beat[55] addr=0x000055ae wdata=0xff149099 resp=AHB_RESP_OKAY
# UVM_INFO ../src/mst/ahb_master_driver.sv(317) @ 1515000: uvm_test_top.env.master_agent.drv [ahb_master_driver] Beat[56/256] addr=0x000055b0 trans=AHB_TRANS_SEQ resp=AHB_RESP_OKAY wdata=0xee490a0a
# UVM_INFO ../src/slv/ahb_slave_driver.sv(184) @ 1515000: uvm_test_top.env.slave_agent.drv [ahb_slave_driver] Beat AHB_WRITE addr=0x000055b0 resp=AHB_RESP_OKAY waits=2 wdata=0xee490a0a
# UVM_INFO ../src/mst/ahb_master_monitor.sv(117) @ 1515000: uvm_test_top.env.master_agent.mon [ahb_master_monitor] Beat[56] addr=0x000055b0 wdata=0xee490a0a resp=AHB_RESP_OKAY
# UVM_INFO ../src/mst/ahb_master_driver.sv(317) @ 1535000: uvm_test_top.env.master_agent.drv [ahb_master_driver] Beat[57/256] addr=0x000055b2 trans=AHB_TRANS_SEQ resp=AHB_RESP_OKAY wdata=0x5cdff211
# UVM_INFO ../src/slv/ahb_slave_driver.sv(184) @ 1535000: uvm_test_top.env.slave_agent.drv [ahb_slave_driver] Beat AHB_WRITE addr=0x000055b2 resp=AHB_RESP_OKAY waits=1 wdata=0x5cdff211
# UVM_INFO ../src/mst/ahb_master_monitor.sv(117) @ 1535000: uvm_test_top.env.master_agent.mon [ahb_master_monitor] Beat[57] addr=0x000055b2 wdata=0x5cdff211 resp=AHB_RESP_OKAY
# UVM_INFO ../src/mst/ahb_master_driver.sv(317) @ 1545000: uvm_test_top.env.master_agent.drv [ahb_master_driver] Beat[58/256] addr=0x000055b4 trans=AHB_TRANS_SEQ resp=AHB_RESP_OKAY wdata=0xbe8e8ddb
# UVM_INFO ../src/slv/ahb_slave_driver.sv(184) @ 1545000: uvm_test_top.env.slave_agent.drv [ahb_slave_driver] Beat AHB_WRITE addr=0x000055b4 resp=AHB_RESP_OKAY waits=0 wdata=0xbe8e8ddb
# UVM_INFO ../src/mst/ahb_master_monitor.sv(117) @ 1545000: uvm_test_top.env.master_agent.mon [ahb_master_monitor] Beat[58] addr=0x000055b4 wdata=0xbe8e8ddb resp=AHB_RESP_OKAY
# UVM_INFO ../src/mst/ahb_master_driver.sv(317) @ 1565000: uvm_test_top.env.master_agent.drv [ahb_master_driver] Beat[59/256] addr=0x000055b6 trans=AHB_TRANS_SEQ resp=AHB_RESP_OKAY wdata=0x759aa270
# UVM_INFO ../src/slv/ahb_slave_driver.sv(184) @ 1565000: uvm_test_top.env.slave_agent.drv [ahb_slave_driver] Beat AHB_WRITE addr=0x000055b6 resp=AHB_RESP_OKAY waits=1 wdata=0x759aa270
# UVM_INFO ../src/mst/ahb_master_monitor.sv(117) @ 1565000: uvm_test_top.env.master_agent.mon [ahb_master_monitor] Beat[59] addr=0x000055b6 wdata=0x759aa270 resp=AHB_RESP_OKAY
# UVM_INFO ../src/mst/ahb_master_driver.sv(317) @ 1595000: uvm_test_top.env.master_agent.drv [ahb_master_driver] Beat[60/256] addr=0x000055b8 trans=AHB_TRANS_SEQ resp=AHB_RESP_OKAY wdata=0x3beac848
# UVM_INFO ../src/slv/ahb_slave_driver.sv(184) @ 1595000: uvm_test_top.env.slave_agent.drv [ahb_slave_driver] Beat AHB_WRITE addr=0x000055b8 resp=AHB_RESP_OKAY waits=2 wdata=0x3beac848
# UVM_INFO ../src/mst/ahb_master_monitor.sv(117) @ 1595000: uvm_test_top.env.master_agent.mon [ahb_master_monitor] Beat[60] addr=0x000055b8 wdata=0x3beac848 resp=AHB_RESP_OKAY
# UVM_INFO ../src/mst/ahb_master_driver.sv(317) @ 1605000: uvm_test_top.env.master_agent.drv [ahb_master_driver] Beat[61/256] addr=0x000055ba trans=AHB_TRANS_SEQ resp=AHB_RESP_OKAY wdata=0xc82814c0
# UVM_INFO ../src/slv/ahb_slave_driver.sv(184) @ 1605000: uvm_test_top.env.slave_agent.drv [ahb_slave_driver] Beat AHB_WRITE addr=0x000055ba resp=AHB_RESP_OKAY waits=0 wdata=0xc82814c0
# UVM_INFO ../src/mst/ahb_master_monitor.sv(117) @ 1605000: uvm_test_top.env.master_agent.mon [ahb_master_monitor] Beat[61] addr=0x000055ba wdata=0xc82814c0 resp=AHB_RESP_OKAY
# UVM_INFO ../src/mst/ahb_master_driver.sv(317) @ 1625000: uvm_test_top.env.master_agent.drv [ahb_master_driver] Beat[62/256] addr=0x000055bc trans=AHB_TRANS_SEQ resp=AHB_RESP_OKAY wdata=0x8f157443
# UVM_INFO ../src/slv/ahb_slave_driver.sv(184) @ 1625000: uvm_test_top.env.slave_agent.drv [ahb_slave_driver] Beat AHB_WRITE addr=0x000055bc resp=AHB_RESP_OKAY waits=1 wdata=0x8f157443
# UVM_INFO ../src/mst/ahb_master_monitor.sv(117) @ 1625000: uvm_test_top.env.master_agent.mon [ahb_master_monitor] Beat[62] addr=0x000055bc wdata=0x8f157443 resp=AHB_RESP_OKAY
# UVM_INFO ../src/mst/ahb_master_driver.sv(317) @ 1635000: uvm_test_top.env.master_agent.drv [ahb_master_driver] Beat[63/256] addr=0x000055be trans=AHB_TRANS_SEQ resp=AHB_RESP_OKAY wdata=0x3c44969a
# UVM_INFO ../src/slv/ahb_slave_driver.sv(184) @ 1635000: uvm_test_top.env.slave_agent.drv [ahb_slave_driver] Beat AHB_WRITE addr=0x000055be resp=AHB_RESP_OKAY waits=0 wdata=0x3c44969a
# UVM_INFO ../src/mst/ahb_master_monitor.sv(117) @ 1635000: uvm_test_top.env.master_agent.mon [ahb_master_monitor] Beat[63] addr=0x000055be wdata=0x3c44969a resp=AHB_RESP_OKAY
# UVM_INFO ../src/mst/ahb_master_driver.sv(317) @ 1665000: uvm_test_top.env.master_agent.drv [ahb_master_driver] Beat[64/256] addr=0x000055c0 trans=AHB_TRANS_SEQ resp=AHB_RESP_OKAY wdata=0x7945638b
# UVM_INFO ../src/slv/ahb_slave_driver.sv(184) @ 1665000: uvm_test_top.env.slave_agent.drv [ahb_slave_driver] Beat AHB_WRITE addr=0x000055c0 resp=AHB_RESP_OKAY waits=1 wdata=0x7945638b
# UVM_INFO ../src/mst/ahb_master_monitor.sv(117) @ 1665000: uvm_test_top.env.master_agent.mon [ahb_master_monitor] Beat[64] addr=0x000055c0 wdata=0x7945638b resp=AHB_RESP_OKAY
# UVM_INFO ../src/mst/ahb_master_driver.sv(317) @ 1685000: uvm_test_top.env.master_agent.drv [ahb_master_driver] Beat[65/256] addr=0x000055c2 trans=AHB_TRANS_SEQ resp=AHB_RESP_OKAY wdata=0x0f30ddda
# UVM_INFO ../src/slv/ahb_slave_driver.sv(184) @ 1685000: uvm_test_top.env.slave_agent.drv [ahb_slave_driver] Beat AHB_WRITE addr=0x000055c2 resp=AHB_RESP_OKAY waits=1 wdata=0x0f30ddda
# UVM_INFO ../src/mst/ahb_master_monitor.sv(117) @ 1685000: uvm_test_top.env.master_agent.mon [ahb_master_monitor] Beat[65] addr=0x000055c2 wdata=0x0f30ddda resp=AHB_RESP_OKAY
# UVM_INFO ../src/mst/ahb_master_driver.sv(317) @ 1695000: uvm_test_top.env.master_agent.drv [ahb_master_driver] Beat[66/256] addr=0x000055c4 trans=AHB_TRANS_SEQ resp=AHB_RESP_OKAY wdata=0xd851437d
# UVM_INFO ../src/slv/ahb_slave_driver.sv(184) @ 1695000: uvm_test_top.env.slave_agent.drv [ahb_slave_driver] Beat AHB_WRITE addr=0x000055c4 resp=AHB_RESP_OKAY waits=0 wdata=0xd851437d
# UVM_INFO ../src/mst/ahb_master_monitor.sv(117) @ 1695000: uvm_test_top.env.master_agent.mon [ahb_master_monitor] Beat[66] addr=0x000055c4 wdata=0xd851437d resp=AHB_RESP_OKAY
# UVM_INFO ../src/mst/ahb_master_driver.sv(317) @ 1705000: uvm_test_top.env.master_agent.drv [ahb_master_driver] Beat[67/256] addr=0x000055c6 trans=AHB_TRANS_SEQ resp=AHB_RESP_OKAY wdata=0x355183aa
# UVM_INFO ../src/slv/ahb_slave_driver.sv(184) @ 1705000: uvm_test_top.env.slave_agent.drv [ahb_slave_driver] Beat AHB_WRITE addr=0x000055c6 resp=AHB_RESP_OKAY waits=0 wdata=0x355183aa
# UVM_INFO ../src/mst/ahb_master_monitor.sv(117) @ 1705000: uvm_test_top.env.master_agent.mon [ahb_master_monitor] Beat[67] addr=0x000055c6 wdata=0x355183aa resp=AHB_RESP_OKAY
# UVM_INFO ../src/mst/ahb_master_driver.sv(317) @ 1735000: uvm_test_top.env.master_agent.drv [ahb_master_driver] Beat[68/256] addr=0x000055c8 trans=AHB_TRANS_SEQ resp=AHB_RESP_OKAY wdata=0xf66399da
# UVM_INFO ../src/slv/ahb_slave_driver.sv(184) @ 1735000: uvm_test_top.env.slave_agent.drv [ahb_slave_driver] Beat AHB_WRITE addr=0x000055c8 resp=AHB_RESP_OKAY waits=2 wdata=0xf66399da
# UVM_INFO ../src/mst/ahb_master_monitor.sv(117) @ 1735000: uvm_test_top.env.master_agent.mon [ahb_master_monitor] Beat[68] addr=0x000055c8 wdata=0xf66399da resp=AHB_RESP_OKAY
# UVM_INFO ../src/mst/ahb_master_driver.sv(317) @ 1755000: uvm_test_top.env.master_agent.drv [ahb_master_driver] Beat[69/256] addr=0x000055ca trans=AHB_TRANS_SEQ resp=AHB_RESP_OKAY wdata=0x7b570015
# UVM_INFO ../src/slv/ahb_slave_driver.sv(184) @ 1755000: uvm_test_top.env.slave_agent.drv [ahb_slave_driver] Beat AHB_WRITE addr=0x000055ca resp=AHB_RESP_OKAY waits=1 wdata=0x7b570015
# UVM_INFO ../src/mst/ahb_master_monitor.sv(117) @ 1755000: uvm_test_top.env.master_agent.mon [ahb_master_monitor] Beat[69] addr=0x000055ca wdata=0x7b570015 resp=AHB_RESP_OKAY
# UVM_INFO ../src/mst/ahb_master_driver.sv(317) @ 1775000: uvm_test_top.env.master_agent.drv [ahb_master_driver] Beat[70/256] addr=0x000055cc trans=AHB_TRANS_SEQ resp=AHB_RESP_OKAY wdata=0x78938cda
# UVM_INFO ../src/slv/ahb_slave_driver.sv(184) @ 1775000: uvm_test_top.env.slave_agent.drv [ahb_slave_driver] Beat AHB_WRITE addr=0x000055cc resp=AHB_RESP_OKAY waits=1 wdata=0x78938cda
# UVM_INFO ../src/mst/ahb_master_monitor.sv(117) @ 1775000: uvm_test_top.env.master_agent.mon [ahb_master_monitor] Beat[70] addr=0x000055cc wdata=0x78938cda resp=AHB_RESP_OKAY
# UVM_INFO ../src/mst/ahb_master_driver.sv(317) @ 1785000: uvm_test_top.env.master_agent.drv [ahb_master_driver] Beat[71/256] addr=0x000055ce trans=AHB_TRANS_SEQ resp=AHB_RESP_OKAY wdata=0xbf748a5d
# UVM_INFO ../src/slv/ahb_slave_driver.sv(184) @ 1785000: uvm_test_top.env.slave_agent.drv [ahb_slave_driver] Beat AHB_WRITE addr=0x000055ce resp=AHB_RESP_OKAY waits=0 wdata=0xbf748a5d
# UVM_INFO ../src/mst/ahb_master_monitor.sv(117) @ 1785000: uvm_test_top.env.master_agent.mon [ahb_master_monitor] Beat[71] addr=0x000055ce wdata=0xbf748a5d resp=AHB_RESP_OKAY
# UVM_INFO ../src/mst/ahb_master_driver.sv(317) @ 1825000: uvm_test_top.env.master_agent.drv [ahb_master_driver] Beat[72/256] addr=0x000055d0 trans=AHB_TRANS_SEQ resp=AHB_RESP_OKAY wdata=0xd837bd0d
# UVM_INFO ../src/slv/ahb_slave_driver.sv(184) @ 1825000: uvm_test_top.env.slave_agent.drv [ahb_slave_driver] Beat AHB_WRITE addr=0x000055d0 resp=AHB_RESP_OKAY waits=1 wdata=0xd837bd0d
# UVM_INFO ../src/mst/ahb_master_monitor.sv(117) @ 1825000: uvm_test_top.env.master_agent.mon [ahb_master_monitor] Beat[72] addr=0x000055d0 wdata=0xd837bd0d resp=AHB_RESP_OKAY
# UVM_INFO ../src/mst/ahb_master_driver.sv(317) @ 1835000: uvm_test_top.env.master_agent.drv [ahb_master_driver] Beat[73/256] addr=0x000055d2 trans=AHB_TRANS_SEQ resp=AHB_RESP_OKAY wdata=0xdad56ed0
# UVM_INFO ../src/slv/ahb_slave_driver.sv(184) @ 1835000: uvm_test_top.env.slave_agent.drv [ahb_slave_driver] Beat AHB_WRITE addr=0x000055d2 resp=AHB_RESP_OKAY waits=0 wdata=0xdad56ed0
# UVM_INFO ../src/mst/ahb_master_monitor.sv(117) @ 1835000: uvm_test_top.env.master_agent.mon [ahb_master_monitor] Beat[73] addr=0x000055d2 wdata=0xdad56ed0 resp=AHB_RESP_OKAY
# UVM_INFO ../src/mst/ahb_master_driver.sv(317) @ 1855000: uvm_test_top.env.master_agent.drv [ahb_master_driver] Beat[74/256] addr=0x000055d4 trans=AHB_TRANS_SEQ resp=AHB_RESP_OKAY wdata=0x361d15b6
# UVM_INFO ../src/slv/ahb_slave_driver.sv(184) @ 1855000: uvm_test_top.env.slave_agent.drv [ahb_slave_driver] Beat AHB_WRITE addr=0x000055d4 resp=AHB_RESP_OKAY waits=1 wdata=0x361d15b6
# UVM_INFO ../src/mst/ahb_master_monitor.sv(117) @ 1855000: uvm_test_top.env.master_agent.mon [ahb_master_monitor] Beat[74] addr=0x000055d4 wdata=0x361d15b6 resp=AHB_RESP_OKAY
# UVM_INFO ../src/mst/ahb_master_driver.sv(317) @ 1885000: uvm_test_top.env.master_agent.drv [ahb_master_driver] Beat[75/256] addr=0x000055d6 trans=AHB_TRANS_SEQ resp=AHB_RESP_OKAY wdata=0x10fc6b23
# UVM_INFO ../src/slv/ahb_slave_driver.sv(184) @ 1885000: uvm_test_top.env.slave_agent.drv [ahb_slave_driver] Beat AHB_WRITE addr=0x000055d6 resp=AHB_RESP_OKAY waits=2 wdata=0x10fc6b23
# UVM_INFO ../src/mst/ahb_master_monitor.sv(117) @ 1885000: uvm_test_top.env.master_agent.mon [ahb_master_monitor] Beat[75] addr=0x000055d6 wdata=0x10fc6b23 resp=AHB_RESP_OKAY
# UVM_INFO ../src/mst/ahb_master_driver.sv(317) @ 1915000: uvm_test_top.env.master_agent.drv [ahb_master_driver] Beat[76/256] addr=0x000055d8 trans=AHB_TRANS_SEQ resp=AHB_RESP_OKAY wdata=0x0bb92c20
# UVM_INFO ../src/slv/ahb_slave_driver.sv(184) @ 1915000: uvm_test_top.env.slave_agent.drv [ahb_slave_driver] Beat AHB_WRITE addr=0x000055d8 resp=AHB_RESP_OKAY waits=2 wdata=0x0bb92c20
# UVM_INFO ../src/mst/ahb_master_monitor.sv(117) @ 1915000: uvm_test_top.env.master_agent.mon [ahb_master_monitor] Beat[76] addr=0x000055d8 wdata=0x0bb92c20 resp=AHB_RESP_OKAY
# UVM_INFO ../src/mst/ahb_master_driver.sv(317) @ 1945000: uvm_test_top.env.master_agent.drv [ahb_master_driver] Beat[77/256] addr=0x000055da trans=AHB_TRANS_SEQ resp=AHB_RESP_OKAY wdata=0x3ea72aa2
# UVM_INFO ../src/slv/ahb_slave_driver.sv(184) @ 1945000: uvm_test_top.env.slave_agent.drv [ahb_slave_driver] Beat AHB_WRITE addr=0x000055da resp=AHB_RESP_OKAY waits=2 wdata=0x3ea72aa2
# UVM_INFO ../src/mst/ahb_master_monitor.sv(117) @ 1945000: uvm_test_top.env.master_agent.mon [ahb_master_monitor] Beat[77] addr=0x000055da wdata=0x3ea72aa2 resp=AHB_RESP_OKAY
# UVM_INFO ../src/mst/ahb_master_driver.sv(317) @ 1965000: uvm_test_top.env.master_agent.drv [ahb_master_driver] Beat[78/256] addr=0x000055dc trans=AHB_TRANS_SEQ resp=AHB_RESP_OKAY wdata=0x0d71a5cd
# UVM_INFO ../src/slv/ahb_slave_driver.sv(184) @ 1965000: uvm_test_top.env.slave_agent.drv [ahb_slave_driver] Beat AHB_WRITE addr=0x000055dc resp=AHB_RESP_OKAY waits=1 wdata=0x0d71a5cd
# UVM_INFO ../src/mst/ahb_master_monitor.sv(117) @ 1965000: uvm_test_top.env.master_agent.mon [ahb_master_monitor] Beat[78] addr=0x000055dc wdata=0x0d71a5cd resp=AHB_RESP_OKAY
# UVM_INFO ../src/mst/ahb_master_driver.sv(317) @ 1975000: uvm_test_top.env.master_agent.drv [ahb_master_driver] Beat[79/256] addr=0x000055de trans=AHB_TRANS_SEQ resp=AHB_RESP_OKAY wdata=0x0a86bfbc
# UVM_INFO ../src/slv/ahb_slave_driver.sv(184) @ 1975000: uvm_test_top.env.slave_agent.drv [ahb_slave_driver] Beat AHB_WRITE addr=0x000055de resp=AHB_RESP_OKAY waits=0 wdata=0x0a86bfbc
# UVM_INFO ../src/mst/ahb_master_monitor.sv(117) @ 1975000: uvm_test_top.env.master_agent.mon [ahb_master_monitor] Beat[79] addr=0x000055de wdata=0x0a86bfbc resp=AHB_RESP_OKAY
# UVM_INFO ../src/mst/ahb_master_driver.sv(317) @ 2015000: uvm_test_top.env.master_agent.drv [ahb_master_driver] Beat[80/256] addr=0x000055e0 trans=AHB_TRANS_SEQ resp=AHB_RESP_OKAY wdata=0x62c5c553
# UVM_INFO ../src/slv/ahb_slave_driver.sv(184) @ 2015000: uvm_test_top.env.slave_agent.drv [ahb_slave_driver] Beat AHB_WRITE addr=0x000055e0 resp=AHB_RESP_OKAY waits=2 wdata=0x62c5c553
# UVM_INFO ../src/mst/ahb_master_monitor.sv(117) @ 2015000: uvm_test_top.env.master_agent.mon [ahb_master_monitor] Beat[80] addr=0x000055e0 wdata=0x62c5c553 resp=AHB_RESP_OKAY
# UVM_INFO ../src/mst/ahb_master_driver.sv(317) @ 2035000: uvm_test_top.env.master_agent.drv [ahb_master_driver] Beat[81/256] addr=0x000055e2 trans=AHB_TRANS_SEQ resp=AHB_RESP_OKAY wdata=0x0e37f69e
# UVM_INFO ../src/slv/ahb_slave_driver.sv(184) @ 2035000: uvm_test_top.env.slave_agent.drv [ahb_slave_driver] Beat AHB_WRITE addr=0x000055e2 resp=AHB_RESP_OKAY waits=1 wdata=0x0e37f69e
# UVM_INFO ../src/mst/ahb_master_monitor.sv(117) @ 2035000: uvm_test_top.env.master_agent.mon [ahb_master_monitor] Beat[81] addr=0x000055e2 wdata=0x0e37f69e resp=AHB_RESP_OKAY
# UVM_INFO ../src/mst/ahb_master_driver.sv(317) @ 2045000: uvm_test_top.env.master_agent.drv [ahb_master_driver] Beat[82/256] addr=0x000055e4 trans=AHB_TRANS_SEQ resp=AHB_RESP_OKAY wdata=0xf22988c2
# UVM_INFO ../src/slv/ahb_slave_driver.sv(184) @ 2045000: uvm_test_top.env.slave_agent.drv [ahb_slave_driver] Beat AHB_WRITE addr=0x000055e4 resp=AHB_RESP_OKAY waits=0 wdata=0xf22988c2
# UVM_INFO ../src/mst/ahb_master_monitor.sv(117) @ 2045000: uvm_test_top.env.master_agent.mon [ahb_master_monitor] Beat[82] addr=0x000055e4 wdata=0xf22988c2 resp=AHB_RESP_OKAY
# UVM_INFO ../src/mst/ahb_master_driver.sv(317) @ 2055000: uvm_test_top.env.master_agent.drv [ahb_master_driver] Beat[83/256] addr=0x000055e6 trans=AHB_TRANS_SEQ resp=AHB_RESP_OKAY wdata=0x19d2e4e5
# UVM_INFO ../src/slv/ahb_slave_driver.sv(184) @ 2055000: uvm_test_top.env.slave_agent.drv [ahb_slave_driver] Beat AHB_WRITE addr=0x000055e6 resp=AHB_RESP_OKAY waits=0 wdata=0x19d2e4e5
# UVM_INFO ../src/mst/ahb_master_monitor.sv(117) @ 2055000: uvm_test_top.env.master_agent.mon [ahb_master_monitor] Beat[83] addr=0x000055e6 wdata=0x19d2e4e5 resp=AHB_RESP_OKAY
# UVM_INFO ../src/mst/ahb_master_driver.sv(317) @ 2065000: uvm_test_top.env.master_agent.drv [ahb_master_driver] Beat[84/256] addr=0x000055e8 trans=AHB_TRANS_SEQ resp=AHB_RESP_OKAY wdata=0xa1b33198
# UVM_INFO ../src/slv/ahb_slave_driver.sv(184) @ 2065000: uvm_test_top.env.slave_agent.drv [ahb_slave_driver] Beat AHB_WRITE addr=0x000055e8 resp=AHB_RESP_OKAY waits=0 wdata=0xa1b33198
# UVM_INFO ../src/mst/ahb_master_monitor.sv(117) @ 2065000: uvm_test_top.env.master_agent.mon [ahb_master_monitor] Beat[84] addr=0x000055e8 wdata=0xa1b33198 resp=AHB_RESP_OKAY
# UVM_INFO ../src/mst/ahb_master_driver.sv(317) @ 2085000: uvm_test_top.env.master_agent.drv [ahb_master_driver] Beat[85/256] addr=0x000055ea trans=AHB_TRANS_SEQ resp=AHB_RESP_OKAY wdata=0x763cca4e
# UVM_INFO ../src/slv/ahb_slave_driver.sv(184) @ 2085000: uvm_test_top.env.slave_agent.drv [ahb_slave_driver] Beat AHB_WRITE addr=0x000055ea resp=AHB_RESP_OKAY waits=1 wdata=0x763cca4e
# UVM_INFO ../src/mst/ahb_master_monitor.sv(117) @ 2085000: uvm_test_top.env.master_agent.mon [ahb_master_monitor] Beat[85] addr=0x000055ea wdata=0x763cca4e resp=AHB_RESP_OKAY
# UVM_INFO ../src/mst/ahb_master_driver.sv(317) @ 2105000: uvm_test_top.env.master_agent.drv [ahb_master_driver] Beat[86/256] addr=0x000055ec trans=AHB_TRANS_SEQ resp=AHB_RESP_OKAY wdata=0xc84210e7
# UVM_INFO ../src/slv/ahb_slave_driver.sv(184) @ 2105000: uvm_test_top.env.slave_agent.drv [ahb_slave_driver] Beat AHB_WRITE addr=0x000055ec resp=AHB_RESP_OKAY waits=1 wdata=0xc84210e7
# UVM_INFO ../src/mst/ahb_master_monitor.sv(117) @ 2105000: uvm_test_top.env.master_agent.mon [ahb_master_monitor] Beat[86] addr=0x000055ec wdata=0xc84210e7 resp=AHB_RESP_OKAY
# UVM_INFO ../src/mst/ahb_master_driver.sv(317) @ 2125000: uvm_test_top.env.master_agent.drv [ahb_master_driver] Beat[87/256] addr=0x000055ee trans=AHB_TRANS_SEQ resp=AHB_RESP_OKAY wdata=0x048f48be
# UVM_INFO ../src/slv/ahb_slave_driver.sv(184) @ 2125000: uvm_test_top.env.slave_agent.drv [ahb_slave_driver] Beat AHB_WRITE addr=0x000055ee resp=AHB_RESP_OKAY waits=1 wdata=0x048f48be
# UVM_INFO ../src/mst/ahb_master_monitor.sv(117) @ 2125000: uvm_test_top.env.master_agent.mon [ahb_master_monitor] Beat[87] addr=0x000055ee wdata=0x048f48be resp=AHB_RESP_OKAY
# UVM_INFO ../src/mst/ahb_master_driver.sv(317) @ 2165000: uvm_test_top.env.master_agent.drv [ahb_master_driver] Beat[88/256] addr=0x000055f0 trans=AHB_TRANS_SEQ resp=AHB_RESP_OKAY wdata=0xc1cb4ea5
# UVM_INFO ../src/slv/ahb_slave_driver.sv(184) @ 2165000: uvm_test_top.env.slave_agent.drv [ahb_slave_driver] Beat AHB_WRITE addr=0x000055f0 resp=AHB_RESP_OKAY waits=1 wdata=0xc1cb4ea5
# UVM_INFO ../src/mst/ahb_master_monitor.sv(117) @ 2165000: uvm_test_top.env.master_agent.mon [ahb_master_monitor] Beat[88] addr=0x000055f0 wdata=0xc1cb4ea5 resp=AHB_RESP_OKAY
# UVM_INFO ../src/mst/ahb_master_driver.sv(317) @ 2185000: uvm_test_top.env.master_agent.drv [ahb_master_driver] Beat[89/256] addr=0x000055f2 trans=AHB_TRANS_SEQ resp=AHB_RESP_OKAY wdata=0x46f546f5
# UVM_INFO ../src/slv/ahb_slave_driver.sv(184) @ 2185000: uvm_test_top.env.slave_agent.drv [ahb_slave_driver] Beat AHB_WRITE addr=0x000055f2 resp=AHB_RESP_OKAY waits=1 wdata=0x46f546f5
# UVM_INFO ../src/mst/ahb_master_monitor.sv(117) @ 2185000: uvm_test_top.env.master_agent.mon [ahb_master_monitor] Beat[89] addr=0x000055f2 wdata=0x46f546f5 resp=AHB_RESP_OKAY
# UVM_INFO ../src/mst/ahb_master_driver.sv(317) @ 2195000: uvm_test_top.env.master_agent.drv [ahb_master_driver] Beat[90/256] addr=0x000055f4 trans=AHB_TRANS_SEQ resp=AHB_RESP_OKAY wdata=0x1baafd76
# UVM_INFO ../src/slv/ahb_slave_driver.sv(184) @ 2195000: uvm_test_top.env.slave_agent.drv [ahb_slave_driver] Beat AHB_WRITE addr=0x000055f4 resp=AHB_RESP_OKAY waits=0 wdata=0x1baafd76
# UVM_INFO ../src/mst/ahb_master_monitor.sv(117) @ 2195000: uvm_test_top.env.master_agent.mon [ahb_master_monitor] Beat[90] addr=0x000055f4 wdata=0x1baafd76 resp=AHB_RESP_OKAY
# UVM_INFO ../src/mst/ahb_master_driver.sv(317) @ 2225000: uvm_test_top.env.master_agent.drv [ahb_master_driver] Beat[91/256] addr=0x000055f6 trans=AHB_TRANS_SEQ resp=AHB_RESP_OKAY wdata=0x32e5eefb
# UVM_INFO ../src/slv/ahb_slave_driver.sv(184) @ 2225000: uvm_test_top.env.slave_agent.drv [ahb_slave_driver] Beat AHB_WRITE addr=0x000055f6 resp=AHB_RESP_OKAY waits=2 wdata=0x32e5eefb
# UVM_INFO ../src/mst/ahb_master_monitor.sv(117) @ 2225000: uvm_test_top.env.master_agent.mon [ahb_master_monitor] Beat[91] addr=0x000055f6 wdata=0x32e5eefb resp=AHB_RESP_OKAY
# UVM_INFO ../src/mst/ahb_master_driver.sv(317) @ 2255000: uvm_test_top.env.master_agent.drv [ahb_master_driver] Beat[92/256] addr=0x000055f8 trans=AHB_TRANS_SEQ resp=AHB_RESP_OKAY wdata=0x25e7fa35
# UVM_INFO ../src/slv/ahb_slave_driver.sv(184) @ 2255000: uvm_test_top.env.slave_agent.drv [ahb_slave_driver] Beat AHB_WRITE addr=0x000055f8 resp=AHB_RESP_OKAY waits=2 wdata=0x25e7fa35
# UVM_INFO ../src/mst/ahb_master_monitor.sv(117) @ 2255000: uvm_test_top.env.master_agent.mon [ahb_master_monitor] Beat[92] addr=0x000055f8 wdata=0x25e7fa35 resp=AHB_RESP_OKAY
# UVM_INFO ../src/mst/ahb_master_driver.sv(317) @ 2285000: uvm_test_top.env.master_agent.drv [ahb_master_driver] Beat[93/256] addr=0x000055fa trans=AHB_TRANS_SEQ resp=AHB_RESP_OKAY wdata=0x2dc62376
# UVM_INFO ../src/slv/ahb_slave_driver.sv(184) @ 2285000: uvm_test_top.env.slave_agent.drv [ahb_slave_driver] Beat AHB_WRITE addr=0x000055fa resp=AHB_RESP_OKAY waits=2 wdata=0x2dc62376
# UVM_INFO ../src/mst/ahb_master_monitor.sv(117) @ 2285000: uvm_test_top.env.master_agent.mon [ahb_master_monitor] Beat[93] addr=0x000055fa wdata=0x2dc62376 resp=AHB_RESP_OKAY
# UVM_INFO ../src/mst/ahb_master_driver.sv(317) @ 2295000: uvm_test_top.env.master_agent.drv [ahb_master_driver] Beat[94/256] addr=0x000055fc trans=AHB_TRANS_SEQ resp=AHB_RESP_OKAY wdata=0xc67ab378
# UVM_INFO ../src/slv/ahb_slave_driver.sv(184) @ 2295000: uvm_test_top.env.slave_agent.drv [ahb_slave_driver] Beat AHB_WRITE addr=0x000055fc resp=AHB_RESP_OKAY waits=0 wdata=0xc67ab378
# UVM_INFO ../src/mst/ahb_master_monitor.sv(117) @ 2295000: uvm_test_top.env.master_agent.mon [ahb_master_monitor] Beat[94] addr=0x000055fc wdata=0xc67ab378 resp=AHB_RESP_OKAY
# UVM_INFO ../src/mst/ahb_master_driver.sv(317) @ 2305000: uvm_test_top.env.master_agent.drv [ahb_master_driver] Beat[95/256] addr=0x000055fe trans=AHB_TRANS_SEQ resp=AHB_RESP_OKAY wdata=0xe5a228b8
# UVM_INFO ../src/slv/ahb_slave_driver.sv(184) @ 2305000: uvm_test_top.env.slave_agent.drv [ahb_slave_driver] Beat AHB_WRITE addr=0x000055fe resp=AHB_RESP_OKAY waits=0 wdata=0xe5a228b8
# UVM_INFO ../src/mst/ahb_master_monitor.sv(117) @ 2305000: uvm_test_top.env.master_agent.mon [ahb_master_monitor] Beat[95] addr=0x000055fe wdata=0xe5a228b8 resp=AHB_RESP_OKAY
# UVM_INFO ../src/mst/ahb_master_driver.sv(317) @ 2345000: uvm_test_top.env.master_agent.drv [ahb_master_driver] Beat[96/256] addr=0x00005600 trans=AHB_TRANS_SEQ resp=AHB_RESP_OKAY wdata=0x3ce459c5
# UVM_INFO ../src/slv/ahb_slave_driver.sv(184) @ 2345000: uvm_test_top.env.slave_agent.drv [ahb_slave_driver] Beat AHB_WRITE addr=0x00005600 resp=AHB_RESP_OKAY waits=1 wdata=0x3ce459c5
# UVM_INFO ../src/mst/ahb_master_monitor.sv(117) @ 2345000: uvm_test_top.env.master_agent.mon [ahb_master_monitor] Beat[96] addr=0x00005600 wdata=0x3ce459c5 resp=AHB_RESP_OKAY
# UVM_INFO ../src/mst/ahb_master_driver.sv(317) @ 2365000: uvm_test_top.env.master_agent.drv [ahb_master_driver] Beat[97/256] addr=0x00005602 trans=AHB_TRANS_SEQ resp=AHB_RESP_OKAY wdata=0x7d97dd04
# UVM_INFO ../src/slv/ahb_slave_driver.sv(184) @ 2365000: uvm_test_top.env.slave_agent.drv [ahb_slave_driver] Beat AHB_WRITE addr=0x00005602 resp=AHB_RESP_OKAY waits=1 wdata=0x7d97dd04
# UVM_INFO ../src/mst/ahb_master_monitor.sv(117) @ 2365000: uvm_test_top.env.master_agent.mon [ahb_master_monitor] Beat[97] addr=0x00005602 wdata=0x7d97dd04 resp=AHB_RESP_OKAY
# UVM_INFO ../src/mst/ahb_master_driver.sv(317) @ 2395000: uvm_test_top.env.master_agent.drv [ahb_master_driver] Beat[98/256] addr=0x00005604 trans=AHB_TRANS_SEQ resp=AHB_RESP_OKAY wdata=0x0bc7cbb0
# UVM_INFO ../src/slv/ahb_slave_driver.sv(184) @ 2395000: uvm_test_top.env.slave_agent.drv [ahb_slave_driver] Beat AHB_WRITE addr=0x00005604 resp=AHB_RESP_OKAY waits=2 wdata=0x0bc7cbb0
# UVM_INFO ../src/mst/ahb_master_monitor.sv(117) @ 2395000: uvm_test_top.env.master_agent.mon [ahb_master_monitor] Beat[98] addr=0x00005604 wdata=0x0bc7cbb0 resp=AHB_RESP_OKAY
# UVM_INFO ../src/mst/ahb_master_driver.sv(317) @ 2425000: uvm_test_top.env.master_agent.drv [ahb_master_driver] Beat[99/256] addr=0x00005606 trans=AHB_TRANS_SEQ resp=AHB_RESP_OKAY wdata=0xe845a60e
# UVM_INFO ../src/slv/ahb_slave_driver.sv(184) @ 2425000: uvm_test_top.env.slave_agent.drv [ahb_slave_driver] Beat AHB_WRITE addr=0x00005606 resp=AHB_RESP_OKAY waits=2 wdata=0xe845a60e
# UVM_INFO ../src/mst/ahb_master_monitor.sv(117) @ 2425000: uvm_test_top.env.master_agent.mon [ahb_master_monitor] Beat[99] addr=0x00005606 wdata=0xe845a60e resp=AHB_RESP_OKAY
# UVM_INFO ../src/mst/ahb_master_driver.sv(317) @ 2445000: uvm_test_top.env.master_agent.drv [ahb_master_driver] Beat[100/256] addr=0x00005608 trans=AHB_TRANS_SEQ resp=AHB_RESP_OKAY wdata=0xd79dafb9
# UVM_INFO ../src/slv/ahb_slave_driver.sv(184) @ 2445000: uvm_test_top.env.slave_agent.drv [ahb_slave_driver] Beat AHB_WRITE addr=0x00005608 resp=AHB_RESP_OKAY waits=1 wdata=0xd79dafb9
# UVM_INFO ../src/mst/ahb_master_monitor.sv(117) @ 2445000: uvm_test_top.env.master_agent.mon [ahb_master_monitor] Beat[100] addr=0x00005608 wdata=0xd79dafb9 resp=AHB_RESP_OKAY
# UVM_INFO ../src/mst/ahb_master_driver.sv(317) @ 2475000: uvm_test_top.env.master_agent.drv [ahb_master_driver] Beat[101/256] addr=0x0000560a trans=AHB_TRANS_SEQ resp=AHB_RESP_OKAY wdata=0x874d1839
# UVM_INFO ../src/slv/ahb_slave_driver.sv(184) @ 2475000: uvm_test_top.env.slave_agent.drv [ahb_slave_driver] Beat AHB_WRITE addr=0x0000560a resp=AHB_RESP_OKAY waits=2 wdata=0x874d1839
# UVM_INFO ../src/mst/ahb_master_monitor.sv(117) @ 2475000: uvm_test_top.env.master_agent.mon [ahb_master_monitor] Beat[101] addr=0x0000560a wdata=0x874d1839 resp=AHB_RESP_OKAY
# UVM_INFO ../src/mst/ahb_master_driver.sv(317) @ 2485000: uvm_test_top.env.master_agent.drv [ahb_master_driver] Beat[102/256] addr=0x0000560c trans=AHB_TRANS_SEQ resp=AHB_RESP_OKAY wdata=0xe48afcad
# UVM_INFO ../src/slv/ahb_slave_driver.sv(184) @ 2485000: uvm_test_top.env.slave_agent.drv [ahb_slave_driver] Beat AHB_WRITE addr=0x0000560c resp=AHB_RESP_OKAY waits=0 wdata=0xe48afcad
# UVM_INFO ../src/mst/ahb_master_monitor.sv(117) @ 2485000: uvm_test_top.env.master_agent.mon [ahb_master_monitor] Beat[102] addr=0x0000560c wdata=0xe48afcad resp=AHB_RESP_OKAY
# UVM_INFO ../src/mst/ahb_master_driver.sv(317) @ 2505000: uvm_test_top.env.master_agent.drv [ahb_master_driver] Beat[103/256] addr=0x0000560e trans=AHB_TRANS_SEQ resp=AHB_RESP_OKAY wdata=0xa38b9587
# UVM_INFO ../src/slv/ahb_slave_driver.sv(184) @ 2505000: uvm_test_top.env.slave_agent.drv [ahb_slave_driver] Beat AHB_WRITE addr=0x0000560e resp=AHB_RESP_OKAY waits=1 wdata=0xa38b9587
# UVM_INFO ../src/mst/ahb_master_monitor.sv(117) @ 2505000: uvm_test_top.env.master_agent.mon [ahb_master_monitor] Beat[103] addr=0x0000560e wdata=0xa38b9587 resp=AHB_RESP_OKAY
# UVM_INFO ../src/mst/ahb_master_driver.sv(317) @ 2545000: uvm_test_top.env.master_agent.drv [ahb_master_driver] Beat[104/256] addr=0x00005610 trans=AHB_TRANS_SEQ resp=AHB_RESP_OKAY wdata=0x05e2f776
# UVM_INFO ../src/slv/ahb_slave_driver.sv(184) @ 2545000: uvm_test_top.env.slave_agent.drv [ahb_slave_driver] Beat AHB_WRITE addr=0x00005610 resp=AHB_RESP_OKAY waits=1 wdata=0x05e2f776
# UVM_INFO ../src/mst/ahb_master_monitor.sv(117) @ 2545000: uvm_test_top.env.master_agent.mon [ahb_master_monitor] Beat[104] addr=0x00005610 wdata=0x05e2f776 resp=AHB_RESP_OKAY
# UVM_INFO ../src/mst/ahb_master_driver.sv(317) @ 2565000: uvm_test_top.env.master_agent.drv [ahb_master_driver] Beat[105/256] addr=0x00005612 trans=AHB_TRANS_SEQ resp=AHB_RESP_OKAY wdata=0x9bd65343
# UVM_INFO ../src/slv/ahb_slave_driver.sv(184) @ 2565000: uvm_test_top.env.slave_agent.drv [ahb_slave_driver] Beat AHB_WRITE addr=0x00005612 resp=AHB_RESP_OKAY waits=1 wdata=0x9bd65343
# UVM_INFO ../src/mst/ahb_master_monitor.sv(117) @ 2565000: uvm_test_top.env.master_agent.mon [ahb_master_monitor] Beat[105] addr=0x00005612 wdata=0x9bd65343 resp=AHB_RESP_OKAY
# UVM_INFO ../src/mst/ahb_master_driver.sv(317) @ 2595000: uvm_test_top.env.master_agent.drv [ahb_master_driver] Beat[106/256] addr=0x00005614 trans=AHB_TRANS_SEQ resp=AHB_RESP_OKAY wdata=0x176384d8
# UVM_INFO ../src/slv/ahb_slave_driver.sv(184) @ 2595000: uvm_test_top.env.slave_agent.drv [ahb_slave_driver] Beat AHB_WRITE addr=0x00005614 resp=AHB_RESP_OKAY waits=2 wdata=0x176384d8
# UVM_INFO ../src/mst/ahb_master_monitor.sv(117) @ 2595000: uvm_test_top.env.master_agent.mon [ahb_master_monitor] Beat[106] addr=0x00005614 wdata=0x176384d8 resp=AHB_RESP_OKAY
# UVM_INFO ../src/mst/ahb_master_driver.sv(317) @ 2625000: uvm_test_top.env.master_agent.drv [ahb_master_driver] Beat[107/256] addr=0x00005616 trans=AHB_TRANS_SEQ resp=AHB_RESP_OKAY wdata=0x575273f2
# UVM_INFO ../src/slv/ahb_slave_driver.sv(184) @ 2625000: uvm_test_top.env.slave_agent.drv [ahb_slave_driver] Beat AHB_WRITE addr=0x00005616 resp=AHB_RESP_OKAY waits=2 wdata=0x575273f2
# UVM_INFO ../src/mst/ahb_master_monitor.sv(117) @ 2625000: uvm_test_top.env.master_agent.mon [ahb_master_monitor] Beat[107] addr=0x00005616 wdata=0x575273f2 resp=AHB_RESP_OKAY
# UVM_INFO ../src/mst/ahb_master_driver.sv(317) @ 2655000: uvm_test_top.env.master_agent.drv [ahb_master_driver] Beat[108/256] addr=0x00005618 trans=AHB_TRANS_SEQ resp=AHB_RESP_OKAY wdata=0x93566f2b
# UVM_INFO ../src/slv/ahb_slave_driver.sv(184) @ 2655000: uvm_test_top.env.slave_agent.drv [ahb_slave_driver] Beat AHB_WRITE addr=0x00005618 resp=AHB_RESP_OKAY waits=2 wdata=0x93566f2b
# UVM_INFO ../src/mst/ahb_master_monitor.sv(117) @ 2655000: uvm_test_top.env.master_agent.mon [ahb_master_monitor] Beat[108] addr=0x00005618 wdata=0x93566f2b resp=AHB_RESP_OKAY
# UVM_INFO ../src/mst/ahb_master_driver.sv(317) @ 2665000: uvm_test_top.env.master_agent.drv [ahb_master_driver] Beat[109/256] addr=0x0000561a trans=AHB_TRANS_SEQ resp=AHB_RESP_OKAY wdata=0x6166af2f
# UVM_INFO ../src/slv/ahb_slave_driver.sv(184) @ 2665000: uvm_test_top.env.slave_agent.drv [ahb_slave_driver] Beat AHB_WRITE addr=0x0000561a resp=AHB_RESP_OKAY waits=0 wdata=0x6166af2f
# UVM_INFO ../src/mst/ahb_master_monitor.sv(117) @ 2665000: uvm_test_top.env.master_agent.mon [ahb_master_monitor] Beat[109] addr=0x0000561a wdata=0x6166af2f resp=AHB_RESP_OKAY
# UVM_INFO ../src/mst/ahb_master_driver.sv(317) @ 2675000: uvm_test_top.env.master_agent.drv [ahb_master_driver] Beat[110/256] addr=0x0000561c trans=AHB_TRANS_SEQ resp=AHB_RESP_OKAY wdata=0x0c03def3
# UVM_INFO ../src/slv/ahb_slave_driver.sv(184) @ 2675000: uvm_test_top.env.slave_agent.drv [ahb_slave_driver] Beat AHB_WRITE addr=0x0000561c resp=AHB_RESP_OKAY waits=0 wdata=0x0c03def3
# UVM_INFO ../src/mst/ahb_master_monitor.sv(117) @ 2675000: uvm_test_top.env.master_agent.mon [ahb_master_monitor] Beat[110] addr=0x0000561c wdata=0x0c03def3 resp=AHB_RESP_OKAY
# UVM_INFO ../src/mst/ahb_master_driver.sv(317) @ 2695000: uvm_test_top.env.master_agent.drv [ahb_master_driver] Beat[111/256] addr=0x0000561e trans=AHB_TRANS_SEQ resp=AHB_RESP_OKAY wdata=0xc81ec82e
# UVM_INFO ../src/slv/ahb_slave_driver.sv(184) @ 2695000: uvm_test_top.env.slave_agent.drv [ahb_slave_driver] Beat AHB_WRITE addr=0x0000561e resp=AHB_RESP_OKAY waits=1 wdata=0xc81ec82e
# UVM_INFO ../src/mst/ahb_master_monitor.sv(117) @ 2695000: uvm_test_top.env.master_agent.mon [ahb_master_monitor] Beat[111] addr=0x0000561e wdata=0xc81ec82e resp=AHB_RESP_OKAY
# UVM_INFO ../src/mst/ahb_master_driver.sv(317) @ 2715000: uvm_test_top.env.master_agent.drv [ahb_master_driver] Beat[112/256] addr=0x00005620 trans=AHB_TRANS_SEQ resp=AHB_RESP_OKAY wdata=0x55e6973f
# UVM_INFO ../src/slv/ahb_slave_driver.sv(184) @ 2715000: uvm_test_top.env.slave_agent.drv [ahb_slave_driver] Beat AHB_WRITE addr=0x00005620 resp=AHB_RESP_OKAY waits=0 wdata=0x55e6973f
# UVM_INFO ../src/mst/ahb_master_monitor.sv(117) @ 2715000: uvm_test_top.env.master_agent.mon [ahb_master_monitor] Beat[112] addr=0x00005620 wdata=0x55e6973f resp=AHB_RESP_OKAY
# UVM_INFO ../src/mst/ahb_master_driver.sv(317) @ 2745000: uvm_test_top.env.master_agent.drv [ahb_master_driver] Beat[113/256] addr=0x00005622 trans=AHB_TRANS_SEQ resp=AHB_RESP_OKAY wdata=0x2a140cb6
# UVM_INFO ../src/slv/ahb_slave_driver.sv(184) @ 2745000: uvm_test_top.env.slave_agent.drv [ahb_slave_driver] Beat AHB_WRITE addr=0x00005622 resp=AHB_RESP_OKAY waits=2 wdata=0x2a140cb6
# UVM_INFO ../src/mst/ahb_master_monitor.sv(117) @ 2745000: uvm_test_top.env.master_agent.mon [ahb_master_monitor] Beat[113] addr=0x00005622 wdata=0x2a140cb6 resp=AHB_RESP_OKAY
# UVM_INFO ../src/mst/ahb_master_driver.sv(317) @ 2755000: uvm_test_top.env.master_agent.drv [ahb_master_driver] Beat[114/256] addr=0x00005624 trans=AHB_TRANS_SEQ resp=AHB_RESP_OKAY wdata=0xfa2936ea
# UVM_INFO ../src/slv/ahb_slave_driver.sv(184) @ 2755000: uvm_test_top.env.slave_agent.drv [ahb_slave_driver] Beat AHB_WRITE addr=0x00005624 resp=AHB_RESP_OKAY waits=0 wdata=0xfa2936ea
# UVM_INFO ../src/mst/ahb_master_monitor.sv(117) @ 2755000: uvm_test_top.env.master_agent.mon [ahb_master_monitor] Beat[114] addr=0x00005624 wdata=0xfa2936ea resp=AHB_RESP_OKAY
# UVM_INFO ../src/mst/ahb_master_driver.sv(317) @ 2775000: uvm_test_top.env.master_agent.drv [ahb_master_driver] Beat[115/256] addr=0x00005626 trans=AHB_TRANS_SEQ resp=AHB_RESP_OKAY wdata=0x73e5ef8a
# UVM_INFO ../src/slv/ahb_slave_driver.sv(184) @ 2775000: uvm_test_top.env.slave_agent.drv [ahb_slave_driver] Beat AHB_WRITE addr=0x00005626 resp=AHB_RESP_OKAY waits=1 wdata=0x73e5ef8a
# UVM_INFO ../src/mst/ahb_master_monitor.sv(117) @ 2775000: uvm_test_top.env.master_agent.mon [ahb_master_monitor] Beat[115] addr=0x00005626 wdata=0x73e5ef8a resp=AHB_RESP_OKAY
# UVM_INFO ../src/mst/ahb_master_driver.sv(317) @ 2805000: uvm_test_top.env.master_agent.drv [ahb_master_driver] Beat[116/256] addr=0x00005628 trans=AHB_TRANS_SEQ resp=AHB_RESP_OKAY wdata=0x325e9f02
# UVM_INFO ../src/slv/ahb_slave_driver.sv(184) @ 2805000: uvm_test_top.env.slave_agent.drv [ahb_slave_driver] Beat AHB_WRITE addr=0x00005628 resp=AHB_RESP_OKAY waits=2 wdata=0x325e9f02
# UVM_INFO ../src/mst/ahb_master_monitor.sv(117) @ 2805000: uvm_test_top.env.master_agent.mon [ahb_master_monitor] Beat[116] addr=0x00005628 wdata=0x325e9f02 resp=AHB_RESP_OKAY
# UVM_INFO ../src/mst/ahb_master_driver.sv(317) @ 2815000: uvm_test_top.env.master_agent.drv [ahb_master_driver] Beat[117/256] addr=0x0000562a trans=AHB_TRANS_SEQ resp=AHB_RESP_OKAY wdata=0x0233a08b
# UVM_INFO ../src/slv/ahb_slave_driver.sv(184) @ 2815000: uvm_test_top.env.slave_agent.drv [ahb_slave_driver] Beat AHB_WRITE addr=0x0000562a resp=AHB_RESP_OKAY waits=0 wdata=0x0233a08b
# UVM_INFO ../src/mst/ahb_master_monitor.sv(117) @ 2815000: uvm_test_top.env.master_agent.mon [ahb_master_monitor] Beat[117] addr=0x0000562a wdata=0x0233a08b resp=AHB_RESP_OKAY
# UVM_INFO ../src/mst/ahb_master_driver.sv(317) @ 2845000: uvm_test_top.env.master_agent.drv [ahb_master_driver] Beat[118/256] addr=0x0000562c trans=AHB_TRANS_SEQ resp=AHB_RESP_OKAY wdata=0xc3ecd683
# UVM_INFO ../src/slv/ahb_slave_driver.sv(184) @ 2845000: uvm_test_top.env.slave_agent.drv [ahb_slave_driver] Beat AHB_WRITE addr=0x0000562c resp=AHB_RESP_OKAY waits=2 wdata=0xc3ecd683
# UVM_INFO ../src/mst/ahb_master_monitor.sv(117) @ 2845000: uvm_test_top.env.master_agent.mon [ahb_master_monitor] Beat[118] addr=0x0000562c wdata=0xc3ecd683 resp=AHB_RESP_OKAY
# UVM_INFO ../src/mst/ahb_master_driver.sv(317) @ 2865000: uvm_test_top.env.master_agent.drv [ahb_master_driver] Beat[119/256] addr=0x0000562e trans=AHB_TRANS_SEQ resp=AHB_RESP_OKAY wdata=0xc1b146e8
# UVM_INFO ../src/slv/ahb_slave_driver.sv(184) @ 2865000: uvm_test_top.env.slave_agent.drv [ahb_slave_driver] Beat AHB_WRITE addr=0x0000562e resp=AHB_RESP_OKAY waits=1 wdata=0xc1b146e8
# UVM_INFO ../src/mst/ahb_master_monitor.sv(117) @ 2865000: uvm_test_top.env.master_agent.mon [ahb_master_monitor] Beat[119] addr=0x0000562e wdata=0xc1b146e8 resp=AHB_RESP_OKAY
# UVM_INFO ../src/mst/ahb_master_driver.sv(317) @ 2905000: uvm_test_top.env.master_agent.drv [ahb_master_driver] Beat[120/256] addr=0x00005630 trans=AHB_TRANS_SEQ resp=AHB_RESP_OKAY wdata=0xe69afb4d
# UVM_INFO ../src/slv/ahb_slave_driver.sv(184) @ 2905000: uvm_test_top.env.slave_agent.drv [ahb_slave_driver] Beat AHB_WRITE addr=0x00005630 resp=AHB_RESP_OKAY waits=2 wdata=0xe69afb4d
# UVM_INFO ../src/mst/ahb_master_monitor.sv(117) @ 2905000: uvm_test_top.env.master_agent.mon [ahb_master_monitor] Beat[120] addr=0x00005630 wdata=0xe69afb4d resp=AHB_RESP_OKAY
# UVM_INFO ../src/mst/ahb_master_driver.sv(317) @ 2925000: uvm_test_top.env.master_agent.drv [ahb_master_driver] Beat[121/256] addr=0x00005632 trans=AHB_TRANS_SEQ resp=AHB_RESP_OKAY wdata=0x1facca7d
# UVM_INFO ../src/slv/ahb_slave_driver.sv(184) @ 2925000: uvm_test_top.env.slave_agent.drv [ahb_slave_driver] Beat AHB_WRITE addr=0x00005632 resp=AHB_RESP_OKAY waits=1 wdata=0x1facca7d
# UVM_INFO ../src/mst/ahb_master_monitor.sv(117) @ 2925000: uvm_test_top.env.master_agent.mon [ahb_master_monitor] Beat[121] addr=0x00005632 wdata=0x1facca7d resp=AHB_RESP_OKAY
# UVM_INFO ../src/mst/ahb_master_driver.sv(317) @ 2945000: uvm_test_top.env.master_agent.drv [ahb_master_driver] Beat[122/256] addr=0x00005634 trans=AHB_TRANS_SEQ resp=AHB_RESP_OKAY wdata=0x4383de90
# UVM_INFO ../src/slv/ahb_slave_driver.sv(184) @ 2945000: uvm_test_top.env.slave_agent.drv [ahb_slave_driver] Beat AHB_WRITE addr=0x00005634 resp=AHB_RESP_OKAY waits=1 wdata=0x4383de90
# UVM_INFO ../src/mst/ahb_master_monitor.sv(117) @ 2945000: uvm_test_top.env.master_agent.mon [ahb_master_monitor] Beat[122] addr=0x00005634 wdata=0x4383de90 resp=AHB_RESP_OKAY
# UVM_INFO ../src/mst/ahb_master_driver.sv(317) @ 2955000: uvm_test_top.env.master_agent.drv [ahb_master_driver] Beat[123/256] addr=0x00005636 trans=AHB_TRANS_SEQ resp=AHB_RESP_OKAY wdata=0xf2e47f3a
# UVM_INFO ../src/slv/ahb_slave_driver.sv(184) @ 2955000: uvm_test_top.env.slave_agent.drv [ahb_slave_driver] Beat AHB_WRITE addr=0x00005636 resp=AHB_RESP_OKAY waits=0 wdata=0xf2e47f3a
# UVM_INFO ../src/mst/ahb_master_monitor.sv(117) @ 2955000: uvm_test_top.env.master_agent.mon [ahb_master_monitor] Beat[123] addr=0x00005636 wdata=0xf2e47f3a resp=AHB_RESP_OKAY
# UVM_INFO ../src/mst/ahb_master_driver.sv(317) @ 2975000: uvm_test_top.env.master_agent.drv [ahb_master_driver] Beat[124/256] addr=0x00005638 trans=AHB_TRANS_SEQ resp=AHB_RESP_OKAY wdata=0x9b4157c1
# UVM_INFO ../src/slv/ahb_slave_driver.sv(184) @ 2975000: uvm_test_top.env.slave_agent.drv [ahb_slave_driver] Beat AHB_WRITE addr=0x00005638 resp=AHB_RESP_OKAY waits=1 wdata=0x9b4157c1
# UVM_INFO ../src/mst/ahb_master_monitor.sv(117) @ 2975000: uvm_test_top.env.master_agent.mon [ahb_master_monitor] Beat[124] addr=0x00005638 wdata=0x9b4157c1 resp=AHB_RESP_OKAY
# UVM_INFO ../src/mst/ahb_master_driver.sv(317) @ 2985000: uvm_test_top.env.master_agent.drv [ahb_master_driver] Beat[125/256] addr=0x0000563a trans=AHB_TRANS_SEQ resp=AHB_RESP_OKAY wdata=0xfdf8799f
# UVM_INFO ../src/slv/ahb_slave_driver.sv(184) @ 2985000: uvm_test_top.env.slave_agent.drv [ahb_slave_driver] Beat AHB_WRITE addr=0x0000563a resp=AHB_RESP_OKAY waits=0 wdata=0xfdf8799f
# UVM_INFO ../src/mst/ahb_master_monitor.sv(117) @ 2985000: uvm_test_top.env.master_agent.mon [ahb_master_monitor] Beat[125] addr=0x0000563a wdata=0xfdf8799f resp=AHB_RESP_OKAY
# UVM_INFO ../src/mst/ahb_master_driver.sv(317) @ 3015000: uvm_test_top.env.master_agent.drv [ahb_master_driver] Beat[126/256] addr=0x0000563c trans=AHB_TRANS_SEQ resp=AHB_RESP_OKAY wdata=0xccf2888d
# UVM_INFO ../src/slv/ahb_slave_driver.sv(184) @ 3015000: uvm_test_top.env.slave_agent.drv [ahb_slave_driver] Beat AHB_WRITE addr=0x0000563c resp=AHB_RESP_OKAY waits=2 wdata=0xccf2888d
# UVM_INFO ../src/mst/ahb_master_monitor.sv(117) @ 3015000: uvm_test_top.env.master_agent.mon [ahb_master_monitor] Beat[126] addr=0x0000563c wdata=0xccf2888d resp=AHB_RESP_OKAY
# UVM_INFO ../src/mst/ahb_master_driver.sv(317) @ 3025000: uvm_test_top.env.master_agent.drv [ahb_master_driver] Beat[127/256] addr=0x0000563e trans=AHB_TRANS_SEQ resp=AHB_RESP_OKAY wdata=0x43d0044b
# UVM_INFO ../src/slv/ahb_slave_driver.sv(184) @ 3025000: uvm_test_top.env.slave_agent.drv [ahb_slave_driver] Beat AHB_WRITE addr=0x0000563e resp=AHB_RESP_OKAY waits=0 wdata=0x43d0044b
# UVM_INFO ../src/mst/ahb_master_monitor.sv(117) @ 3025000: uvm_test_top.env.master_agent.mon [ahb_master_monitor] Beat[127] addr=0x0000563e wdata=0x43d0044b resp=AHB_RESP_OKAY
# UVM_INFO ../src/mst/ahb_master_driver.sv(317) @ 3065000: uvm_test_top.env.master_agent.drv [ahb_master_driver] Beat[128/256] addr=0x00005640 trans=AHB_TRANS_SEQ resp=AHB_RESP_OKAY wdata=0x392ec9d9
# UVM_INFO ../src/slv/ahb_slave_driver.sv(184) @ 3065000: uvm_test_top.env.slave_agent.drv [ahb_slave_driver] Beat AHB_WRITE addr=0x00005640 resp=AHB_RESP_OKAY waits=1 wdata=0x392ec9d9
# UVM_INFO ../src/mst/ahb_master_monitor.sv(117) @ 3065000: uvm_test_top.env.master_agent.mon [ahb_master_monitor] Beat[128] addr=0x00005640 wdata=0x392ec9d9 resp=AHB_RESP_OKAY
# UVM_INFO ../src/mst/ahb_master_driver.sv(317) @ 3085000: uvm_test_top.env.master_agent.drv [ahb_master_driver] Beat[129/256] addr=0x00005642 trans=AHB_TRANS_SEQ resp=AHB_RESP_OKAY wdata=0x14673fc6
# UVM_INFO ../src/slv/ahb_slave_driver.sv(184) @ 3085000: uvm_test_top.env.slave_agent.drv [ahb_slave_driver] Beat AHB_WRITE addr=0x00005642 resp=AHB_RESP_OKAY waits=1 wdata=0x14673fc6
# UVM_INFO ../src/mst/ahb_master_monitor.sv(117) @ 3085000: uvm_test_top.env.master_agent.mon [ahb_master_monitor] Beat[129] addr=0x00005642 wdata=0x14673fc6 resp=AHB_RESP_OKAY
# UVM_INFO ../src/mst/ahb_master_driver.sv(317) @ 3115000: uvm_test_top.env.master_agent.drv [ahb_master_driver] Beat[130/256] addr=0x00005644 trans=AHB_TRANS_SEQ resp=AHB_RESP_OKAY wdata=0x8787e949
# UVM_INFO ../src/slv/ahb_slave_driver.sv(184) @ 3115000: uvm_test_top.env.slave_agent.drv [ahb_slave_driver] Beat AHB_WRITE addr=0x00005644 resp=AHB_RESP_OKAY waits=2 wdata=0x8787e949
# UVM_INFO ../src/mst/ahb_master_monitor.sv(117) @ 3115000: uvm_test_top.env.master_agent.mon [ahb_master_monitor] Beat[130] addr=0x00005644 wdata=0x8787e949 resp=AHB_RESP_OKAY
# UVM_INFO ../src/mst/ahb_master_driver.sv(317) @ 3145000: uvm_test_top.env.master_agent.drv [ahb_master_driver] Beat[131/256] addr=0x00005646 trans=AHB_TRANS_SEQ resp=AHB_RESP_OKAY wdata=0x809e5d01
# UVM_INFO ../src/slv/ahb_slave_driver.sv(184) @ 3145000: uvm_test_top.env.slave_agent.drv [ahb_slave_driver] Beat AHB_WRITE addr=0x00005646 resp=AHB_RESP_OKAY waits=2 wdata=0x809e5d01
# UVM_INFO ../src/mst/ahb_master_monitor.sv(117) @ 3145000: uvm_test_top.env.master_agent.mon [ahb_master_monitor] Beat[131] addr=0x00005646 wdata=0x809e5d01 resp=AHB_RESP_OKAY
# UVM_INFO ../src/mst/ahb_master_driver.sv(317) @ 3175000: uvm_test_top.env.master_agent.drv [ahb_master_driver] Beat[132/256] addr=0x00005648 trans=AHB_TRANS_SEQ resp=AHB_RESP_OKAY wdata=0x083421e4
# UVM_INFO ../src/slv/ahb_slave_driver.sv(184) @ 3175000: uvm_test_top.env.slave_agent.drv [ahb_slave_driver] Beat AHB_WRITE addr=0x00005648 resp=AHB_RESP_OKAY waits=2 wdata=0x083421e4
# UVM_INFO ../src/mst/ahb_master_monitor.sv(117) @ 3175000: uvm_test_top.env.master_agent.mon [ahb_master_monitor] Beat[132] addr=0x00005648 wdata=0x083421e4 resp=AHB_RESP_OKAY
# UVM_INFO ../src/mst/ahb_master_driver.sv(317) @ 3205000: uvm_test_top.env.master_agent.drv [ahb_master_driver] Beat[133/256] addr=0x0000564a trans=AHB_TRANS_SEQ resp=AHB_RESP_OKAY wdata=0x2e1ac0b1
# UVM_INFO ../src/slv/ahb_slave_driver.sv(184) @ 3205000: uvm_test_top.env.slave_agent.drv [ahb_slave_driver] Beat AHB_WRITE addr=0x0000564a resp=AHB_RESP_OKAY waits=2 wdata=0x2e1ac0b1
# UVM_INFO ../src/mst/ahb_master_monitor.sv(117) @ 3205000: uvm_test_top.env.master_agent.mon [ahb_master_monitor] Beat[133] addr=0x0000564a wdata=0x2e1ac0b1 resp=AHB_RESP_OKAY
# UVM_INFO ../src/mst/ahb_master_driver.sv(317) @ 3215000: uvm_test_top.env.master_agent.drv [ahb_master_driver] Beat[134/256] addr=0x0000564c trans=AHB_TRANS_SEQ resp=AHB_RESP_OKAY wdata=0x67c98aca
# UVM_INFO ../src/slv/ahb_slave_driver.sv(184) @ 3215000: uvm_test_top.env.slave_agent.drv [ahb_slave_driver] Beat AHB_WRITE addr=0x0000564c resp=AHB_RESP_OKAY waits=0 wdata=0x67c98aca
# UVM_INFO ../src/mst/ahb_master_monitor.sv(117) @ 3215000: uvm_test_top.env.master_agent.mon [ahb_master_monitor] Beat[134] addr=0x0000564c wdata=0x67c98aca resp=AHB_RESP_OKAY
# UVM_INFO ../src/mst/ahb_master_driver.sv(317) @ 3235000: uvm_test_top.env.master_agent.drv [ahb_master_driver] Beat[135/256] addr=0x0000564e trans=AHB_TRANS_SEQ resp=AHB_RESP_OKAY wdata=0x8383bcb9
# UVM_INFO ../src/slv/ahb_slave_driver.sv(184) @ 3235000: uvm_test_top.env.slave_agent.drv [ahb_slave_driver] Beat AHB_WRITE addr=0x0000564e resp=AHB_RESP_OKAY waits=1 wdata=0x8383bcb9
# UVM_INFO ../src/mst/ahb_master_monitor.sv(117) @ 3235000: uvm_test_top.env.master_agent.mon [ahb_master_monitor] Beat[135] addr=0x0000564e wdata=0x8383bcb9 resp=AHB_RESP_OKAY
# UVM_INFO ../src/mst/ahb_master_driver.sv(317) @ 3255000: uvm_test_top.env.master_agent.drv [ahb_master_driver] Beat[136/256] addr=0x00005650 trans=AHB_TRANS_SEQ resp=AHB_RESP_OKAY wdata=0x3f4b6415
# UVM_INFO ../src/slv/ahb_slave_driver.sv(184) @ 3255000: uvm_test_top.env.slave_agent.drv [ahb_slave_driver] Beat AHB_WRITE addr=0x00005650 resp=AHB_RESP_OKAY waits=0 wdata=0x3f4b6415
# UVM_INFO ../src/mst/ahb_master_monitor.sv(117) @ 3255000: uvm_test_top.env.master_agent.mon [ahb_master_monitor] Beat[136] addr=0x00005650 wdata=0x3f4b6415 resp=AHB_RESP_OKAY
# UVM_INFO ../src/mst/ahb_master_driver.sv(317) @ 3265000: uvm_test_top.env.master_agent.drv [ahb_master_driver] Beat[137/256] addr=0x00005652 trans=AHB_TRANS_SEQ resp=AHB_RESP_OKAY wdata=0x5df56ce8
# UVM_INFO ../src/slv/ahb_slave_driver.sv(184) @ 3265000: uvm_test_top.env.slave_agent.drv [ahb_slave_driver] Beat AHB_WRITE addr=0x00005652 resp=AHB_RESP_OKAY waits=0 wdata=0x5df56ce8
# UVM_INFO ../src/mst/ahb_master_monitor.sv(117) @ 3265000: uvm_test_top.env.master_agent.mon [ahb_master_monitor] Beat[137] addr=0x00005652 wdata=0x5df56ce8 resp=AHB_RESP_OKAY
# UVM_INFO ../src/mst/ahb_master_driver.sv(317) @ 3275000: uvm_test_top.env.master_agent.drv [ahb_master_driver] Beat[138/256] addr=0x00005654 trans=AHB_TRANS_SEQ resp=AHB_RESP_OKAY wdata=0xdbe81a5e
# UVM_INFO ../src/slv/ahb_slave_driver.sv(184) @ 3275000: uvm_test_top.env.slave_agent.drv [ahb_slave_driver] Beat AHB_WRITE addr=0x00005654 resp=AHB_RESP_OKAY waits=0 wdata=0xdbe81a5e
# UVM_INFO ../src/mst/ahb_master_monitor.sv(117) @ 3275000: uvm_test_top.env.master_agent.mon [ahb_master_monitor] Beat[138] addr=0x00005654 wdata=0xdbe81a5e resp=AHB_RESP_OKAY
# UVM_INFO ../src/mst/ahb_master_driver.sv(317) @ 3285000: uvm_test_top.env.master_agent.drv [ahb_master_driver] Beat[139/256] addr=0x00005656 trans=AHB_TRANS_SEQ resp=AHB_RESP_OKAY wdata=0x73c6cd6a
# UVM_INFO ../src/slv/ahb_slave_driver.sv(184) @ 3285000: uvm_test_top.env.slave_agent.drv [ahb_slave_driver] Beat AHB_WRITE addr=0x00005656 resp=AHB_RESP_OKAY waits=0 wdata=0x73c6cd6a
# UVM_INFO ../src/mst/ahb_master_monitor.sv(117) @ 3285000: uvm_test_top.env.master_agent.mon [ahb_master_monitor] Beat[139] addr=0x00005656 wdata=0x73c6cd6a resp=AHB_RESP_OKAY
# UVM_INFO ../src/mst/ahb_master_driver.sv(317) @ 3305000: uvm_test_top.env.master_agent.drv [ahb_master_driver] Beat[140/256] addr=0x00005658 trans=AHB_TRANS_SEQ resp=AHB_RESP_OKAY wdata=0x1d057283
# UVM_INFO ../src/slv/ahb_slave_driver.sv(184) @ 3305000: uvm_test_top.env.slave_agent.drv [ahb_slave_driver] Beat AHB_WRITE addr=0x00005658 resp=AHB_RESP_OKAY waits=1 wdata=0x1d057283
# UVM_INFO ../src/mst/ahb_master_monitor.sv(117) @ 3305000: uvm_test_top.env.master_agent.mon [ahb_master_monitor] Beat[140] addr=0x00005658 wdata=0x1d057283 resp=AHB_RESP_OKAY
# UVM_INFO ../src/mst/ahb_master_driver.sv(317) @ 3325000: uvm_test_top.env.master_agent.drv [ahb_master_driver] Beat[141/256] addr=0x0000565a trans=AHB_TRANS_SEQ resp=AHB_RESP_OKAY wdata=0x83661e17
# UVM_INFO ../src/slv/ahb_slave_driver.sv(184) @ 3325000: uvm_test_top.env.slave_agent.drv [ahb_slave_driver] Beat AHB_WRITE addr=0x0000565a resp=AHB_RESP_OKAY waits=1 wdata=0x83661e17
# UVM_INFO ../src/mst/ahb_master_monitor.sv(117) @ 3325000: uvm_test_top.env.master_agent.mon [ahb_master_monitor] Beat[141] addr=0x0000565a wdata=0x83661e17 resp=AHB_RESP_OKAY
# UVM_INFO ../src/mst/ahb_master_driver.sv(317) @ 3355000: uvm_test_top.env.master_agent.drv [ahb_master_driver] Beat[142/256] addr=0x0000565c trans=AHB_TRANS_SEQ resp=AHB_RESP_OKAY wdata=0x49e0d9b0
# UVM_INFO ../src/slv/ahb_slave_driver.sv(184) @ 3355000: uvm_test_top.env.slave_agent.drv [ahb_slave_driver] Beat AHB_WRITE addr=0x0000565c resp=AHB_RESP_OKAY waits=2 wdata=0x49e0d9b0
# UVM_INFO ../src/mst/ahb_master_monitor.sv(117) @ 3355000: uvm_test_top.env.master_agent.mon [ahb_master_monitor] Beat[142] addr=0x0000565c wdata=0x49e0d9b0 resp=AHB_RESP_OKAY
# UVM_INFO ../src/mst/ahb_master_driver.sv(317) @ 3365000: uvm_test_top.env.master_agent.drv [ahb_master_driver] Beat[143/256] addr=0x0000565e trans=AHB_TRANS_SEQ resp=AHB_RESP_OKAY wdata=0xa33de246
# UVM_INFO ../src/slv/ahb_slave_driver.sv(184) @ 3365000: uvm_test_top.env.slave_agent.drv [ahb_slave_driver] Beat AHB_WRITE addr=0x0000565e resp=AHB_RESP_OKAY waits=0 wdata=0xa33de246
# UVM_INFO ../src/mst/ahb_master_monitor.sv(117) @ 3365000: uvm_test_top.env.master_agent.mon [ahb_master_monitor] Beat[143] addr=0x0000565e wdata=0xa33de246 resp=AHB_RESP_OKAY
# UVM_INFO ../src/mst/ahb_master_driver.sv(317) @ 3395000: uvm_test_top.env.master_agent.drv [ahb_master_driver] Beat[144/256] addr=0x00005660 trans=AHB_TRANS_SEQ resp=AHB_RESP_OKAY wdata=0x0c52a362
# UVM_INFO ../src/slv/ahb_slave_driver.sv(184) @ 3395000: uvm_test_top.env.slave_agent.drv [ahb_slave_driver] Beat AHB_WRITE addr=0x00005660 resp=AHB_RESP_OKAY waits=0 wdata=0x0c52a362
# UVM_INFO ../src/mst/ahb_master_monitor.sv(117) @ 3395000: uvm_test_top.env.master_agent.mon [ahb_master_monitor] Beat[144] addr=0x00005660 wdata=0x0c52a362 resp=AHB_RESP_OKAY
# UVM_INFO ../src/mst/ahb_master_driver.sv(317) @ 3415000: uvm_test_top.env.master_agent.drv [ahb_master_driver] Beat[145/256] addr=0x00005662 trans=AHB_TRANS_SEQ resp=AHB_RESP_OKAY wdata=0xc3c251f5
# UVM_INFO ../src/slv/ahb_slave_driver.sv(184) @ 3415000: uvm_test_top.env.slave_agent.drv [ahb_slave_driver] Beat AHB_WRITE addr=0x00005662 resp=AHB_RESP_OKAY waits=1 wdata=0xc3c251f5
# UVM_INFO ../src/mst/ahb_master_monitor.sv(117) @ 3415000: uvm_test_top.env.master_agent.mon [ahb_master_monitor] Beat[145] addr=0x00005662 wdata=0xc3c251f5 resp=AHB_RESP_OKAY
# UVM_INFO ../src/mst/ahb_master_driver.sv(317) @ 3435000: uvm_test_top.env.master_agent.drv [ahb_master_driver] Beat[146/256] addr=0x00005664 trans=AHB_TRANS_SEQ resp=AHB_RESP_OKAY wdata=0x1bc5bbaf
# UVM_INFO ../src/slv/ahb_slave_driver.sv(184) @ 3435000: uvm_test_top.env.slave_agent.drv [ahb_slave_driver] Beat AHB_WRITE addr=0x00005664 resp=AHB_RESP_OKAY waits=1 wdata=0x1bc5bbaf
# UVM_INFO ../src/mst/ahb_master_monitor.sv(117) @ 3435000: uvm_test_top.env.master_agent.mon [ahb_master_monitor] Beat[146] addr=0x00005664 wdata=0x1bc5bbaf resp=AHB_RESP_OKAY
# UVM_INFO ../src/mst/ahb_master_driver.sv(317) @ 3455000: uvm_test_top.env.master_agent.drv [ahb_master_driver] Beat[147/256] addr=0x00005666 trans=AHB_TRANS_SEQ resp=AHB_RESP_OKAY wdata=0xe095f73a
# UVM_INFO ../src/slv/ahb_slave_driver.sv(184) @ 3455000: uvm_test_top.env.slave_agent.drv [ahb_slave_driver] Beat AHB_WRITE addr=0x00005666 resp=AHB_RESP_OKAY waits=1 wdata=0xe095f73a
# UVM_INFO ../src/mst/ahb_master_monitor.sv(117) @ 3455000: uvm_test_top.env.master_agent.mon [ahb_master_monitor] Beat[147] addr=0x00005666 wdata=0xe095f73a resp=AHB_RESP_OKAY
# UVM_INFO ../src/mst/ahb_master_driver.sv(317) @ 3485000: uvm_test_top.env.master_agent.drv [ahb_master_driver] Beat[148/256] addr=0x00005668 trans=AHB_TRANS_SEQ resp=AHB_RESP_OKAY wdata=0x70b2ae9e
# UVM_INFO ../src/slv/ahb_slave_driver.sv(184) @ 3485000: uvm_test_top.env.slave_agent.drv [ahb_slave_driver] Beat AHB_WRITE addr=0x00005668 resp=AHB_RESP_OKAY waits=2 wdata=0x70b2ae9e
# UVM_INFO ../src/mst/ahb_master_monitor.sv(117) @ 3485000: uvm_test_top.env.master_agent.mon [ahb_master_monitor] Beat[148] addr=0x00005668 wdata=0x70b2ae9e resp=AHB_RESP_OKAY
# UVM_INFO ../src/mst/ahb_master_driver.sv(317) @ 3515000: uvm_test_top.env.master_agent.drv [ahb_master_driver] Beat[149/256] addr=0x0000566a trans=AHB_TRANS_SEQ resp=AHB_RESP_OKAY wdata=0xb72c8563
# UVM_INFO ../src/slv/ahb_slave_driver.sv(184) @ 3515000: uvm_test_top.env.slave_agent.drv [ahb_slave_driver] Beat AHB_WRITE addr=0x0000566a resp=AHB_RESP_OKAY waits=2 wdata=0xb72c8563
# UVM_INFO ../src/mst/ahb_master_monitor.sv(117) @ 3515000: uvm_test_top.env.master_agent.mon [ahb_master_monitor] Beat[149] addr=0x0000566a wdata=0xb72c8563 resp=AHB_RESP_OKAY
# UVM_INFO ../src/mst/ahb_master_driver.sv(317) @ 3525000: uvm_test_top.env.master_agent.drv [ahb_master_driver] Beat[150/256] addr=0x0000566c trans=AHB_TRANS_SEQ resp=AHB_RESP_OKAY wdata=0x7e208820
# UVM_INFO ../src/slv/ahb_slave_driver.sv(184) @ 3525000: uvm_test_top.env.slave_agent.drv [ahb_slave_driver] Beat AHB_WRITE addr=0x0000566c resp=AHB_RESP_OKAY waits=0 wdata=0x7e208820
# UVM_INFO ../src/mst/ahb_master_monitor.sv(117) @ 3525000: uvm_test_top.env.master_agent.mon [ahb_master_monitor] Beat[150] addr=0x0000566c wdata=0x7e208820 resp=AHB_RESP_OKAY
# UVM_INFO ../src/mst/ahb_master_driver.sv(317) @ 3545000: uvm_test_top.env.master_agent.drv [ahb_master_driver] Beat[151/256] addr=0x0000566e trans=AHB_TRANS_SEQ resp=AHB_RESP_OKAY wdata=0x5ac033bd
# UVM_INFO ../src/slv/ahb_slave_driver.sv(184) @ 3545000: uvm_test_top.env.slave_agent.drv [ahb_slave_driver] Beat AHB_WRITE addr=0x0000566e resp=AHB_RESP_OKAY waits=1 wdata=0x5ac033bd
# UVM_INFO ../src/mst/ahb_master_monitor.sv(117) @ 3545000: uvm_test_top.env.master_agent.mon [ahb_master_monitor] Beat[151] addr=0x0000566e wdata=0x5ac033bd resp=AHB_RESP_OKAY
# UVM_INFO ../src/mst/ahb_master_driver.sv(317) @ 3575000: uvm_test_top.env.master_agent.drv [ahb_master_driver] Beat[152/256] addr=0x00005670 trans=AHB_TRANS_SEQ resp=AHB_RESP_OKAY wdata=0xa77a411b
# UVM_INFO ../src/slv/ahb_slave_driver.sv(184) @ 3575000: uvm_test_top.env.slave_agent.drv [ahb_slave_driver] Beat AHB_WRITE addr=0x00005670 resp=AHB_RESP_OKAY waits=0 wdata=0xa77a411b
# UVM_INFO ../src/mst/ahb_master_monitor.sv(117) @ 3575000: uvm_test_top.env.master_agent.mon [ahb_master_monitor] Beat[152] addr=0x00005670 wdata=0xa77a411b resp=AHB_RESP_OKAY
# UVM_INFO ../src/mst/ahb_master_driver.sv(317) @ 3605000: uvm_test_top.env.master_agent.drv [ahb_master_driver] Beat[153/256] addr=0x00005672 trans=AHB_TRANS_SEQ resp=AHB_RESP_OKAY wdata=0xb7b10f5e
# UVM_INFO ../src/slv/ahb_slave_driver.sv(184) @ 3605000: uvm_test_top.env.slave_agent.drv [ahb_slave_driver] Beat AHB_WRITE addr=0x00005672 resp=AHB_RESP_OKAY waits=2 wdata=0xb7b10f5e
# UVM_INFO ../src/mst/ahb_master_monitor.sv(117) @ 3605000: uvm_test_top.env.master_agent.mon [ahb_master_monitor] Beat[153] addr=0x00005672 wdata=0xb7b10f5e resp=AHB_RESP_OKAY
# UVM_INFO ../src/mst/ahb_master_driver.sv(317) @ 3635000: uvm_test_top.env.master_agent.drv [ahb_master_driver] Beat[154/256] addr=0x00005674 trans=AHB_TRANS_SEQ resp=AHB_RESP_OKAY wdata=0xca2ab6f9
# UVM_INFO ../src/slv/ahb_slave_driver.sv(184) @ 3635000: uvm_test_top.env.slave_agent.drv [ahb_slave_driver] Beat AHB_WRITE addr=0x00005674 resp=AHB_RESP_OKAY waits=2 wdata=0xca2ab6f9
# UVM_INFO ../src/mst/ahb_master_monitor.sv(117) @ 3635000: uvm_test_top.env.master_agent.mon [ahb_master_monitor] Beat[154] addr=0x00005674 wdata=0xca2ab6f9 resp=AHB_RESP_OKAY
# UVM_INFO ../src/mst/ahb_master_driver.sv(317) @ 3665000: uvm_test_top.env.master_agent.drv [ahb_master_driver] Beat[155/256] addr=0x00005676 trans=AHB_TRANS_SEQ resp=AHB_RESP_OKAY wdata=0x47744ba4
# UVM_INFO ../src/slv/ahb_slave_driver.sv(184) @ 3665000: uvm_test_top.env.slave_agent.drv [ahb_slave_driver] Beat AHB_WRITE addr=0x00005676 resp=AHB_RESP_OKAY waits=2 wdata=0x47744ba4
# UVM_INFO ../src/mst/ahb_master_monitor.sv(117) @ 3665000: uvm_test_top.env.master_agent.mon [ahb_master_monitor] Beat[155] addr=0x00005676 wdata=0x47744ba4 resp=AHB_RESP_OKAY
