# vsim -c -coverage -sv_seed 66034328 "+UVM_TESTNAME=ahb_passive_test" "+UVM_VERBOSITY=UVM_HIGH" "+DUMP_VCD" -l ./report/logs/ahb_passive_test_run_3_seed_66034328.log -do "coverage save -onexit ./report/coverage/ahb_passive_test_run_3_seed_66034328.ucdb; run -all; quit -f" opt_tb_top 
# Start time: 11:59:10 on Aug 06,2026
# //  Questa Sim-64
# //  Version 10.6b linux_x86_64 May 25 2017
# //
# //  Copyright 1991-2017 Mentor Graphics Corporation
# //  All Rights Reserved.
# //
# //  QuestaSim and its associated documentation contain trade
# //  secrets and commercial or financial information that are the property of
# //  Mentor Graphics Corporation and are privileged, confidential,
# //  and exempt from disclosure under the Freedom of Information Act,
# //  5 U.S.C. Section 552. Furthermore, this information
# //  is prohibited from disclosure under the Trade Secrets Act,
# //  18 U.S.C. Section 1905.
# //
# Loading sv_std.std
# Loading work.ahb_if(fast)
# Loading mtiUvm.uvm_pkg
# Loading work.ahb_pkg(fast)
# Loading work.ahb_seq_pkg(fast)
# Loading work.ahb_test_pkg(fast)
# Loading work.tb_top(fast)
# Loading work.ahb_if(fast)
# Loading work.ahb_sva(fast)
# Loading mtiUvm.questa_uvm_pkg(fast)
# Loading /cadtools/mentor/Questa_10.6b/questasim/uvm-1.1d/linux_x86_64/uvm_dpi.so
# coverage save -onexit ./report/coverage/ahb_passive_test_run_3_seed_66034328.ucdb
#  run -all
# ----------------------------------------------------------------
# UVM-1.1d
# (C) 2007-2013 Mentor Graphics Corporation
# (C) 2007-2013 Cadence Design Systems, Inc.
# (C) 2006-2013 Synopsys, Inc.
# (C) 2011-2013 Cypress Semiconductor Corp.
# ----------------------------------------------------------------
# 
#   ***********       IMPORTANT RELEASE NOTES         ************
# 
#   You are using a version of the UVM library that has been compiled
#   with `UVM_NO_DEPRECATED undefined.
#   See http://www.eda.org/svdb/view.php?id=3313 for more details.
# 
#   You are using a version of the UVM library that has been compiled
#   with `UVM_OBJECT_MUST_HAVE_CONSTRUCTOR undefined.
#   See http://www.eda.org/svdb/view.php?id=3770 for more details.
# 
#       (Specify +UVM_NO_RELNOTES to turn off this notice)
# 
# UVM_INFO verilog_src/questa_uvm_pkg-1.2/src/questa_uvm_pkg.sv(215) @ 0: reporter [Questa UVM] QUESTA_UVM-1.2.3
# UVM_INFO verilog_src/questa_uvm_pkg-1.2/src/questa_uvm_pkg.sv(217) @ 0: reporter [Questa UVM]  questa_uvm::init(+struct)
# UVM_INFO ../src/tb_top.sv(126) @ 0: reporter [TB_TOP] Virtual interface set in config_db
# UVM_INFO @ 0: reporter [RNTST] Running test ahb_passive_test...
# UVM_INFO ../src/tb_top.sv(140) @ 0: reporter [TB_TOP] Waveform VCD dumping enabled (ahb_lite_vip.vcd)
# UVM_INFO ../src/env/ahb_vip_env.sv(64) @ 0: uvm_test_top.env [ahb_vip_env] slave_vif not set - reusing master_vif (passthrough mode)
# UVM_INFO ../src/env/ahb_vip_env.sv(72) @ 0: uvm_test_top.env [ahb_vip_env] Scoreboard created
# UVM_INFO ../src/env/ahb_vip_env.sv(78) @ 0: uvm_test_top.env [ahb_vip_env] Coverage collectors created
# UVM_INFO ../src/mst/ahb_master_agent.sv(61) @ 0: uvm_test_top.env.master_agent [ahb_master_agent] ACTIVE mode - driver + sequencer created
# UVM_INFO ../src/slv/ahb_slave_agent.sv(66) @ 0: uvm_test_top.env.slave_agent [ahb_slave_agent] PASSIVE mode - monitor only
# UVM_INFO ../src/env/ahb_vip_env.sv(92) @ 0: uvm_test_top.env [ahb_vip_env] Scoreboard connected: master_mon.ap -> scb, slave_mon.ap -> scb
# UVM_INFO ../src/env/ahb_vip_env.sv(102) @ 0: uvm_test_top.env [ahb_vip_env] Coverage connected: master_mon.ap/trans_ap -> master_cov, slave_mon.ap/trans_ap -> slave_cov
# UVM_INFO @ 0: reporter [UVMTOP] UVM testbench topology:
# ---------------------------------------------------------------
# Name                       Type                     Size  Value
# ---------------------------------------------------------------
# uvm_test_top               ahb_passive_test         -     @475 
#   env                      ahb_vip_env              -     @490 
#     master_agent           ahb_master_agent         -     @505 
#       drv                  ahb_master_driver        -     @570 
#         rsp_port           uvm_analysis_port        -     @585 
#         seq_item_port      uvm_seq_item_pull_port   -     @577 
#       mon                  ahb_master_monitor       -     @563 
#         ap                 uvm_analysis_port        -     @704 
#         trans_ap           uvm_analysis_port        -     @712 
#       sqr                  ahb_master_sequencer     -     @593 
#         rsp_export         uvm_analysis_export      -     @600 
#         seq_item_export    uvm_seq_item_pull_imp    -     @694 
#         arbitration_queue  array                    0     -    
#         lock_queue         array                    0     -    
#         num_last_reqs      integral                 32    'd1  
#         num_last_rsps      integral                 32    'd1  
#     master_cov             ahb_coverage             -     @526 
#       analysis_imp         uvm_analysis_imp         -     @533 
#       trans_export         uvm_analysis_imp_trans   -     @726 
#     scb                    ahb_scoreboard           -     @519 
#       master_export        uvm_analysis_imp_master  -     @734 
#       slave_export         uvm_analysis_imp_slave   -     @742 
#     slave_agent            ahb_slave_agent          -     @512 
#       mon                  ahb_slave_monitor        -     @757 
#         ap                 uvm_analysis_port        -     @764 
#         trans_ap           uvm_analysis_port        -     @772 
#     slave_cov              ahb_coverage             -     @541 
#       analysis_imp         uvm_analysis_imp         -     @548 
#       trans_export         uvm_analysis_imp_trans   -     @781 
# ---------------------------------------------------------------
# 
# UVM_INFO verilog_src/questa_uvm_pkg-1.2/src/questa_uvm_pkg.sv(277) @ 0: reporter [Questa UVM] End Of Elaboration
# UVM_INFO ../src/mst_seq/ahb_passive_seq.sv(29) @ 0: uvm_test_top.env.master_agent.sqr@@seq [ahb_passive_seq] Starting passive-slave traffic: 12 transfers
# UVM_INFO ../src/mst/ahb_master_driver.sv(183) @ 5000: uvm_test_top.env.master_agent.drv [ahb_master_driver] Flushed pending transactions (reset)
# UVM_INFO ../src/tb_top.sv(48) @ 95000: reporter [TB_TOP] Reset de-asserted
# UVM_INFO ../src/mst/ahb_master_driver.sv(72) @ 95000: uvm_test_top.env.master_agent.drv [ahb_master_driver] Reset deasserted - master driver active
# UVM_INFO ../src/mst/ahb_master_monitor.sv(81) @ 95000: uvm_test_top.env.master_agent.mon [ahb_master_monitor] Reset deasserted - master monitor active
# UVM_INFO ../src/slv/ahb_slave_monitor.sv(75) @ 95000: uvm_test_top.env.slave_agent.mon [ahb_slave_monitor] Reset deasserted - slave monitor active
# UVM_INFO ../src/mst/ahb_master_driver.sv(85) @ 95000: uvm_test_top.env.master_agent.drv [ahb_master_driver] Queueing [AHB_WRITE]: HADDR=0x0000a004, HBURST=AHB_BURST_SINGLE, HSIZE=AHB_SIZE_32B, 1 beats
# UVM_INFO ../src/mst/ahb_master_driver.sv(127) @ 95000: uvm_test_top.env.master_agent.drv [ahb_master_driver] Driving [AHB_WRITE]: HADDR=0x0000a004, HBURST=AHB_BURST_SINGLE, HSIZE=AHB_SIZE_32B, 1 beats               
# UVM_INFO ../src/mst/ahb_master_driver.sv(332) @ 115000: uvm_test_top.env.master_agent.drv [ahb_master_driver] Beat[0/1] addr=0x0000a004 trans=AHB_TRANS_NONSEQ resp=AHB_RESP_OKAY wdata=0xb9515324
# UVM_INFO ../src/mst/ahb_master_driver.sv(376) @ 115000: uvm_test_top.env.master_agent.drv [ahb_master_driver] Transaction complete: AHB_WRITE 0x0000a004, 1 beats, burst=AHB_BURST_SINGLE
# UVM_INFO ../src/slv/ahb_slave_monitor.sv(208) @ 115000: uvm_test_top.env.slave_agent.mon [ahb_slave_monitor] Observed [AHB_WRITE]: HADDR=0x0000a004, HBURST=AHB_BURST_SINGLE, HSIZE=AHB_SIZE_32B, 1 beats
# UVM_INFO ../src/env/ahb_coverage.sv(174) @ 115000: uvm_test_top.env.slave_cov [ahb_coverage] Sampled [AHB_WRITE]: burst=AHB_BURST_SINGLE size=AHB_SIZE_32B beats=1 error=0
# UVM_INFO ../src/mst/ahb_master_monitor.sv(128) @ 115000: uvm_test_top.env.master_agent.mon [ahb_master_monitor] Beat[0] addr=0x0000a004 wdata=0xb9515324 resp=AHB_RESP_OKAY
# UVM_INFO ../src/mst/ahb_master_monitor.sv(231) @ 115000: uvm_test_top.env.master_agent.mon [ahb_master_monitor] Observed [AHB_WRITE]: HADDR=0x0000a004, HBURST=AHB_BURST_SINGLE, HSIZE=AHB_SIZE_32B, 1 beats
# UVM_INFO ../src/env/ahb_coverage.sv(174) @ 115000: uvm_test_top.env.master_cov [ahb_coverage] Sampled [AHB_WRITE]: burst=AHB_BURST_SINGLE size=AHB_SIZE_32B beats=1 error=0
# UVM_INFO ../src/env/ahb_scoreboard.sv(104) @ 115000: uvm_test_top.env.scb [ahb_scoreboard] MATCH #1: [AHB_WRITE] HADDR=0x0000a004 AHB_BURST_SINGLE 1 beats
# UVM_INFO ../src/mst/ahb_master_driver.sv(85) @ 115000: uvm_test_top.env.master_agent.drv [ahb_master_driver] Queueing [AHB_WRITE]: HADDR=0x0000a020, HBURST=AHB_BURST_INCR4, HSIZE=AHB_SIZE_32B, 4 beats
# UVM_INFO ../src/mst/ahb_master_driver.sv(127) @ 115000: uvm_test_top.env.master_agent.drv [ahb_master_driver] Driving [AHB_WRITE]: HADDR=0x0000a020, HBURST=AHB_BURST_INCR4, HSIZE=AHB_SIZE_32B, 4 beats               
# UVM_INFO ../src/mst/ahb_master_driver.sv(332) @ 145000: uvm_test_top.env.master_agent.drv [ahb_master_driver] Beat[0/4] addr=0x0000a020 trans=AHB_TRANS_NONSEQ resp=AHB_RESP_OKAY wdata=0x25da7736
# UVM_INFO ../src/mst/ahb_master_monitor.sv(128) @ 145000: uvm_test_top.env.master_agent.mon [ahb_master_monitor] Beat[0] addr=0x0000a020 wdata=0x25da7736 resp=AHB_RESP_OKAY
# UVM_INFO ../src/mst/ahb_master_driver.sv(332) @ 155000: uvm_test_top.env.master_agent.drv [ahb_master_driver] Beat[1/4] addr=0x0000a024 trans=AHB_TRANS_SEQ resp=AHB_RESP_OKAY wdata=0x35198856
# UVM_INFO ../src/mst/ahb_master_monitor.sv(128) @ 155000: uvm_test_top.env.master_agent.mon [ahb_master_monitor] Beat[1] addr=0x0000a024 wdata=0x35198856 resp=AHB_RESP_OKAY
# UVM_INFO ../src/mst/ahb_master_driver.sv(332) @ 165000: uvm_test_top.env.master_agent.drv [ahb_master_driver] Beat[2/4] addr=0x0000a028 trans=AHB_TRANS_SEQ resp=AHB_RESP_OKAY wdata=0x024f1da6
# UVM_INFO ../src/mst/ahb_master_monitor.sv(128) @ 165000: uvm_test_top.env.master_agent.mon [ahb_master_monitor] Beat[2] addr=0x0000a028 wdata=0x024f1da6 resp=AHB_RESP_OKAY
# UVM_INFO ../src/mst/ahb_master_driver.sv(332) @ 175000: uvm_test_top.env.master_agent.drv [ahb_master_driver] Beat[3/4] addr=0x0000a02c trans=AHB_TRANS_SEQ resp=AHB_RESP_OKAY wdata=0xe487330d
# UVM_INFO ../src/mst/ahb_master_driver.sv(376) @ 175000: uvm_test_top.env.master_agent.drv [ahb_master_driver] Transaction complete: AHB_WRITE 0x0000a020, 4 beats, burst=AHB_BURST_INCR4
# UVM_INFO ../src/slv/ahb_slave_monitor.sv(208) @ 175000: uvm_test_top.env.slave_agent.mon [ahb_slave_monitor] Observed [AHB_WRITE]: HADDR=0x0000a020, HBURST=AHB_BURST_INCR4, HSIZE=AHB_SIZE_32B, 4 beats
# UVM_INFO ../src/env/ahb_coverage.sv(174) @ 175000: uvm_test_top.env.slave_cov [ahb_coverage] Sampled [AHB_WRITE]: burst=AHB_BURST_INCR4 size=AHB_SIZE_32B beats=4 error=0
# UVM_INFO ../src/mst/ahb_master_monitor.sv(128) @ 175000: uvm_test_top.env.master_agent.mon [ahb_master_monitor] Beat[3] addr=0x0000a02c wdata=0xe487330d resp=AHB_RESP_OKAY
# UVM_INFO ../src/mst/ahb_master_monitor.sv(231) @ 175000: uvm_test_top.env.master_agent.mon [ahb_master_monitor] Observed [AHB_WRITE]: HADDR=0x0000a020, HBURST=AHB_BURST_INCR4, HSIZE=AHB_SIZE_32B, 4 beats
# UVM_INFO ../src/env/ahb_coverage.sv(174) @ 175000: uvm_test_top.env.master_cov [ahb_coverage] Sampled [AHB_WRITE]: burst=AHB_BURST_INCR4 size=AHB_SIZE_32B beats=4 error=0
# UVM_INFO ../src/env/ahb_scoreboard.sv(104) @ 175000: uvm_test_top.env.scb [ahb_scoreboard] MATCH #2: [AHB_WRITE] HADDR=0x0000a020 AHB_BURST_INCR4 4 beats
# UVM_INFO ../src/mst/ahb_master_driver.sv(85) @ 175000: uvm_test_top.env.master_agent.drv [ahb_master_driver] Queueing [AHB_WRITE]: HADDR=0x0000a040, HBURST=AHB_BURST_SINGLE, HSIZE=AHB_SIZE_16B, 1 beats
# UVM_INFO ../src/mst/ahb_master_driver.sv(127) @ 175000: uvm_test_top.env.master_agent.drv [ahb_master_driver] Driving [AHB_WRITE]: HADDR=0x0000a040, HBURST=AHB_BURST_SINGLE, HSIZE=AHB_SIZE_16B, 1 beats               
# UVM_INFO ../src/mst/ahb_master_driver.sv(332) @ 205000: uvm_test_top.env.master_agent.drv [ahb_master_driver] Beat[0/1] addr=0x0000a040 trans=AHB_TRANS_NONSEQ resp=AHB_RESP_OKAY wdata=0x5c9bda18
# UVM_INFO ../src/mst/ahb_master_driver.sv(376) @ 205000: uvm_test_top.env.master_agent.drv [ahb_master_driver] Transaction complete: AHB_WRITE 0x0000a040, 1 beats, burst=AHB_BURST_SINGLE
# UVM_INFO ../src/mst/ahb_master_monitor.sv(128) @ 205000: uvm_test_top.env.master_agent.mon [ahb_master_monitor] Beat[0] addr=0x0000a040 wdata=0x5c9bda18 resp=AHB_RESP_OKAY
# UVM_INFO ../src/mst/ahb_master_monitor.sv(231) @ 205000: uvm_test_top.env.master_agent.mon [ahb_master_monitor] Observed [AHB_WRITE]: HADDR=0x0000a040, HBURST=AHB_BURST_SINGLE, HSIZE=AHB_SIZE_16B, 1 beats
# UVM_INFO ../src/env/ahb_coverage.sv(174) @ 205000: uvm_test_top.env.master_cov [ahb_coverage] Sampled [AHB_WRITE]: burst=AHB_BURST_SINGLE size=AHB_SIZE_16B beats=1 error=0
# UVM_INFO ../src/slv/ahb_slave_monitor.sv(208) @ 205000: uvm_test_top.env.slave_agent.mon [ahb_slave_monitor] Observed [AHB_WRITE]: HADDR=0x0000a040, HBURST=AHB_BURST_SINGLE, HSIZE=AHB_SIZE_16B, 1 beats
# UVM_INFO ../src/env/ahb_scoreboard.sv(104) @ 205000: uvm_test_top.env.scb [ahb_scoreboard] MATCH #3: [AHB_WRITE] HADDR=0x0000a040 AHB_BURST_SINGLE 1 beats
# UVM_INFO ../src/env/ahb_coverage.sv(174) @ 205000: uvm_test_top.env.slave_cov [ahb_coverage] Sampled [AHB_WRITE]: burst=AHB_BURST_SINGLE size=AHB_SIZE_16B beats=1 error=0
# UVM_INFO ../src/mst/ahb_master_driver.sv(85) @ 205000: uvm_test_top.env.master_agent.drv [ahb_master_driver] Queueing [AHB_WRITE]: HADDR=0x0000a060, HBURST=AHB_BURST_SINGLE, HSIZE=AHB_SIZE_16B, 1 beats
# UVM_INFO ../src/mst/ahb_master_driver.sv(127) @ 205000: uvm_test_top.env.master_agent.drv [ahb_master_driver] Driving [AHB_WRITE]: HADDR=0x0000a060, HBURST=AHB_BURST_SINGLE, HSIZE=AHB_SIZE_16B, 1 beats               
# UVM_INFO ../src/mst/ahb_master_driver.sv(332) @ 235000: uvm_test_top.env.master_agent.drv [ahb_master_driver] Beat[0/1] addr=0x0000a060 trans=AHB_TRANS_NONSEQ resp=AHB_RESP_OKAY wdata=0x423d9110
# UVM_INFO ../src/mst/ahb_master_driver.sv(376) @ 235000: uvm_test_top.env.master_agent.drv [ahb_master_driver] Transaction complete: AHB_WRITE 0x0000a060, 1 beats, burst=AHB_BURST_SINGLE
# UVM_INFO ../src/slv/ahb_slave_monitor.sv(208) @ 235000: uvm_test_top.env.slave_agent.mon [ahb_slave_monitor] Observed [AHB_WRITE]: HADDR=0x0000a060, HBURST=AHB_BURST_SINGLE, HSIZE=AHB_SIZE_16B, 1 beats
# UVM_INFO ../src/env/ahb_coverage.sv(174) @ 235000: uvm_test_top.env.slave_cov [ahb_coverage] Sampled [AHB_WRITE]: burst=AHB_BURST_SINGLE size=AHB_SIZE_16B beats=1 error=0
# UVM_INFO ../src/mst/ahb_master_monitor.sv(128) @ 235000: uvm_test_top.env.master_agent.mon [ahb_master_monitor] Beat[0] addr=0x0000a060 wdata=0x423d9110 resp=AHB_RESP_OKAY
# UVM_INFO ../src/mst/ahb_master_monitor.sv(231) @ 235000: uvm_test_top.env.master_agent.mon [ahb_master_monitor] Observed [AHB_WRITE]: HADDR=0x0000a060, HBURST=AHB_BURST_SINGLE, HSIZE=AHB_SIZE_16B, 1 beats
# UVM_INFO ../src/env/ahb_coverage.sv(174) @ 235000: uvm_test_top.env.master_cov [ahb_coverage] Sampled [AHB_WRITE]: burst=AHB_BURST_SINGLE size=AHB_SIZE_16B beats=1 error=0
# UVM_INFO ../src/env/ahb_scoreboard.sv(104) @ 235000: uvm_test_top.env.scb [ahb_scoreboard] MATCH #4: [AHB_WRITE] HADDR=0x0000a060 AHB_BURST_SINGLE 1 beats
# UVM_INFO ../src/mst/ahb_master_driver.sv(85) @ 235000: uvm_test_top.env.master_agent.drv [ahb_master_driver] Queueing [AHB_WRITE]: HADDR=0x0000a088, HBURST=AHB_BURST_SINGLE, HSIZE=AHB_SIZE_32B, 1 beats
# UVM_INFO ../src/mst/ahb_master_driver.sv(127) @ 235000: uvm_test_top.env.master_agent.drv [ahb_master_driver] Driving [AHB_WRITE]: HADDR=0x0000a088, HBURST=AHB_BURST_SINGLE, HSIZE=AHB_SIZE_32B, 1 beats               
# UVM_INFO ../src/mst/ahb_master_driver.sv(332) @ 265000: uvm_test_top.env.master_agent.drv [ahb_master_driver] Beat[0/1] addr=0x0000a088 trans=AHB_TRANS_NONSEQ resp=AHB_RESP_OKAY wdata=0xa28d4e0e
# UVM_INFO ../src/mst/ahb_master_driver.sv(376) @ 265000: uvm_test_top.env.master_agent.drv [ahb_master_driver] Transaction complete: AHB_WRITE 0x0000a088, 1 beats, burst=AHB_BURST_SINGLE
# UVM_INFO ../src/mst/ahb_master_monitor.sv(128) @ 265000: uvm_test_top.env.master_agent.mon [ahb_master_monitor] Beat[0] addr=0x0000a088 wdata=0xa28d4e0e resp=AHB_RESP_OKAY
# UVM_INFO ../src/mst/ahb_master_monitor.sv(231) @ 265000: uvm_test_top.env.master_agent.mon [ahb_master_monitor] Observed [AHB_WRITE]: HADDR=0x0000a088, HBURST=AHB_BURST_SINGLE, HSIZE=AHB_SIZE_32B, 1 beats
# UVM_INFO ../src/env/ahb_coverage.sv(174) @ 265000: uvm_test_top.env.master_cov [ahb_coverage] Sampled [AHB_WRITE]: burst=AHB_BURST_SINGLE size=AHB_SIZE_32B beats=1 error=0
# UVM_INFO ../src/slv/ahb_slave_monitor.sv(208) @ 265000: uvm_test_top.env.slave_agent.mon [ahb_slave_monitor] Observed [AHB_WRITE]: HADDR=0x0000a088, HBURST=AHB_BURST_SINGLE, HSIZE=AHB_SIZE_32B, 1 beats
# UVM_INFO ../src/env/ahb_scoreboard.sv(104) @ 265000: uvm_test_top.env.scb [ahb_scoreboard] MATCH #5: [AHB_WRITE] HADDR=0x0000a088 AHB_BURST_SINGLE 1 beats
# UVM_INFO ../src/env/ahb_coverage.sv(174) @ 265000: uvm_test_top.env.slave_cov [ahb_coverage] Sampled [AHB_WRITE]: burst=AHB_BURST_SINGLE size=AHB_SIZE_32B beats=1 error=0
# UVM_INFO ../src/mst/ahb_master_driver.sv(85) @ 265000: uvm_test_top.env.master_agent.drv [ahb_master_driver] Queueing [AHB_WRITE]: HADDR=0x0000a0a4, HBURST=AHB_BURST_SINGLE, HSIZE=AHB_SIZE_32B, 1 beats
# UVM_INFO ../src/mst/ahb_master_driver.sv(127) @ 265000: uvm_test_top.env.master_agent.drv [ahb_master_driver] Driving [AHB_WRITE]: HADDR=0x0000a0a4, HBURST=AHB_BURST_SINGLE, HSIZE=AHB_SIZE_32B, 1 beats               
# UVM_INFO ../src/mst/ahb_master_driver.sv(332) @ 295000: uvm_test_top.env.master_agent.drv [ahb_master_driver] Beat[0/1] addr=0x0000a0a4 trans=AHB_TRANS_NONSEQ resp=AHB_RESP_OKAY wdata=0x043779da
# UVM_INFO ../src/mst/ahb_master_driver.sv(376) @ 295000: uvm_test_top.env.master_agent.drv [ahb_master_driver] Transaction complete: AHB_WRITE 0x0000a0a4, 1 beats, burst=AHB_BURST_SINGLE
# UVM_INFO ../src/slv/ahb_slave_monitor.sv(208) @ 295000: uvm_test_top.env.slave_agent.mon [ahb_slave_monitor] Observed [AHB_WRITE]: HADDR=0x0000a0a4, HBURST=AHB_BURST_SINGLE, HSIZE=AHB_SIZE_32B, 1 beats
# UVM_INFO ../src/env/ahb_coverage.sv(174) @ 295000: uvm_test_top.env.slave_cov [ahb_coverage] Sampled [AHB_WRITE]: burst=AHB_BURST_SINGLE size=AHB_SIZE_32B beats=1 error=0
# UVM_INFO ../src/mst/ahb_master_monitor.sv(128) @ 295000: uvm_test_top.env.master_agent.mon [ahb_master_monitor] Beat[0] addr=0x0000a0a4 wdata=0x043779da resp=AHB_RESP_OKAY
# UVM_INFO ../src/mst/ahb_master_monitor.sv(231) @ 295000: uvm_test_top.env.master_agent.mon [ahb_master_monitor] Observed [AHB_WRITE]: HADDR=0x0000a0a4, HBURST=AHB_BURST_SINGLE, HSIZE=AHB_SIZE_32B, 1 beats
# UVM_INFO ../src/env/ahb_coverage.sv(174) @ 295000: uvm_test_top.env.master_cov [ahb_coverage] Sampled [AHB_WRITE]: burst=AHB_BURST_SINGLE size=AHB_SIZE_32B beats=1 error=0
# UVM_INFO ../src/env/ahb_scoreboard.sv(104) @ 295000: uvm_test_top.env.scb [ahb_scoreboard] MATCH #6: [AHB_WRITE] HADDR=0x0000a0a4 AHB_BURST_SINGLE 1 beats
# UVM_INFO ../src/mst/ahb_master_driver.sv(85) @ 295000: uvm_test_top.env.master_agent.drv [ahb_master_driver] Queueing [AHB_WRITE]: HADDR=0x0000a0c6, HBURST=AHB_BURST_INCR4, HSIZE=AHB_SIZE_16B, 4 beats
# UVM_INFO ../src/mst/ahb_master_driver.sv(127) @ 295000: uvm_test_top.env.master_agent.drv [ahb_master_driver] Driving [AHB_WRITE]: HADDR=0x0000a0c6, HBURST=AHB_BURST_INCR4, HSIZE=AHB_SIZE_16B, 4 beats               
# UVM_INFO ../src/mst/ahb_master_driver.sv(332) @ 325000: uvm_test_top.env.master_agent.drv [ahb_master_driver] Beat[0/4] addr=0x0000a0c6 trans=AHB_TRANS_NONSEQ resp=AHB_RESP_OKAY wdata=0x241af1ea
# UVM_INFO ../src/mst/ahb_master_monitor.sv(128) @ 325000: uvm_test_top.env.master_agent.mon [ahb_master_monitor] Beat[0] addr=0x0000a0c6 wdata=0x241af1ea resp=AHB_RESP_OKAY
# UVM_INFO ../src/mst/ahb_master_driver.sv(332) @ 335000: uvm_test_top.env.master_agent.drv [ahb_master_driver] Beat[1/4] addr=0x0000a0c8 trans=AHB_TRANS_SEQ resp=AHB_RESP_OKAY wdata=0xd766dc06
# UVM_INFO ../src/mst/ahb_master_monitor.sv(128) @ 335000: uvm_test_top.env.master_agent.mon [ahb_master_monitor] Beat[1] addr=0x0000a0c8 wdata=0xd766dc06 resp=AHB_RESP_OKAY
# UVM_INFO ../src/mst/ahb_master_driver.sv(332) @ 345000: uvm_test_top.env.master_agent.drv [ahb_master_driver] Beat[2/4] addr=0x0000a0ca trans=AHB_TRANS_SEQ resp=AHB_RESP_OKAY wdata=0xce9830d6
# UVM_INFO ../src/mst/ahb_master_monitor.sv(128) @ 345000: uvm_test_top.env.master_agent.mon [ahb_master_monitor] Beat[2] addr=0x0000a0ca wdata=0xce9830d6 resp=AHB_RESP_OKAY
# UVM_INFO ../src/mst/ahb_master_driver.sv(332) @ 355000: uvm_test_top.env.master_agent.drv [ahb_master_driver] Beat[3/4] addr=0x0000a0cc trans=AHB_TRANS_SEQ resp=AHB_RESP_OKAY wdata=0x09db6c72
# UVM_INFO ../src/mst/ahb_master_driver.sv(376) @ 355000: uvm_test_top.env.master_agent.drv [ahb_master_driver] Transaction complete: AHB_WRITE 0x0000a0c6, 4 beats, burst=AHB_BURST_INCR4
# UVM_INFO ../src/slv/ahb_slave_monitor.sv(208) @ 355000: uvm_test_top.env.slave_agent.mon [ahb_slave_monitor] Observed [AHB_WRITE]: HADDR=0x0000a0c6, HBURST=AHB_BURST_INCR4, HSIZE=AHB_SIZE_16B, 4 beats
# UVM_INFO ../src/env/ahb_coverage.sv(174) @ 355000: uvm_test_top.env.slave_cov [ahb_coverage] Sampled [AHB_WRITE]: burst=AHB_BURST_INCR4 size=AHB_SIZE_16B beats=4 error=0
# UVM_INFO ../src/mst/ahb_master_monitor.sv(128) @ 355000: uvm_test_top.env.master_agent.mon [ahb_master_monitor] Beat[3] addr=0x0000a0cc wdata=0x09db6c72 resp=AHB_RESP_OKAY
# UVM_INFO ../src/mst/ahb_master_monitor.sv(231) @ 355000: uvm_test_top.env.master_agent.mon [ahb_master_monitor] Observed [AHB_WRITE]: HADDR=0x0000a0c6, HBURST=AHB_BURST_INCR4, HSIZE=AHB_SIZE_16B, 4 beats
# UVM_INFO ../src/env/ahb_coverage.sv(174) @ 355000: uvm_test_top.env.master_cov [ahb_coverage] Sampled [AHB_WRITE]: burst=AHB_BURST_INCR4 size=AHB_SIZE_16B beats=4 error=0
# UVM_INFO ../src/env/ahb_scoreboard.sv(104) @ 355000: uvm_test_top.env.scb [ahb_scoreboard] MATCH #7: [AHB_WRITE] HADDR=0x0000a0c6 AHB_BURST_INCR4 4 beats
# UVM_INFO ../src/mst/ahb_master_driver.sv(85) @ 355000: uvm_test_top.env.master_agent.drv [ahb_master_driver] Queueing [AHB_WRITE]: HADDR=0x0000a0ec, HBURST=AHB_BURST_SINGLE, HSIZE=AHB_SIZE_32B, 1 beats
# UVM_INFO ../src/mst/ahb_master_driver.sv(127) @ 355000: uvm_test_top.env.master_agent.drv [ahb_master_driver] Driving [AHB_WRITE]: HADDR=0x0000a0ec, HBURST=AHB_BURST_SINGLE, HSIZE=AHB_SIZE_32B, 1 beats               
# UVM_INFO ../src/mst/ahb_master_driver.sv(332) @ 385000: uvm_test_top.env.master_agent.drv [ahb_master_driver] Beat[0/1] addr=0x0000a0ec trans=AHB_TRANS_NONSEQ resp=AHB_RESP_OKAY wdata=0xb5b96f42
# UVM_INFO ../src/mst/ahb_master_driver.sv(376) @ 385000: uvm_test_top.env.master_agent.drv [ahb_master_driver] Transaction complete: AHB_WRITE 0x0000a0ec, 1 beats, burst=AHB_BURST_SINGLE
# UVM_INFO ../src/mst/ahb_master_monitor.sv(128) @ 385000: uvm_test_top.env.master_agent.mon [ahb_master_monitor] Beat[0] addr=0x0000a0ec wdata=0xb5b96f42 resp=AHB_RESP_OKAY
# UVM_INFO ../src/mst/ahb_master_monitor.sv(231) @ 385000: uvm_test_top.env.master_agent.mon [ahb_master_monitor] Observed [AHB_WRITE]: HADDR=0x0000a0ec, HBURST=AHB_BURST_SINGLE, HSIZE=AHB_SIZE_32B, 1 beats
# UVM_INFO ../src/env/ahb_coverage.sv(174) @ 385000: uvm_test_top.env.master_cov [ahb_coverage] Sampled [AHB_WRITE]: burst=AHB_BURST_SINGLE size=AHB_SIZE_32B beats=1 error=0
# UVM_INFO ../src/slv/ahb_slave_monitor.sv(208) @ 385000: uvm_test_top.env.slave_agent.mon [ahb_slave_monitor] Observed [AHB_WRITE]: HADDR=0x0000a0ec, HBURST=AHB_BURST_SINGLE, HSIZE=AHB_SIZE_32B, 1 beats
# UVM_INFO ../src/env/ahb_scoreboard.sv(104) @ 385000: uvm_test_top.env.scb [ahb_scoreboard] MATCH #8: [AHB_WRITE] HADDR=0x0000a0ec AHB_BURST_SINGLE 1 beats
# UVM_INFO ../src/env/ahb_coverage.sv(174) @ 385000: uvm_test_top.env.slave_cov [ahb_coverage] Sampled [AHB_WRITE]: burst=AHB_BURST_SINGLE size=AHB_SIZE_32B beats=1 error=0
# UVM_INFO ../src/mst/ahb_master_driver.sv(85) @ 385000: uvm_test_top.env.master_agent.drv [ahb_master_driver] Queueing [AHB_WRITE]: HADDR=0x0000a10b, HBURST=AHB_BURST_SINGLE, HSIZE=AHB_SIZE_8B, 1 beats
# UVM_INFO ../src/mst/ahb_master_driver.sv(127) @ 385000: uvm_test_top.env.master_agent.drv [ahb_master_driver] Driving [AHB_WRITE]: HADDR=0x0000a10b, HBURST=AHB_BURST_SINGLE, HSIZE=AHB_SIZE_8B, 1 beats               
# UVM_INFO ../src/mst/ahb_master_driver.sv(332) @ 415000: uvm_test_top.env.master_agent.drv [ahb_master_driver] Beat[0/1] addr=0x0000a10b trans=AHB_TRANS_NONSEQ resp=AHB_RESP_OKAY wdata=0xf78f4e61
# UVM_INFO ../src/mst/ahb_master_driver.sv(376) @ 415000: uvm_test_top.env.master_agent.drv [ahb_master_driver] Transaction complete: AHB_WRITE 0x0000a10b, 1 beats, burst=AHB_BURST_SINGLE
# UVM_INFO ../src/slv/ahb_slave_monitor.sv(208) @ 415000: uvm_test_top.env.slave_agent.mon [ahb_slave_monitor] Observed [AHB_WRITE]: HADDR=0x0000a10b, HBURST=AHB_BURST_SINGLE, HSIZE=AHB_SIZE_8B, 1 beats
# UVM_INFO ../src/env/ahb_coverage.sv(174) @ 415000: uvm_test_top.env.slave_cov [ahb_coverage] Sampled [AHB_WRITE]: burst=AHB_BURST_SINGLE size=AHB_SIZE_8B beats=1 error=0
# UVM_INFO ../src/mst/ahb_master_monitor.sv(128) @ 415000: uvm_test_top.env.master_agent.mon [ahb_master_monitor] Beat[0] addr=0x0000a10b wdata=0xf78f4e61 resp=AHB_RESP_OKAY
# UVM_INFO ../src/mst/ahb_master_monitor.sv(231) @ 415000: uvm_test_top.env.master_agent.mon [ahb_master_monitor] Observed [AHB_WRITE]: HADDR=0x0000a10b, HBURST=AHB_BURST_SINGLE, HSIZE=AHB_SIZE_8B, 1 beats
# UVM_INFO ../src/env/ahb_coverage.sv(174) @ 415000: uvm_test_top.env.master_cov [ahb_coverage] Sampled [AHB_WRITE]: burst=AHB_BURST_SINGLE size=AHB_SIZE_8B beats=1 error=0
# UVM_INFO ../src/env/ahb_scoreboard.sv(104) @ 415000: uvm_test_top.env.scb [ahb_scoreboard] MATCH #9: [AHB_WRITE] HADDR=0x0000a10b AHB_BURST_SINGLE 1 beats
# UVM_INFO ../src/mst/ahb_master_driver.sv(85) @ 415000: uvm_test_top.env.master_agent.drv [ahb_master_driver] Queueing [AHB_WRITE]: HADDR=0x0000a122, HBURST=AHB_BURST_SINGLE, HSIZE=AHB_SIZE_16B, 1 beats
# UVM_INFO ../src/mst/ahb_master_driver.sv(127) @ 415000: uvm_test_top.env.master_agent.drv [ahb_master_driver] Driving [AHB_WRITE]: HADDR=0x0000a122, HBURST=AHB_BURST_SINGLE, HSIZE=AHB_SIZE_16B, 1 beats               
# UVM_INFO ../src/mst/ahb_master_driver.sv(332) @ 445000: uvm_test_top.env.master_agent.drv [ahb_master_driver] Beat[0/1] addr=0x0000a122 trans=AHB_TRANS_NONSEQ resp=AHB_RESP_OKAY wdata=0x0f592c78
# UVM_INFO ../src/mst/ahb_master_driver.sv(376) @ 445000: uvm_test_top.env.master_agent.drv [ahb_master_driver] Transaction complete: AHB_WRITE 0x0000a122, 1 beats, burst=AHB_BURST_SINGLE
# UVM_INFO ../src/mst/ahb_master_monitor.sv(128) @ 445000: uvm_test_top.env.master_agent.mon [ahb_master_monitor] Beat[0] addr=0x0000a122 wdata=0x0f592c78 resp=AHB_RESP_OKAY
# UVM_INFO ../src/mst/ahb_master_monitor.sv(231) @ 445000: uvm_test_top.env.master_agent.mon [ahb_master_monitor] Observed [AHB_WRITE]: HADDR=0x0000a122, HBURST=AHB_BURST_SINGLE, HSIZE=AHB_SIZE_16B, 1 beats
# UVM_INFO ../src/env/ahb_coverage.sv(174) @ 445000: uvm_test_top.env.master_cov [ahb_coverage] Sampled [AHB_WRITE]: burst=AHB_BURST_SINGLE size=AHB_SIZE_16B beats=1 error=0
# UVM_INFO ../src/slv/ahb_slave_monitor.sv(208) @ 445000: uvm_test_top.env.slave_agent.mon [ahb_slave_monitor] Observed [AHB_WRITE]: HADDR=0x0000a122, HBURST=AHB_BURST_SINGLE, HSIZE=AHB_SIZE_16B, 1 beats
# UVM_INFO ../src/env/ahb_scoreboard.sv(104) @ 445000: uvm_test_top.env.scb [ahb_scoreboard] MATCH #10: [AHB_WRITE] HADDR=0x0000a122 AHB_BURST_SINGLE 1 beats
# UVM_INFO ../src/env/ahb_coverage.sv(174) @ 445000: uvm_test_top.env.slave_cov [ahb_coverage] Sampled [AHB_WRITE]: burst=AHB_BURST_SINGLE size=AHB_SIZE_16B beats=1 error=0
# UVM_INFO ../src/mst/ahb_master_driver.sv(85) @ 445000: uvm_test_top.env.master_agent.drv [ahb_master_driver] Queueing [AHB_WRITE]: HADDR=0x0000a142, HBURST=AHB_BURST_INCR4, HSIZE=AHB_SIZE_8B, 4 beats
# UVM_INFO ../src/mst/ahb_master_driver.sv(127) @ 445000: uvm_test_top.env.master_agent.drv [ahb_master_driver] Driving [AHB_WRITE]: HADDR=0x0000a142, HBURST=AHB_BURST_INCR4, HSIZE=AHB_SIZE_8B, 4 beats               
# UVM_INFO ../src/mst/ahb_master_driver.sv(332) @ 475000: uvm_test_top.env.master_agent.drv [ahb_master_driver] Beat[0/4] addr=0x0000a142 trans=AHB_TRANS_NONSEQ resp=AHB_RESP_OKAY wdata=0xfac71c27
# UVM_INFO ../src/mst/ahb_master_monitor.sv(128) @ 475000: uvm_test_top.env.master_agent.mon [ahb_master_monitor] Beat[0] addr=0x0000a142 wdata=0xfac71c27 resp=AHB_RESP_OKAY
# UVM_INFO ../src/mst/ahb_master_driver.sv(332) @ 485000: uvm_test_top.env.master_agent.drv [ahb_master_driver] Beat[1/4] addr=0x0000a143 trans=AHB_TRANS_SEQ resp=AHB_RESP_OKAY wdata=0x5bfdbbb1
# UVM_INFO ../src/mst/ahb_master_monitor.sv(128) @ 485000: uvm_test_top.env.master_agent.mon [ahb_master_monitor] Beat[1] addr=0x0000a143 wdata=0x5bfdbbb1 resp=AHB_RESP_OKAY
# UVM_INFO ../src/mst/ahb_master_driver.sv(332) @ 495000: uvm_test_top.env.master_agent.drv [ahb_master_driver] Beat[2/4] addr=0x0000a144 trans=AHB_TRANS_SEQ resp=AHB_RESP_OKAY wdata=0x3ec0c9e5
# UVM_INFO ../src/mst/ahb_master_monitor.sv(128) @ 495000: uvm_test_top.env.master_agent.mon [ahb_master_monitor] Beat[2] addr=0x0000a144 wdata=0x3ec0c9e5 resp=AHB_RESP_OKAY
# UVM_INFO ../src/mst/ahb_master_driver.sv(332) @ 505000: uvm_test_top.env.master_agent.drv [ahb_master_driver] Beat[3/4] addr=0x0000a145 trans=AHB_TRANS_SEQ resp=AHB_RESP_OKAY wdata=0x4a888d41
# UVM_INFO ../src/mst/ahb_master_driver.sv(376) @ 505000: uvm_test_top.env.master_agent.drv [ahb_master_driver] Transaction complete: AHB_WRITE 0x0000a142, 4 beats, burst=AHB_BURST_INCR4
# UVM_INFO ../src/mst/ahb_master_monitor.sv(128) @ 505000: uvm_test_top.env.master_agent.mon [ahb_master_monitor] Beat[3] addr=0x0000a145 wdata=0x4a888d41 resp=AHB_RESP_OKAY
# UVM_INFO ../src/mst/ahb_master_monitor.sv(231) @ 505000: uvm_test_top.env.master_agent.mon [ahb_master_monitor] Observed [AHB_WRITE]: HADDR=0x0000a142, HBURST=AHB_BURST_INCR4, HSIZE=AHB_SIZE_8B, 4 beats
# UVM_INFO ../src/env/ahb_coverage.sv(174) @ 505000: uvm_test_top.env.master_cov [ahb_coverage] Sampled [AHB_WRITE]: burst=AHB_BURST_INCR4 size=AHB_SIZE_8B beats=4 error=0
# UVM_INFO ../src/slv/ahb_slave_monitor.sv(208) @ 505000: uvm_test_top.env.slave_agent.mon [ahb_slave_monitor] Observed [AHB_WRITE]: HADDR=0x0000a142, HBURST=AHB_BURST_INCR4, HSIZE=AHB_SIZE_8B, 4 beats
# UVM_INFO ../src/env/ahb_scoreboard.sv(104) @ 505000: uvm_test_top.env.scb [ahb_scoreboard] MATCH #11: [AHB_WRITE] HADDR=0x0000a142 AHB_BURST_INCR4 4 beats
# UVM_INFO ../src/env/ahb_coverage.sv(174) @ 505000: uvm_test_top.env.slave_cov [ahb_coverage] Sampled [AHB_WRITE]: burst=AHB_BURST_INCR4 size=AHB_SIZE_8B beats=4 error=0
# UVM_INFO ../src/mst/ahb_master_driver.sv(85) @ 505000: uvm_test_top.env.master_agent.drv [ahb_master_driver] Queueing [AHB_WRITE]: HADDR=0x0000a161, HBURST=AHB_BURST_SINGLE, HSIZE=AHB_SIZE_8B, 1 beats
# UVM_INFO ../src/mst/ahb_master_driver.sv(127) @ 505000: uvm_test_top.env.master_agent.drv [ahb_master_driver] Driving [AHB_WRITE]: HADDR=0x0000a161, HBURST=AHB_BURST_SINGLE, HSIZE=AHB_SIZE_8B, 1 beats               
# UVM_INFO ../src/mst/ahb_master_driver.sv(332) @ 535000: uvm_test_top.env.master_agent.drv [ahb_master_driver] Beat[0/1] addr=0x0000a161 trans=AHB_TRANS_NONSEQ resp=AHB_RESP_OKAY wdata=0xbaceda32
# UVM_INFO ../src/mst/ahb_master_driver.sv(376) @ 535000: uvm_test_top.env.master_agent.drv [ahb_master_driver] Transaction complete: AHB_WRITE 0x0000a161, 1 beats, burst=AHB_BURST_SINGLE
# UVM_INFO ../src/slv/ahb_slave_monitor.sv(208) @ 535000: uvm_test_top.env.slave_agent.mon [ahb_slave_monitor] Observed [AHB_WRITE]: HADDR=0x0000a161, HBURST=AHB_BURST_SINGLE, HSIZE=AHB_SIZE_8B, 1 beats
# UVM_INFO ../src/env/ahb_coverage.sv(174) @ 535000: uvm_test_top.env.slave_cov [ahb_coverage] Sampled [AHB_WRITE]: burst=AHB_BURST_SINGLE size=AHB_SIZE_8B beats=1 error=0
# UVM_INFO ../src/mst/ahb_master_monitor.sv(128) @ 535000: uvm_test_top.env.master_agent.mon [ahb_master_monitor] Beat[0] addr=0x0000a161 wdata=0xbaceda32 resp=AHB_RESP_OKAY
# UVM_INFO ../src/mst/ahb_master_monitor.sv(231) @ 535000: uvm_test_top.env.master_agent.mon [ahb_master_monitor] Observed [AHB_WRITE]: HADDR=0x0000a161, HBURST=AHB_BURST_SINGLE, HSIZE=AHB_SIZE_8B, 1 beats
# UVM_INFO ../src/env/ahb_coverage.sv(174) @ 535000: uvm_test_top.env.master_cov [ahb_coverage] Sampled [AHB_WRITE]: burst=AHB_BURST_SINGLE size=AHB_SIZE_8B beats=1 error=0
# UVM_INFO ../src/env/ahb_scoreboard.sv(104) @ 535000: uvm_test_top.env.scb [ahb_scoreboard] MATCH #12: [AHB_WRITE] HADDR=0x0000a161 AHB_BURST_SINGLE 1 beats
# UVM_INFO ../src/mst_seq/ahb_passive_seq.sv(50) @ 535000: uvm_test_top.env.master_agent.sqr@@seq [ahb_passive_seq] Passive-slave traffic complete: 12 transfers
# UVM_INFO verilog_src/uvm-1.1d/src/base/uvm_objection.svh(1268) @ 535200: reporter [TEST_DONE] 'run' phase is ready to proceed to the 'extract' phase
# UVM_INFO ../src/env/ahb_coverage.sv(195) @ 535200: uvm_test_top.env.master_cov [ahb_coverage] [master_cov] functional coverage: ahb_cg = 44.00%, ahb_trans_cg = 75.00%
# UVM_INFO ../src/env/ahb_scoreboard.sv(208) @ 535200: uvm_test_top.env.scb [ahb_scoreboard] Passthrough : compared=12 matched=12 mismatched=0
# UVM_INFO ../src/env/ahb_scoreboard.sv(212) @ 535200: uvm_test_top.env.scb [ahb_scoreboard] Ref-memory  : wr_bytes=52 rd_checked=0 rd_uninit=0 rd_mismatch=0
# UVM_INFO ../src/env/ahb_coverage.sv(195) @ 535200: uvm_test_top.env.slave_cov [ahb_coverage] [slave_cov] functional coverage: ahb_cg = 44.00%, ahb_trans_cg = 75.00%
# UVM_INFO ../src/test/ahb_base_test.sv(74) @ 535200: uvm_test_top [ahb_passive_test] 
# === TEST PASSED ===
# 
# 
# --- UVM Report Summary ---
# 
# ** Report counts by severity
# UVM_INFO :  165
# UVM_WARNING :    0
# UVM_ERROR :    0
# UVM_FATAL :    0
# ** Report counts by id
# [Questa UVM]     3
# [RNTST]     1
# [TB_TOP]     3
# [TEST_DONE]     1
# [UVMTOP]     1
# [ahb_coverage]    26
# [ahb_master_agent]     1
# [ahb_master_driver]    59
# [ahb_master_monitor]    34
# [ahb_passive_seq]     2
# [ahb_passive_test]     1
# [ahb_scoreboard]    14
# [ahb_slave_agent]     1
# [ahb_slave_monitor]    13
# [ahb_vip_env]     5
# ** Note: $finish    : /cadtools/mentor/Questa_10.6b/questasim/linux_x86_64/../verilog_src/uvm-1.1d/src/base/uvm_root.svh(430)
#    Time: 535200 ps  Iteration: 53  Instance: /tb_top
# Saving coverage database on exit...
# End time: 11:59:11 on Aug 06,2026, Elapsed time: 0:00:01
# Errors: 0, Warnings: 0
