# vsim -c -coverage -sv_seed 7211806 "+UVM_TESTNAME=ahb_undefined_burst_test" "+UVM_VERBOSITY=UVM_HIGH" "+DUMP_VCD" -l ./report/logs/ahb_undefined_burst_test_run_2_seed_7211806.log -do "coverage save -onexit ./report/coverage/ahb_undefined_burst_test_run_2_seed_7211806.ucdb; run -all; quit -f" opt_tb_top 
# Start time: 12:20:37 on Aug 06,2026
# //  Questa Sim-64
# //  Version 10.6b linux_x86_64 May 25 2017
# //
# //  Copyright 1991-2017 Mentor Graphics Corporation
# //  All Rights Reserved.
# //
# //  QuestaSim and its associated documentation contain trade
# //  secrets and commercial or financial information that are the property of
# //  Mentor Graphics Corporation and are privileged, confidential,
# //  and exempt from disclosure under the Freedom of Information Act,
# //  5 U.S.C. Section 552. Furthermore, this information
# //  is prohibited from disclosure under the Trade Secrets Act,
# //  18 U.S.C. Section 1905.
# //
# Loading sv_std.std
# Loading work.ahb_if(fast)
# Loading mtiUvm.uvm_pkg
# Loading work.ahb_pkg(fast)
# Loading work.ahb_seq_pkg(fast)
# Loading work.ahb_test_pkg(fast)
# Loading work.tb_top(fast)
# Loading work.ahb_if(fast)
# Loading work.ahb_sva(fast)
# Loading mtiUvm.questa_uvm_pkg(fast)
# Loading /cadtools/mentor/Questa_10.6b/questasim/uvm-1.1d/linux_x86_64/uvm_dpi.so
# coverage save -onexit ./report/coverage/ahb_undefined_burst_test_run_2_seed_7211806.ucdb
#  run -all
# ----------------------------------------------------------------
# UVM-1.1d
# (C) 2007-2013 Mentor Graphics Corporation
# (C) 2007-2013 Cadence Design Systems, Inc.
# (C) 2006-2013 Synopsys, Inc.
# (C) 2011-2013 Cypress Semiconductor Corp.
# ----------------------------------------------------------------
# 
#   ***********       IMPORTANT RELEASE NOTES         ************
# 
#   You are using a version of the UVM library that has been compiled
#   with `UVM_NO_DEPRECATED undefined.
#   See http://www.eda.org/svdb/view.php?id=3313 for more details.
# 
#   You are using a version of the UVM library that has been compiled
#   with `UVM_OBJECT_MUST_HAVE_CONSTRUCTOR undefined.
#   See http://www.eda.org/svdb/view.php?id=3770 for more details.
# 
#       (Specify +UVM_NO_RELNOTES to turn off this notice)
# 
# UVM_INFO verilog_src/questa_uvm_pkg-1.2/src/questa_uvm_pkg.sv(215) @ 0: reporter [Questa UVM] QUESTA_UVM-1.2.3
# UVM_INFO verilog_src/questa_uvm_pkg-1.2/src/questa_uvm_pkg.sv(217) @ 0: reporter [Questa UVM]  questa_uvm::init(+struct)
# UVM_INFO ../src/tb_top.sv(126) @ 0: reporter [TB_TOP] Virtual interface set in config_db
# UVM_INFO @ 0: reporter [RNTST] Running test ahb_undefined_burst_test...
# UVM_INFO ../src/tb_top.sv(140) @ 0: reporter [TB_TOP] Waveform VCD dumping enabled (ahb_lite_vip.vcd)
# UVM_INFO ../src/env/ahb_vip_env.sv(64) @ 0: uvm_test_top.env [ahb_vip_env] slave_vif not set - reusing master_vif (passthrough mode)
# UVM_INFO ../src/env/ahb_vip_env.sv(72) @ 0: uvm_test_top.env [ahb_vip_env] Scoreboard created
# UVM_INFO ../src/env/ahb_vip_env.sv(78) @ 0: uvm_test_top.env [ahb_vip_env] Coverage collectors created
# UVM_INFO ../src/mst/ahb_master_agent.sv(61) @ 0: uvm_test_top.env.master_agent [ahb_master_agent] ACTIVE mode - driver + sequencer created
# UVM_INFO ../src/slv/ahb_slave_agent.sv(64) @ 0: uvm_test_top.env.slave_agent [ahb_slave_agent] ACTIVE mode - driver + sequencer created (    auto responses)
# UVM_INFO ../src/env/ahb_vip_env.sv(92) @ 0: uvm_test_top.env [ahb_vip_env] Scoreboard connected: master_mon.ap -> scb, slave_mon.ap -> scb
# UVM_INFO ../src/env/ahb_vip_env.sv(102) @ 0: uvm_test_top.env [ahb_vip_env] Coverage connected: master_mon.ap/trans_ap -> master_cov, slave_mon.ap/trans_ap -> slave_cov
# UVM_INFO @ 0: reporter [UVMTOP] UVM testbench topology:
# ----------------------------------------------------------------
# Name                       Type                      Size  Value
# ----------------------------------------------------------------
# uvm_test_top               ahb_undefined_burst_test  -     @475 
#   env                      ahb_vip_env               -     @490 
#     master_agent           ahb_master_agent          -     @505 
#       drv                  ahb_master_driver         -     @570 
#         rsp_port           uvm_analysis_port         -     @585 
#         seq_item_port      uvm_seq_item_pull_port    -     @577 
#       mon                  ahb_master_monitor        -     @563 
#         ap                 uvm_analysis_port         -     @704 
#         trans_ap           uvm_analysis_port         -     @712 
#       sqr                  ahb_master_sequencer      -     @593 
#         rsp_export         uvm_analysis_export       -     @600 
#         seq_item_export    uvm_seq_item_pull_imp     -     @694 
#         arbitration_queue  array                     0     -    
#         lock_queue         array                     0     -    
#         num_last_reqs      integral                  32    'd1  
#         num_last_rsps      integral                  32    'd1  
#     master_cov             ahb_coverage              -     @526 
#       analysis_imp         uvm_analysis_imp          -     @533 
#       trans_export         uvm_analysis_imp_trans    -     @726 
#     scb                    ahb_scoreboard            -     @519 
#       master_export        uvm_analysis_imp_master   -     @734 
#       slave_export         uvm_analysis_imp_slave    -     @742 
#     slave_agent            ahb_slave_agent           -     @512 
#       drv                  ahb_slave_driver          -     @764 
#         rsp_port           uvm_analysis_port         -     @779 
#         seq_item_port      uvm_seq_item_pull_port    -     @771 
#       mon                  ahb_slave_monitor         -     @757 
#         ap                 uvm_analysis_port         -     @898 
#         trans_ap           uvm_analysis_port         -     @906 
#       sqr                  ahb_slave_sequencer       -     @787 
#         rsp_export         uvm_analysis_export       -     @794 
#         seq_item_export    uvm_seq_item_pull_imp     -     @888 
#         arbitration_queue  array                     0     -    
#         lock_queue         array                     0     -    
#         num_last_reqs      integral                  32    'd1  
#         num_last_rsps      integral                  32    'd1  
#     slave_cov              ahb_coverage              -     @541 
#       analysis_imp         uvm_analysis_imp          -     @548 
#       trans_export         uvm_analysis_imp_trans    -     @920 
# ----------------------------------------------------------------
# 
# UVM_INFO verilog_src/questa_uvm_pkg-1.2/src/questa_uvm_pkg.sv(277) @ 0: reporter [Questa UVM] End Of Elaboration
# UVM_INFO ../src/mst_seq/ahb_undefined_burst_seq.sv(55) @ 0: uvm_test_top.env.master_agent.sqr@@seq [ahb_undefined_burst_seq] Starting undefined-length INCR bursts: 8 iterations from 0x00005000
# UVM_INFO ../src/mst_seq/ahb_undefined_burst_seq.sv(119) @ 0: uvm_test_top.env.master_agent.sqr@@seq [ahb_undefined_burst_seq] INCR 1 beats, AHB_SIZE_16B @0x000053a8, trailing_busy=0, retract=0, pipelined=0
# UVM_INFO ../src/mst/ahb_master_driver.sv(183) @ 5000: uvm_test_top.env.master_agent.drv [ahb_master_driver] Flushed pending transactions (reset)
# UVM_INFO ../src/tb_top.sv(48) @ 95000: reporter [TB_TOP] Reset de-asserted
# UVM_INFO ../src/slv/ahb_slave_driver.sv(63) @ 95000: uvm_test_top.env.slave_agent.drv [ahb_slave_driver] Reset deasserted - slave driver active (    auto mode)
# UVM_INFO ../src/mst/ahb_master_driver.sv(72) @ 95000: uvm_test_top.env.master_agent.drv [ahb_master_driver] Reset deasserted - master driver active
# UVM_INFO ../src/mst/ahb_master_monitor.sv(81) @ 95000: uvm_test_top.env.master_agent.mon [ahb_master_monitor] Reset deasserted - master monitor active
# UVM_INFO ../src/slv/ahb_slave_monitor.sv(79) @ 95000: uvm_test_top.env.slave_agent.mon [ahb_slave_monitor] Reset deasserted - slave monitor active
# UVM_INFO ../src/mst/ahb_master_driver.sv(85) @ 95000: uvm_test_top.env.master_agent.drv [ahb_master_driver] Queueing [AHB_WRITE]: HADDR=0x000053a8, HBURST=AHB_BURST_INCR, HSIZE=AHB_SIZE_16B, 1 beats
# UVM_INFO ../src/mst/ahb_master_driver.sv(127) @ 95000: uvm_test_top.env.master_agent.drv [ahb_master_driver] Driving [AHB_WRITE]: HADDR=0x000053a8, HBURST=AHB_BURST_INCR, HSIZE=AHB_SIZE_16B, 1 beats               
# UVM_INFO ../src/mst/ahb_master_driver.sv(332) @ 115000: uvm_test_top.env.master_agent.drv [ahb_master_driver] Beat[0/1] addr=0x000053a8 trans=AHB_TRANS_NONSEQ resp=AHB_RESP_OKAY wdata=0xb03ec93d
# UVM_INFO ../src/mst/ahb_master_driver.sv(376) @ 115000: uvm_test_top.env.master_agent.drv [ahb_master_driver] Transaction complete: AHB_WRITE 0x000053a8, 1 beats, burst=AHB_BURST_INCR
# UVM_INFO ../src/slv/ahb_slave_driver.sv(184) @ 115000: uvm_test_top.env.slave_agent.drv [ahb_slave_driver] Beat AHB_WRITE addr=0x000053a8 resp=AHB_RESP_OKAY waits=0 wdata=0xb03ec93d
# UVM_INFO ../src/slv/ahb_slave_monitor.sv(212) @ 115000: uvm_test_top.env.slave_agent.mon [ahb_slave_monitor] Observed [AHB_WRITE]: HADDR=0x000053a8, HBURST=AHB_BURST_INCR, HSIZE=AHB_SIZE_16B, 1 beats
# UVM_INFO ../src/env/ahb_coverage.sv(174) @ 115000: uvm_test_top.env.slave_cov [ahb_coverage] Sampled [AHB_WRITE]: burst=AHB_BURST_INCR size=AHB_SIZE_16B beats=1 error=0
# UVM_INFO ../src/mst/ahb_master_monitor.sv(128) @ 115000: uvm_test_top.env.master_agent.mon [ahb_master_monitor] Beat[0] addr=0x000053a8 wdata=0xb03ec93d resp=AHB_RESP_OKAY
# UVM_INFO ../src/mst/ahb_master_monitor.sv(231) @ 115000: uvm_test_top.env.master_agent.mon [ahb_master_monitor] Observed [AHB_WRITE]: HADDR=0x000053a8, HBURST=AHB_BURST_INCR, HSIZE=AHB_SIZE_16B, 1 beats
# UVM_INFO ../src/env/ahb_coverage.sv(174) @ 115000: uvm_test_top.env.master_cov [ahb_coverage] Sampled [AHB_WRITE]: burst=AHB_BURST_INCR size=AHB_SIZE_16B beats=1 error=0
# UVM_INFO ../src/env/ahb_scoreboard.sv(104) @ 115000: uvm_test_top.env.scb [ahb_scoreboard] MATCH #1: [AHB_WRITE] HADDR=0x000053a8 AHB_BURST_INCR 1 beats
# UVM_INFO ../src/mst/ahb_master_driver.sv(85) @ 115000: uvm_test_top.env.master_agent.drv [ahb_master_driver] Queueing [AHB_READ]: HADDR=0x000053a8, HBURST=AHB_BURST_INCR, HSIZE=AHB_SIZE_16B, 1 beats
# UVM_INFO ../src/mst/ahb_master_driver.sv(127) @ 115000: uvm_test_top.env.master_agent.drv [ahb_master_driver] Driving [AHB_READ]: HADDR=0x000053a8, HBURST=AHB_BURST_INCR, HSIZE=AHB_SIZE_16B, 1 beats               
# UVM_INFO ../src/mst/ahb_master_driver.sv(332) @ 155000: uvm_test_top.env.master_agent.drv [ahb_master_driver] Beat[0/1] addr=0x000053a8 trans=AHB_TRANS_NONSEQ resp=AHB_RESP_OKAY rdata=0xb03ec93d
# UVM_INFO ../src/mst/ahb_master_driver.sv(376) @ 155000: uvm_test_top.env.master_agent.drv [ahb_master_driver] Transaction complete: AHB_READ 0x000053a8, 1 beats, burst=AHB_BURST_INCR
# UVM_INFO ../src/slv/ahb_slave_driver.sv(184) @ 155000: uvm_test_top.env.slave_agent.drv [ahb_slave_driver] Beat AHB_READ addr=0x000053a8 resp=AHB_RESP_OKAY waits=1 rdata=0xb03ec93d
# UVM_INFO ../src/slv/ahb_slave_monitor.sv(212) @ 155000: uvm_test_top.env.slave_agent.mon [ahb_slave_monitor] Observed [AHB_READ]: HADDR=0x000053a8, HBURST=AHB_BURST_INCR, HSIZE=AHB_SIZE_16B, 1 beats
# UVM_INFO ../src/env/ahb_coverage.sv(174) @ 155000: uvm_test_top.env.slave_cov [ahb_coverage] Sampled [AHB_READ]: burst=AHB_BURST_INCR size=AHB_SIZE_16B beats=1 error=0
# UVM_INFO ../src/mst/ahb_master_monitor.sv(128) @ 155000: uvm_test_top.env.master_agent.mon [ahb_master_monitor] Beat[0] addr=0x000053a8 rdata=0xb03ec93d resp=AHB_RESP_OKAY
# UVM_INFO ../src/mst/ahb_master_monitor.sv(231) @ 155000: uvm_test_top.env.master_agent.mon [ahb_master_monitor] Observed [AHB_READ]: HADDR=0x000053a8, HBURST=AHB_BURST_INCR, HSIZE=AHB_SIZE_16B, 1 beats
# UVM_INFO ../src/env/ahb_coverage.sv(174) @ 155000: uvm_test_top.env.master_cov [ahb_coverage] Sampled [AHB_READ]: burst=AHB_BURST_INCR size=AHB_SIZE_16B beats=1 error=0
# UVM_INFO ../src/env/ahb_scoreboard.sv(104) @ 155000: uvm_test_top.env.scb [ahb_scoreboard] MATCH #2: [AHB_READ] HADDR=0x000053a8 AHB_BURST_INCR 1 beats
# UVM_INFO ../src/mst_seq/ahb_base_seq.sv(157) @ 155000: uvm_test_top.env.master_agent.sqr@@seq [ahb_undefined_burst_seq] AHB_BURST_INCR AHB_SIZE_16B beat 0 @0x000053a8 ok
# UVM_INFO ../src/mst_seq/ahb_undefined_burst_seq.sv(119) @ 155000: uvm_test_top.env.master_agent.sqr@@seq [ahb_undefined_burst_seq] INCR 256 beats, AHB_SIZE_8B @0x00005426, trailing_busy=1, retract=0, pipelined=0
# UVM_INFO ../src/mst/ahb_master_driver.sv(85) @ 155000: uvm_test_top.env.master_agent.drv [ahb_master_driver] Queueing [AHB_WRITE]: HADDR=0x00005426, HBURST=AHB_BURST_INCR, HSIZE=AHB_SIZE_8B, 256 beats
# UVM_INFO ../src/mst/ahb_master_driver.sv(127) @ 155000: uvm_test_top.env.master_agent.drv [ahb_master_driver] Driving [AHB_WRITE]: HADDR=0x00005426, HBURST=AHB_BURST_INCR, HSIZE=AHB_SIZE_8B, 256 beats               
# UVM_INFO ../src/mst/ahb_master_driver.sv(332) @ 205000: uvm_test_top.env.master_agent.drv [ahb_master_driver] Beat[0/256] addr=0x00005426 trans=AHB_TRANS_NONSEQ resp=AHB_RESP_OKAY wdata=0xdf65152f
# UVM_INFO ../src/slv/ahb_slave_driver.sv(184) @ 205000: uvm_test_top.env.slave_agent.drv [ahb_slave_driver] Beat AHB_WRITE addr=0x00005426 resp=AHB_RESP_OKAY waits=2 wdata=0xdf65152f
# UVM_INFO ../src/mst/ahb_master_monitor.sv(128) @ 205000: uvm_test_top.env.master_agent.mon [ahb_master_monitor] Beat[0] addr=0x00005426 wdata=0xdf65152f resp=AHB_RESP_OKAY
# UVM_INFO ../src/mst/ahb_master_driver.sv(332) @ 235000: uvm_test_top.env.master_agent.drv [ahb_master_driver] Beat[1/256] addr=0x00005427 trans=AHB_TRANS_SEQ resp=AHB_RESP_OKAY wdata=0x133afd01
# UVM_INFO ../src/slv/ahb_slave_driver.sv(184) @ 235000: uvm_test_top.env.slave_agent.drv [ahb_slave_driver] Beat AHB_WRITE addr=0x00005427 resp=AHB_RESP_OKAY waits=2 wdata=0x133afd01
# UVM_INFO ../src/mst/ahb_master_monitor.sv(128) @ 235000: uvm_test_top.env.master_agent.mon [ahb_master_monitor] Beat[1] addr=0x00005427 wdata=0x133afd01 resp=AHB_RESP_OKAY
# UVM_INFO ../src/mst/ahb_master_driver.sv(332) @ 245000: uvm_test_top.env.master_agent.drv [ahb_master_driver] Beat[2/256] addr=0x00005428 trans=AHB_TRANS_SEQ resp=AHB_RESP_OKAY wdata=0x24895f0d
# UVM_INFO ../src/slv/ahb_slave_driver.sv(184) @ 245000: uvm_test_top.env.slave_agent.drv [ahb_slave_driver] Beat AHB_WRITE addr=0x00005428 resp=AHB_RESP_OKAY waits=0 wdata=0x24895f0d
# UVM_INFO ../src/mst/ahb_master_monitor.sv(128) @ 245000: uvm_test_top.env.master_agent.mon [ahb_master_monitor] Beat[2] addr=0x00005428 wdata=0x24895f0d resp=AHB_RESP_OKAY
# UVM_INFO ../src/mst/ahb_master_driver.sv(332) @ 265000: uvm_test_top.env.master_agent.drv [ahb_master_driver] Beat[3/256] addr=0x00005429 trans=AHB_TRANS_SEQ resp=AHB_RESP_OKAY wdata=0x8c788382
# UVM_INFO ../src/slv/ahb_slave_driver.sv(184) @ 265000: uvm_test_top.env.slave_agent.drv [ahb_slave_driver] Beat AHB_WRITE addr=0x00005429 resp=AHB_RESP_OKAY waits=1 wdata=0x8c788382
# UVM_INFO ../src/mst/ahb_master_monitor.sv(128) @ 265000: uvm_test_top.env.master_agent.mon [ahb_master_monitor] Beat[3] addr=0x00005429 wdata=0x8c788382 resp=AHB_RESP_OKAY
# UVM_INFO ../src/mst/ahb_master_driver.sv(332) @ 285000: uvm_test_top.env.master_agent.drv [ahb_master_driver] Beat[4/256] addr=0x0000542a trans=AHB_TRANS_SEQ resp=AHB_RESP_OKAY wdata=0xf53c67eb
# UVM_INFO ../src/slv/ahb_slave_driver.sv(184) @ 285000: uvm_test_top.env.slave_agent.drv [ahb_slave_driver] Beat AHB_WRITE addr=0x0000542a resp=AHB_RESP_OKAY waits=1 wdata=0xf53c67eb
# UVM_INFO ../src/mst/ahb_master_monitor.sv(128) @ 285000: uvm_test_top.env.master_agent.mon [ahb_master_monitor] Beat[4] addr=0x0000542a wdata=0xf53c67eb resp=AHB_RESP_OKAY
# UVM_INFO ../src/mst/ahb_master_driver.sv(332) @ 305000: uvm_test_top.env.master_agent.drv [ahb_master_driver] Beat[5/256] addr=0x0000542b trans=AHB_TRANS_SEQ resp=AHB_RESP_OKAY wdata=0x640fe696
# UVM_INFO ../src/slv/ahb_slave_driver.sv(184) @ 305000: uvm_test_top.env.slave_agent.drv [ahb_slave_driver] Beat AHB_WRITE addr=0x0000542b resp=AHB_RESP_OKAY waits=1 wdata=0x640fe696
# UVM_INFO ../src/mst/ahb_master_monitor.sv(128) @ 305000: uvm_test_top.env.master_agent.mon [ahb_master_monitor] Beat[5] addr=0x0000542b wdata=0x640fe696 resp=AHB_RESP_OKAY
# UVM_INFO ../src/mst/ahb_master_driver.sv(332) @ 325000: uvm_test_top.env.master_agent.drv [ahb_master_driver] Beat[6/256] addr=0x0000542c trans=AHB_TRANS_SEQ resp=AHB_RESP_OKAY wdata=0xd8f0735a
# UVM_INFO ../src/slv/ahb_slave_driver.sv(184) @ 325000: uvm_test_top.env.slave_agent.drv [ahb_slave_driver] Beat AHB_WRITE addr=0x0000542c resp=AHB_RESP_OKAY waits=1 wdata=0xd8f0735a
# UVM_INFO ../src/mst/ahb_master_monitor.sv(128) @ 325000: uvm_test_top.env.master_agent.mon [ahb_master_monitor] Beat[6] addr=0x0000542c wdata=0xd8f0735a resp=AHB_RESP_OKAY
# UVM_INFO ../src/mst/ahb_master_driver.sv(332) @ 335000: uvm_test_top.env.master_agent.drv [ahb_master_driver] Beat[7/256] addr=0x0000542d trans=AHB_TRANS_SEQ resp=AHB_RESP_OKAY wdata=0x0c8697b4
# UVM_INFO ../src/slv/ahb_slave_driver.sv(184) @ 335000: uvm_test_top.env.slave_agent.drv [ahb_slave_driver] Beat AHB_WRITE addr=0x0000542d resp=AHB_RESP_OKAY waits=0 wdata=0x0c8697b4
# UVM_INFO ../src/mst/ahb_master_monitor.sv(128) @ 335000: uvm_test_top.env.master_agent.mon [ahb_master_monitor] Beat[7] addr=0x0000542d wdata=0x0c8697b4 resp=AHB_RESP_OKAY
# UVM_INFO ../src/mst/ahb_master_driver.sv(332) @ 365000: uvm_test_top.env.master_agent.drv [ahb_master_driver] Beat[8/256] addr=0x0000542e trans=AHB_TRANS_SEQ resp=AHB_RESP_OKAY wdata=0x8e17b702
# UVM_INFO ../src/slv/ahb_slave_driver.sv(184) @ 365000: uvm_test_top.env.slave_agent.drv [ahb_slave_driver] Beat AHB_WRITE addr=0x0000542e resp=AHB_RESP_OKAY waits=0 wdata=0x8e17b702
# UVM_INFO ../src/mst/ahb_master_monitor.sv(128) @ 365000: uvm_test_top.env.master_agent.mon [ahb_master_monitor] Beat[8] addr=0x0000542e wdata=0x8e17b702 resp=AHB_RESP_OKAY
# UVM_INFO ../src/mst/ahb_master_driver.sv(332) @ 395000: uvm_test_top.env.master_agent.drv [ahb_master_driver] Beat[9/256] addr=0x0000542f trans=AHB_TRANS_SEQ resp=AHB_RESP_OKAY wdata=0xa61e687f
# UVM_INFO ../src/slv/ahb_slave_driver.sv(184) @ 395000: uvm_test_top.env.slave_agent.drv [ahb_slave_driver] Beat AHB_WRITE addr=0x0000542f resp=AHB_RESP_OKAY waits=2 wdata=0xa61e687f
# UVM_INFO ../src/mst/ahb_master_monitor.sv(128) @ 395000: uvm_test_top.env.master_agent.mon [ahb_master_monitor] Beat[9] addr=0x0000542f wdata=0xa61e687f resp=AHB_RESP_OKAY
# UVM_INFO ../src/mst/ahb_master_driver.sv(332) @ 425000: uvm_test_top.env.master_agent.drv [ahb_master_driver] Beat[10/256] addr=0x00005430 trans=AHB_TRANS_SEQ resp=AHB_RESP_OKAY wdata=0x8bef0156
# UVM_INFO ../src/slv/ahb_slave_driver.sv(184) @ 425000: uvm_test_top.env.slave_agent.drv [ahb_slave_driver] Beat AHB_WRITE addr=0x00005430 resp=AHB_RESP_OKAY waits=2 wdata=0x8bef0156
# UVM_INFO ../src/mst/ahb_master_monitor.sv(128) @ 425000: uvm_test_top.env.master_agent.mon [ahb_master_monitor] Beat[10] addr=0x00005430 wdata=0x8bef0156 resp=AHB_RESP_OKAY
# UVM_INFO ../src/mst/ahb_master_driver.sv(332) @ 435000: uvm_test_top.env.master_agent.drv [ahb_master_driver] Beat[11/256] addr=0x00005431 trans=AHB_TRANS_SEQ resp=AHB_RESP_OKAY wdata=0x7a79da6b
# UVM_INFO ../src/slv/ahb_slave_driver.sv(184) @ 435000: uvm_test_top.env.slave_agent.drv [ahb_slave_driver] Beat AHB_WRITE addr=0x00005431 resp=AHB_RESP_OKAY waits=0 wdata=0x7a79da6b
# UVM_INFO ../src/mst/ahb_master_monitor.sv(128) @ 435000: uvm_test_top.env.master_agent.mon [ahb_master_monitor] Beat[11] addr=0x00005431 wdata=0x7a79da6b resp=AHB_RESP_OKAY
# UVM_INFO ../src/mst/ahb_master_driver.sv(332) @ 445000: uvm_test_top.env.master_agent.drv [ahb_master_driver] Beat[12/256] addr=0x00005432 trans=AHB_TRANS_SEQ resp=AHB_RESP_OKAY wdata=0xb251668f
# UVM_INFO ../src/slv/ahb_slave_driver.sv(184) @ 445000: uvm_test_top.env.slave_agent.drv [ahb_slave_driver] Beat AHB_WRITE addr=0x00005432 resp=AHB_RESP_OKAY waits=0 wdata=0xb251668f
# UVM_INFO ../src/mst/ahb_master_monitor.sv(128) @ 445000: uvm_test_top.env.master_agent.mon [ahb_master_monitor] Beat[12] addr=0x00005432 wdata=0xb251668f resp=AHB_RESP_OKAY
# UVM_INFO ../src/mst/ahb_master_driver.sv(332) @ 475000: uvm_test_top.env.master_agent.drv [ahb_master_driver] Beat[13/256] addr=0x00005433 trans=AHB_TRANS_SEQ resp=AHB_RESP_OKAY wdata=0xfcaba3cc
# UVM_INFO ../src/slv/ahb_slave_driver.sv(184) @ 475000: uvm_test_top.env.slave_agent.drv [ahb_slave_driver] Beat AHB_WRITE addr=0x00005433 resp=AHB_RESP_OKAY waits=2 wdata=0xfcaba3cc
# UVM_INFO ../src/mst/ahb_master_monitor.sv(128) @ 475000: uvm_test_top.env.master_agent.mon [ahb_master_monitor] Beat[13] addr=0x00005433 wdata=0xfcaba3cc resp=AHB_RESP_OKAY
# UVM_INFO ../src/mst/ahb_master_driver.sv(332) @ 485000: uvm_test_top.env.master_agent.drv [ahb_master_driver] Beat[14/256] addr=0x00005434 trans=AHB_TRANS_SEQ resp=AHB_RESP_OKAY wdata=0x12375399
# UVM_INFO ../src/slv/ahb_slave_driver.sv(184) @ 485000: uvm_test_top.env.slave_agent.drv [ahb_slave_driver] Beat AHB_WRITE addr=0x00005434 resp=AHB_RESP_OKAY waits=0 wdata=0x12375399
# UVM_INFO ../src/mst/ahb_master_monitor.sv(128) @ 485000: uvm_test_top.env.master_agent.mon [ahb_master_monitor] Beat[14] addr=0x00005434 wdata=0x12375399 resp=AHB_RESP_OKAY
# UVM_INFO ../src/mst/ahb_master_driver.sv(332) @ 505000: uvm_test_top.env.master_agent.drv [ahb_master_driver] Beat[15/256] addr=0x00005435 trans=AHB_TRANS_SEQ resp=AHB_RESP_OKAY wdata=0x88e8cdf8
# UVM_INFO ../src/slv/ahb_slave_driver.sv(184) @ 505000: uvm_test_top.env.slave_agent.drv [ahb_slave_driver] Beat AHB_WRITE addr=0x00005435 resp=AHB_RESP_OKAY waits=1 wdata=0x88e8cdf8
# UVM_INFO ../src/mst/ahb_master_monitor.sv(128) @ 505000: uvm_test_top.env.master_agent.mon [ahb_master_monitor] Beat[15] addr=0x00005435 wdata=0x88e8cdf8 resp=AHB_RESP_OKAY
# UVM_INFO ../src/mst/ahb_master_driver.sv(332) @ 555000: uvm_test_top.env.master_agent.drv [ahb_master_driver] Beat[16/256] addr=0x00005436 trans=AHB_TRANS_SEQ resp=AHB_RESP_OKAY wdata=0x7c004412
# UVM_INFO ../src/slv/ahb_slave_driver.sv(184) @ 555000: uvm_test_top.env.slave_agent.drv [ahb_slave_driver] Beat AHB_WRITE addr=0x00005436 resp=AHB_RESP_OKAY waits=2 wdata=0x7c004412
# UVM_INFO ../src/mst/ahb_master_monitor.sv(128) @ 555000: uvm_test_top.env.master_agent.mon [ahb_master_monitor] Beat[16] addr=0x00005436 wdata=0x7c004412 resp=AHB_RESP_OKAY
# UVM_INFO ../src/mst/ahb_master_driver.sv(332) @ 565000: uvm_test_top.env.master_agent.drv [ahb_master_driver] Beat[17/256] addr=0x00005437 trans=AHB_TRANS_SEQ resp=AHB_RESP_OKAY wdata=0x949747be
# UVM_INFO ../src/slv/ahb_slave_driver.sv(184) @ 565000: uvm_test_top.env.slave_agent.drv [ahb_slave_driver] Beat AHB_WRITE addr=0x00005437 resp=AHB_RESP_OKAY waits=0 wdata=0x949747be
# UVM_INFO ../src/mst/ahb_master_monitor.sv(128) @ 565000: uvm_test_top.env.master_agent.mon [ahb_master_monitor] Beat[17] addr=0x00005437 wdata=0x949747be resp=AHB_RESP_OKAY
# UVM_INFO ../src/mst/ahb_master_driver.sv(332) @ 585000: uvm_test_top.env.master_agent.drv [ahb_master_driver] Beat[18/256] addr=0x00005438 trans=AHB_TRANS_SEQ resp=AHB_RESP_OKAY wdata=0xaf04a998
# UVM_INFO ../src/slv/ahb_slave_driver.sv(184) @ 585000: uvm_test_top.env.slave_agent.drv [ahb_slave_driver] Beat AHB_WRITE addr=0x00005438 resp=AHB_RESP_OKAY waits=1 wdata=0xaf04a998
# UVM_INFO ../src/mst/ahb_master_monitor.sv(128) @ 585000: uvm_test_top.env.master_agent.mon [ahb_master_monitor] Beat[18] addr=0x00005438 wdata=0xaf04a998 resp=AHB_RESP_OKAY
# UVM_INFO ../src/mst/ahb_master_driver.sv(332) @ 615000: uvm_test_top.env.master_agent.drv [ahb_master_driver] Beat[19/256] addr=0x00005439 trans=AHB_TRANS_SEQ resp=AHB_RESP_OKAY wdata=0x10ba8225
# UVM_INFO ../src/slv/ahb_slave_driver.sv(184) @ 615000: uvm_test_top.env.slave_agent.drv [ahb_slave_driver] Beat AHB_WRITE addr=0x00005439 resp=AHB_RESP_OKAY waits=2 wdata=0x10ba8225
# UVM_INFO ../src/mst/ahb_master_monitor.sv(128) @ 615000: uvm_test_top.env.master_agent.mon [ahb_master_monitor] Beat[19] addr=0x00005439 wdata=0x10ba8225 resp=AHB_RESP_OKAY
# UVM_INFO ../src/mst/ahb_master_driver.sv(332) @ 635000: uvm_test_top.env.master_agent.drv [ahb_master_driver] Beat[20/256] addr=0x0000543a trans=AHB_TRANS_SEQ resp=AHB_RESP_OKAY wdata=0x09eca96e
# UVM_INFO ../src/slv/ahb_slave_driver.sv(184) @ 635000: uvm_test_top.env.slave_agent.drv [ahb_slave_driver] Beat AHB_WRITE addr=0x0000543a resp=AHB_RESP_OKAY waits=1 wdata=0x09eca96e
# UVM_INFO ../src/mst/ahb_master_monitor.sv(128) @ 635000: uvm_test_top.env.master_agent.mon [ahb_master_monitor] Beat[20] addr=0x0000543a wdata=0x09eca96e resp=AHB_RESP_OKAY
# UVM_INFO ../src/mst/ahb_master_driver.sv(332) @ 645000: uvm_test_top.env.master_agent.drv [ahb_master_driver] Beat[21/256] addr=0x0000543b trans=AHB_TRANS_SEQ resp=AHB_RESP_OKAY wdata=0x6742d22c
# UVM_INFO ../src/slv/ahb_slave_driver.sv(184) @ 645000: uvm_test_top.env.slave_agent.drv [ahb_slave_driver] Beat AHB_WRITE addr=0x0000543b resp=AHB_RESP_OKAY waits=0 wdata=0x6742d22c
# UVM_INFO ../src/mst/ahb_master_monitor.sv(128) @ 645000: uvm_test_top.env.master_agent.mon [ahb_master_monitor] Beat[21] addr=0x0000543b wdata=0x6742d22c resp=AHB_RESP_OKAY
# UVM_INFO ../src/mst/ahb_master_driver.sv(332) @ 675000: uvm_test_top.env.master_agent.drv [ahb_master_driver] Beat[22/256] addr=0x0000543c trans=AHB_TRANS_SEQ resp=AHB_RESP_OKAY wdata=0x90549565
# UVM_INFO ../src/slv/ahb_slave_driver.sv(184) @ 675000: uvm_test_top.env.slave_agent.drv [ahb_slave_driver] Beat AHB_WRITE addr=0x0000543c resp=AHB_RESP_OKAY waits=2 wdata=0x90549565
# UVM_INFO ../src/mst/ahb_master_monitor.sv(128) @ 675000: uvm_test_top.env.master_agent.mon [ahb_master_monitor] Beat[22] addr=0x0000543c wdata=0x90549565 resp=AHB_RESP_OKAY
# UVM_INFO ../src/mst/ahb_master_driver.sv(332) @ 695000: uvm_test_top.env.master_agent.drv [ahb_master_driver] Beat[23/256] addr=0x0000543d trans=AHB_TRANS_SEQ resp=AHB_RESP_OKAY wdata=0x76fae7c1
# UVM_INFO ../src/slv/ahb_slave_driver.sv(184) @ 695000: uvm_test_top.env.slave_agent.drv [ahb_slave_driver] Beat AHB_WRITE addr=0x0000543d resp=AHB_RESP_OKAY waits=1 wdata=0x76fae7c1
# UVM_INFO ../src/mst/ahb_master_monitor.sv(128) @ 695000: uvm_test_top.env.master_agent.mon [ahb_master_monitor] Beat[23] addr=0x0000543d wdata=0x76fae7c1 resp=AHB_RESP_OKAY
# UVM_INFO ../src/mst/ahb_master_driver.sv(332) @ 745000: uvm_test_top.env.master_agent.drv [ahb_master_driver] Beat[24/256] addr=0x0000543e trans=AHB_TRANS_SEQ resp=AHB_RESP_OKAY wdata=0x2787b3b5
# UVM_INFO ../src/slv/ahb_slave_driver.sv(184) @ 745000: uvm_test_top.env.slave_agent.drv [ahb_slave_driver] Beat AHB_WRITE addr=0x0000543e resp=AHB_RESP_OKAY waits=2 wdata=0x2787b3b5
# UVM_INFO ../src/mst/ahb_master_monitor.sv(128) @ 745000: uvm_test_top.env.master_agent.mon [ahb_master_monitor] Beat[24] addr=0x0000543e wdata=0x2787b3b5 resp=AHB_RESP_OKAY
# UVM_INFO ../src/mst/ahb_master_driver.sv(332) @ 765000: uvm_test_top.env.master_agent.drv [ahb_master_driver] Beat[25/256] addr=0x0000543f trans=AHB_TRANS_SEQ resp=AHB_RESP_OKAY wdata=0x4f1cb681
# UVM_INFO ../src/slv/ahb_slave_driver.sv(184) @ 765000: uvm_test_top.env.slave_agent.drv [ahb_slave_driver] Beat AHB_WRITE addr=0x0000543f resp=AHB_RESP_OKAY waits=1 wdata=0x4f1cb681
# UVM_INFO ../src/mst/ahb_master_monitor.sv(128) @ 765000: uvm_test_top.env.master_agent.mon [ahb_master_monitor] Beat[25] addr=0x0000543f wdata=0x4f1cb681 resp=AHB_RESP_OKAY
# UVM_INFO ../src/mst/ahb_master_driver.sv(332) @ 795000: uvm_test_top.env.master_agent.drv [ahb_master_driver] Beat[26/256] addr=0x00005440 trans=AHB_TRANS_SEQ resp=AHB_RESP_OKAY wdata=0x7899a57a
# UVM_INFO ../src/slv/ahb_slave_driver.sv(184) @ 795000: uvm_test_top.env.slave_agent.drv [ahb_slave_driver] Beat AHB_WRITE addr=0x00005440 resp=AHB_RESP_OKAY waits=2 wdata=0x7899a57a
# UVM_INFO ../src/mst/ahb_master_monitor.sv(128) @ 795000: uvm_test_top.env.master_agent.mon [ahb_master_monitor] Beat[26] addr=0x00005440 wdata=0x7899a57a resp=AHB_RESP_OKAY
# UVM_INFO ../src/mst/ahb_master_driver.sv(332) @ 825000: uvm_test_top.env.master_agent.drv [ahb_master_driver] Beat[27/256] addr=0x00005441 trans=AHB_TRANS_SEQ resp=AHB_RESP_OKAY wdata=0x29d1a19f
# UVM_INFO ../src/slv/ahb_slave_driver.sv(184) @ 825000: uvm_test_top.env.slave_agent.drv [ahb_slave_driver] Beat AHB_WRITE addr=0x00005441 resp=AHB_RESP_OKAY waits=2 wdata=0x29d1a19f
# UVM_INFO ../src/mst/ahb_master_monitor.sv(128) @ 825000: uvm_test_top.env.master_agent.mon [ahb_master_monitor] Beat[27] addr=0x00005441 wdata=0x29d1a19f resp=AHB_RESP_OKAY
# UVM_INFO ../src/mst/ahb_master_driver.sv(332) @ 845000: uvm_test_top.env.master_agent.drv [ahb_master_driver] Beat[28/256] addr=0x00005442 trans=AHB_TRANS_SEQ resp=AHB_RESP_OKAY wdata=0xe53b103b
# UVM_INFO ../src/slv/ahb_slave_driver.sv(184) @ 845000: uvm_test_top.env.slave_agent.drv [ahb_slave_driver] Beat AHB_WRITE addr=0x00005442 resp=AHB_RESP_OKAY waits=1 wdata=0xe53b103b
# UVM_INFO ../src/mst/ahb_master_monitor.sv(128) @ 845000: uvm_test_top.env.master_agent.mon [ahb_master_monitor] Beat[28] addr=0x00005442 wdata=0xe53b103b resp=AHB_RESP_OKAY
# UVM_INFO ../src/mst/ahb_master_driver.sv(332) @ 865000: uvm_test_top.env.master_agent.drv [ahb_master_driver] Beat[29/256] addr=0x00005443 trans=AHB_TRANS_SEQ resp=AHB_RESP_OKAY wdata=0xaa9201d8
# UVM_INFO ../src/slv/ahb_slave_driver.sv(184) @ 865000: uvm_test_top.env.slave_agent.drv [ahb_slave_driver] Beat AHB_WRITE addr=0x00005443 resp=AHB_RESP_OKAY waits=1 wdata=0xaa9201d8
# UVM_INFO ../src/mst/ahb_master_monitor.sv(128) @ 865000: uvm_test_top.env.master_agent.mon [ahb_master_monitor] Beat[29] addr=0x00005443 wdata=0xaa9201d8 resp=AHB_RESP_OKAY
# UVM_INFO ../src/mst/ahb_master_driver.sv(332) @ 895000: uvm_test_top.env.master_agent.drv [ahb_master_driver] Beat[30/256] addr=0x00005444 trans=AHB_TRANS_SEQ resp=AHB_RESP_OKAY wdata=0xa1121b2d
# UVM_INFO ../src/slv/ahb_slave_driver.sv(184) @ 895000: uvm_test_top.env.slave_agent.drv [ahb_slave_driver] Beat AHB_WRITE addr=0x00005444 resp=AHB_RESP_OKAY waits=2 wdata=0xa1121b2d
# UVM_INFO ../src/mst/ahb_master_monitor.sv(128) @ 895000: uvm_test_top.env.master_agent.mon [ahb_master_monitor] Beat[30] addr=0x00005444 wdata=0xa1121b2d resp=AHB_RESP_OKAY
# UVM_INFO ../src/mst/ahb_master_driver.sv(332) @ 915000: uvm_test_top.env.master_agent.drv [ahb_master_driver] Beat[31/256] addr=0x00005445 trans=AHB_TRANS_SEQ resp=AHB_RESP_OKAY wdata=0xf1aff816
# UVM_INFO ../src/slv/ahb_slave_driver.sv(184) @ 915000: uvm_test_top.env.slave_agent.drv [ahb_slave_driver] Beat AHB_WRITE addr=0x00005445 resp=AHB_RESP_OKAY waits=1 wdata=0xf1aff816
# UVM_INFO ../src/mst/ahb_master_monitor.sv(128) @ 915000: uvm_test_top.env.master_agent.mon [ahb_master_monitor] Beat[31] addr=0x00005445 wdata=0xf1aff816 resp=AHB_RESP_OKAY
# UVM_INFO ../src/mst/ahb_master_driver.sv(332) @ 965000: uvm_test_top.env.master_agent.drv [ahb_master_driver] Beat[32/256] addr=0x00005446 trans=AHB_TRANS_SEQ resp=AHB_RESP_OKAY wdata=0xb9ad030f
# UVM_INFO ../src/slv/ahb_slave_driver.sv(184) @ 965000: uvm_test_top.env.slave_agent.drv [ahb_slave_driver] Beat AHB_WRITE addr=0x00005446 resp=AHB_RESP_OKAY waits=2 wdata=0xb9ad030f
# UVM_INFO ../src/mst/ahb_master_monitor.sv(128) @ 965000: uvm_test_top.env.master_agent.mon [ahb_master_monitor] Beat[32] addr=0x00005446 wdata=0xb9ad030f resp=AHB_RESP_OKAY
# UVM_INFO ../src/mst/ahb_master_driver.sv(332) @ 975000: uvm_test_top.env.master_agent.drv [ahb_master_driver] Beat[33/256] addr=0x00005447 trans=AHB_TRANS_SEQ resp=AHB_RESP_OKAY wdata=0x9f50d7ba
# UVM_INFO ../src/slv/ahb_slave_driver.sv(184) @ 975000: uvm_test_top.env.slave_agent.drv [ahb_slave_driver] Beat AHB_WRITE addr=0x00005447 resp=AHB_RESP_OKAY waits=0 wdata=0x9f50d7ba
# UVM_INFO ../src/mst/ahb_master_monitor.sv(128) @ 975000: uvm_test_top.env.master_agent.mon [ahb_master_monitor] Beat[33] addr=0x00005447 wdata=0x9f50d7ba resp=AHB_RESP_OKAY
# UVM_INFO ../src/mst/ahb_master_driver.sv(332) @ 995000: uvm_test_top.env.master_agent.drv [ahb_master_driver] Beat[34/256] addr=0x00005448 trans=AHB_TRANS_SEQ resp=AHB_RESP_OKAY wdata=0x119ebf1a
# UVM_INFO ../src/slv/ahb_slave_driver.sv(184) @ 995000: uvm_test_top.env.slave_agent.drv [ahb_slave_driver] Beat AHB_WRITE addr=0x00005448 resp=AHB_RESP_OKAY waits=1 wdata=0x119ebf1a
# UVM_INFO ../src/mst/ahb_master_monitor.sv(128) @ 995000: uvm_test_top.env.master_agent.mon [ahb_master_monitor] Beat[34] addr=0x00005448 wdata=0x119ebf1a resp=AHB_RESP_OKAY
# UVM_INFO ../src/mst/ahb_master_driver.sv(332) @ 1025000: uvm_test_top.env.master_agent.drv [ahb_master_driver] Beat[35/256] addr=0x00005449 trans=AHB_TRANS_SEQ resp=AHB_RESP_OKAY wdata=0x72f15860
# UVM_INFO ../src/slv/ahb_slave_driver.sv(184) @ 1025000: uvm_test_top.env.slave_agent.drv [ahb_slave_driver] Beat AHB_WRITE addr=0x00005449 resp=AHB_RESP_OKAY waits=2 wdata=0x72f15860
# UVM_INFO ../src/mst/ahb_master_monitor.sv(128) @ 1025000: uvm_test_top.env.master_agent.mon [ahb_master_monitor] Beat[35] addr=0x00005449 wdata=0x72f15860 resp=AHB_RESP_OKAY
# UVM_INFO ../src/mst/ahb_master_driver.sv(332) @ 1055000: uvm_test_top.env.master_agent.drv [ahb_master_driver] Beat[36/256] addr=0x0000544a trans=AHB_TRANS_SEQ resp=AHB_RESP_OKAY wdata=0x9657959b
# UVM_INFO ../src/slv/ahb_slave_driver.sv(184) @ 1055000: uvm_test_top.env.slave_agent.drv [ahb_slave_driver] Beat AHB_WRITE addr=0x0000544a resp=AHB_RESP_OKAY waits=2 wdata=0x9657959b
# UVM_INFO ../src/mst/ahb_master_monitor.sv(128) @ 1055000: uvm_test_top.env.master_agent.mon [ahb_master_monitor] Beat[36] addr=0x0000544a wdata=0x9657959b resp=AHB_RESP_OKAY
# UVM_INFO ../src/mst/ahb_master_driver.sv(332) @ 1065000: uvm_test_top.env.master_agent.drv [ahb_master_driver] Beat[37/256] addr=0x0000544b trans=AHB_TRANS_SEQ resp=AHB_RESP_OKAY wdata=0x831a1049
# UVM_INFO ../src/slv/ahb_slave_driver.sv(184) @ 1065000: uvm_test_top.env.slave_agent.drv [ahb_slave_driver] Beat AHB_WRITE addr=0x0000544b resp=AHB_RESP_OKAY waits=0 wdata=0x831a1049
# UVM_INFO ../src/mst/ahb_master_monitor.sv(128) @ 1065000: uvm_test_top.env.master_agent.mon [ahb_master_monitor] Beat[37] addr=0x0000544b wdata=0x831a1049 resp=AHB_RESP_OKAY
# UVM_INFO ../src/mst/ahb_master_driver.sv(332) @ 1085000: uvm_test_top.env.master_agent.drv [ahb_master_driver] Beat[38/256] addr=0x0000544c trans=AHB_TRANS_SEQ resp=AHB_RESP_OKAY wdata=0x51aa0c16
# UVM_INFO ../src/slv/ahb_slave_driver.sv(184) @ 1085000: uvm_test_top.env.slave_agent.drv [ahb_slave_driver] Beat AHB_WRITE addr=0x0000544c resp=AHB_RESP_OKAY waits=1 wdata=0x51aa0c16
# UVM_INFO ../src/mst/ahb_master_monitor.sv(128) @ 1085000: uvm_test_top.env.master_agent.mon [ahb_master_monitor] Beat[38] addr=0x0000544c wdata=0x51aa0c16 resp=AHB_RESP_OKAY
# UVM_INFO ../src/mst/ahb_master_driver.sv(332) @ 1095000: uvm_test_top.env.master_agent.drv [ahb_master_driver] Beat[39/256] addr=0x0000544d trans=AHB_TRANS_SEQ resp=AHB_RESP_OKAY wdata=0x21e7b55d
# UVM_INFO ../src/slv/ahb_slave_driver.sv(184) @ 1095000: uvm_test_top.env.slave_agent.drv [ahb_slave_driver] Beat AHB_WRITE addr=0x0000544d resp=AHB_RESP_OKAY waits=0 wdata=0x21e7b55d
# UVM_INFO ../src/mst/ahb_master_monitor.sv(128) @ 1095000: uvm_test_top.env.master_agent.mon [ahb_master_monitor] Beat[39] addr=0x0000544d wdata=0x21e7b55d resp=AHB_RESP_OKAY
# UVM_INFO ../src/mst/ahb_master_driver.sv(332) @ 1135000: uvm_test_top.env.master_agent.drv [ahb_master_driver] Beat[40/256] addr=0x0000544e trans=AHB_TRANS_SEQ resp=AHB_RESP_OKAY wdata=0xbec62407
# UVM_INFO ../src/slv/ahb_slave_driver.sv(184) @ 1135000: uvm_test_top.env.slave_agent.drv [ahb_slave_driver] Beat AHB_WRITE addr=0x0000544e resp=AHB_RESP_OKAY waits=2 wdata=0xbec62407
# UVM_INFO ../src/mst/ahb_master_monitor.sv(128) @ 1135000: uvm_test_top.env.master_agent.mon [ahb_master_monitor] Beat[40] addr=0x0000544e wdata=0xbec62407 resp=AHB_RESP_OKAY
# UVM_INFO ../src/mst/ahb_master_driver.sv(332) @ 1155000: uvm_test_top.env.master_agent.drv [ahb_master_driver] Beat[41/256] addr=0x0000544f trans=AHB_TRANS_SEQ resp=AHB_RESP_OKAY wdata=0xc093409a
# UVM_INFO ../src/slv/ahb_slave_driver.sv(184) @ 1155000: uvm_test_top.env.slave_agent.drv [ahb_slave_driver] Beat AHB_WRITE addr=0x0000544f resp=AHB_RESP_OKAY waits=1 wdata=0xc093409a
# UVM_INFO ../src/mst/ahb_master_monitor.sv(128) @ 1155000: uvm_test_top.env.master_agent.mon [ahb_master_monitor] Beat[41] addr=0x0000544f wdata=0xc093409a resp=AHB_RESP_OKAY
# UVM_INFO ../src/mst/ahb_master_driver.sv(332) @ 1165000: uvm_test_top.env.master_agent.drv [ahb_master_driver] Beat[42/256] addr=0x00005450 trans=AHB_TRANS_SEQ resp=AHB_RESP_OKAY wdata=0x0c5a4d41
# UVM_INFO ../src/slv/ahb_slave_driver.sv(184) @ 1165000: uvm_test_top.env.slave_agent.drv [ahb_slave_driver] Beat AHB_WRITE addr=0x00005450 resp=AHB_RESP_OKAY waits=0 wdata=0x0c5a4d41
# UVM_INFO ../src/mst/ahb_master_monitor.sv(128) @ 1165000: uvm_test_top.env.master_agent.mon [ahb_master_monitor] Beat[42] addr=0x00005450 wdata=0x0c5a4d41 resp=AHB_RESP_OKAY
# UVM_INFO ../src/mst/ahb_master_driver.sv(332) @ 1175000: uvm_test_top.env.master_agent.drv [ahb_master_driver] Beat[43/256] addr=0x00005451 trans=AHB_TRANS_SEQ resp=AHB_RESP_OKAY wdata=0xf779465a
# UVM_INFO ../src/slv/ahb_slave_driver.sv(184) @ 1175000: uvm_test_top.env.slave_agent.drv [ahb_slave_driver] Beat AHB_WRITE addr=0x00005451 resp=AHB_RESP_OKAY waits=0 wdata=0xf779465a
# UVM_INFO ../src/mst/ahb_master_monitor.sv(128) @ 1175000: uvm_test_top.env.master_agent.mon [ahb_master_monitor] Beat[43] addr=0x00005451 wdata=0xf779465a resp=AHB_RESP_OKAY
# UVM_INFO ../src/mst/ahb_master_driver.sv(332) @ 1185000: uvm_test_top.env.master_agent.drv [ahb_master_driver] Beat[44/256] addr=0x00005452 trans=AHB_TRANS_SEQ resp=AHB_RESP_OKAY wdata=0x7b63ab6a
# UVM_INFO ../src/slv/ahb_slave_driver.sv(184) @ 1185000: uvm_test_top.env.slave_agent.drv [ahb_slave_driver] Beat AHB_WRITE addr=0x00005452 resp=AHB_RESP_OKAY waits=0 wdata=0x7b63ab6a
# UVM_INFO ../src/mst/ahb_master_monitor.sv(128) @ 1185000: uvm_test_top.env.master_agent.mon [ahb_master_monitor] Beat[44] addr=0x00005452 wdata=0x7b63ab6a resp=AHB_RESP_OKAY
# UVM_INFO ../src/mst/ahb_master_driver.sv(332) @ 1195000: uvm_test_top.env.master_agent.drv [ahb_master_driver] Beat[45/256] addr=0x00005453 trans=AHB_TRANS_SEQ resp=AHB_RESP_OKAY wdata=0x1cbdcfee
# UVM_INFO ../src/slv/ahb_slave_driver.sv(184) @ 1195000: uvm_test_top.env.slave_agent.drv [ahb_slave_driver] Beat AHB_WRITE addr=0x00005453 resp=AHB_RESP_OKAY waits=0 wdata=0x1cbdcfee
# UVM_INFO ../src/mst/ahb_master_monitor.sv(128) @ 1195000: uvm_test_top.env.master_agent.mon [ahb_master_monitor] Beat[45] addr=0x00005453 wdata=0x1cbdcfee resp=AHB_RESP_OKAY
# UVM_INFO ../src/mst/ahb_master_driver.sv(332) @ 1225000: uvm_test_top.env.master_agent.drv [ahb_master_driver] Beat[46/256] addr=0x00005454 trans=AHB_TRANS_SEQ resp=AHB_RESP_OKAY wdata=0xa0131e65
# UVM_INFO ../src/slv/ahb_slave_driver.sv(184) @ 1225000: uvm_test_top.env.slave_agent.drv [ahb_slave_driver] Beat AHB_WRITE addr=0x00005454 resp=AHB_RESP_OKAY waits=2 wdata=0xa0131e65
# UVM_INFO ../src/mst/ahb_master_monitor.sv(128) @ 1225000: uvm_test_top.env.master_agent.mon [ahb_master_monitor] Beat[46] addr=0x00005454 wdata=0xa0131e65 resp=AHB_RESP_OKAY
# UVM_INFO ../src/mst/ahb_master_driver.sv(332) @ 1255000: uvm_test_top.env.master_agent.drv [ahb_master_driver] Beat[47/256] addr=0x00005455 trans=AHB_TRANS_SEQ resp=AHB_RESP_OKAY wdata=0xcb5286e3
# UVM_INFO ../src/slv/ahb_slave_driver.sv(184) @ 1255000: uvm_test_top.env.slave_agent.drv [ahb_slave_driver] Beat AHB_WRITE addr=0x00005455 resp=AHB_RESP_OKAY waits=2 wdata=0xcb5286e3
# UVM_INFO ../src/mst/ahb_master_monitor.sv(128) @ 1255000: uvm_test_top.env.master_agent.mon [ahb_master_monitor] Beat[47] addr=0x00005455 wdata=0xcb5286e3 resp=AHB_RESP_OKAY
# UVM_INFO ../src/mst/ahb_master_driver.sv(332) @ 1305000: uvm_test_top.env.master_agent.drv [ahb_master_driver] Beat[48/256] addr=0x00005456 trans=AHB_TRANS_SEQ resp=AHB_RESP_OKAY wdata=0xb94b23f3
# UVM_INFO ../src/slv/ahb_slave_driver.sv(184) @ 1305000: uvm_test_top.env.slave_agent.drv [ahb_slave_driver] Beat AHB_WRITE addr=0x00005456 resp=AHB_RESP_OKAY waits=2 wdata=0xb94b23f3
# UVM_INFO ../src/mst/ahb_master_monitor.sv(128) @ 1305000: uvm_test_top.env.master_agent.mon [ahb_master_monitor] Beat[48] addr=0x00005456 wdata=0xb94b23f3 resp=AHB_RESP_OKAY
# UVM_INFO ../src/mst/ahb_master_driver.sv(332) @ 1325000: uvm_test_top.env.master_agent.drv [ahb_master_driver] Beat[49/256] addr=0x00005457 trans=AHB_TRANS_SEQ resp=AHB_RESP_OKAY wdata=0x218a713d
# UVM_INFO ../src/slv/ahb_slave_driver.sv(184) @ 1325000: uvm_test_top.env.slave_agent.drv [ahb_slave_driver] Beat AHB_WRITE addr=0x00005457 resp=AHB_RESP_OKAY waits=1 wdata=0x218a713d
# UVM_INFO ../src/mst/ahb_master_monitor.sv(128) @ 1325000: uvm_test_top.env.master_agent.mon [ahb_master_monitor] Beat[49] addr=0x00005457 wdata=0x218a713d resp=AHB_RESP_OKAY
# UVM_INFO ../src/mst/ahb_master_driver.sv(332) @ 1335000: uvm_test_top.env.master_agent.drv [ahb_master_driver] Beat[50/256] addr=0x00005458 trans=AHB_TRANS_SEQ resp=AHB_RESP_OKAY wdata=0xbf7af5d3
# UVM_INFO ../src/slv/ahb_slave_driver.sv(184) @ 1335000: uvm_test_top.env.slave_agent.drv [ahb_slave_driver] Beat AHB_WRITE addr=0x00005458 resp=AHB_RESP_OKAY waits=0 wdata=0xbf7af5d3
# UVM_INFO ../src/mst/ahb_master_monitor.sv(128) @ 1335000: uvm_test_top.env.master_agent.mon [ahb_master_monitor] Beat[50] addr=0x00005458 wdata=0xbf7af5d3 resp=AHB_RESP_OKAY
# UVM_INFO ../src/mst/ahb_master_driver.sv(332) @ 1345000: uvm_test_top.env.master_agent.drv [ahb_master_driver] Beat[51/256] addr=0x00005459 trans=AHB_TRANS_SEQ resp=AHB_RESP_OKAY wdata=0xc6a19f21
# UVM_INFO ../src/slv/ahb_slave_driver.sv(184) @ 1345000: uvm_test_top.env.slave_agent.drv [ahb_slave_driver] Beat AHB_WRITE addr=0x00005459 resp=AHB_RESP_OKAY waits=0 wdata=0xc6a19f21
# UVM_INFO ../src/mst/ahb_master_monitor.sv(128) @ 1345000: uvm_test_top.env.master_agent.mon [ahb_master_monitor] Beat[51] addr=0x00005459 wdata=0xc6a19f21 resp=AHB_RESP_OKAY
# UVM_INFO ../src/mst/ahb_master_driver.sv(332) @ 1365000: uvm_test_top.env.master_agent.drv [ahb_master_driver] Beat[52/256] addr=0x0000545a trans=AHB_TRANS_SEQ resp=AHB_RESP_OKAY wdata=0x70683362
# UVM_INFO ../src/slv/ahb_slave_driver.sv(184) @ 1365000: uvm_test_top.env.slave_agent.drv [ahb_slave_driver] Beat AHB_WRITE addr=0x0000545a resp=AHB_RESP_OKAY waits=1 wdata=0x70683362
# UVM_INFO ../src/mst/ahb_master_monitor.sv(128) @ 1365000: uvm_test_top.env.master_agent.mon [ahb_master_monitor] Beat[52] addr=0x0000545a wdata=0x70683362 resp=AHB_RESP_OKAY
# UVM_INFO ../src/mst/ahb_master_driver.sv(332) @ 1395000: uvm_test_top.env.master_agent.drv [ahb_master_driver] Beat[53/256] addr=0x0000545b trans=AHB_TRANS_SEQ resp=AHB_RESP_OKAY wdata=0x00c1ee8a
# UVM_INFO ../src/slv/ahb_slave_driver.sv(184) @ 1395000: uvm_test_top.env.slave_agent.drv [ahb_slave_driver] Beat AHB_WRITE addr=0x0000545b resp=AHB_RESP_OKAY waits=2 wdata=0x00c1ee8a
# UVM_INFO ../src/mst/ahb_master_monitor.sv(128) @ 1395000: uvm_test_top.env.master_agent.mon [ahb_master_monitor] Beat[53] addr=0x0000545b wdata=0x00c1ee8a resp=AHB_RESP_OKAY
# UVM_INFO ../src/mst/ahb_master_driver.sv(332) @ 1415000: uvm_test_top.env.master_agent.drv [ahb_master_driver] Beat[54/256] addr=0x0000545c trans=AHB_TRANS_SEQ resp=AHB_RESP_OKAY wdata=0x9aeef33a
# UVM_INFO ../src/slv/ahb_slave_driver.sv(184) @ 1415000: uvm_test_top.env.slave_agent.drv [ahb_slave_driver] Beat AHB_WRITE addr=0x0000545c resp=AHB_RESP_OKAY waits=1 wdata=0x9aeef33a
# UVM_INFO ../src/mst/ahb_master_monitor.sv(128) @ 1415000: uvm_test_top.env.master_agent.mon [ahb_master_monitor] Beat[54] addr=0x0000545c wdata=0x9aeef33a resp=AHB_RESP_OKAY
# UVM_INFO ../src/mst/ahb_master_driver.sv(332) @ 1435000: uvm_test_top.env.master_agent.drv [ahb_master_driver] Beat[55/256] addr=0x0000545d trans=AHB_TRANS_SEQ resp=AHB_RESP_OKAY wdata=0x0b18db2f
# UVM_INFO ../src/slv/ahb_slave_driver.sv(184) @ 1435000: uvm_test_top.env.slave_agent.drv [ahb_slave_driver] Beat AHB_WRITE addr=0x0000545d resp=AHB_RESP_OKAY waits=1 wdata=0x0b18db2f
# UVM_INFO ../src/mst/ahb_master_monitor.sv(128) @ 1435000: uvm_test_top.env.master_agent.mon [ahb_master_monitor] Beat[55] addr=0x0000545d wdata=0x0b18db2f resp=AHB_RESP_OKAY
# UVM_INFO ../src/mst/ahb_master_driver.sv(332) @ 1475000: uvm_test_top.env.master_agent.drv [ahb_master_driver] Beat[56/256] addr=0x0000545e trans=AHB_TRANS_SEQ resp=AHB_RESP_OKAY wdata=0xc7a4034e
# UVM_INFO ../src/slv/ahb_slave_driver.sv(184) @ 1475000: uvm_test_top.env.slave_agent.drv [ahb_slave_driver] Beat AHB_WRITE addr=0x0000545e resp=AHB_RESP_OKAY waits=1 wdata=0xc7a4034e
# UVM_INFO ../src/mst/ahb_master_monitor.sv(128) @ 1475000: uvm_test_top.env.master_agent.mon [ahb_master_monitor] Beat[56] addr=0x0000545e wdata=0xc7a4034e resp=AHB_RESP_OKAY
# UVM_INFO ../src/mst/ahb_master_driver.sv(332) @ 1505000: uvm_test_top.env.master_agent.drv [ahb_master_driver] Beat[57/256] addr=0x0000545f trans=AHB_TRANS_SEQ resp=AHB_RESP_OKAY wdata=0x04103a18
# UVM_INFO ../src/slv/ahb_slave_driver.sv(184) @ 1505000: uvm_test_top.env.slave_agent.drv [ahb_slave_driver] Beat AHB_WRITE addr=0x0000545f resp=AHB_RESP_OKAY waits=2 wdata=0x04103a18
# UVM_INFO ../src/mst/ahb_master_monitor.sv(128) @ 1505000: uvm_test_top.env.master_agent.mon [ahb_master_monitor] Beat[57] addr=0x0000545f wdata=0x04103a18 resp=AHB_RESP_OKAY
# UVM_INFO ../src/mst/ahb_master_driver.sv(332) @ 1525000: uvm_test_top.env.master_agent.drv [ahb_master_driver] Beat[58/256] addr=0x00005460 trans=AHB_TRANS_SEQ resp=AHB_RESP_OKAY wdata=0x300214e6
# UVM_INFO ../src/slv/ahb_slave_driver.sv(184) @ 1525000: uvm_test_top.env.slave_agent.drv [ahb_slave_driver] Beat AHB_WRITE addr=0x00005460 resp=AHB_RESP_OKAY waits=1 wdata=0x300214e6
# UVM_INFO ../src/mst/ahb_master_monitor.sv(128) @ 1525000: uvm_test_top.env.master_agent.mon [ahb_master_monitor] Beat[58] addr=0x00005460 wdata=0x300214e6 resp=AHB_RESP_OKAY
# UVM_INFO ../src/mst/ahb_master_driver.sv(332) @ 1545000: uvm_test_top.env.master_agent.drv [ahb_master_driver] Beat[59/256] addr=0x00005461 trans=AHB_TRANS_SEQ resp=AHB_RESP_OKAY wdata=0xde6b7ce5
# UVM_INFO ../src/slv/ahb_slave_driver.sv(184) @ 1545000: uvm_test_top.env.slave_agent.drv [ahb_slave_driver] Beat AHB_WRITE addr=0x00005461 resp=AHB_RESP_OKAY waits=1 wdata=0xde6b7ce5
# UVM_INFO ../src/mst/ahb_master_monitor.sv(128) @ 1545000: uvm_test_top.env.master_agent.mon [ahb_master_monitor] Beat[59] addr=0x00005461 wdata=0xde6b7ce5 resp=AHB_RESP_OKAY
# UVM_INFO ../src/mst/ahb_master_driver.sv(332) @ 1565000: uvm_test_top.env.master_agent.drv [ahb_master_driver] Beat[60/256] addr=0x00005462 trans=AHB_TRANS_SEQ resp=AHB_RESP_OKAY wdata=0x48df89d9
# UVM_INFO ../src/slv/ahb_slave_driver.sv(184) @ 1565000: uvm_test_top.env.slave_agent.drv [ahb_slave_driver] Beat AHB_WRITE addr=0x00005462 resp=AHB_RESP_OKAY waits=1 wdata=0x48df89d9
# UVM_INFO ../src/mst/ahb_master_monitor.sv(128) @ 1565000: uvm_test_top.env.master_agent.mon [ahb_master_monitor] Beat[60] addr=0x00005462 wdata=0x48df89d9 resp=AHB_RESP_OKAY
# UVM_INFO ../src/mst/ahb_master_driver.sv(332) @ 1575000: uvm_test_top.env.master_agent.drv [ahb_master_driver] Beat[61/256] addr=0x00005463 trans=AHB_TRANS_SEQ resp=AHB_RESP_OKAY wdata=0x2d9ebc10
# UVM_INFO ../src/slv/ahb_slave_driver.sv(184) @ 1575000: uvm_test_top.env.slave_agent.drv [ahb_slave_driver] Beat AHB_WRITE addr=0x00005463 resp=AHB_RESP_OKAY waits=0 wdata=0x2d9ebc10
# UVM_INFO ../src/mst/ahb_master_monitor.sv(128) @ 1575000: uvm_test_top.env.master_agent.mon [ahb_master_monitor] Beat[61] addr=0x00005463 wdata=0x2d9ebc10 resp=AHB_RESP_OKAY
# UVM_INFO ../src/mst/ahb_master_driver.sv(332) @ 1605000: uvm_test_top.env.master_agent.drv [ahb_master_driver] Beat[62/256] addr=0x00005464 trans=AHB_TRANS_SEQ resp=AHB_RESP_OKAY wdata=0x5df5e078
# UVM_INFO ../src/slv/ahb_slave_driver.sv(184) @ 1605000: uvm_test_top.env.slave_agent.drv [ahb_slave_driver] Beat AHB_WRITE addr=0x00005464 resp=AHB_RESP_OKAY waits=2 wdata=0x5df5e078
# UVM_INFO ../src/mst/ahb_master_monitor.sv(128) @ 1605000: uvm_test_top.env.master_agent.mon [ahb_master_monitor] Beat[62] addr=0x00005464 wdata=0x5df5e078 resp=AHB_RESP_OKAY
# UVM_INFO ../src/mst/ahb_master_driver.sv(332) @ 1615000: uvm_test_top.env.master_agent.drv [ahb_master_driver] Beat[63/256] addr=0x00005465 trans=AHB_TRANS_SEQ resp=AHB_RESP_OKAY wdata=0x4766e03f
# UVM_INFO ../src/slv/ahb_slave_driver.sv(184) @ 1615000: uvm_test_top.env.slave_agent.drv [ahb_slave_driver] Beat AHB_WRITE addr=0x00005465 resp=AHB_RESP_OKAY waits=0 wdata=0x4766e03f
# UVM_INFO ../src/mst/ahb_master_monitor.sv(128) @ 1615000: uvm_test_top.env.master_agent.mon [ahb_master_monitor] Beat[63] addr=0x00005465 wdata=0x4766e03f resp=AHB_RESP_OKAY
# UVM_INFO ../src/mst/ahb_master_driver.sv(332) @ 1655000: uvm_test_top.env.master_agent.drv [ahb_master_driver] Beat[64/256] addr=0x00005466 trans=AHB_TRANS_SEQ resp=AHB_RESP_OKAY wdata=0xc2f37aa5
# UVM_INFO ../src/slv/ahb_slave_driver.sv(184) @ 1655000: uvm_test_top.env.slave_agent.drv [ahb_slave_driver] Beat AHB_WRITE addr=0x00005466 resp=AHB_RESP_OKAY waits=2 wdata=0xc2f37aa5
# UVM_INFO ../src/mst/ahb_master_monitor.sv(128) @ 1655000: uvm_test_top.env.master_agent.mon [ahb_master_monitor] Beat[64] addr=0x00005466 wdata=0xc2f37aa5 resp=AHB_RESP_OKAY
# UVM_INFO ../src/mst/ahb_master_driver.sv(332) @ 1665000: uvm_test_top.env.master_agent.drv [ahb_master_driver] Beat[65/256] addr=0x00005467 trans=AHB_TRANS_SEQ resp=AHB_RESP_OKAY wdata=0xce0c1261
# UVM_INFO ../src/slv/ahb_slave_driver.sv(184) @ 1665000: uvm_test_top.env.slave_agent.drv [ahb_slave_driver] Beat AHB_WRITE addr=0x00005467 resp=AHB_RESP_OKAY waits=0 wdata=0xce0c1261
# UVM_INFO ../src/mst/ahb_master_monitor.sv(128) @ 1665000: uvm_test_top.env.master_agent.mon [ahb_master_monitor] Beat[65] addr=0x00005467 wdata=0xce0c1261 resp=AHB_RESP_OKAY
# UVM_INFO ../src/mst/ahb_master_driver.sv(332) @ 1695000: uvm_test_top.env.master_agent.drv [ahb_master_driver] Beat[66/256] addr=0x00005468 trans=AHB_TRANS_SEQ resp=AHB_RESP_OKAY wdata=0xb6649681
# UVM_INFO ../src/slv/ahb_slave_driver.sv(184) @ 1695000: uvm_test_top.env.slave_agent.drv [ahb_slave_driver] Beat AHB_WRITE addr=0x00005468 resp=AHB_RESP_OKAY waits=2 wdata=0xb6649681
# UVM_INFO ../src/mst/ahb_master_monitor.sv(128) @ 1695000: uvm_test_top.env.master_agent.mon [ahb_master_monitor] Beat[66] addr=0x00005468 wdata=0xb6649681 resp=AHB_RESP_OKAY
# UVM_INFO ../src/mst/ahb_master_driver.sv(332) @ 1715000: uvm_test_top.env.master_agent.drv [ahb_master_driver] Beat[67/256] addr=0x00005469 trans=AHB_TRANS_SEQ resp=AHB_RESP_OKAY wdata=0x251c643f
# UVM_INFO ../src/slv/ahb_slave_driver.sv(184) @ 1715000: uvm_test_top.env.slave_agent.drv [ahb_slave_driver] Beat AHB_WRITE addr=0x00005469 resp=AHB_RESP_OKAY waits=1 wdata=0x251c643f
# UVM_INFO ../src/mst/ahb_master_monitor.sv(128) @ 1715000: uvm_test_top.env.master_agent.mon [ahb_master_monitor] Beat[67] addr=0x00005469 wdata=0x251c643f resp=AHB_RESP_OKAY
# UVM_INFO ../src/mst/ahb_master_driver.sv(332) @ 1745000: uvm_test_top.env.master_agent.drv [ahb_master_driver] Beat[68/256] addr=0x0000546a trans=AHB_TRANS_SEQ resp=AHB_RESP_OKAY wdata=0xba99be1e
# UVM_INFO ../src/slv/ahb_slave_driver.sv(184) @ 1745000: uvm_test_top.env.slave_agent.drv [ahb_slave_driver] Beat AHB_WRITE addr=0x0000546a resp=AHB_RESP_OKAY waits=2 wdata=0xba99be1e
# UVM_INFO ../src/mst/ahb_master_monitor.sv(128) @ 1745000: uvm_test_top.env.master_agent.mon [ahb_master_monitor] Beat[68] addr=0x0000546a wdata=0xba99be1e resp=AHB_RESP_OKAY
# UVM_INFO ../src/mst/ahb_master_driver.sv(332) @ 1775000: uvm_test_top.env.master_agent.drv [ahb_master_driver] Beat[69/256] addr=0x0000546b trans=AHB_TRANS_SEQ resp=AHB_RESP_OKAY wdata=0x03158871
# UVM_INFO ../src/slv/ahb_slave_driver.sv(184) @ 1775000: uvm_test_top.env.slave_agent.drv [ahb_slave_driver] Beat AHB_WRITE addr=0x0000546b resp=AHB_RESP_OKAY waits=2 wdata=0x03158871
# UVM_INFO ../src/mst/ahb_master_monitor.sv(128) @ 1775000: uvm_test_top.env.master_agent.mon [ahb_master_monitor] Beat[69] addr=0x0000546b wdata=0x03158871 resp=AHB_RESP_OKAY
# UVM_INFO ../src/mst/ahb_master_driver.sv(332) @ 1805000: uvm_test_top.env.master_agent.drv [ahb_master_driver] Beat[70/256] addr=0x0000546c trans=AHB_TRANS_SEQ resp=AHB_RESP_OKAY wdata=0xba24e890
# UVM_INFO ../src/slv/ahb_slave_driver.sv(184) @ 1805000: uvm_test_top.env.slave_agent.drv [ahb_slave_driver] Beat AHB_WRITE addr=0x0000546c resp=AHB_RESP_OKAY waits=2 wdata=0xba24e890
# UVM_INFO ../src/mst/ahb_master_monitor.sv(128) @ 1805000: uvm_test_top.env.master_agent.mon [ahb_master_monitor] Beat[70] addr=0x0000546c wdata=0xba24e890 resp=AHB_RESP_OKAY
# UVM_INFO ../src/mst/ahb_master_driver.sv(332) @ 1815000: uvm_test_top.env.master_agent.drv [ahb_master_driver] Beat[71/256] addr=0x0000546d trans=AHB_TRANS_SEQ resp=AHB_RESP_OKAY wdata=0xdc0294f6
# UVM_INFO ../src/slv/ahb_slave_driver.sv(184) @ 1815000: uvm_test_top.env.slave_agent.drv [ahb_slave_driver] Beat AHB_WRITE addr=0x0000546d resp=AHB_RESP_OKAY waits=0 wdata=0xdc0294f6
# UVM_INFO ../src/mst/ahb_master_monitor.sv(128) @ 1815000: uvm_test_top.env.master_agent.mon [ahb_master_monitor] Beat[71] addr=0x0000546d wdata=0xdc0294f6 resp=AHB_RESP_OKAY
# UVM_INFO ../src/mst/ahb_master_driver.sv(332) @ 1855000: uvm_test_top.env.master_agent.drv [ahb_master_driver] Beat[72/256] addr=0x0000546e trans=AHB_TRANS_SEQ resp=AHB_RESP_OKAY wdata=0x155b16a6
# UVM_INFO ../src/slv/ahb_slave_driver.sv(184) @ 1855000: uvm_test_top.env.slave_agent.drv [ahb_slave_driver] Beat AHB_WRITE addr=0x0000546e resp=AHB_RESP_OKAY waits=2 wdata=0x155b16a6
# UVM_INFO ../src/mst/ahb_master_monitor.sv(128) @ 1855000: uvm_test_top.env.master_agent.mon [ahb_master_monitor] Beat[72] addr=0x0000546e wdata=0x155b16a6 resp=AHB_RESP_OKAY
# UVM_INFO ../src/mst/ahb_master_driver.sv(332) @ 1885000: uvm_test_top.env.master_agent.drv [ahb_master_driver] Beat[73/256] addr=0x0000546f trans=AHB_TRANS_SEQ resp=AHB_RESP_OKAY wdata=0xeb2bc2ee
# UVM_INFO ../src/slv/ahb_slave_driver.sv(184) @ 1885000: uvm_test_top.env.slave_agent.drv [ahb_slave_driver] Beat AHB_WRITE addr=0x0000546f resp=AHB_RESP_OKAY waits=2 wdata=0xeb2bc2ee
# UVM_INFO ../src/mst/ahb_master_monitor.sv(128) @ 1885000: uvm_test_top.env.master_agent.mon [ahb_master_monitor] Beat[73] addr=0x0000546f wdata=0xeb2bc2ee resp=AHB_RESP_OKAY
# UVM_INFO ../src/mst/ahb_master_driver.sv(332) @ 1895000: uvm_test_top.env.master_agent.drv [ahb_master_driver] Beat[74/256] addr=0x00005470 trans=AHB_TRANS_SEQ resp=AHB_RESP_OKAY wdata=0x65682d87
# UVM_INFO ../src/slv/ahb_slave_driver.sv(184) @ 1895000: uvm_test_top.env.slave_agent.drv [ahb_slave_driver] Beat AHB_WRITE addr=0x00005470 resp=AHB_RESP_OKAY waits=0 wdata=0x65682d87
# UVM_INFO ../src/mst/ahb_master_monitor.sv(128) @ 1895000: uvm_test_top.env.master_agent.mon [ahb_master_monitor] Beat[74] addr=0x00005470 wdata=0x65682d87 resp=AHB_RESP_OKAY
# UVM_INFO ../src/mst/ahb_master_driver.sv(332) @ 1905000: uvm_test_top.env.master_agent.drv [ahb_master_driver] Beat[75/256] addr=0x00005471 trans=AHB_TRANS_SEQ resp=AHB_RESP_OKAY wdata=0xce739779
# UVM_INFO ../src/slv/ahb_slave_driver.sv(184) @ 1905000: uvm_test_top.env.slave_agent.drv [ahb_slave_driver] Beat AHB_WRITE addr=0x00005471 resp=AHB_RESP_OKAY waits=0 wdata=0xce739779
# UVM_INFO ../src/mst/ahb_master_monitor.sv(128) @ 1905000: uvm_test_top.env.master_agent.mon [ahb_master_monitor] Beat[75] addr=0x00005471 wdata=0xce739779 resp=AHB_RESP_OKAY
# UVM_INFO ../src/mst/ahb_master_driver.sv(332) @ 1935000: uvm_test_top.env.master_agent.drv [ahb_master_driver] Beat[76/256] addr=0x00005472 trans=AHB_TRANS_SEQ resp=AHB_RESP_OKAY wdata=0xb2fd1f88
# UVM_INFO ../src/slv/ahb_slave_driver.sv(184) @ 1935000: uvm_test_top.env.slave_agent.drv [ahb_slave_driver] Beat AHB_WRITE addr=0x00005472 resp=AHB_RESP_OKAY waits=2 wdata=0xb2fd1f88
# UVM_INFO ../src/mst/ahb_master_monitor.sv(128) @ 1935000: uvm_test_top.env.master_agent.mon [ahb_master_monitor] Beat[76] addr=0x00005472 wdata=0xb2fd1f88 resp=AHB_RESP_OKAY
# UVM_INFO ../src/mst/ahb_master_driver.sv(332) @ 1955000: uvm_test_top.env.master_agent.drv [ahb_master_driver] Beat[77/256] addr=0x00005473 trans=AHB_TRANS_SEQ resp=AHB_RESP_OKAY wdata=0x3d9f6db9
# UVM_INFO ../src/slv/ahb_slave_driver.sv(184) @ 1955000: uvm_test_top.env.slave_agent.drv [ahb_slave_driver] Beat AHB_WRITE addr=0x00005473 resp=AHB_RESP_OKAY waits=1 wdata=0x3d9f6db9
# UVM_INFO ../src/mst/ahb_master_monitor.sv(128) @ 1955000: uvm_test_top.env.master_agent.mon [ahb_master_monitor] Beat[77] addr=0x00005473 wdata=0x3d9f6db9 resp=AHB_RESP_OKAY
# UVM_INFO ../src/mst/ahb_master_driver.sv(332) @ 1965000: uvm_test_top.env.master_agent.drv [ahb_master_driver] Beat[78/256] addr=0x00005474 trans=AHB_TRANS_SEQ resp=AHB_RESP_OKAY wdata=0x38430247
# UVM_INFO ../src/slv/ahb_slave_driver.sv(184) @ 1965000: uvm_test_top.env.slave_agent.drv [ahb_slave_driver] Beat AHB_WRITE addr=0x00005474 resp=AHB_RESP_OKAY waits=0 wdata=0x38430247
# UVM_INFO ../src/mst/ahb_master_monitor.sv(128) @ 1965000: uvm_test_top.env.master_agent.mon [ahb_master_monitor] Beat[78] addr=0x00005474 wdata=0x38430247 resp=AHB_RESP_OKAY
# UVM_INFO ../src/mst/ahb_master_driver.sv(332) @ 1975000: uvm_test_top.env.master_agent.drv [ahb_master_driver] Beat[79/256] addr=0x00005475 trans=AHB_TRANS_SEQ resp=AHB_RESP_OKAY wdata=0xb5905e07
# UVM_INFO ../src/slv/ahb_slave_driver.sv(184) @ 1975000: uvm_test_top.env.slave_agent.drv [ahb_slave_driver] Beat AHB_WRITE addr=0x00005475 resp=AHB_RESP_OKAY waits=0 wdata=0xb5905e07
# UVM_INFO ../src/mst/ahb_master_monitor.sv(128) @ 1975000: uvm_test_top.env.master_agent.mon [ahb_master_monitor] Beat[79] addr=0x00005475 wdata=0xb5905e07 resp=AHB_RESP_OKAY
# UVM_INFO ../src/mst/ahb_master_driver.sv(332) @ 2025000: uvm_test_top.env.master_agent.drv [ahb_master_driver] Beat[80/256] addr=0x00005476 trans=AHB_TRANS_SEQ resp=AHB_RESP_OKAY wdata=0x60e418f6
# UVM_INFO ../src/slv/ahb_slave_driver.sv(184) @ 2025000: uvm_test_top.env.slave_agent.drv [ahb_slave_driver] Beat AHB_WRITE addr=0x00005476 resp=AHB_RESP_OKAY waits=2 wdata=0x60e418f6
# UVM_INFO ../src/mst/ahb_master_monitor.sv(128) @ 2025000: uvm_test_top.env.master_agent.mon [ahb_master_monitor] Beat[80] addr=0x00005476 wdata=0x60e418f6 resp=AHB_RESP_OKAY
# UVM_INFO ../src/mst/ahb_master_driver.sv(332) @ 2055000: uvm_test_top.env.master_agent.drv [ahb_master_driver] Beat[81/256] addr=0x00005477 trans=AHB_TRANS_SEQ resp=AHB_RESP_OKAY wdata=0x61f43e21
# UVM_INFO ../src/slv/ahb_slave_driver.sv(184) @ 2055000: uvm_test_top.env.slave_agent.drv [ahb_slave_driver] Beat AHB_WRITE addr=0x00005477 resp=AHB_RESP_OKAY waits=2 wdata=0x61f43e21
# UVM_INFO ../src/mst/ahb_master_monitor.sv(128) @ 2055000: uvm_test_top.env.master_agent.mon [ahb_master_monitor] Beat[81] addr=0x00005477 wdata=0x61f43e21 resp=AHB_RESP_OKAY
# UVM_INFO ../src/mst/ahb_master_driver.sv(332) @ 2085000: uvm_test_top.env.master_agent.drv [ahb_master_driver] Beat[82/256] addr=0x00005478 trans=AHB_TRANS_SEQ resp=AHB_RESP_OKAY wdata=0xb19e121e
# UVM_INFO ../src/slv/ahb_slave_driver.sv(184) @ 2085000: uvm_test_top.env.slave_agent.drv [ahb_slave_driver] Beat AHB_WRITE addr=0x00005478 resp=AHB_RESP_OKAY waits=2 wdata=0xb19e121e
# UVM_INFO ../src/mst/ahb_master_monitor.sv(128) @ 2085000: uvm_test_top.env.master_agent.mon [ahb_master_monitor] Beat[82] addr=0x00005478 wdata=0xb19e121e resp=AHB_RESP_OKAY
# UVM_INFO ../src/mst/ahb_master_driver.sv(332) @ 2105000: uvm_test_top.env.master_agent.drv [ahb_master_driver] Beat[83/256] addr=0x00005479 trans=AHB_TRANS_SEQ resp=AHB_RESP_OKAY wdata=0xcfa8cb3c
# UVM_INFO ../src/slv/ahb_slave_driver.sv(184) @ 2105000: uvm_test_top.env.slave_agent.drv [ahb_slave_driver] Beat AHB_WRITE addr=0x00005479 resp=AHB_RESP_OKAY waits=1 wdata=0xcfa8cb3c
# UVM_INFO ../src/mst/ahb_master_monitor.sv(128) @ 2105000: uvm_test_top.env.master_agent.mon [ahb_master_monitor] Beat[83] addr=0x00005479 wdata=0xcfa8cb3c resp=AHB_RESP_OKAY
# UVM_INFO ../src/mst/ahb_master_driver.sv(332) @ 2125000: uvm_test_top.env.master_agent.drv [ahb_master_driver] Beat[84/256] addr=0x0000547a trans=AHB_TRANS_SEQ resp=AHB_RESP_OKAY wdata=0xf3cd2049
# UVM_INFO ../src/slv/ahb_slave_driver.sv(184) @ 2125000: uvm_test_top.env.slave_agent.drv [ahb_slave_driver] Beat AHB_WRITE addr=0x0000547a resp=AHB_RESP_OKAY waits=1 wdata=0xf3cd2049
# UVM_INFO ../src/mst/ahb_master_monitor.sv(128) @ 2125000: uvm_test_top.env.master_agent.mon [ahb_master_monitor] Beat[84] addr=0x0000547a wdata=0xf3cd2049 resp=AHB_RESP_OKAY
# UVM_INFO ../src/mst/ahb_master_driver.sv(332) @ 2135000: uvm_test_top.env.master_agent.drv [ahb_master_driver] Beat[85/256] addr=0x0000547b trans=AHB_TRANS_SEQ resp=AHB_RESP_OKAY wdata=0x3958cc27
# UVM_INFO ../src/slv/ahb_slave_driver.sv(184) @ 2135000: uvm_test_top.env.slave_agent.drv [ahb_slave_driver] Beat AHB_WRITE addr=0x0000547b resp=AHB_RESP_OKAY waits=0 wdata=0x3958cc27
# UVM_INFO ../src/mst/ahb_master_monitor.sv(128) @ 2135000: uvm_test_top.env.master_agent.mon [ahb_master_monitor] Beat[85] addr=0x0000547b wdata=0x3958cc27 resp=AHB_RESP_OKAY
# UVM_INFO ../src/mst/ahb_master_driver.sv(332) @ 2155000: uvm_test_top.env.master_agent.drv [ahb_master_driver] Beat[86/256] addr=0x0000547c trans=AHB_TRANS_SEQ resp=AHB_RESP_OKAY wdata=0x6d00fcaa
# UVM_INFO ../src/slv/ahb_slave_driver.sv(184) @ 2155000: uvm_test_top.env.slave_agent.drv [ahb_slave_driver] Beat AHB_WRITE addr=0x0000547c resp=AHB_RESP_OKAY waits=1 wdata=0x6d00fcaa
# UVM_INFO ../src/mst/ahb_master_monitor.sv(128) @ 2155000: uvm_test_top.env.master_agent.mon [ahb_master_monitor] Beat[86] addr=0x0000547c wdata=0x6d00fcaa resp=AHB_RESP_OKAY
# UVM_INFO ../src/mst/ahb_master_driver.sv(332) @ 2175000: uvm_test_top.env.master_agent.drv [ahb_master_driver] Beat[87/256] addr=0x0000547d trans=AHB_TRANS_SEQ resp=AHB_RESP_OKAY wdata=0xd672cbac
# UVM_INFO ../src/slv/ahb_slave_driver.sv(184) @ 2175000: uvm_test_top.env.slave_agent.drv [ahb_slave_driver] Beat AHB_WRITE addr=0x0000547d resp=AHB_RESP_OKAY waits=1 wdata=0xd672cbac
# UVM_INFO ../src/mst/ahb_master_monitor.sv(128) @ 2175000: uvm_test_top.env.master_agent.mon [ahb_master_monitor] Beat[87] addr=0x0000547d wdata=0xd672cbac resp=AHB_RESP_OKAY
# UVM_INFO ../src/mst/ahb_master_driver.sv(332) @ 2215000: uvm_test_top.env.master_agent.drv [ahb_master_driver] Beat[88/256] addr=0x0000547e trans=AHB_TRANS_SEQ resp=AHB_RESP_OKAY wdata=0xa37e30d8
# UVM_INFO ../src/slv/ahb_slave_driver.sv(184) @ 2215000: uvm_test_top.env.slave_agent.drv [ahb_slave_driver] Beat AHB_WRITE addr=0x0000547e resp=AHB_RESP_OKAY waits=2 wdata=0xa37e30d8
# UVM_INFO ../src/mst/ahb_master_monitor.sv(128) @ 2215000: uvm_test_top.env.master_agent.mon [ahb_master_monitor] Beat[88] addr=0x0000547e wdata=0xa37e30d8 resp=AHB_RESP_OKAY
# UVM_INFO ../src/mst/ahb_master_driver.sv(332) @ 2235000: uvm_test_top.env.master_agent.drv [ahb_master_driver] Beat[89/256] addr=0x0000547f trans=AHB_TRANS_SEQ resp=AHB_RESP_OKAY wdata=0xcf36ba17
# UVM_INFO ../src/slv/ahb_slave_driver.sv(184) @ 2235000: uvm_test_top.env.slave_agent.drv [ahb_slave_driver] Beat AHB_WRITE addr=0x0000547f resp=AHB_RESP_OKAY waits=1 wdata=0xcf36ba17
# UVM_INFO ../src/mst/ahb_master_monitor.sv(128) @ 2235000: uvm_test_top.env.master_agent.mon [ahb_master_monitor] Beat[89] addr=0x0000547f wdata=0xcf36ba17 resp=AHB_RESP_OKAY
# UVM_INFO ../src/mst/ahb_master_driver.sv(332) @ 2255000: uvm_test_top.env.master_agent.drv [ahb_master_driver] Beat[90/256] addr=0x00005480 trans=AHB_TRANS_SEQ resp=AHB_RESP_OKAY wdata=0x5eff4bf3
# UVM_INFO ../src/slv/ahb_slave_driver.sv(184) @ 2255000: uvm_test_top.env.slave_agent.drv [ahb_slave_driver] Beat AHB_WRITE addr=0x00005480 resp=AHB_RESP_OKAY waits=1 wdata=0x5eff4bf3
# UVM_INFO ../src/mst/ahb_master_monitor.sv(128) @ 2255000: uvm_test_top.env.master_agent.mon [ahb_master_monitor] Beat[90] addr=0x00005480 wdata=0x5eff4bf3 resp=AHB_RESP_OKAY
# UVM_INFO ../src/mst/ahb_master_driver.sv(332) @ 2275000: uvm_test_top.env.master_agent.drv [ahb_master_driver] Beat[91/256] addr=0x00005481 trans=AHB_TRANS_SEQ resp=AHB_RESP_OKAY wdata=0x0de97f58
# UVM_INFO ../src/slv/ahb_slave_driver.sv(184) @ 2275000: uvm_test_top.env.slave_agent.drv [ahb_slave_driver] Beat AHB_WRITE addr=0x00005481 resp=AHB_RESP_OKAY waits=1 wdata=0x0de97f58
# UVM_INFO ../src/mst/ahb_master_monitor.sv(128) @ 2275000: uvm_test_top.env.master_agent.mon [ahb_master_monitor] Beat[91] addr=0x00005481 wdata=0x0de97f58 resp=AHB_RESP_OKAY
# UVM_INFO ../src/mst/ahb_master_driver.sv(332) @ 2305000: uvm_test_top.env.master_agent.drv [ahb_master_driver] Beat[92/256] addr=0x00005482 trans=AHB_TRANS_SEQ resp=AHB_RESP_OKAY wdata=0x23b2db48
# UVM_INFO ../src/slv/ahb_slave_driver.sv(184) @ 2305000: uvm_test_top.env.slave_agent.drv [ahb_slave_driver] Beat AHB_WRITE addr=0x00005482 resp=AHB_RESP_OKAY waits=2 wdata=0x23b2db48
# UVM_INFO ../src/mst/ahb_master_monitor.sv(128) @ 2305000: uvm_test_top.env.master_agent.mon [ahb_master_monitor] Beat[92] addr=0x00005482 wdata=0x23b2db48 resp=AHB_RESP_OKAY
# UVM_INFO ../src/mst/ahb_master_driver.sv(332) @ 2325000: uvm_test_top.env.master_agent.drv [ahb_master_driver] Beat[93/256] addr=0x00005483 trans=AHB_TRANS_SEQ resp=AHB_RESP_OKAY wdata=0x808153a4
# UVM_INFO ../src/slv/ahb_slave_driver.sv(184) @ 2325000: uvm_test_top.env.slave_agent.drv [ahb_slave_driver] Beat AHB_WRITE addr=0x00005483 resp=AHB_RESP_OKAY waits=1 wdata=0x808153a4
# UVM_INFO ../src/mst/ahb_master_monitor.sv(128) @ 2325000: uvm_test_top.env.master_agent.mon [ahb_master_monitor] Beat[93] addr=0x00005483 wdata=0x808153a4 resp=AHB_RESP_OKAY
# UVM_INFO ../src/mst/ahb_master_driver.sv(332) @ 2335000: uvm_test_top.env.master_agent.drv [ahb_master_driver] Beat[94/256] addr=0x00005484 trans=AHB_TRANS_SEQ resp=AHB_RESP_OKAY wdata=0x7d3909ae
# UVM_INFO ../src/slv/ahb_slave_driver.sv(184) @ 2335000: uvm_test_top.env.slave_agent.drv [ahb_slave_driver] Beat AHB_WRITE addr=0x00005484 resp=AHB_RESP_OKAY waits=0 wdata=0x7d3909ae
# UVM_INFO ../src/mst/ahb_master_monitor.sv(128) @ 2335000: uvm_test_top.env.master_agent.mon [ahb_master_monitor] Beat[94] addr=0x00005484 wdata=0x7d3909ae resp=AHB_RESP_OKAY
# UVM_INFO ../src/mst/ahb_master_driver.sv(332) @ 2355000: uvm_test_top.env.master_agent.drv [ahb_master_driver] Beat[95/256] addr=0x00005485 trans=AHB_TRANS_SEQ resp=AHB_RESP_OKAY wdata=0x24da1e88
# UVM_INFO ../src/slv/ahb_slave_driver.sv(184) @ 2355000: uvm_test_top.env.slave_agent.drv [ahb_slave_driver] Beat AHB_WRITE addr=0x00005485 resp=AHB_RESP_OKAY waits=1 wdata=0x24da1e88
# UVM_INFO ../src/mst/ahb_master_monitor.sv(128) @ 2355000: uvm_test_top.env.master_agent.mon [ahb_master_monitor] Beat[95] addr=0x00005485 wdata=0x24da1e88 resp=AHB_RESP_OKAY
# UVM_INFO ../src/mst/ahb_master_driver.sv(332) @ 2395000: uvm_test_top.env.master_agent.drv [ahb_master_driver] Beat[96/256] addr=0x00005486 trans=AHB_TRANS_SEQ resp=AHB_RESP_OKAY wdata=0xae8c889a
# UVM_INFO ../src/slv/ahb_slave_driver.sv(184) @ 2395000: uvm_test_top.env.slave_agent.drv [ahb_slave_driver] Beat AHB_WRITE addr=0x00005486 resp=AHB_RESP_OKAY waits=1 wdata=0xae8c889a
# UVM_INFO ../src/mst/ahb_master_monitor.sv(128) @ 2395000: uvm_test_top.env.master_agent.mon [ahb_master_monitor] Beat[96] addr=0x00005486 wdata=0xae8c889a resp=AHB_RESP_OKAY
# UVM_INFO ../src/mst/ahb_master_driver.sv(332) @ 2405000: uvm_test_top.env.master_agent.drv [ahb_master_driver] Beat[97/256] addr=0x00005487 trans=AHB_TRANS_SEQ resp=AHB_RESP_OKAY wdata=0x32a50aaf
# UVM_INFO ../src/slv/ahb_slave_driver.sv(184) @ 2405000: uvm_test_top.env.slave_agent.drv [ahb_slave_driver] Beat AHB_WRITE addr=0x00005487 resp=AHB_RESP_OKAY waits=0 wdata=0x32a50aaf
# UVM_INFO ../src/mst/ahb_master_monitor.sv(128) @ 2405000: uvm_test_top.env.master_agent.mon [ahb_master_monitor] Beat[97] addr=0x00005487 wdata=0x32a50aaf resp=AHB_RESP_OKAY
# UVM_INFO ../src/mst/ahb_master_driver.sv(332) @ 2435000: uvm_test_top.env.master_agent.drv [ahb_master_driver] Beat[98/256] addr=0x00005488 trans=AHB_TRANS_SEQ resp=AHB_RESP_OKAY wdata=0x564b3009
# UVM_INFO ../src/slv/ahb_slave_driver.sv(184) @ 2435000: uvm_test_top.env.slave_agent.drv [ahb_slave_driver] Beat AHB_WRITE addr=0x00005488 resp=AHB_RESP_OKAY waits=2 wdata=0x564b3009
# UVM_INFO ../src/mst/ahb_master_monitor.sv(128) @ 2435000: uvm_test_top.env.master_agent.mon [ahb_master_monitor] Beat[98] addr=0x00005488 wdata=0x564b3009 resp=AHB_RESP_OKAY
# UVM_INFO ../src/mst/ahb_master_driver.sv(332) @ 2465000: uvm_test_top.env.master_agent.drv [ahb_master_driver] Beat[99/256] addr=0x00005489 trans=AHB_TRANS_SEQ resp=AHB_RESP_OKAY wdata=0x2dfdc17a
# UVM_INFO ../src/slv/ahb_slave_driver.sv(184) @ 2465000: uvm_test_top.env.slave_agent.drv [ahb_slave_driver] Beat AHB_WRITE addr=0x00005489 resp=AHB_RESP_OKAY waits=2 wdata=0x2dfdc17a
# UVM_INFO ../src/mst/ahb_master_monitor.sv(128) @ 2465000: uvm_test_top.env.master_agent.mon [ahb_master_monitor] Beat[99] addr=0x00005489 wdata=0x2dfdc17a resp=AHB_RESP_OKAY
# UVM_INFO ../src/mst/ahb_master_driver.sv(332) @ 2495000: uvm_test_top.env.master_agent.drv [ahb_master_driver] Beat[100/256] addr=0x0000548a trans=AHB_TRANS_SEQ resp=AHB_RESP_OKAY wdata=0x3a31cf27
# UVM_INFO ../src/slv/ahb_slave_driver.sv(184) @ 2495000: uvm_test_top.env.slave_agent.drv [ahb_slave_driver] Beat AHB_WRITE addr=0x0000548a resp=AHB_RESP_OKAY waits=2 wdata=0x3a31cf27
# UVM_INFO ../src/mst/ahb_master_monitor.sv(128) @ 2495000: uvm_test_top.env.master_agent.mon [ahb_master_monitor] Beat[100] addr=0x0000548a wdata=0x3a31cf27 resp=AHB_RESP_OKAY
# UVM_INFO ../src/mst/ahb_master_driver.sv(332) @ 2505000: uvm_test_top.env.master_agent.drv [ahb_master_driver] Beat[101/256] addr=0x0000548b trans=AHB_TRANS_SEQ resp=AHB_RESP_OKAY wdata=0x9b30e6b1
# UVM_INFO ../src/slv/ahb_slave_driver.sv(184) @ 2505000: uvm_test_top.env.slave_agent.drv [ahb_slave_driver] Beat AHB_WRITE addr=0x0000548b resp=AHB_RESP_OKAY waits=0 wdata=0x9b30e6b1
# UVM_INFO ../src/mst/ahb_master_monitor.sv(128) @ 2505000: uvm_test_top.env.master_agent.mon [ahb_master_monitor] Beat[101] addr=0x0000548b wdata=0x9b30e6b1 resp=AHB_RESP_OKAY
# UVM_INFO ../src/mst/ahb_master_driver.sv(332) @ 2535000: uvm_test_top.env.master_agent.drv [ahb_master_driver] Beat[102/256] addr=0x0000548c trans=AHB_TRANS_SEQ resp=AHB_RESP_OKAY wdata=0xa4c02641
# UVM_INFO ../src/slv/ahb_slave_driver.sv(184) @ 2535000: uvm_test_top.env.slave_agent.drv [ahb_slave_driver] Beat AHB_WRITE addr=0x0000548c resp=AHB_RESP_OKAY waits=2 wdata=0xa4c02641
# UVM_INFO ../src/mst/ahb_master_monitor.sv(128) @ 2535000: uvm_test_top.env.master_agent.mon [ahb_master_monitor] Beat[102] addr=0x0000548c wdata=0xa4c02641 resp=AHB_RESP_OKAY
# UVM_INFO ../src/mst/ahb_master_driver.sv(332) @ 2545000: uvm_test_top.env.master_agent.drv [ahb_master_driver] Beat[103/256] addr=0x0000548d trans=AHB_TRANS_SEQ resp=AHB_RESP_OKAY wdata=0xdeeb7822
# UVM_INFO ../src/slv/ahb_slave_driver.sv(184) @ 2545000: uvm_test_top.env.slave_agent.drv [ahb_slave_driver] Beat AHB_WRITE addr=0x0000548d resp=AHB_RESP_OKAY waits=0 wdata=0xdeeb7822
# UVM_INFO ../src/mst/ahb_master_monitor.sv(128) @ 2545000: uvm_test_top.env.master_agent.mon [ahb_master_monitor] Beat[103] addr=0x0000548d wdata=0xdeeb7822 resp=AHB_RESP_OKAY
# UVM_INFO ../src/mst/ahb_master_driver.sv(332) @ 2595000: uvm_test_top.env.master_agent.drv [ahb_master_driver] Beat[104/256] addr=0x0000548e trans=AHB_TRANS_SEQ resp=AHB_RESP_OKAY wdata=0x1f548b29
# UVM_INFO ../src/slv/ahb_slave_driver.sv(184) @ 2595000: uvm_test_top.env.slave_agent.drv [ahb_slave_driver] Beat AHB_WRITE addr=0x0000548e resp=AHB_RESP_OKAY waits=2 wdata=0x1f548b29
# UVM_INFO ../src/mst/ahb_master_monitor.sv(128) @ 2595000: uvm_test_top.env.master_agent.mon [ahb_master_monitor] Beat[104] addr=0x0000548e wdata=0x1f548b29 resp=AHB_RESP_OKAY
# UVM_INFO ../src/mst/ahb_master_driver.sv(332) @ 2605000: uvm_test_top.env.master_agent.drv [ahb_master_driver] Beat[105/256] addr=0x0000548f trans=AHB_TRANS_SEQ resp=AHB_RESP_OKAY wdata=0xe5cd0d5d
# UVM_INFO ../src/slv/ahb_slave_driver.sv(184) @ 2605000: uvm_test_top.env.slave_agent.drv [ahb_slave_driver] Beat AHB_WRITE addr=0x0000548f resp=AHB_RESP_OKAY waits=0 wdata=0xe5cd0d5d
# UVM_INFO ../src/mst/ahb_master_monitor.sv(128) @ 2605000: uvm_test_top.env.master_agent.mon [ahb_master_monitor] Beat[105] addr=0x0000548f wdata=0xe5cd0d5d resp=AHB_RESP_OKAY
# UVM_INFO ../src/mst/ahb_master_driver.sv(332) @ 2635000: uvm_test_top.env.master_agent.drv [ahb_master_driver] Beat[106/256] addr=0x00005490 trans=AHB_TRANS_SEQ resp=AHB_RESP_OKAY wdata=0xefac2852
# UVM_INFO ../src/slv/ahb_slave_driver.sv(184) @ 2635000: uvm_test_top.env.slave_agent.drv [ahb_slave_driver] Beat AHB_WRITE addr=0x00005490 resp=AHB_RESP_OKAY waits=2 wdata=0xefac2852
# UVM_INFO ../src/mst/ahb_master_monitor.sv(128) @ 2635000: uvm_test_top.env.master_agent.mon [ahb_master_monitor] Beat[106] addr=0x00005490 wdata=0xefac2852 resp=AHB_RESP_OKAY
# UVM_INFO ../src/mst/ahb_master_driver.sv(332) @ 2665000: uvm_test_top.env.master_agent.drv [ahb_master_driver] Beat[107/256] addr=0x00005491 trans=AHB_TRANS_SEQ resp=AHB_RESP_OKAY wdata=0xdecd627b
# UVM_INFO ../src/slv/ahb_slave_driver.sv(184) @ 2665000: uvm_test_top.env.slave_agent.drv [ahb_slave_driver] Beat AHB_WRITE addr=0x00005491 resp=AHB_RESP_OKAY waits=2 wdata=0xdecd627b
# UVM_INFO ../src/mst/ahb_master_monitor.sv(128) @ 2665000: uvm_test_top.env.master_agent.mon [ahb_master_monitor] Beat[107] addr=0x00005491 wdata=0xdecd627b resp=AHB_RESP_OKAY
# UVM_INFO ../src/mst/ahb_master_driver.sv(332) @ 2695000: uvm_test_top.env.master_agent.drv [ahb_master_driver] Beat[108/256] addr=0x00005492 trans=AHB_TRANS_SEQ resp=AHB_RESP_OKAY wdata=0xe071cfa9
# UVM_INFO ../src/slv/ahb_slave_driver.sv(184) @ 2695000: uvm_test_top.env.slave_agent.drv [ahb_slave_driver] Beat AHB_WRITE addr=0x00005492 resp=AHB_RESP_OKAY waits=2 wdata=0xe071cfa9
# UVM_INFO ../src/mst/ahb_master_monitor.sv(128) @ 2695000: uvm_test_top.env.master_agent.mon [ahb_master_monitor] Beat[108] addr=0x00005492 wdata=0xe071cfa9 resp=AHB_RESP_OKAY
# UVM_INFO ../src/mst/ahb_master_driver.sv(332) @ 2705000: uvm_test_top.env.master_agent.drv [ahb_master_driver] Beat[109/256] addr=0x00005493 trans=AHB_TRANS_SEQ resp=AHB_RESP_OKAY wdata=0xaaf43a13
# UVM_INFO ../src/slv/ahb_slave_driver.sv(184) @ 2705000: uvm_test_top.env.slave_agent.drv [ahb_slave_driver] Beat AHB_WRITE addr=0x00005493 resp=AHB_RESP_OKAY waits=0 wdata=0xaaf43a13
# UVM_INFO ../src/mst/ahb_master_monitor.sv(128) @ 2705000: uvm_test_top.env.master_agent.mon [ahb_master_monitor] Beat[109] addr=0x00005493 wdata=0xaaf43a13 resp=AHB_RESP_OKAY
# UVM_INFO ../src/mst/ahb_master_driver.sv(332) @ 2725000: uvm_test_top.env.master_agent.drv [ahb_master_driver] Beat[110/256] addr=0x00005494 trans=AHB_TRANS_SEQ resp=AHB_RESP_OKAY wdata=0x74fb08c6
# UVM_INFO ../src/slv/ahb_slave_driver.sv(184) @ 2725000: uvm_test_top.env.slave_agent.drv [ahb_slave_driver] Beat AHB_WRITE addr=0x00005494 resp=AHB_RESP_OKAY waits=1 wdata=0x74fb08c6
# UVM_INFO ../src/mst/ahb_master_monitor.sv(128) @ 2725000: uvm_test_top.env.master_agent.mon [ahb_master_monitor] Beat[110] addr=0x00005494 wdata=0x74fb08c6 resp=AHB_RESP_OKAY
# UVM_INFO ../src/mst/ahb_master_driver.sv(332) @ 2755000: uvm_test_top.env.master_agent.drv [ahb_master_driver] Beat[111/256] addr=0x00005495 trans=AHB_TRANS_SEQ resp=AHB_RESP_OKAY wdata=0x102d2db4
# UVM_INFO ../src/slv/ahb_slave_driver.sv(184) @ 2755000: uvm_test_top.env.slave_agent.drv [ahb_slave_driver] Beat AHB_WRITE addr=0x00005495 resp=AHB_RESP_OKAY waits=2 wdata=0x102d2db4
# UVM_INFO ../src/mst/ahb_master_monitor.sv(128) @ 2755000: uvm_test_top.env.master_agent.mon [ahb_master_monitor] Beat[111] addr=0x00005495 wdata=0x102d2db4 resp=AHB_RESP_OKAY
# UVM_INFO ../src/mst/ahb_master_driver.sv(332) @ 2785000: uvm_test_top.env.master_agent.drv [ahb_master_driver] Beat[112/256] addr=0x00005496 trans=AHB_TRANS_SEQ resp=AHB_RESP_OKAY wdata=0xbaccd8ad
# UVM_INFO ../src/slv/ahb_slave_driver.sv(184) @ 2785000: uvm_test_top.env.slave_agent.drv [ahb_slave_driver] Beat AHB_WRITE addr=0x00005496 resp=AHB_RESP_OKAY waits=1 wdata=0xbaccd8ad
# UVM_INFO ../src/mst/ahb_master_monitor.sv(128) @ 2785000: uvm_test_top.env.master_agent.mon [ahb_master_monitor] Beat[112] addr=0x00005496 wdata=0xbaccd8ad resp=AHB_RESP_OKAY
# UVM_INFO ../src/mst/ahb_master_driver.sv(332) @ 2795000: uvm_test_top.env.master_agent.drv [ahb_master_driver] Beat[113/256] addr=0x00005497 trans=AHB_TRANS_SEQ resp=AHB_RESP_OKAY wdata=0xd57256a2
# UVM_INFO ../src/slv/ahb_slave_driver.sv(184) @ 2795000: uvm_test_top.env.slave_agent.drv [ahb_slave_driver] Beat AHB_WRITE addr=0x00005497 resp=AHB_RESP_OKAY waits=0 wdata=0xd57256a2
# UVM_INFO ../src/mst/ahb_master_monitor.sv(128) @ 2795000: uvm_test_top.env.master_agent.mon [ahb_master_monitor] Beat[113] addr=0x00005497 wdata=0xd57256a2 resp=AHB_RESP_OKAY
# UVM_INFO ../src/mst/ahb_master_driver.sv(332) @ 2825000: uvm_test_top.env.master_agent.drv [ahb_master_driver] Beat[114/256] addr=0x00005498 trans=AHB_TRANS_SEQ resp=AHB_RESP_OKAY wdata=0x8896f1be
# UVM_INFO ../src/slv/ahb_slave_driver.sv(184) @ 2825000: uvm_test_top.env.slave_agent.drv [ahb_slave_driver] Beat AHB_WRITE addr=0x00005498 resp=AHB_RESP_OKAY waits=2 wdata=0x8896f1be
# UVM_INFO ../src/mst/ahb_master_monitor.sv(128) @ 2825000: uvm_test_top.env.master_agent.mon [ahb_master_monitor] Beat[114] addr=0x00005498 wdata=0x8896f1be resp=AHB_RESP_OKAY
# UVM_INFO ../src/mst/ahb_master_driver.sv(332) @ 2845000: uvm_test_top.env.master_agent.drv [ahb_master_driver] Beat[115/256] addr=0x00005499 trans=AHB_TRANS_SEQ resp=AHB_RESP_OKAY wdata=0x632eccc3
# UVM_INFO ../src/slv/ahb_slave_driver.sv(184) @ 2845000: uvm_test_top.env.slave_agent.drv [ahb_slave_driver] Beat AHB_WRITE addr=0x00005499 resp=AHB_RESP_OKAY waits=1 wdata=0x632eccc3
# UVM_INFO ../src/mst/ahb_master_monitor.sv(128) @ 2845000: uvm_test_top.env.master_agent.mon [ahb_master_monitor] Beat[115] addr=0x00005499 wdata=0x632eccc3 resp=AHB_RESP_OKAY
# UVM_INFO ../src/mst/ahb_master_driver.sv(332) @ 2855000: uvm_test_top.env.master_agent.drv [ahb_master_driver] Beat[116/256] addr=0x0000549a trans=AHB_TRANS_SEQ resp=AHB_RESP_OKAY wdata=0x65ffe994
# UVM_INFO ../src/slv/ahb_slave_driver.sv(184) @ 2855000: uvm_test_top.env.slave_agent.drv [ahb_slave_driver] Beat AHB_WRITE addr=0x0000549a resp=AHB_RESP_OKAY waits=0 wdata=0x65ffe994
# UVM_INFO ../src/mst/ahb_master_monitor.sv(128) @ 2855000: uvm_test_top.env.master_agent.mon [ahb_master_monitor] Beat[116] addr=0x0000549a wdata=0x65ffe994 resp=AHB_RESP_OKAY
# UVM_INFO ../src/mst/ahb_master_driver.sv(332) @ 2885000: uvm_test_top.env.master_agent.drv [ahb_master_driver] Beat[117/256] addr=0x0000549b trans=AHB_TRANS_SEQ resp=AHB_RESP_OKAY wdata=0x19b67c17
# UVM_INFO ../src/slv/ahb_slave_driver.sv(184) @ 2885000: uvm_test_top.env.slave_agent.drv [ahb_slave_driver] Beat AHB_WRITE addr=0x0000549b resp=AHB_RESP_OKAY waits=2 wdata=0x19b67c17
# UVM_INFO ../src/mst/ahb_master_monitor.sv(128) @ 2885000: uvm_test_top.env.master_agent.mon [ahb_master_monitor] Beat[117] addr=0x0000549b wdata=0x19b67c17 resp=AHB_RESP_OKAY
# UVM_INFO ../src/mst/ahb_master_driver.sv(332) @ 2895000: uvm_test_top.env.master_agent.drv [ahb_master_driver] Beat[118/256] addr=0x0000549c trans=AHB_TRANS_SEQ resp=AHB_RESP_OKAY wdata=0x3e8a40d5
# UVM_INFO ../src/slv/ahb_slave_driver.sv(184) @ 2895000: uvm_test_top.env.slave_agent.drv [ahb_slave_driver] Beat AHB_WRITE addr=0x0000549c resp=AHB_RESP_OKAY waits=0 wdata=0x3e8a40d5
# UVM_INFO ../src/mst/ahb_master_monitor.sv(128) @ 2895000: uvm_test_top.env.master_agent.mon [ahb_master_monitor] Beat[118] addr=0x0000549c wdata=0x3e8a40d5 resp=AHB_RESP_OKAY
# UVM_INFO ../src/mst/ahb_master_driver.sv(332) @ 2915000: uvm_test_top.env.master_agent.drv [ahb_master_driver] Beat[119/256] addr=0x0000549d trans=AHB_TRANS_SEQ resp=AHB_RESP_OKAY wdata=0x207cc8ff
# UVM_INFO ../src/slv/ahb_slave_driver.sv(184) @ 2915000: uvm_test_top.env.slave_agent.drv [ahb_slave_driver] Beat AHB_WRITE addr=0x0000549d resp=AHB_RESP_OKAY waits=1 wdata=0x207cc8ff
# UVM_INFO ../src/mst/ahb_master_monitor.sv(128) @ 2915000: uvm_test_top.env.master_agent.mon [ahb_master_monitor] Beat[119] addr=0x0000549d wdata=0x207cc8ff resp=AHB_RESP_OKAY
# UVM_INFO ../src/mst/ahb_master_driver.sv(332) @ 2955000: uvm_test_top.env.master_agent.drv [ahb_master_driver] Beat[120/256] addr=0x0000549e trans=AHB_TRANS_SEQ resp=AHB_RESP_OKAY wdata=0x1e21e155
# UVM_INFO ../src/slv/ahb_slave_driver.sv(184) @ 2955000: uvm_test_top.env.slave_agent.drv [ahb_slave_driver] Beat AHB_WRITE addr=0x0000549e resp=AHB_RESP_OKAY waits=1 wdata=0x1e21e155
# UVM_INFO ../src/mst/ahb_master_monitor.sv(128) @ 2955000: uvm_test_top.env.master_agent.mon [ahb_master_monitor] Beat[120] addr=0x0000549e wdata=0x1e21e155 resp=AHB_RESP_OKAY
# UVM_INFO ../src/mst/ahb_master_driver.sv(332) @ 2975000: uvm_test_top.env.master_agent.drv [ahb_master_driver] Beat[121/256] addr=0x0000549f trans=AHB_TRANS_SEQ resp=AHB_RESP_OKAY wdata=0x08b5eb8e
# UVM_INFO ../src/slv/ahb_slave_driver.sv(184) @ 2975000: uvm_test_top.env.slave_agent.drv [ahb_slave_driver] Beat AHB_WRITE addr=0x0000549f resp=AHB_RESP_OKAY waits=1 wdata=0x08b5eb8e
# UVM_INFO ../src/mst/ahb_master_monitor.sv(128) @ 2975000: uvm_test_top.env.master_agent.mon [ahb_master_monitor] Beat[121] addr=0x0000549f wdata=0x08b5eb8e resp=AHB_RESP_OKAY
# UVM_INFO ../src/mst/ahb_master_driver.sv(332) @ 2985000: uvm_test_top.env.master_agent.drv [ahb_master_driver] Beat[122/256] addr=0x000054a0 trans=AHB_TRANS_SEQ resp=AHB_RESP_OKAY wdata=0x0490821c
# UVM_INFO ../src/slv/ahb_slave_driver.sv(184) @ 2985000: uvm_test_top.env.slave_agent.drv [ahb_slave_driver] Beat AHB_WRITE addr=0x000054a0 resp=AHB_RESP_OKAY waits=0 wdata=0x0490821c
# UVM_INFO ../src/mst/ahb_master_monitor.sv(128) @ 2985000: uvm_test_top.env.master_agent.mon [ahb_master_monitor] Beat[122] addr=0x000054a0 wdata=0x0490821c resp=AHB_RESP_OKAY
# UVM_INFO ../src/mst/ahb_master_driver.sv(332) @ 3015000: uvm_test_top.env.master_agent.drv [ahb_master_driver] Beat[123/256] addr=0x000054a1 trans=AHB_TRANS_SEQ resp=AHB_RESP_OKAY wdata=0xdd563d83
# UVM_INFO ../src/slv/ahb_slave_driver.sv(184) @ 3015000: uvm_test_top.env.slave_agent.drv [ahb_slave_driver] Beat AHB_WRITE addr=0x000054a1 resp=AHB_RESP_OKAY waits=2 wdata=0xdd563d83
# UVM_INFO ../src/mst/ahb_master_monitor.sv(128) @ 3015000: uvm_test_top.env.master_agent.mon [ahb_master_monitor] Beat[123] addr=0x000054a1 wdata=0xdd563d83 resp=AHB_RESP_OKAY
# UVM_INFO ../src/mst/ahb_master_driver.sv(332) @ 3045000: uvm_test_top.env.master_agent.drv [ahb_master_driver] Beat[124/256] addr=0x000054a2 trans=AHB_TRANS_SEQ resp=AHB_RESP_OKAY wdata=0xeb43e5ff
# UVM_INFO ../src/slv/ahb_slave_driver.sv(184) @ 3045000: uvm_test_top.env.slave_agent.drv [ahb_slave_driver] Beat AHB_WRITE addr=0x000054a2 resp=AHB_RESP_OKAY waits=2 wdata=0xeb43e5ff
# UVM_INFO ../src/mst/ahb_master_monitor.sv(128) @ 3045000: uvm_test_top.env.master_agent.mon [ahb_master_monitor] Beat[124] addr=0x000054a2 wdata=0xeb43e5ff resp=AHB_RESP_OKAY
# UVM_INFO ../src/mst/ahb_master_driver.sv(332) @ 3055000: uvm_test_top.env.master_agent.drv [ahb_master_driver] Beat[125/256] addr=0x000054a3 trans=AHB_TRANS_SEQ resp=AHB_RESP_OKAY wdata=0x07e70598
# UVM_INFO ../src/slv/ahb_slave_driver.sv(184) @ 3055000: uvm_test_top.env.slave_agent.drv [ahb_slave_driver] Beat AHB_WRITE addr=0x000054a3 resp=AHB_RESP_OKAY waits=0 wdata=0x07e70598
# UVM_INFO ../src/mst/ahb_master_monitor.sv(128) @ 3055000: uvm_test_top.env.master_agent.mon [ahb_master_monitor] Beat[125] addr=0x000054a3 wdata=0x07e70598 resp=AHB_RESP_OKAY
# UVM_INFO ../src/mst/ahb_master_driver.sv(332) @ 3075000: uvm_test_top.env.master_agent.drv [ahb_master_driver] Beat[126/256] addr=0x000054a4 trans=AHB_TRANS_SEQ resp=AHB_RESP_OKAY wdata=0xe4ad1eee
# UVM_INFO ../src/slv/ahb_slave_driver.sv(184) @ 3075000: uvm_test_top.env.slave_agent.drv [ahb_slave_driver] Beat AHB_WRITE addr=0x000054a4 resp=AHB_RESP_OKAY waits=1 wdata=0xe4ad1eee
# UVM_INFO ../src/mst/ahb_master_monitor.sv(128) @ 3075000: uvm_test_top.env.master_agent.mon [ahb_master_monitor] Beat[126] addr=0x000054a4 wdata=0xe4ad1eee resp=AHB_RESP_OKAY
# UVM_INFO ../src/mst/ahb_master_driver.sv(332) @ 3095000: uvm_test_top.env.master_agent.drv [ahb_master_driver] Beat[127/256] addr=0x000054a5 trans=AHB_TRANS_SEQ resp=AHB_RESP_OKAY wdata=0x1eefdd2c
# UVM_INFO ../src/slv/ahb_slave_driver.sv(184) @ 3095000: uvm_test_top.env.slave_agent.drv [ahb_slave_driver] Beat AHB_WRITE addr=0x000054a5 resp=AHB_RESP_OKAY waits=1 wdata=0x1eefdd2c
# UVM_INFO ../src/mst/ahb_master_monitor.sv(128) @ 3095000: uvm_test_top.env.master_agent.mon [ahb_master_monitor] Beat[127] addr=0x000054a5 wdata=0x1eefdd2c resp=AHB_RESP_OKAY
# UVM_INFO ../src/mst/ahb_master_driver.sv(332) @ 3135000: uvm_test_top.env.master_agent.drv [ahb_master_driver] Beat[128/256] addr=0x000054a6 trans=AHB_TRANS_SEQ resp=AHB_RESP_OKAY wdata=0x03816a42
# UVM_INFO ../src/slv/ahb_slave_driver.sv(184) @ 3135000: uvm_test_top.env.slave_agent.drv [ahb_slave_driver] Beat AHB_WRITE addr=0x000054a6 resp=AHB_RESP_OKAY waits=2 wdata=0x03816a42
# UVM_INFO ../src/mst/ahb_master_monitor.sv(128) @ 3135000: uvm_test_top.env.master_agent.mon [ahb_master_monitor] Beat[128] addr=0x000054a6 wdata=0x03816a42 resp=AHB_RESP_OKAY
# UVM_INFO ../src/mst/ahb_master_driver.sv(332) @ 3165000: uvm_test_top.env.master_agent.drv [ahb_master_driver] Beat[129/256] addr=0x000054a7 trans=AHB_TRANS_SEQ resp=AHB_RESP_OKAY wdata=0x383da3a4
# UVM_INFO ../src/slv/ahb_slave_driver.sv(184) @ 3165000: uvm_test_top.env.slave_agent.drv [ahb_slave_driver] Beat AHB_WRITE addr=0x000054a7 resp=AHB_RESP_OKAY waits=2 wdata=0x383da3a4
# UVM_INFO ../src/mst/ahb_master_monitor.sv(128) @ 3165000: uvm_test_top.env.master_agent.mon [ahb_master_monitor] Beat[129] addr=0x000054a7 wdata=0x383da3a4 resp=AHB_RESP_OKAY
# UVM_INFO ../src/mst/ahb_master_driver.sv(332) @ 3185000: uvm_test_top.env.master_agent.drv [ahb_master_driver] Beat[130/256] addr=0x000054a8 trans=AHB_TRANS_SEQ resp=AHB_RESP_OKAY wdata=0x1fe5a224
# UVM_INFO ../src/slv/ahb_slave_driver.sv(184) @ 3185000: uvm_test_top.env.slave_agent.drv [ahb_slave_driver] Beat AHB_WRITE addr=0x000054a8 resp=AHB_RESP_OKAY waits=1 wdata=0x1fe5a224
# UVM_INFO ../src/mst/ahb_master_monitor.sv(128) @ 3185000: uvm_test_top.env.master_agent.mon [ahb_master_monitor] Beat[130] addr=0x000054a8 wdata=0x1fe5a224 resp=AHB_RESP_OKAY
# UVM_INFO ../src/mst/ahb_master_driver.sv(332) @ 3205000: uvm_test_top.env.master_agent.drv [ahb_master_driver] Beat[131/256] addr=0x000054a9 trans=AHB_TRANS_SEQ resp=AHB_RESP_OKAY wdata=0x857cf0b2
# UVM_INFO ../src/slv/ahb_slave_driver.sv(184) @ 3205000: uvm_test_top.env.slave_agent.drv [ahb_slave_driver] Beat AHB_WRITE addr=0x000054a9 resp=AHB_RESP_OKAY waits=1 wdata=0x857cf0b2
# UVM_INFO ../src/mst/ahb_master_monitor.sv(128) @ 3205000: uvm_test_top.env.master_agent.mon [ahb_master_monitor] Beat[131] addr=0x000054a9 wdata=0x857cf0b2 resp=AHB_RESP_OKAY
# UVM_INFO ../src/mst/ahb_master_driver.sv(332) @ 3225000: uvm_test_top.env.master_agent.drv [ahb_master_driver] Beat[132/256] addr=0x000054aa trans=AHB_TRANS_SEQ resp=AHB_RESP_OKAY wdata=0xf6f011c0
# UVM_INFO ../src/slv/ahb_slave_driver.sv(184) @ 3225000: uvm_test_top.env.slave_agent.drv [ahb_slave_driver] Beat AHB_WRITE addr=0x000054aa resp=AHB_RESP_OKAY waits=1 wdata=0xf6f011c0
# UVM_INFO ../src/mst/ahb_master_monitor.sv(128) @ 3225000: uvm_test_top.env.master_agent.mon [ahb_master_monitor] Beat[132] addr=0x000054aa wdata=0xf6f011c0 resp=AHB_RESP_OKAY
# UVM_INFO ../src/mst/ahb_master_driver.sv(332) @ 3245000: uvm_test_top.env.master_agent.drv [ahb_master_driver] Beat[133/256] addr=0x000054ab trans=AHB_TRANS_SEQ resp=AHB_RESP_OKAY wdata=0x28680221
# UVM_INFO ../src/slv/ahb_slave_driver.sv(184) @ 3245000: uvm_test_top.env.slave_agent.drv [ahb_slave_driver] Beat AHB_WRITE addr=0x000054ab resp=AHB_RESP_OKAY waits=1 wdata=0x28680221
# UVM_INFO ../src/mst/ahb_master_monitor.sv(128) @ 3245000: uvm_test_top.env.master_agent.mon [ahb_master_monitor] Beat[133] addr=0x000054ab wdata=0x28680221 resp=AHB_RESP_OKAY
# UVM_INFO ../src/mst/ahb_master_driver.sv(332) @ 3255000: uvm_test_top.env.master_agent.drv [ahb_master_driver] Beat[134/256] addr=0x000054ac trans=AHB_TRANS_SEQ resp=AHB_RESP_OKAY wdata=0xfb640385
# UVM_INFO ../src/slv/ahb_slave_driver.sv(184) @ 3255000: uvm_test_top.env.slave_agent.drv [ahb_slave_driver] Beat AHB_WRITE addr=0x000054ac resp=AHB_RESP_OKAY waits=0 wdata=0xfb640385
# UVM_INFO ../src/mst/ahb_master_monitor.sv(128) @ 3255000: uvm_test_top.env.master_agent.mon [ahb_master_monitor] Beat[134] addr=0x000054ac wdata=0xfb640385 resp=AHB_RESP_OKAY
# UVM_INFO ../src/mst/ahb_master_driver.sv(332) @ 3285000: uvm_test_top.env.master_agent.drv [ahb_master_driver] Beat[135/256] addr=0x000054ad trans=AHB_TRANS_SEQ resp=AHB_RESP_OKAY wdata=0xe6e22350
# UVM_INFO ../src/slv/ahb_slave_driver.sv(184) @ 3285000: uvm_test_top.env.slave_agent.drv [ahb_slave_driver] Beat AHB_WRITE addr=0x000054ad resp=AHB_RESP_OKAY waits=2 wdata=0xe6e22350
# UVM_INFO ../src/mst/ahb_master_monitor.sv(128) @ 3285000: uvm_test_top.env.master_agent.mon [ahb_master_monitor] Beat[135] addr=0x000054ad wdata=0xe6e22350 resp=AHB_RESP_OKAY
# UVM_INFO ../src/mst/ahb_master_driver.sv(332) @ 3305000: uvm_test_top.env.master_agent.drv [ahb_master_driver] Beat[136/256] addr=0x000054ae trans=AHB_TRANS_SEQ resp=AHB_RESP_OKAY wdata=0xb914b3e9
# UVM_INFO ../src/slv/ahb_slave_driver.sv(184) @ 3305000: uvm_test_top.env.slave_agent.drv [ahb_slave_driver] Beat AHB_WRITE addr=0x000054ae resp=AHB_RESP_OKAY waits=0 wdata=0xb914b3e9
# UVM_INFO ../src/mst/ahb_master_monitor.sv(128) @ 3305000: uvm_test_top.env.master_agent.mon [ahb_master_monitor] Beat[136] addr=0x000054ae wdata=0xb914b3e9 resp=AHB_RESP_OKAY
# UVM_INFO ../src/mst/ahb_master_driver.sv(332) @ 3325000: uvm_test_top.env.master_agent.drv [ahb_master_driver] Beat[137/256] addr=0x000054af trans=AHB_TRANS_SEQ resp=AHB_RESP_OKAY wdata=0x23c125c2
# UVM_INFO ../src/slv/ahb_slave_driver.sv(184) @ 3325000: uvm_test_top.env.slave_agent.drv [ahb_slave_driver] Beat AHB_WRITE addr=0x000054af resp=AHB_RESP_OKAY waits=1 wdata=0x23c125c2
# UVM_INFO ../src/mst/ahb_master_monitor.sv(128) @ 3325000: uvm_test_top.env.master_agent.mon [ahb_master_monitor] Beat[137] addr=0x000054af wdata=0x23c125c2 resp=AHB_RESP_OKAY
# UVM_INFO ../src/mst/ahb_master_driver.sv(332) @ 3345000: uvm_test_top.env.master_agent.drv [ahb_master_driver] Beat[138/256] addr=0x000054b0 trans=AHB_TRANS_SEQ resp=AHB_RESP_OKAY wdata=0x72734f77
# UVM_INFO ../src/slv/ahb_slave_driver.sv(184) @ 3345000: uvm_test_top.env.slave_agent.drv [ahb_slave_driver] Beat AHB_WRITE addr=0x000054b0 resp=AHB_RESP_OKAY waits=1 wdata=0x72734f77
# UVM_INFO ../src/mst/ahb_master_monitor.sv(128) @ 3345000: uvm_test_top.env.master_agent.mon [ahb_master_monitor] Beat[138] addr=0x000054b0 wdata=0x72734f77 resp=AHB_RESP_OKAY
# UVM_INFO ../src/mst/ahb_master_driver.sv(332) @ 3365000: uvm_test_top.env.master_agent.drv [ahb_master_driver] Beat[139/256] addr=0x000054b1 trans=AHB_TRANS_SEQ resp=AHB_RESP_OKAY wdata=0x495e1dd3
# UVM_INFO ../src/slv/ahb_slave_driver.sv(184) @ 3365000: uvm_test_top.env.slave_agent.drv [ahb_slave_driver] Beat AHB_WRITE addr=0x000054b1 resp=AHB_RESP_OKAY waits=1 wdata=0x495e1dd3
# UVM_INFO ../src/mst/ahb_master_monitor.sv(128) @ 3365000: uvm_test_top.env.master_agent.mon [ahb_master_monitor] Beat[139] addr=0x000054b1 wdata=0x495e1dd3 resp=AHB_RESP_OKAY
# UVM_INFO ../src/mst/ahb_master_driver.sv(332) @ 3395000: uvm_test_top.env.master_agent.drv [ahb_master_driver] Beat[140/256] addr=0x000054b2 trans=AHB_TRANS_SEQ resp=AHB_RESP_OKAY wdata=0x516fb103
# UVM_INFO ../src/slv/ahb_slave_driver.sv(184) @ 3395000: uvm_test_top.env.slave_agent.drv [ahb_slave_driver] Beat AHB_WRITE addr=0x000054b2 resp=AHB_RESP_OKAY waits=2 wdata=0x516fb103
# UVM_INFO ../src/mst/ahb_master_monitor.sv(128) @ 3395000: uvm_test_top.env.master_agent.mon [ahb_master_monitor] Beat[140] addr=0x000054b2 wdata=0x516fb103 resp=AHB_RESP_OKAY
# UVM_INFO ../src/mst/ahb_master_driver.sv(332) @ 3405000: uvm_test_top.env.master_agent.drv [ahb_master_driver] Beat[141/256] addr=0x000054b3 trans=AHB_TRANS_SEQ resp=AHB_RESP_OKAY wdata=0xe3136ef9
# UVM_INFO ../src/slv/ahb_slave_driver.sv(184) @ 3405000: uvm_test_top.env.slave_agent.drv [ahb_slave_driver] Beat AHB_WRITE addr=0x000054b3 resp=AHB_RESP_OKAY waits=0 wdata=0xe3136ef9
# UVM_INFO ../src/mst/ahb_master_monitor.sv(128) @ 3405000: uvm_test_top.env.master_agent.mon [ahb_master_monitor] Beat[141] addr=0x000054b3 wdata=0xe3136ef9 resp=AHB_RESP_OKAY
# UVM_INFO ../src/mst/ahb_master_driver.sv(332) @ 3435000: uvm_test_top.env.master_agent.drv [ahb_master_driver] Beat[142/256] addr=0x000054b4 trans=AHB_TRANS_SEQ resp=AHB_RESP_OKAY wdata=0x88c59da4
# UVM_INFO ../src/slv/ahb_slave_driver.sv(184) @ 3435000: uvm_test_top.env.slave_agent.drv [ahb_slave_driver] Beat AHB_WRITE addr=0x000054b4 resp=AHB_RESP_OKAY waits=2 wdata=0x88c59da4
# UVM_INFO ../src/mst/ahb_master_monitor.sv(128) @ 3435000: uvm_test_top.env.master_agent.mon [ahb_master_monitor] Beat[142] addr=0x000054b4 wdata=0x88c59da4 resp=AHB_RESP_OKAY
# UVM_INFO ../src/mst/ahb_master_driver.sv(332) @ 3465000: uvm_test_top.env.master_agent.drv [ahb_master_driver] Beat[143/256] addr=0x000054b5 trans=AHB_TRANS_SEQ resp=AHB_RESP_OKAY wdata=0x048cf466
# UVM_INFO ../src/slv/ahb_slave_driver.sv(184) @ 3465000: uvm_test_top.env.slave_agent.drv [ahb_slave_driver] Beat AHB_WRITE addr=0x000054b5 resp=AHB_RESP_OKAY waits=2 wdata=0x048cf466
# UVM_INFO ../src/mst/ahb_master_monitor.sv(128) @ 3465000: uvm_test_top.env.master_agent.mon [ahb_master_monitor] Beat[143] addr=0x000054b5 wdata=0x048cf466 resp=AHB_RESP_OKAY
# UVM_INFO ../src/mst/ahb_master_driver.sv(332) @ 3505000: uvm_test_top.env.master_agent.drv [ahb_master_driver] Beat[144/256] addr=0x000054b6 trans=AHB_TRANS_SEQ resp=AHB_RESP_OKAY wdata=0xb1fa1012
# UVM_INFO ../src/slv/ahb_slave_driver.sv(184) @ 3505000: uvm_test_top.env.slave_agent.drv [ahb_slave_driver] Beat AHB_WRITE addr=0x000054b6 resp=AHB_RESP_OKAY waits=2 wdata=0xb1fa1012
# UVM_INFO ../src/mst/ahb_master_monitor.sv(128) @ 3505000: uvm_test_top.env.master_agent.mon [ahb_master_monitor] Beat[144] addr=0x000054b6 wdata=0xb1fa1012 resp=AHB_RESP_OKAY
# UVM_INFO ../src/mst/ahb_master_driver.sv(332) @ 3525000: uvm_test_top.env.master_agent.drv [ahb_master_driver] Beat[145/256] addr=0x000054b7 trans=AHB_TRANS_SEQ resp=AHB_RESP_OKAY wdata=0xe3e55b1a
# UVM_INFO ../src/slv/ahb_slave_driver.sv(184) @ 3525000: uvm_test_top.env.slave_agent.drv [ahb_slave_driver] Beat AHB_WRITE addr=0x000054b7 resp=AHB_RESP_OKAY waits=1 wdata=0xe3e55b1a
# UVM_INFO ../src/mst/ahb_master_monitor.sv(128) @ 3525000: uvm_test_top.env.master_agent.mon [ahb_master_monitor] Beat[145] addr=0x000054b7 wdata=0xe3e55b1a resp=AHB_RESP_OKAY
# UVM_INFO ../src/mst/ahb_master_driver.sv(332) @ 3545000: uvm_test_top.env.master_agent.drv [ahb_master_driver] Beat[146/256] addr=0x000054b8 trans=AHB_TRANS_SEQ resp=AHB_RESP_OKAY wdata=0xf5e671eb
# UVM_INFO ../src/slv/ahb_slave_driver.sv(184) @ 3545000: uvm_test_top.env.slave_agent.drv [ahb_slave_driver] Beat AHB_WRITE addr=0x000054b8 resp=AHB_RESP_OKAY waits=1 wdata=0xf5e671eb
# UVM_INFO ../src/mst/ahb_master_monitor.sv(128) @ 3545000: uvm_test_top.env.master_agent.mon [ahb_master_monitor] Beat[146] addr=0x000054b8 wdata=0xf5e671eb resp=AHB_RESP_OKAY
# UVM_INFO ../src/mst/ahb_master_driver.sv(332) @ 3565000: uvm_test_top.env.master_agent.drv [ahb_master_driver] Beat[147/256] addr=0x000054b9 trans=AHB_TRANS_SEQ resp=AHB_RESP_OKAY wdata=0x3823b298
# UVM_INFO ../src/slv/ahb_slave_driver.sv(184) @ 3565000: uvm_test_top.env.slave_agent.drv [ahb_slave_driver] Beat AHB_WRITE addr=0x000054b9 resp=AHB_RESP_OKAY waits=1 wdata=0x3823b298
# UVM_INFO ../src/mst/ahb_master_monitor.sv(128) @ 3565000: uvm_test_top.env.master_agent.mon [ahb_master_monitor] Beat[147] addr=0x000054b9 wdata=0x3823b298 resp=AHB_RESP_OKAY
# UVM_INFO ../src/mst/ahb_master_driver.sv(332) @ 3595000: uvm_test_top.env.master_agent.drv [ahb_master_driver] Beat[148/256] addr=0x000054ba trans=AHB_TRANS_SEQ resp=AHB_RESP_OKAY wdata=0xabdc93aa
# UVM_INFO ../src/slv/ahb_slave_driver.sv(184) @ 3595000: uvm_test_top.env.slave_agent.drv [ahb_slave_driver] Beat AHB_WRITE addr=0x000054ba resp=AHB_RESP_OKAY waits=2 wdata=0xabdc93aa
# UVM_INFO ../src/mst/ahb_master_monitor.sv(128) @ 3595000: uvm_test_top.env.master_agent.mon [ahb_master_monitor] Beat[148] addr=0x000054ba wdata=0xabdc93aa resp=AHB_RESP_OKAY
# UVM_INFO ../src/mst/ahb_master_driver.sv(332) @ 3625000: uvm_test_top.env.master_agent.drv [ahb_master_driver] Beat[149/256] addr=0x000054bb trans=AHB_TRANS_SEQ resp=AHB_RESP_OKAY wdata=0xbe53d436
# UVM_INFO ../src/slv/ahb_slave_driver.sv(184) @ 3625000: uvm_test_top.env.slave_agent.drv [ahb_slave_driver] Beat AHB_WRITE addr=0x000054bb resp=AHB_RESP_OKAY waits=2 wdata=0xbe53d436
# UVM_INFO ../src/mst/ahb_master_monitor.sv(128) @ 3625000: uvm_test_top.env.master_agent.mon [ahb_master_monitor] Beat[149] addr=0x000054bb wdata=0xbe53d436 resp=AHB_RESP_OKAY
# UVM_INFO ../src/mst/ahb_master_driver.sv(332) @ 3645000: uvm_test_top.env.master_agent.drv [ahb_master_driver] Beat[150/256] addr=0x000054bc trans=AHB_TRANS_SEQ resp=AHB_RESP_OKAY wdata=0x844d9270
# UVM_INFO ../src/slv/ahb_slave_driver.sv(184) @ 3645000: uvm_test_top.env.slave_agent.drv [ahb_slave_driver] Beat AHB_WRITE addr=0x000054bc resp=AHB_RESP_OKAY waits=1 wdata=0x844d9270
# UVM_INFO ../src/mst/ahb_master_monitor.sv(128) @ 3645000: uvm_test_top.env.master_agent.mon [ahb_master_monitor] Beat[150] addr=0x000054bc wdata=0x844d9270 resp=AHB_RESP_OKAY
# UVM_INFO ../src/mst/ahb_master_driver.sv(332) @ 3675000: uvm_test_top.env.master_agent.drv [ahb_master_driver] Beat[151/256] addr=0x000054bd trans=AHB_TRANS_SEQ resp=AHB_RESP_OKAY wdata=0xf1021b79
# UVM_INFO ../src/slv/ahb_slave_driver.sv(184) @ 3675000: uvm_test_top.env.slave_agent.drv [ahb_slave_driver] Beat AHB_WRITE addr=0x000054bd resp=AHB_RESP_OKAY waits=2 wdata=0xf1021b79
# UVM_INFO ../src/mst/ahb_master_monitor.sv(128) @ 3675000: uvm_test_top.env.master_agent.mon [ahb_master_monitor] Beat[151] addr=0x000054bd wdata=0xf1021b79 resp=AHB_RESP_OKAY
# UVM_INFO ../src/mst/ahb_master_driver.sv(332) @ 3695000: uvm_test_top.env.master_agent.drv [ahb_master_driver] Beat[152/256] addr=0x000054be trans=AHB_TRANS_SEQ resp=AHB_RESP_OKAY wdata=0xc4f9a1f8
# UVM_INFO ../src/slv/ahb_slave_driver.sv(184) @ 3695000: uvm_test_top.env.slave_agent.drv [ahb_slave_driver] Beat AHB_WRITE addr=0x000054be resp=AHB_RESP_OKAY waits=0 wdata=0xc4f9a1f8
# UVM_INFO ../src/mst/ahb_master_monitor.sv(128) @ 3695000: uvm_test_top.env.master_agent.mon [ahb_master_monitor] Beat[152] addr=0x000054be wdata=0xc4f9a1f8 resp=AHB_RESP_OKAY
# UVM_INFO ../src/mst/ahb_master_driver.sv(332) @ 3725000: uvm_test_top.env.master_agent.drv [ahb_master_driver] Beat[153/256] addr=0x000054bf trans=AHB_TRANS_SEQ resp=AHB_RESP_OKAY wdata=0xacea7de6
# UVM_INFO ../src/slv/ahb_slave_driver.sv(184) @ 3725000: uvm_test_top.env.slave_agent.drv [ahb_slave_driver] Beat AHB_WRITE addr=0x000054bf resp=AHB_RESP_OKAY waits=2 wdata=0xacea7de6
# UVM_INFO ../src/mst/ahb_master_monitor.sv(128) @ 3725000: uvm_test_top.env.master_agent.mon [ahb_master_monitor] Beat[153] addr=0x000054bf wdata=0xacea7de6 resp=AHB_RESP_OKAY
# UVM_INFO ../src/mst/ahb_master_driver.sv(332) @ 3755000: uvm_test_top.env.master_agent.drv [ahb_master_driver] Beat[154/256] addr=0x000054c0 trans=AHB_TRANS_SEQ resp=AHB_RESP_OKAY wdata=0x21c82d99
# UVM_INFO ../src/slv/ahb_slave_driver.sv(184) @ 3755000: uvm_test_top.env.slave_agent.drv [ahb_slave_driver] Beat AHB_WRITE addr=0x000054c0 resp=AHB_RESP_OKAY waits=2 wdata=0x21c82d99
# UVM_INFO ../src/mst/ahb_master_monitor.sv(128) @ 3755000: uvm_test_top.env.master_agent.mon [ahb_master_monitor] Beat[154] addr=0x000054c0 wdata=0x21c82d99 resp=AHB_RESP_OKAY
# UVM_INFO ../src/mst/ahb_master_driver.sv(332) @ 3765000: uvm_test_top.env.master_agent.drv [ahb_master_driver] Beat[155/256] addr=0x000054c1 trans=AHB_TRANS_SEQ resp=AHB_RESP_OKAY wdata=0xd094b8e2
# UVM_INFO ../src/slv/ahb_slave_driver.sv(184) @ 3765000: uvm_test_top.env.slave_agent.drv [ahb_slave_driver] Beat AHB_WRITE addr=0x000054c1 resp=AHB_RESP_OKAY waits=0 wdata=0xd094b8e2
