# vsim -c -coverage -sv_seed 41750565 "+UVM_TESTNAME=ahb_error_response_test" "+UVM_VERBOSITY=UVM_HIGH" "+DUMP_VCD" -l ./report/logs/ahb_error_response_test_run_4_seed_41750565.log -do "coverage save -onexit ./report/coverage/ahb_error_response_test_run_4_seed_41750565.ucdb; run -all; quit -f" opt_tb_top 
# Start time: 14:14:44 on Aug 06,2026
# //  Questa Sim-64
# //  Version 10.6b linux_x86_64 May 25 2017
# //
# //  Copyright 1991-2017 Mentor Graphics Corporation
# //  All Rights Reserved.
# //
# //  QuestaSim and its associated documentation contain trade
# //  secrets and commercial or financial information that are the property of
# //  Mentor Graphics Corporation and are privileged, confidential,
# //  and exempt from disclosure under the Freedom of Information Act,
# //  5 U.S.C. Section 552. Furthermore, this information
# //  is prohibited from disclosure under the Trade Secrets Act,
# //  18 U.S.C. Section 1905.
# //
# Loading sv_std.std
# Loading work.ahb_if(fast)
# Loading mtiUvm.uvm_pkg
# Loading work.ahb_pkg(fast)
# Loading work.ahb_seq_pkg(fast)
# Loading work.ahb_test_pkg(fast)
# Loading work.tb_top(fast)
# Loading work.ahb_if(fast)
# Loading work.ahb_sva(fast)
# Loading mtiUvm.questa_uvm_pkg(fast)
# Loading /cadtools/mentor/Questa_10.6b/questasim/uvm-1.1d/linux_x86_64/uvm_dpi.so
# coverage save -onexit ./report/coverage/ahb_error_response_test_run_4_seed_41750565.ucdb
#  run -all
# ----------------------------------------------------------------
# UVM-1.1d
# (C) 2007-2013 Mentor Graphics Corporation
# (C) 2007-2013 Cadence Design Systems, Inc.
# (C) 2006-2013 Synopsys, Inc.
# (C) 2011-2013 Cypress Semiconductor Corp.
# ----------------------------------------------------------------
# 
#   ***********       IMPORTANT RELEASE NOTES         ************
# 
#   You are using a version of the UVM library that has been compiled
#   with `UVM_NO_DEPRECATED undefined.
#   See http://www.eda.org/svdb/view.php?id=3313 for more details.
# 
#   You are using a version of the UVM library that has been compiled
#   with `UVM_OBJECT_MUST_HAVE_CONSTRUCTOR undefined.
#   See http://www.eda.org/svdb/view.php?id=3770 for more details.
# 
#       (Specify +UVM_NO_RELNOTES to turn off this notice)
# 
# UVM_INFO verilog_src/questa_uvm_pkg-1.2/src/questa_uvm_pkg.sv(215) @ 0: reporter [Questa UVM] QUESTA_UVM-1.2.3
# UVM_INFO verilog_src/questa_uvm_pkg-1.2/src/questa_uvm_pkg.sv(217) @ 0: reporter [Questa UVM]  questa_uvm::init(+struct)
# UVM_INFO ../src/tb_top.sv(126) @ 0: reporter [TB_TOP] Virtual interface set in config_db
# UVM_INFO @ 0: reporter [RNTST] Running test ahb_error_response_test...
# UVM_INFO ../src/tb_top.sv(140) @ 0: reporter [TB_TOP] Waveform VCD dumping enabled (ahb_lite_vip.vcd)
# UVM_INFO ../src/env/ahb_vip_env.sv(64) @ 0: uvm_test_top.env [ahb_vip_env] slave_vif not set - reusing master_vif (passthrough mode)
# UVM_INFO ../src/env/ahb_vip_env.sv(72) @ 0: uvm_test_top.env [ahb_vip_env] Scoreboard created
# UVM_INFO ../src/env/ahb_vip_env.sv(78) @ 0: uvm_test_top.env [ahb_vip_env] Coverage collectors created
# UVM_INFO ../src/mst/ahb_master_agent.sv(61) @ 0: uvm_test_top.env.master_agent [ahb_master_agent] ACTIVE mode - driver + sequencer created
# UVM_INFO ../src/slv/ahb_slave_agent.sv(64) @ 0: uvm_test_top.env.slave_agent [ahb_slave_agent] ACTIVE mode - driver + sequencer created (sequence responses)
# UVM_INFO ../src/env/ahb_vip_env.sv(92) @ 0: uvm_test_top.env [ahb_vip_env] Scoreboard connected: master_mon.ap -> scb, slave_mon.ap -> scb
# UVM_INFO ../src/env/ahb_vip_env.sv(102) @ 0: uvm_test_top.env [ahb_vip_env] Coverage connected: master_mon.ap/trans_ap -> master_cov, slave_mon.ap/trans_ap -> slave_cov
# UVM_INFO @ 0: reporter [UVMTOP] UVM testbench topology:
# ---------------------------------------------------------------
# Name                       Type                     Size  Value
# ---------------------------------------------------------------
# uvm_test_top               ahb_error_response_test  -     @475 
#   env                      ahb_vip_env              -     @490 
#     master_agent           ahb_master_agent         -     @505 
#       drv                  ahb_master_driver        -     @570 
#         rsp_port           uvm_analysis_port        -     @585 
#         seq_item_port      uvm_seq_item_pull_port   -     @577 
#       mon                  ahb_master_monitor       -     @563 
#         ap                 uvm_analysis_port        -     @704 
#         trans_ap           uvm_analysis_port        -     @712 
#       sqr                  ahb_master_sequencer     -     @593 
#         rsp_export         uvm_analysis_export      -     @600 
#         seq_item_export    uvm_seq_item_pull_imp    -     @694 
#         arbitration_queue  array                    0     -    
#         lock_queue         array                    0     -    
#         num_last_reqs      integral                 32    'd1  
#         num_last_rsps      integral                 32    'd1  
#     master_cov             ahb_coverage             -     @526 
#       analysis_imp         uvm_analysis_imp         -     @533 
#       trans_export         uvm_analysis_imp_trans   -     @726 
#     scb                    ahb_scoreboard           -     @519 
#       master_export        uvm_analysis_imp_master  -     @734 
#       slave_export         uvm_analysis_imp_slave   -     @742 
#     slave_agent            ahb_slave_agent          -     @512 
#       drv                  ahb_slave_driver         -     @764 
#         rsp_port           uvm_analysis_port        -     @779 
#         seq_item_port      uvm_seq_item_pull_port   -     @771 
#       mon                  ahb_slave_monitor        -     @757 
#         ap                 uvm_analysis_port        -     @898 
#         trans_ap           uvm_analysis_port        -     @906 
#       sqr                  ahb_slave_sequencer      -     @787 
#         rsp_export         uvm_analysis_export      -     @794 
#         seq_item_export    uvm_seq_item_pull_imp    -     @888 
#         arbitration_queue  array                    0     -    
#         lock_queue         array                    0     -    
#         num_last_reqs      integral                 32    'd1  
#         num_last_rsps      integral                 32    'd1  
#     slave_cov              ahb_coverage             -     @541 
#       analysis_imp         uvm_analysis_imp         -     @548 
#       trans_export         uvm_analysis_imp_trans   -     @920 
# ---------------------------------------------------------------
# 
# UVM_INFO verilog_src/questa_uvm_pkg-1.2/src/questa_uvm_pkg.sv(277) @ 0: reporter [Questa UVM] End Of Elaboration
# UVM_INFO ../src/mst_seq/ahb_error_seq.sv(69) @ 0: uvm_test_top.env.master_agent.sqr@@mst_seq [ahb_error_seq] Starting ERROR response traffic: 16 bursts
# UVM_INFO ../src/slv_seq/ahb_slave_error_seq.sv(62) @ 0: uvm_test_top.env.slave_agent.sqr@@slv_seq [ahb_slave_error_seq] Slave error injection active: 25% ERROR, up to 2 wait states, unmapped [0x00009000 : 0x00009fff]
# UVM_INFO ../src/mst/ahb_master_driver.sv(183) @ 5000: uvm_test_top.env.master_agent.drv [ahb_master_driver] Flushed pending transactions (reset)
# UVM_INFO ../src/tb_top.sv(48) @ 95000: reporter [TB_TOP] Reset de-asserted
# UVM_INFO ../src/slv/ahb_slave_driver.sv(63) @ 95000: uvm_test_top.env.slave_agent.drv [ahb_slave_driver] Reset deasserted - slave driver active (sequence mode)
# UVM_INFO ../src/mst/ahb_master_driver.sv(72) @ 95000: uvm_test_top.env.master_agent.drv [ahb_master_driver] Reset deasserted - master driver active
# UVM_INFO ../src/mst/ahb_master_monitor.sv(81) @ 95000: uvm_test_top.env.master_agent.mon [ahb_master_monitor] Reset deasserted - master monitor active
# UVM_INFO ../src/slv/ahb_slave_monitor.sv(79) @ 95000: uvm_test_top.env.slave_agent.mon [ahb_slave_monitor] Reset deasserted - slave monitor active
# UVM_INFO ../src/mst/ahb_master_driver.sv(85) @ 95000: uvm_test_top.env.master_agent.drv [ahb_master_driver] Queueing [AHB_WRITE]: HADDR=0x0000703a, HBURST=AHB_BURST_SINGLE, HSIZE=AHB_SIZE_8B, 1 beats
# UVM_INFO ../src/mst/ahb_master_driver.sv(127) @ 95000: uvm_test_top.env.master_agent.drv [ahb_master_driver] Driving [AHB_WRITE]: HADDR=0x0000703a, HBURST=AHB_BURST_SINGLE, HSIZE=AHB_SIZE_8B, 1 beats               
# UVM_INFO ../src/slv_seq/ahb_slave_error_seq.sv(88) @ 105000: uvm_test_top.env.slave_agent.sqr@@slv_seq [ahb_slave_error_seq] Response 1: AHB_WRITE @0x0000703a -> AHB_RESP_ERROR, 0 wait states           
# UVM_INFO ../src/mst/ahb_master_driver.sv(332) @ 125000: uvm_test_top.env.master_agent.drv [ahb_master_driver] Beat[0/1] addr=0x0000703a trans=AHB_TRANS_NONSEQ resp=AHB_RESP_ERROR wdata=0xbc222dde
# UVM_INFO ../src/mst/ahb_master_driver.sv(342) @ 125000: uvm_test_top.env.master_agent.drv [ahb_master_driver] ERROR response on beat 0/1                             
# UVM_INFO ../src/mst/ahb_master_driver.sv(376) @ 125000: uvm_test_top.env.master_agent.drv [ahb_master_driver] Transaction complete: AHB_WRITE 0x0000703a, 1 beats, burst=AHB_BURST_SINGLE
# UVM_INFO ../src/slv/ahb_slave_driver.sv(184) @ 125000: uvm_test_top.env.slave_agent.drv [ahb_slave_driver] Beat AHB_WRITE addr=0x0000703a resp=AHB_RESP_ERROR waits=0 wdata=0xbc222dde
# UVM_INFO ../src/mst/ahb_master_monitor.sv(128) @ 125000: uvm_test_top.env.master_agent.mon [ahb_master_monitor] Beat[0] addr=0x0000703a wdata=0xbc222dde resp=AHB_RESP_ERROR
# UVM_INFO ../src/mst/ahb_master_monitor.sv(231) @ 125000: uvm_test_top.env.master_agent.mon [ahb_master_monitor] Observed [AHB_WRITE]: HADDR=0x0000703a, HBURST=AHB_BURST_SINGLE, HSIZE=AHB_SIZE_8B, 1 beats
# UVM_INFO ../src/env/ahb_coverage.sv(174) @ 125000: uvm_test_top.env.master_cov [ahb_coverage] Sampled [AHB_WRITE]: burst=AHB_BURST_SINGLE size=AHB_SIZE_8B beats=1 error=1
# UVM_INFO ../src/slv/ahb_slave_monitor.sv(212) @ 125000: uvm_test_top.env.slave_agent.mon [ahb_slave_monitor] Observed [AHB_WRITE]: HADDR=0x0000703a, HBURST=AHB_BURST_SINGLE, HSIZE=AHB_SIZE_8B, 1 beats
# UVM_INFO ../src/env/ahb_scoreboard.sv(104) @ 125000: uvm_test_top.env.scb [ahb_scoreboard] MATCH #1: [AHB_WRITE] HADDR=0x0000703a AHB_BURST_SINGLE 1 beats
# UVM_INFO ../src/env/ahb_coverage.sv(174) @ 125000: uvm_test_top.env.slave_cov [ahb_coverage] Sampled [AHB_WRITE]: burst=AHB_BURST_SINGLE size=AHB_SIZE_8B beats=1 error=1
# UVM_INFO ../src/mst_seq/ahb_error_seq.sv(131) @ 125000: uvm_test_top.env.master_agent.sqr@@mst_seq [ahb_error_seq] AHB_WRITE AHB_BURST_SINGLE @0x0000703a: ERROR on beat 0 of 1, policy=  cancel, drove 1
# UVM_INFO ../src/mst/ahb_master_driver.sv(85) @ 125000: uvm_test_top.env.master_agent.drv [ahb_master_driver] Queueing [AHB_READ]: HADDR=0x00008028, HBURST=AHB_BURST_INCR4, HSIZE=AHB_SIZE_32B, 4 beats
# UVM_INFO ../src/mst/ahb_master_driver.sv(127) @ 125000: uvm_test_top.env.master_agent.drv [ahb_master_driver] Driving [AHB_READ]: HADDR=0x00008028, HBURST=AHB_BURST_INCR4, HSIZE=AHB_SIZE_32B, 4 beats               
# UVM_INFO ../src/slv_seq/ahb_slave_error_seq.sv(88) @ 145000: uvm_test_top.env.slave_agent.sqr@@slv_seq [ahb_slave_error_seq] Response 2: AHB_READ @0x00008028 -> AHB_RESP_OKAY, 1 wait states           
# UVM_INFO ../src/mst/ahb_master_driver.sv(332) @ 165000: uvm_test_top.env.master_agent.drv [ahb_master_driver] Beat[0/4] addr=0x00008028 trans=AHB_TRANS_NONSEQ resp=AHB_RESP_OKAY rdata=0x4d0e48a8
# UVM_INFO ../src/slv/ahb_slave_driver.sv(184) @ 165000: uvm_test_top.env.slave_agent.drv [ahb_slave_driver] Beat AHB_READ addr=0x00008028 resp=AHB_RESP_OKAY waits=1 rdata=0x4d0e48a8
# UVM_INFO ../src/mst/ahb_master_monitor.sv(128) @ 165000: uvm_test_top.env.master_agent.mon [ahb_master_monitor] Beat[0] addr=0x00008028 rdata=0x4d0e48a8 resp=AHB_RESP_OKAY
# UVM_INFO ../src/slv_seq/ahb_slave_error_seq.sv(88) @ 165000: uvm_test_top.env.slave_agent.sqr@@slv_seq [ahb_slave_error_seq] Response 3: AHB_READ @0x0000802c -> AHB_RESP_OKAY, 1 wait states           
# UVM_INFO ../src/mst/ahb_master_driver.sv(332) @ 185000: uvm_test_top.env.master_agent.drv [ahb_master_driver] Beat[1/4] addr=0x0000802c trans=AHB_TRANS_SEQ resp=AHB_RESP_OKAY rdata=0xaa9e7eae
# UVM_INFO ../src/slv/ahb_slave_driver.sv(184) @ 185000: uvm_test_top.env.slave_agent.drv [ahb_slave_driver] Beat AHB_READ addr=0x0000802c resp=AHB_RESP_OKAY waits=1 rdata=0xaa9e7eae
# UVM_INFO ../src/mst/ahb_master_monitor.sv(128) @ 185000: uvm_test_top.env.master_agent.mon [ahb_master_monitor] Beat[1] addr=0x0000802c rdata=0xaa9e7eae resp=AHB_RESP_OKAY
# UVM_INFO ../src/slv_seq/ahb_slave_error_seq.sv(88) @ 185000: uvm_test_top.env.slave_agent.sqr@@slv_seq [ahb_slave_error_seq] Response 4: AHB_READ @0x00008030 -> AHB_RESP_OKAY, 2 wait states           
# UVM_INFO ../src/mst/ahb_master_driver.sv(332) @ 215000: uvm_test_top.env.master_agent.drv [ahb_master_driver] Beat[2/4] addr=0x00008030 trans=AHB_TRANS_SEQ resp=AHB_RESP_OKAY rdata=0xea6df148
# UVM_INFO ../src/slv/ahb_slave_driver.sv(184) @ 215000: uvm_test_top.env.slave_agent.drv [ahb_slave_driver] Beat AHB_READ addr=0x00008030 resp=AHB_RESP_OKAY waits=2 rdata=0xea6df148
# UVM_INFO ../src/mst/ahb_master_monitor.sv(128) @ 215000: uvm_test_top.env.master_agent.mon [ahb_master_monitor] Beat[2] addr=0x00008030 rdata=0xea6df148 resp=AHB_RESP_OKAY
# UVM_INFO ../src/slv_seq/ahb_slave_error_seq.sv(88) @ 215000: uvm_test_top.env.slave_agent.sqr@@slv_seq [ahb_slave_error_seq] Response 5: AHB_READ @0x00008034 -> AHB_RESP_OKAY, 2 wait states           
# UVM_INFO ../src/mst/ahb_master_driver.sv(332) @ 245000: uvm_test_top.env.master_agent.drv [ahb_master_driver] Beat[3/4] addr=0x00008034 trans=AHB_TRANS_SEQ resp=AHB_RESP_OKAY rdata=0x1cca8804
# UVM_INFO ../src/mst/ahb_master_driver.sv(376) @ 245000: uvm_test_top.env.master_agent.drv [ahb_master_driver] Transaction complete: AHB_READ 0x00008028, 4 beats, burst=AHB_BURST_INCR4
# UVM_INFO ../src/slv/ahb_slave_driver.sv(184) @ 245000: uvm_test_top.env.slave_agent.drv [ahb_slave_driver] Beat AHB_READ addr=0x00008034 resp=AHB_RESP_OKAY waits=2 rdata=0x1cca8804
# UVM_INFO ../src/mst/ahb_master_monitor.sv(128) @ 245000: uvm_test_top.env.master_agent.mon [ahb_master_monitor] Beat[3] addr=0x00008034 rdata=0x1cca8804 resp=AHB_RESP_OKAY
# UVM_INFO ../src/mst/ahb_master_monitor.sv(231) @ 245000: uvm_test_top.env.master_agent.mon [ahb_master_monitor] Observed [AHB_READ]: HADDR=0x00008028, HBURST=AHB_BURST_INCR4, HSIZE=AHB_SIZE_32B, 4 beats
# UVM_INFO ../src/env/ahb_coverage.sv(174) @ 245000: uvm_test_top.env.master_cov [ahb_coverage] Sampled [AHB_READ]: burst=AHB_BURST_INCR4 size=AHB_SIZE_32B beats=4 error=0
# UVM_INFO ../src/slv/ahb_slave_monitor.sv(212) @ 245000: uvm_test_top.env.slave_agent.mon [ahb_slave_monitor] Observed [AHB_READ]: HADDR=0x00008028, HBURST=AHB_BURST_INCR4, HSIZE=AHB_SIZE_32B, 4 beats
# UVM_INFO ../src/env/ahb_scoreboard.sv(104) @ 245000: uvm_test_top.env.scb [ahb_scoreboard] MATCH #2: [AHB_READ] HADDR=0x00008028 AHB_BURST_INCR4 4 beats
# UVM_INFO ../src/env/ahb_coverage.sv(174) @ 245000: uvm_test_top.env.slave_cov [ahb_coverage] Sampled [AHB_READ]: burst=AHB_BURST_INCR4 size=AHB_SIZE_32B beats=4 error=0
# UVM_INFO ../src/mst/ahb_master_driver.sv(85) @ 245000: uvm_test_top.env.master_agent.drv [ahb_master_driver] Queueing [AHB_WRITE]: HADDR=0x00009035, HBURST=AHB_BURST_INCR4, HSIZE=AHB_SIZE_8B, 4 beats
# UVM_INFO ../src/mst/ahb_master_driver.sv(127) @ 245000: uvm_test_top.env.master_agent.drv [ahb_master_driver] Driving [AHB_WRITE]: HADDR=0x00009035, HBURST=AHB_BURST_INCR4, HSIZE=AHB_SIZE_8B, 4 beats               
# UVM_INFO ../src/slv_seq/ahb_slave_error_seq.sv(88) @ 265000: uvm_test_top.env.slave_agent.sqr@@slv_seq [ahb_slave_error_seq] Response 6: AHB_WRITE @0x00009035 -> AHB_RESP_ERROR, 2 wait states (unmapped)
# UVM_INFO ../src/mst/ahb_master_driver.sv(332) @ 305000: uvm_test_top.env.master_agent.drv [ahb_master_driver] Beat[0/4] addr=0x00009035 trans=AHB_TRANS_NONSEQ resp=AHB_RESP_ERROR wdata=0x01f99ccc
# UVM_INFO ../src/mst/ahb_master_driver.sv(349) @ 305000: uvm_test_top.env.master_agent.drv [ahb_master_driver] ERROR response on beat 0/4 - continuing burst (abort_on_error=0)
# UVM_INFO ../src/slv/ahb_slave_driver.sv(184) @ 305000: uvm_test_top.env.slave_agent.drv [ahb_slave_driver] Beat AHB_WRITE addr=0x00009035 resp=AHB_RESP_ERROR waits=2 wdata=0x01f99ccc
# UVM_INFO ../src/mst/ahb_master_monitor.sv(128) @ 305000: uvm_test_top.env.master_agent.mon [ahb_master_monitor] Beat[0] addr=0x00009035 wdata=0x01f99ccc resp=AHB_RESP_ERROR
# UVM_INFO ../src/slv_seq/ahb_slave_error_seq.sv(88) @ 305000: uvm_test_top.env.slave_agent.sqr@@slv_seq [ahb_slave_error_seq] Response 7: AHB_WRITE @0x00009036 -> AHB_RESP_ERROR, 1 wait states (unmapped)
# UVM_INFO ../src/mst/ahb_master_driver.sv(332) @ 335000: uvm_test_top.env.master_agent.drv [ahb_master_driver] Beat[1/4] addr=0x00009036 trans=AHB_TRANS_SEQ resp=AHB_RESP_ERROR wdata=0x2f85e7dc
# UVM_INFO ../src/mst/ahb_master_driver.sv(349) @ 335000: uvm_test_top.env.master_agent.drv [ahb_master_driver] ERROR response on beat 1/4 - continuing burst (abort_on_error=0)
# UVM_INFO ../src/slv/ahb_slave_driver.sv(184) @ 335000: uvm_test_top.env.slave_agent.drv [ahb_slave_driver] Beat AHB_WRITE addr=0x00009036 resp=AHB_RESP_ERROR waits=1 wdata=0x2f85e7dc
# UVM_INFO ../src/mst/ahb_master_monitor.sv(128) @ 335000: uvm_test_top.env.master_agent.mon [ahb_master_monitor] Beat[1] addr=0x00009036 wdata=0x2f85e7dc resp=AHB_RESP_ERROR
# UVM_INFO ../src/slv_seq/ahb_slave_error_seq.sv(88) @ 335000: uvm_test_top.env.slave_agent.sqr@@slv_seq [ahb_slave_error_seq] Response 8: AHB_WRITE @0x00009037 -> AHB_RESP_ERROR, 2 wait states (unmapped)
# UVM_INFO ../src/mst/ahb_master_driver.sv(332) @ 375000: uvm_test_top.env.master_agent.drv [ahb_master_driver] Beat[2/4] addr=0x00009037 trans=AHB_TRANS_SEQ resp=AHB_RESP_ERROR wdata=0x2686c0f0
# UVM_INFO ../src/mst/ahb_master_driver.sv(349) @ 375000: uvm_test_top.env.master_agent.drv [ahb_master_driver] ERROR response on beat 2/4 - continuing burst (abort_on_error=0)
# UVM_INFO ../src/slv/ahb_slave_driver.sv(184) @ 375000: uvm_test_top.env.slave_agent.drv [ahb_slave_driver] Beat AHB_WRITE addr=0x00009037 resp=AHB_RESP_ERROR waits=2 wdata=0x2686c0f0
# UVM_INFO ../src/mst/ahb_master_monitor.sv(128) @ 375000: uvm_test_top.env.master_agent.mon [ahb_master_monitor] Beat[2] addr=0x00009037 wdata=0x2686c0f0 resp=AHB_RESP_ERROR
# UVM_INFO ../src/slv_seq/ahb_slave_error_seq.sv(88) @ 375000: uvm_test_top.env.slave_agent.sqr@@slv_seq [ahb_slave_error_seq] Response 9: AHB_WRITE @0x00009038 -> AHB_RESP_ERROR, 2 wait states (unmapped)
# UVM_INFO ../src/mst/ahb_master_driver.sv(332) @ 415000: uvm_test_top.env.master_agent.drv [ahb_master_driver] Beat[3/4] addr=0x00009038 trans=AHB_TRANS_SEQ resp=AHB_RESP_ERROR wdata=0x830f791c
# UVM_INFO ../src/mst/ahb_master_driver.sv(349) @ 415000: uvm_test_top.env.master_agent.drv [ahb_master_driver] ERROR response on beat 3/4 - continuing burst (abort_on_error=0)
# UVM_INFO ../src/mst/ahb_master_driver.sv(376) @ 415000: uvm_test_top.env.master_agent.drv [ahb_master_driver] Transaction complete: AHB_WRITE 0x00009035, 4 beats, burst=AHB_BURST_INCR4
# UVM_INFO ../src/slv/ahb_slave_driver.sv(184) @ 415000: uvm_test_top.env.slave_agent.drv [ahb_slave_driver] Beat AHB_WRITE addr=0x00009038 resp=AHB_RESP_ERROR waits=2 wdata=0x830f791c
# UVM_INFO ../src/slv/ahb_slave_monitor.sv(212) @ 415000: uvm_test_top.env.slave_agent.mon [ahb_slave_monitor] Observed [AHB_WRITE]: HADDR=0x00009035, HBURST=AHB_BURST_INCR4, HSIZE=AHB_SIZE_8B, 4 beats
# UVM_INFO ../src/env/ahb_coverage.sv(174) @ 415000: uvm_test_top.env.slave_cov [ahb_coverage] Sampled [AHB_WRITE]: burst=AHB_BURST_INCR4 size=AHB_SIZE_8B beats=4 error=1
# UVM_INFO ../src/mst/ahb_master_monitor.sv(128) @ 415000: uvm_test_top.env.master_agent.mon [ahb_master_monitor] Beat[3] addr=0x00009038 wdata=0x830f791c resp=AHB_RESP_ERROR
# UVM_INFO ../src/mst/ahb_master_monitor.sv(231) @ 415000: uvm_test_top.env.master_agent.mon [ahb_master_monitor] Observed [AHB_WRITE]: HADDR=0x00009035, HBURST=AHB_BURST_INCR4, HSIZE=AHB_SIZE_8B, 4 beats
# UVM_INFO ../src/env/ahb_coverage.sv(174) @ 415000: uvm_test_top.env.master_cov [ahb_coverage] Sampled [AHB_WRITE]: burst=AHB_BURST_INCR4 size=AHB_SIZE_8B beats=4 error=1
# UVM_INFO ../src/env/ahb_scoreboard.sv(104) @ 415000: uvm_test_top.env.scb [ahb_scoreboard] MATCH #3: [AHB_WRITE] HADDR=0x00009035 AHB_BURST_INCR4 4 beats
# UVM_INFO ../src/mst_seq/ahb_error_seq.sv(131) @ 415000: uvm_test_top.env.master_agent.sqr@@mst_seq [ahb_error_seq] AHB_WRITE AHB_BURST_INCR4 @0x00009035: ERROR on beat 0 of 4, policy=continue, drove 4
# UVM_INFO ../src/mst/ahb_master_driver.sv(85) @ 415000: uvm_test_top.env.master_agent.drv [ahb_master_driver] Queueing [AHB_READ]: HADDR=0x0000806e, HBURST=AHB_BURST_WRAP16, HSIZE=AHB_SIZE_8B, 16 beats
# UVM_INFO ../src/mst/ahb_master_driver.sv(127) @ 415000: uvm_test_top.env.master_agent.drv [ahb_master_driver] Driving [AHB_READ]: HADDR=0x0000806e, HBURST=AHB_BURST_WRAP16, HSIZE=AHB_SIZE_8B, 16 beats               
# UVM_INFO ../src/slv_seq/ahb_slave_error_seq.sv(88) @ 435000: uvm_test_top.env.slave_agent.sqr@@slv_seq [ahb_slave_error_seq] Response 10: AHB_READ @0x0000806e -> AHB_RESP_OKAY, 0 wait states           
# UVM_INFO ../src/mst/ahb_master_driver.sv(332) @ 445000: uvm_test_top.env.master_agent.drv [ahb_master_driver] Beat[0/16] addr=0x0000806e trans=AHB_TRANS_NONSEQ resp=AHB_RESP_OKAY rdata=0x567b2186
# UVM_INFO ../src/slv/ahb_slave_driver.sv(184) @ 445000: uvm_test_top.env.slave_agent.drv [ahb_slave_driver] Beat AHB_READ addr=0x0000806e resp=AHB_RESP_OKAY waits=0 rdata=0x567b2186
# UVM_INFO ../src/mst/ahb_master_monitor.sv(128) @ 445000: uvm_test_top.env.master_agent.mon [ahb_master_monitor] Beat[0] addr=0x0000806e rdata=0x567b2186 resp=AHB_RESP_OKAY
# UVM_INFO ../src/slv_seq/ahb_slave_error_seq.sv(88) @ 445000: uvm_test_top.env.slave_agent.sqr@@slv_seq [ahb_slave_error_seq] Response 11: AHB_READ @0x0000806f -> AHB_RESP_OKAY, 0 wait states           
# UVM_INFO ../src/mst/ahb_master_driver.sv(332) @ 455000: uvm_test_top.env.master_agent.drv [ahb_master_driver] Beat[1/16] addr=0x0000806f trans=AHB_TRANS_SEQ resp=AHB_RESP_OKAY rdata=0x99659fdc
# UVM_INFO ../src/slv/ahb_slave_driver.sv(184) @ 455000: uvm_test_top.env.slave_agent.drv [ahb_slave_driver] Beat AHB_READ addr=0x0000806f resp=AHB_RESP_OKAY waits=0 rdata=0x99659fdc
# UVM_INFO ../src/mst/ahb_master_monitor.sv(128) @ 455000: uvm_test_top.env.master_agent.mon [ahb_master_monitor] Beat[1] addr=0x0000806f rdata=0x99659fdc resp=AHB_RESP_OKAY
# UVM_INFO ../src/slv_seq/ahb_slave_error_seq.sv(88) @ 455000: uvm_test_top.env.slave_agent.sqr@@slv_seq [ahb_slave_error_seq] Response 12: AHB_READ @0x00008060 -> AHB_RESP_ERROR, 2 wait states           
# UVM_INFO ../src/mst/ahb_master_driver.sv(332) @ 495000: uvm_test_top.env.master_agent.drv [ahb_master_driver] Beat[2/16] addr=0x00008060 trans=AHB_TRANS_SEQ resp=AHB_RESP_ERROR rdata=0x99659fdc
# UVM_INFO ../src/mst/ahb_master_driver.sv(349) @ 495000: uvm_test_top.env.master_agent.drv [ahb_master_driver] ERROR response on beat 2/16 - continuing burst (abort_on_error=0)
# UVM_INFO ../src/slv/ahb_slave_driver.sv(184) @ 495000: uvm_test_top.env.slave_agent.drv [ahb_slave_driver] Beat AHB_READ addr=0x00008060 resp=AHB_RESP_ERROR waits=2 rdata=0x6c5e3893
# UVM_INFO ../src/mst/ahb_master_monitor.sv(128) @ 495000: uvm_test_top.env.master_agent.mon [ahb_master_monitor] Beat[2] addr=0x00008060 rdata=0x99659fdc resp=AHB_RESP_ERROR
# UVM_INFO ../src/slv_seq/ahb_slave_error_seq.sv(88) @ 495000: uvm_test_top.env.slave_agent.sqr@@slv_seq [ahb_slave_error_seq] Response 13: AHB_READ @0x00008061 -> AHB_RESP_ERROR, 1 wait states           
# UVM_INFO ../src/mst/ahb_master_driver.sv(332) @ 525000: uvm_test_top.env.master_agent.drv [ahb_master_driver] Beat[3/16] addr=0x00008061 trans=AHB_TRANS_SEQ resp=AHB_RESP_ERROR rdata=0x99659fdc
# UVM_INFO ../src/mst/ahb_master_driver.sv(349) @ 525000: uvm_test_top.env.master_agent.drv [ahb_master_driver] ERROR response on beat 3/16 - continuing burst (abort_on_error=0)
# UVM_INFO ../src/slv/ahb_slave_driver.sv(184) @ 525000: uvm_test_top.env.slave_agent.drv [ahb_slave_driver] Beat AHB_READ addr=0x00008061 resp=AHB_RESP_ERROR waits=1 rdata=0x2f7362d9
# UVM_INFO ../src/mst/ahb_master_monitor.sv(128) @ 525000: uvm_test_top.env.master_agent.mon [ahb_master_monitor] Beat[3] addr=0x00008061 rdata=0x99659fdc resp=AHB_RESP_ERROR
# UVM_INFO ../src/slv_seq/ahb_slave_error_seq.sv(88) @ 525000: uvm_test_top.env.slave_agent.sqr@@slv_seq [ahb_slave_error_seq] Response 14: AHB_READ @0x00008062 -> AHB_RESP_ERROR, 2 wait states           
# UVM_INFO ../src/mst/ahb_master_driver.sv(332) @ 565000: uvm_test_top.env.master_agent.drv [ahb_master_driver] Beat[4/16] addr=0x00008062 trans=AHB_TRANS_SEQ resp=AHB_RESP_ERROR rdata=0x99659fdc
# UVM_INFO ../src/mst/ahb_master_driver.sv(349) @ 565000: uvm_test_top.env.master_agent.drv [ahb_master_driver] ERROR response on beat 4/16 - continuing burst (abort_on_error=0)
# UVM_INFO ../src/slv/ahb_slave_driver.sv(184) @ 565000: uvm_test_top.env.slave_agent.drv [ahb_slave_driver] Beat AHB_READ addr=0x00008062 resp=AHB_RESP_ERROR waits=2 rdata=0xca84bd92
# UVM_INFO ../src/mst/ahb_master_monitor.sv(128) @ 565000: uvm_test_top.env.master_agent.mon [ahb_master_monitor] Beat[4] addr=0x00008062 rdata=0x99659fdc resp=AHB_RESP_ERROR
# UVM_INFO ../src/slv_seq/ahb_slave_error_seq.sv(88) @ 565000: uvm_test_top.env.slave_agent.sqr@@slv_seq [ahb_slave_error_seq] Response 15: AHB_READ @0x00008063 -> AHB_RESP_OKAY, 0 wait states           
# UVM_INFO ../src/mst/ahb_master_driver.sv(332) @ 575000: uvm_test_top.env.master_agent.drv [ahb_master_driver] Beat[5/16] addr=0x00008063 trans=AHB_TRANS_SEQ resp=AHB_RESP_OKAY rdata=0x6196629e
# UVM_INFO ../src/slv/ahb_slave_driver.sv(184) @ 575000: uvm_test_top.env.slave_agent.drv [ahb_slave_driver] Beat AHB_READ addr=0x00008063 resp=AHB_RESP_OKAY waits=0 rdata=0x6196629e
# UVM_INFO ../src/mst/ahb_master_monitor.sv(128) @ 575000: uvm_test_top.env.master_agent.mon [ahb_master_monitor] Beat[5] addr=0x00008063 rdata=0x6196629e resp=AHB_RESP_OKAY
# UVM_INFO ../src/slv_seq/ahb_slave_error_seq.sv(88) @ 575000: uvm_test_top.env.slave_agent.sqr@@slv_seq [ahb_slave_error_seq] Response 16: AHB_READ @0x00008064 -> AHB_RESP_OKAY, 0 wait states           
# UVM_INFO ../src/mst/ahb_master_driver.sv(332) @ 585000: uvm_test_top.env.master_agent.drv [ahb_master_driver] Beat[6/16] addr=0x00008064 trans=AHB_TRANS_SEQ resp=AHB_RESP_OKAY rdata=0xd7121ad1
# UVM_INFO ../src/slv/ahb_slave_driver.sv(184) @ 585000: uvm_test_top.env.slave_agent.drv [ahb_slave_driver] Beat AHB_READ addr=0x00008064 resp=AHB_RESP_OKAY waits=0 rdata=0xd7121ad1
# UVM_INFO ../src/mst/ahb_master_monitor.sv(128) @ 585000: uvm_test_top.env.master_agent.mon [ahb_master_monitor] Beat[6] addr=0x00008064 rdata=0xd7121ad1 resp=AHB_RESP_OKAY
# UVM_INFO ../src/slv_seq/ahb_slave_error_seq.sv(88) @ 585000: uvm_test_top.env.slave_agent.sqr@@slv_seq [ahb_slave_error_seq] Response 17: AHB_READ @0x00008065 -> AHB_RESP_ERROR, 0 wait states           
# UVM_INFO ../src/mst/ahb_master_driver.sv(332) @ 605000: uvm_test_top.env.master_agent.drv [ahb_master_driver] Beat[7/16] addr=0x00008065 trans=AHB_TRANS_SEQ resp=AHB_RESP_ERROR rdata=0xd7121ad1
# UVM_INFO ../src/mst/ahb_master_driver.sv(349) @ 605000: uvm_test_top.env.master_agent.drv [ahb_master_driver] ERROR response on beat 7/16 - continuing burst (abort_on_error=0)
# UVM_INFO ../src/slv/ahb_slave_driver.sv(184) @ 605000: uvm_test_top.env.slave_agent.drv [ahb_slave_driver] Beat AHB_READ addr=0x00008065 resp=AHB_RESP_ERROR waits=0 rdata=0xb1c9edee
# UVM_INFO ../src/mst/ahb_master_monitor.sv(128) @ 605000: uvm_test_top.env.master_agent.mon [ahb_master_monitor] Beat[7] addr=0x00008065 rdata=0xd7121ad1 resp=AHB_RESP_ERROR
# UVM_INFO ../src/slv_seq/ahb_slave_error_seq.sv(88) @ 605000: uvm_test_top.env.slave_agent.sqr@@slv_seq [ahb_slave_error_seq] Response 18: AHB_READ @0x00008066 -> AHB_RESP_OKAY, 1 wait states           
# UVM_INFO ../src/mst/ahb_master_driver.sv(332) @ 625000: uvm_test_top.env.master_agent.drv [ahb_master_driver] Beat[8/16] addr=0x00008066 trans=AHB_TRANS_SEQ resp=AHB_RESP_OKAY rdata=0xb1746c4c
# UVM_INFO ../src/slv/ahb_slave_driver.sv(184) @ 625000: uvm_test_top.env.slave_agent.drv [ahb_slave_driver] Beat AHB_READ addr=0x00008066 resp=AHB_RESP_OKAY waits=1 rdata=0xb1746c4c
# UVM_INFO ../src/mst/ahb_master_monitor.sv(128) @ 625000: uvm_test_top.env.master_agent.mon [ahb_master_monitor] Beat[8] addr=0x00008066 rdata=0xb1746c4c resp=AHB_RESP_OKAY
# UVM_INFO ../src/slv_seq/ahb_slave_error_seq.sv(88) @ 625000: uvm_test_top.env.slave_agent.sqr@@slv_seq [ahb_slave_error_seq] Response 19: AHB_READ @0x00008067 -> AHB_RESP_ERROR, 2 wait states           
# UVM_INFO ../src/mst/ahb_master_driver.sv(332) @ 665000: uvm_test_top.env.master_agent.drv [ahb_master_driver] Beat[9/16] addr=0x00008067 trans=AHB_TRANS_SEQ resp=AHB_RESP_ERROR rdata=0xb1746c4c
# UVM_INFO ../src/mst/ahb_master_driver.sv(349) @ 665000: uvm_test_top.env.master_agent.drv [ahb_master_driver] ERROR response on beat 9/16 - continuing burst (abort_on_error=0)
# UVM_INFO ../src/slv/ahb_slave_driver.sv(184) @ 665000: uvm_test_top.env.slave_agent.drv [ahb_slave_driver] Beat AHB_READ addr=0x00008067 resp=AHB_RESP_ERROR waits=2 rdata=0xc00994eb
# UVM_INFO ../src/mst/ahb_master_monitor.sv(128) @ 665000: uvm_test_top.env.master_agent.mon [ahb_master_monitor] Beat[9] addr=0x00008067 rdata=0xb1746c4c resp=AHB_RESP_ERROR
# UVM_INFO ../src/slv_seq/ahb_slave_error_seq.sv(88) @ 665000: uvm_test_top.env.slave_agent.sqr@@slv_seq [ahb_slave_error_seq] Response 20: AHB_READ @0x00008068 -> AHB_RESP_ERROR, 0 wait states           
# UVM_INFO ../src/mst/ahb_master_driver.sv(332) @ 685000: uvm_test_top.env.master_agent.drv [ahb_master_driver] Beat[10/16] addr=0x00008068 trans=AHB_TRANS_SEQ resp=AHB_RESP_ERROR rdata=0xb1746c4c
# UVM_INFO ../src/mst/ahb_master_driver.sv(349) @ 685000: uvm_test_top.env.master_agent.drv [ahb_master_driver] ERROR response on beat 10/16 - continuing burst (abort_on_error=0)
# UVM_INFO ../src/slv/ahb_slave_driver.sv(184) @ 685000: uvm_test_top.env.slave_agent.drv [ahb_slave_driver] Beat AHB_READ addr=0x00008068 resp=AHB_RESP_ERROR waits=0 rdata=0x29bab08b
# UVM_INFO ../src/mst/ahb_master_monitor.sv(128) @ 685000: uvm_test_top.env.master_agent.mon [ahb_master_monitor] Beat[10] addr=0x00008068 rdata=0xb1746c4c resp=AHB_RESP_ERROR
# UVM_INFO ../src/slv_seq/ahb_slave_error_seq.sv(88) @ 685000: uvm_test_top.env.slave_agent.sqr@@slv_seq [ahb_slave_error_seq] Response 21: AHB_READ @0x00008069 -> AHB_RESP_ERROR, 0 wait states           
# UVM_INFO ../src/mst/ahb_master_driver.sv(332) @ 705000: uvm_test_top.env.master_agent.drv [ahb_master_driver] Beat[11/16] addr=0x00008069 trans=AHB_TRANS_SEQ resp=AHB_RESP_ERROR rdata=0xb1746c4c
# UVM_INFO ../src/mst/ahb_master_driver.sv(349) @ 705000: uvm_test_top.env.master_agent.drv [ahb_master_driver] ERROR response on beat 11/16 - continuing burst (abort_on_error=0)
# UVM_INFO ../src/slv/ahb_slave_driver.sv(184) @ 705000: uvm_test_top.env.slave_agent.drv [ahb_slave_driver] Beat AHB_READ addr=0x00008069 resp=AHB_RESP_ERROR waits=0 rdata=0xa1d4e99a
# UVM_INFO ../src/mst/ahb_master_monitor.sv(128) @ 705000: uvm_test_top.env.master_agent.mon [ahb_master_monitor] Beat[11] addr=0x00008069 rdata=0xb1746c4c resp=AHB_RESP_ERROR
# UVM_INFO ../src/slv_seq/ahb_slave_error_seq.sv(88) @ 705000: uvm_test_top.env.slave_agent.sqr@@slv_seq [ahb_slave_error_seq] Response 22: AHB_READ @0x0000806a -> AHB_RESP_ERROR, 2 wait states           
# UVM_INFO ../src/mst/ahb_master_driver.sv(332) @ 745000: uvm_test_top.env.master_agent.drv [ahb_master_driver] Beat[12/16] addr=0x0000806a trans=AHB_TRANS_SEQ resp=AHB_RESP_ERROR rdata=0xb1746c4c
# UVM_INFO ../src/mst/ahb_master_driver.sv(349) @ 745000: uvm_test_top.env.master_agent.drv [ahb_master_driver] ERROR response on beat 12/16 - continuing burst (abort_on_error=0)
# UVM_INFO ../src/slv/ahb_slave_driver.sv(184) @ 745000: uvm_test_top.env.slave_agent.drv [ahb_slave_driver] Beat AHB_READ addr=0x0000806a resp=AHB_RESP_ERROR waits=2 rdata=0x390e2266
# UVM_INFO ../src/mst/ahb_master_monitor.sv(128) @ 745000: uvm_test_top.env.master_agent.mon [ahb_master_monitor] Beat[12] addr=0x0000806a rdata=0xb1746c4c resp=AHB_RESP_ERROR
# UVM_INFO ../src/slv_seq/ahb_slave_error_seq.sv(88) @ 745000: uvm_test_top.env.slave_agent.sqr@@slv_seq [ahb_slave_error_seq] Response 23: AHB_READ @0x0000806b -> AHB_RESP_OKAY, 1 wait states           
# UVM_INFO ../src/mst/ahb_master_driver.sv(332) @ 765000: uvm_test_top.env.master_agent.drv [ahb_master_driver] Beat[13/16] addr=0x0000806b trans=AHB_TRANS_SEQ resp=AHB_RESP_OKAY rdata=0xe9775a7b
# UVM_INFO ../src/slv/ahb_slave_driver.sv(184) @ 765000: uvm_test_top.env.slave_agent.drv [ahb_slave_driver] Beat AHB_READ addr=0x0000806b resp=AHB_RESP_OKAY waits=1 rdata=0xe9775a7b
# UVM_INFO ../src/mst/ahb_master_monitor.sv(128) @ 765000: uvm_test_top.env.master_agent.mon [ahb_master_monitor] Beat[13] addr=0x0000806b rdata=0xe9775a7b resp=AHB_RESP_OKAY
# UVM_INFO ../src/slv_seq/ahb_slave_error_seq.sv(88) @ 765000: uvm_test_top.env.slave_agent.sqr@@slv_seq [ahb_slave_error_seq] Response 24: AHB_READ @0x0000806c -> AHB_RESP_OKAY, 2 wait states           
# UVM_INFO ../src/mst/ahb_master_driver.sv(332) @ 795000: uvm_test_top.env.master_agent.drv [ahb_master_driver] Beat[14/16] addr=0x0000806c trans=AHB_TRANS_SEQ resp=AHB_RESP_OKAY rdata=0x08f3b557
# UVM_INFO ../src/slv/ahb_slave_driver.sv(184) @ 795000: uvm_test_top.env.slave_agent.drv [ahb_slave_driver] Beat AHB_READ addr=0x0000806c resp=AHB_RESP_OKAY waits=2 rdata=0x08f3b557
# UVM_INFO ../src/mst/ahb_master_monitor.sv(128) @ 795000: uvm_test_top.env.master_agent.mon [ahb_master_monitor] Beat[14] addr=0x0000806c rdata=0x08f3b557 resp=AHB_RESP_OKAY
# UVM_INFO ../src/slv_seq/ahb_slave_error_seq.sv(88) @ 795000: uvm_test_top.env.slave_agent.sqr@@slv_seq [ahb_slave_error_seq] Response 25: AHB_READ @0x0000806d -> AHB_RESP_OKAY, 1 wait states           
# UVM_INFO ../src/mst/ahb_master_driver.sv(332) @ 815000: uvm_test_top.env.master_agent.drv [ahb_master_driver] Beat[15/16] addr=0x0000806d trans=AHB_TRANS_SEQ resp=AHB_RESP_OKAY rdata=0xd18cedcd
# UVM_INFO ../src/mst/ahb_master_driver.sv(376) @ 815000: uvm_test_top.env.master_agent.drv [ahb_master_driver] Transaction complete: AHB_READ 0x0000806e, 16 beats, burst=AHB_BURST_WRAP16
# UVM_INFO ../src/slv/ahb_slave_driver.sv(184) @ 815000: uvm_test_top.env.slave_agent.drv [ahb_slave_driver] Beat AHB_READ addr=0x0000806d resp=AHB_RESP_OKAY waits=1 rdata=0xd18cedcd
# UVM_INFO ../src/slv/ahb_slave_monitor.sv(212) @ 815000: uvm_test_top.env.slave_agent.mon [ahb_slave_monitor] Observed [AHB_READ]: HADDR=0x0000806e, HBURST=AHB_BURST_WRAP16, HSIZE=AHB_SIZE_8B, 16 beats
# UVM_INFO ../src/env/ahb_coverage.sv(174) @ 815000: uvm_test_top.env.slave_cov [ahb_coverage] Sampled [AHB_READ]: burst=AHB_BURST_WRAP16 size=AHB_SIZE_8B beats=16 error=1
# UVM_INFO ../src/mst/ahb_master_monitor.sv(128) @ 815000: uvm_test_top.env.master_agent.mon [ahb_master_monitor] Beat[15] addr=0x0000806d rdata=0xd18cedcd resp=AHB_RESP_OKAY
# UVM_INFO ../src/mst/ahb_master_monitor.sv(231) @ 815000: uvm_test_top.env.master_agent.mon [ahb_master_monitor] Observed [AHB_READ]: HADDR=0x0000806e, HBURST=AHB_BURST_WRAP16, HSIZE=AHB_SIZE_8B, 16 beats
# UVM_INFO ../src/env/ahb_coverage.sv(174) @ 815000: uvm_test_top.env.master_cov [ahb_coverage] Sampled [AHB_READ]: burst=AHB_BURST_WRAP16 size=AHB_SIZE_8B beats=16 error=1
# UVM_INFO ../src/env/ahb_scoreboard.sv(104) @ 815000: uvm_test_top.env.scb [ahb_scoreboard] MATCH #4: [AHB_READ] HADDR=0x0000806e AHB_BURST_WRAP16 16 beats
# UVM_INFO ../src/mst_seq/ahb_error_seq.sv(131) @ 815000: uvm_test_top.env.master_agent.sqr@@mst_seq [ahb_error_seq] AHB_READ AHB_BURST_WRAP16 @0x0000806e: ERROR on beat 2 of 16, policy=continue, drove 16
# UVM_INFO ../src/mst/ahb_master_driver.sv(85) @ 815000: uvm_test_top.env.master_agent.drv [ahb_master_driver] Queueing [AHB_WRITE]: HADDR=0x000070b2, HBURST=AHB_BURST_SINGLE, HSIZE=AHB_SIZE_8B, 1 beats
# UVM_INFO ../src/mst/ahb_master_driver.sv(127) @ 815000: uvm_test_top.env.master_agent.drv [ahb_master_driver] Driving [AHB_WRITE]: HADDR=0x000070b2, HBURST=AHB_BURST_SINGLE, HSIZE=AHB_SIZE_8B, 1 beats               
# UVM_INFO ../src/slv_seq/ahb_slave_error_seq.sv(88) @ 835000: uvm_test_top.env.slave_agent.sqr@@slv_seq [ahb_slave_error_seq] Response 26: AHB_WRITE @0x000070b2 -> AHB_RESP_OKAY, 2 wait states           
# UVM_INFO ../src/mst/ahb_master_driver.sv(332) @ 865000: uvm_test_top.env.master_agent.drv [ahb_master_driver] Beat[0/1] addr=0x000070b2 trans=AHB_TRANS_NONSEQ resp=AHB_RESP_OKAY wdata=0xbbe4848b
# UVM_INFO ../src/mst/ahb_master_driver.sv(376) @ 865000: uvm_test_top.env.master_agent.drv [ahb_master_driver] Transaction complete: AHB_WRITE 0x000070b2, 1 beats, burst=AHB_BURST_SINGLE
# UVM_INFO ../src/slv/ahb_slave_driver.sv(184) @ 865000: uvm_test_top.env.slave_agent.drv [ahb_slave_driver] Beat AHB_WRITE addr=0x000070b2 resp=AHB_RESP_OKAY waits=2 wdata=0xbbe4848b
# UVM_INFO ../src/mst/ahb_master_monitor.sv(128) @ 865000: uvm_test_top.env.master_agent.mon [ahb_master_monitor] Beat[0] addr=0x000070b2 wdata=0xbbe4848b resp=AHB_RESP_OKAY
# UVM_INFO ../src/mst/ahb_master_monitor.sv(231) @ 865000: uvm_test_top.env.master_agent.mon [ahb_master_monitor] Observed [AHB_WRITE]: HADDR=0x000070b2, HBURST=AHB_BURST_SINGLE, HSIZE=AHB_SIZE_8B, 1 beats
# UVM_INFO ../src/env/ahb_coverage.sv(174) @ 865000: uvm_test_top.env.master_cov [ahb_coverage] Sampled [AHB_WRITE]: burst=AHB_BURST_SINGLE size=AHB_SIZE_8B beats=1 error=0
# UVM_INFO ../src/slv/ahb_slave_monitor.sv(212) @ 865000: uvm_test_top.env.slave_agent.mon [ahb_slave_monitor] Observed [AHB_WRITE]: HADDR=0x000070b2, HBURST=AHB_BURST_SINGLE, HSIZE=AHB_SIZE_8B, 1 beats
# UVM_INFO ../src/env/ahb_scoreboard.sv(104) @ 865000: uvm_test_top.env.scb [ahb_scoreboard] MATCH #5: [AHB_WRITE] HADDR=0x000070b2 AHB_BURST_SINGLE 1 beats
# UVM_INFO ../src/env/ahb_coverage.sv(174) @ 865000: uvm_test_top.env.slave_cov [ahb_coverage] Sampled [AHB_WRITE]: burst=AHB_BURST_SINGLE size=AHB_SIZE_8B beats=1 error=0
# UVM_INFO ../src/mst/ahb_master_driver.sv(85) @ 865000: uvm_test_top.env.master_agent.drv [ahb_master_driver] Queueing [AHB_READ]: HADDR=0x00009064, HBURST=AHB_BURST_SINGLE, HSIZE=AHB_SIZE_16B, 1 beats
# UVM_INFO ../src/mst/ahb_master_driver.sv(127) @ 865000: uvm_test_top.env.master_agent.drv [ahb_master_driver] Driving [AHB_READ]: HADDR=0x00009064, HBURST=AHB_BURST_SINGLE, HSIZE=AHB_SIZE_16B, 1 beats               
# UVM_INFO ../src/slv_seq/ahb_slave_error_seq.sv(88) @ 885000: uvm_test_top.env.slave_agent.sqr@@slv_seq [ahb_slave_error_seq] Response 27: AHB_READ @0x00009064 -> AHB_RESP_ERROR, 0 wait states (unmapped)
# UVM_INFO ../src/mst/ahb_master_driver.sv(332) @ 905000: uvm_test_top.env.master_agent.drv [ahb_master_driver] Beat[0/1] addr=0x00009064 trans=AHB_TRANS_NONSEQ resp=AHB_RESP_ERROR rdata=0xd18cedcd
# UVM_INFO ../src/mst/ahb_master_driver.sv(342) @ 905000: uvm_test_top.env.master_agent.drv [ahb_master_driver] ERROR response on beat 0/1                             
# UVM_INFO ../src/mst/ahb_master_driver.sv(376) @ 905000: uvm_test_top.env.master_agent.drv [ahb_master_driver] Transaction complete: AHB_READ 0x00009064, 1 beats, burst=AHB_BURST_SINGLE
# UVM_INFO ../src/slv/ahb_slave_driver.sv(184) @ 905000: uvm_test_top.env.slave_agent.drv [ahb_slave_driver] Beat AHB_READ addr=0x00009064 resp=AHB_RESP_ERROR waits=0 rdata=0xefdb37b2
# UVM_INFO ../src/mst/ahb_master_monitor.sv(128) @ 905000: uvm_test_top.env.master_agent.mon [ahb_master_monitor] Beat[0] addr=0x00009064 rdata=0xd18cedcd resp=AHB_RESP_ERROR
# UVM_INFO ../src/mst/ahb_master_monitor.sv(231) @ 905000: uvm_test_top.env.master_agent.mon [ahb_master_monitor] Observed [AHB_READ]: HADDR=0x00009064, HBURST=AHB_BURST_SINGLE, HSIZE=AHB_SIZE_16B, 1 beats
# UVM_INFO ../src/env/ahb_coverage.sv(174) @ 905000: uvm_test_top.env.master_cov [ahb_coverage] Sampled [AHB_READ]: burst=AHB_BURST_SINGLE size=AHB_SIZE_16B beats=1 error=1
# UVM_INFO ../src/slv/ahb_slave_monitor.sv(212) @ 905000: uvm_test_top.env.slave_agent.mon [ahb_slave_monitor] Observed [AHB_READ]: HADDR=0x00009064, HBURST=AHB_BURST_SINGLE, HSIZE=AHB_SIZE_16B, 1 beats
# UVM_INFO ../src/env/ahb_scoreboard.sv(104) @ 905000: uvm_test_top.env.scb [ahb_scoreboard] MATCH #6: [AHB_READ] HADDR=0x00009064 AHB_BURST_SINGLE 1 beats
# UVM_INFO ../src/env/ahb_coverage.sv(174) @ 905000: uvm_test_top.env.slave_cov [ahb_coverage] Sampled [AHB_READ]: burst=AHB_BURST_SINGLE size=AHB_SIZE_16B beats=1 error=1
# UVM_INFO ../src/mst_seq/ahb_error_seq.sv(131) @ 905000: uvm_test_top.env.master_agent.sqr@@mst_seq [ahb_error_seq] AHB_READ AHB_BURST_SINGLE @0x00009064: ERROR on beat 0 of 1, policy=  cancel, drove 1
# UVM_INFO ../src/mst/ahb_master_driver.sv(85) @ 905000: uvm_test_top.env.master_agent.drv [ahb_master_driver] Queueing [AHB_WRITE]: HADDR=0x000070ef, HBURST=AHB_BURST_INCR8, HSIZE=AHB_SIZE_8B, 8 beats
# UVM_INFO ../src/mst/ahb_master_driver.sv(127) @ 905000: uvm_test_top.env.master_agent.drv [ahb_master_driver] Driving [AHB_WRITE]: HADDR=0x000070ef, HBURST=AHB_BURST_INCR8, HSIZE=AHB_SIZE_8B, 8 beats               
# UVM_INFO ../src/slv_seq/ahb_slave_error_seq.sv(88) @ 925000: uvm_test_top.env.slave_agent.sqr@@slv_seq [ahb_slave_error_seq] Response 28: AHB_WRITE @0x000070ef -> AHB_RESP_OKAY, 1 wait states           
# UVM_INFO ../src/mst/ahb_master_driver.sv(332) @ 945000: uvm_test_top.env.master_agent.drv [ahb_master_driver] Beat[0/8] addr=0x000070ef trans=AHB_TRANS_NONSEQ resp=AHB_RESP_OKAY wdata=0x14ef1062
# UVM_INFO ../src/slv/ahb_slave_driver.sv(184) @ 945000: uvm_test_top.env.slave_agent.drv [ahb_slave_driver] Beat AHB_WRITE addr=0x000070ef resp=AHB_RESP_OKAY waits=1 wdata=0x14ef1062
# UVM_INFO ../src/mst/ahb_master_monitor.sv(128) @ 945000: uvm_test_top.env.master_agent.mon [ahb_master_monitor] Beat[0] addr=0x000070ef wdata=0x14ef1062 resp=AHB_RESP_OKAY
# UVM_INFO ../src/slv_seq/ahb_slave_error_seq.sv(88) @ 945000: uvm_test_top.env.slave_agent.sqr@@slv_seq [ahb_slave_error_seq] Response 29: AHB_WRITE @0x000070f0 -> AHB_RESP_OKAY, 0 wait states           
# UVM_INFO ../src/mst/ahb_master_driver.sv(332) @ 955000: uvm_test_top.env.master_agent.drv [ahb_master_driver] Beat[1/8] addr=0x000070f0 trans=AHB_TRANS_SEQ resp=AHB_RESP_OKAY wdata=0x040ec9d9
# UVM_INFO ../src/slv/ahb_slave_driver.sv(184) @ 955000: uvm_test_top.env.slave_agent.drv [ahb_slave_driver] Beat AHB_WRITE addr=0x000070f0 resp=AHB_RESP_OKAY waits=0 wdata=0x040ec9d9
# UVM_INFO ../src/mst/ahb_master_monitor.sv(128) @ 955000: uvm_test_top.env.master_agent.mon [ahb_master_monitor] Beat[1] addr=0x000070f0 wdata=0x040ec9d9 resp=AHB_RESP_OKAY
# UVM_INFO ../src/slv_seq/ahb_slave_error_seq.sv(88) @ 955000: uvm_test_top.env.slave_agent.sqr@@slv_seq [ahb_slave_error_seq] Response 30: AHB_WRITE @0x000070f1 -> AHB_RESP_ERROR, 0 wait states           
# UVM_INFO ../src/mst/ahb_master_driver.sv(332) @ 975000: uvm_test_top.env.master_agent.drv [ahb_master_driver] Beat[2/8] addr=0x000070f1 trans=AHB_TRANS_SEQ resp=AHB_RESP_ERROR wdata=0x79ad782f
# UVM_INFO ../src/mst/ahb_master_driver.sv(349) @ 975000: uvm_test_top.env.master_agent.drv [ahb_master_driver] ERROR response on beat 2/8 - continuing burst (abort_on_error=0)
# UVM_INFO ../src/slv/ahb_slave_driver.sv(184) @ 975000: uvm_test_top.env.slave_agent.drv [ahb_slave_driver] Beat AHB_WRITE addr=0x000070f1 resp=AHB_RESP_ERROR waits=0 wdata=0x79ad782f
# UVM_INFO ../src/mst/ahb_master_monitor.sv(128) @ 975000: uvm_test_top.env.master_agent.mon [ahb_master_monitor] Beat[2] addr=0x000070f1 wdata=0x79ad782f resp=AHB_RESP_ERROR
# UVM_INFO ../src/slv_seq/ahb_slave_error_seq.sv(88) @ 975000: uvm_test_top.env.slave_agent.sqr@@slv_seq [ahb_slave_error_seq] Response 31: AHB_WRITE @0x000070f2 -> AHB_RESP_ERROR, 1 wait states           
# UVM_INFO ../src/mst/ahb_master_driver.sv(332) @ 1005000: uvm_test_top.env.master_agent.drv [ahb_master_driver] Beat[3/8] addr=0x000070f2 trans=AHB_TRANS_SEQ resp=AHB_RESP_ERROR wdata=0xb9a92fd3
# UVM_INFO ../src/mst/ahb_master_driver.sv(349) @ 1005000: uvm_test_top.env.master_agent.drv [ahb_master_driver] ERROR response on beat 3/8 - continuing burst (abort_on_error=0)
# UVM_INFO ../src/slv/ahb_slave_driver.sv(184) @ 1005000: uvm_test_top.env.slave_agent.drv [ahb_slave_driver] Beat AHB_WRITE addr=0x000070f2 resp=AHB_RESP_ERROR waits=1 wdata=0xb9a92fd3
# UVM_INFO ../src/mst/ahb_master_monitor.sv(128) @ 1005000: uvm_test_top.env.master_agent.mon [ahb_master_monitor] Beat[3] addr=0x000070f2 wdata=0xb9a92fd3 resp=AHB_RESP_ERROR
# UVM_INFO ../src/slv_seq/ahb_slave_error_seq.sv(88) @ 1005000: uvm_test_top.env.slave_agent.sqr@@slv_seq [ahb_slave_error_seq] Response 32: AHB_WRITE @0x000070f3 -> AHB_RESP_ERROR, 0 wait states           
# UVM_INFO ../src/mst/ahb_master_driver.sv(332) @ 1025000: uvm_test_top.env.master_agent.drv [ahb_master_driver] Beat[4/8] addr=0x000070f3 trans=AHB_TRANS_SEQ resp=AHB_RESP_ERROR wdata=0xc774e5de
# UVM_INFO ../src/mst/ahb_master_driver.sv(349) @ 1025000: uvm_test_top.env.master_agent.drv [ahb_master_driver] ERROR response on beat 4/8 - continuing burst (abort_on_error=0)
# UVM_INFO ../src/slv/ahb_slave_driver.sv(184) @ 1025000: uvm_test_top.env.slave_agent.drv [ahb_slave_driver] Beat AHB_WRITE addr=0x000070f3 resp=AHB_RESP_ERROR waits=0 wdata=0xc774e5de
# UVM_INFO ../src/mst/ahb_master_monitor.sv(128) @ 1025000: uvm_test_top.env.master_agent.mon [ahb_master_monitor] Beat[4] addr=0x000070f3 wdata=0xc774e5de resp=AHB_RESP_ERROR
# UVM_INFO ../src/slv_seq/ahb_slave_error_seq.sv(88) @ 1025000: uvm_test_top.env.slave_agent.sqr@@slv_seq [ahb_slave_error_seq] Response 33: AHB_WRITE @0x000070f4 -> AHB_RESP_OKAY, 0 wait states           
# UVM_INFO ../src/mst/ahb_master_driver.sv(332) @ 1035000: uvm_test_top.env.master_agent.drv [ahb_master_driver] Beat[5/8] addr=0x000070f4 trans=AHB_TRANS_SEQ resp=AHB_RESP_OKAY wdata=0x5a711c90
# UVM_INFO ../src/slv/ahb_slave_driver.sv(184) @ 1035000: uvm_test_top.env.slave_agent.drv [ahb_slave_driver] Beat AHB_WRITE addr=0x000070f4 resp=AHB_RESP_OKAY waits=0 wdata=0x5a711c90
# UVM_INFO ../src/mst/ahb_master_monitor.sv(128) @ 1035000: uvm_test_top.env.master_agent.mon [ahb_master_monitor] Beat[5] addr=0x000070f4 wdata=0x5a711c90 resp=AHB_RESP_OKAY
# UVM_INFO ../src/slv_seq/ahb_slave_error_seq.sv(88) @ 1035000: uvm_test_top.env.slave_agent.sqr@@slv_seq [ahb_slave_error_seq] Response 34: AHB_WRITE @0x000070f5 -> AHB_RESP_OKAY, 2 wait states           
# UVM_INFO ../src/mst/ahb_master_driver.sv(332) @ 1065000: uvm_test_top.env.master_agent.drv [ahb_master_driver] Beat[6/8] addr=0x000070f5 trans=AHB_TRANS_SEQ resp=AHB_RESP_OKAY wdata=0x4e2fdb1e
# UVM_INFO ../src/slv/ahb_slave_driver.sv(184) @ 1065000: uvm_test_top.env.slave_agent.drv [ahb_slave_driver] Beat AHB_WRITE addr=0x000070f5 resp=AHB_RESP_OKAY waits=2 wdata=0x4e2fdb1e
# UVM_INFO ../src/mst/ahb_master_monitor.sv(128) @ 1065000: uvm_test_top.env.master_agent.mon [ahb_master_monitor] Beat[6] addr=0x000070f5 wdata=0x4e2fdb1e resp=AHB_RESP_OKAY
# UVM_INFO ../src/slv_seq/ahb_slave_error_seq.sv(88) @ 1065000: uvm_test_top.env.slave_agent.sqr@@slv_seq [ahb_slave_error_seq] Response 35: AHB_WRITE @0x000070f6 -> AHB_RESP_OKAY, 1 wait states           
# UVM_INFO ../src/mst/ahb_master_driver.sv(332) @ 1085000: uvm_test_top.env.master_agent.drv [ahb_master_driver] Beat[7/8] addr=0x000070f6 trans=AHB_TRANS_SEQ resp=AHB_RESP_OKAY wdata=0xf21afa90
# UVM_INFO ../src/mst/ahb_master_driver.sv(376) @ 1085000: uvm_test_top.env.master_agent.drv [ahb_master_driver] Transaction complete: AHB_WRITE 0x000070ef, 8 beats, burst=AHB_BURST_INCR8
# UVM_INFO ../src/slv/ahb_slave_driver.sv(184) @ 1085000: uvm_test_top.env.slave_agent.drv [ahb_slave_driver] Beat AHB_WRITE addr=0x000070f6 resp=AHB_RESP_OKAY waits=1 wdata=0xf21afa90
# UVM_INFO ../src/mst/ahb_master_monitor.sv(128) @ 1085000: uvm_test_top.env.master_agent.mon [ahb_master_monitor] Beat[7] addr=0x000070f6 wdata=0xf21afa90 resp=AHB_RESP_OKAY
# UVM_INFO ../src/mst/ahb_master_monitor.sv(231) @ 1085000: uvm_test_top.env.master_agent.mon [ahb_master_monitor] Observed [AHB_WRITE]: HADDR=0x000070ef, HBURST=AHB_BURST_INCR8, HSIZE=AHB_SIZE_8B, 8 beats
# UVM_INFO ../src/env/ahb_coverage.sv(174) @ 1085000: uvm_test_top.env.master_cov [ahb_coverage] Sampled [AHB_WRITE]: burst=AHB_BURST_INCR8 size=AHB_SIZE_8B beats=8 error=1
# UVM_INFO ../src/slv/ahb_slave_monitor.sv(212) @ 1085000: uvm_test_top.env.slave_agent.mon [ahb_slave_monitor] Observed [AHB_WRITE]: HADDR=0x000070ef, HBURST=AHB_BURST_INCR8, HSIZE=AHB_SIZE_8B, 8 beats
# UVM_INFO ../src/env/ahb_scoreboard.sv(104) @ 1085000: uvm_test_top.env.scb [ahb_scoreboard] MATCH #7: [AHB_WRITE] HADDR=0x000070ef AHB_BURST_INCR8 8 beats
# UVM_INFO ../src/env/ahb_coverage.sv(174) @ 1085000: uvm_test_top.env.slave_cov [ahb_coverage] Sampled [AHB_WRITE]: burst=AHB_BURST_INCR8 size=AHB_SIZE_8B beats=8 error=1
# UVM_INFO ../src/mst_seq/ahb_error_seq.sv(131) @ 1085000: uvm_test_top.env.master_agent.sqr@@mst_seq [ahb_error_seq] AHB_WRITE AHB_BURST_INCR8 @0x000070ef: ERROR on beat 2 of 8, policy=continue, drove 8
# UVM_INFO ../src/mst/ahb_master_driver.sv(85) @ 1085000: uvm_test_top.env.master_agent.drv [ahb_master_driver] Queueing [AHB_READ]: HADDR=0x000080ee, HBURST=AHB_BURST_SINGLE, HSIZE=AHB_SIZE_16B, 1 beats
# UVM_INFO ../src/mst/ahb_master_driver.sv(127) @ 1085000: uvm_test_top.env.master_agent.drv [ahb_master_driver] Driving [AHB_READ]: HADDR=0x000080ee, HBURST=AHB_BURST_SINGLE, HSIZE=AHB_SIZE_16B, 1 beats               
# UVM_INFO ../src/slv_seq/ahb_slave_error_seq.sv(88) @ 1105000: uvm_test_top.env.slave_agent.sqr@@slv_seq [ahb_slave_error_seq] Response 36: AHB_READ @0x000080ee -> AHB_RESP_OKAY, 2 wait states           
# UVM_INFO ../src/mst/ahb_master_driver.sv(332) @ 1135000: uvm_test_top.env.master_agent.drv [ahb_master_driver] Beat[0/1] addr=0x000080ee trans=AHB_TRANS_NONSEQ resp=AHB_RESP_OKAY rdata=0xb72c7314
# UVM_INFO ../src/mst/ahb_master_driver.sv(376) @ 1135000: uvm_test_top.env.master_agent.drv [ahb_master_driver] Transaction complete: AHB_READ 0x000080ee, 1 beats, burst=AHB_BURST_SINGLE
# UVM_INFO ../src/slv/ahb_slave_driver.sv(184) @ 1135000: uvm_test_top.env.slave_agent.drv [ahb_slave_driver] Beat AHB_READ addr=0x000080ee resp=AHB_RESP_OKAY waits=2 rdata=0xb72c7314
# UVM_INFO ../src/slv/ahb_slave_monitor.sv(212) @ 1135000: uvm_test_top.env.slave_agent.mon [ahb_slave_monitor] Observed [AHB_READ]: HADDR=0x000080ee, HBURST=AHB_BURST_SINGLE, HSIZE=AHB_SIZE_16B, 1 beats
# UVM_INFO ../src/env/ahb_coverage.sv(174) @ 1135000: uvm_test_top.env.slave_cov [ahb_coverage] Sampled [AHB_READ]: burst=AHB_BURST_SINGLE size=AHB_SIZE_16B beats=1 error=0
# UVM_INFO ../src/mst/ahb_master_monitor.sv(128) @ 1135000: uvm_test_top.env.master_agent.mon [ahb_master_monitor] Beat[0] addr=0x000080ee rdata=0xb72c7314 resp=AHB_RESP_OKAY
# UVM_INFO ../src/mst/ahb_master_monitor.sv(231) @ 1135000: uvm_test_top.env.master_agent.mon [ahb_master_monitor] Observed [AHB_READ]: HADDR=0x000080ee, HBURST=AHB_BURST_SINGLE, HSIZE=AHB_SIZE_16B, 1 beats
# UVM_INFO ../src/env/ahb_coverage.sv(174) @ 1135000: uvm_test_top.env.master_cov [ahb_coverage] Sampled [AHB_READ]: burst=AHB_BURST_SINGLE size=AHB_SIZE_16B beats=1 error=0
# UVM_INFO ../src/env/ahb_scoreboard.sv(104) @ 1135000: uvm_test_top.env.scb [ahb_scoreboard] MATCH #8: [AHB_READ] HADDR=0x000080ee AHB_BURST_SINGLE 1 beats
# UVM_INFO ../src/mst/ahb_master_driver.sv(85) @ 1135000: uvm_test_top.env.master_agent.drv [ahb_master_driver] Queueing [AHB_WRITE]: HADDR=0x00009080, HBURST=AHB_BURST_WRAP16, HSIZE=AHB_SIZE_32B, 16 beats
# UVM_INFO ../src/mst/ahb_master_driver.sv(127) @ 1135000: uvm_test_top.env.master_agent.drv [ahb_master_driver] Driving [AHB_WRITE]: HADDR=0x00009080, HBURST=AHB_BURST_WRAP16, HSIZE=AHB_SIZE_32B, 16 beats               
# UVM_INFO ../src/slv_seq/ahb_slave_error_seq.sv(88) @ 1155000: uvm_test_top.env.slave_agent.sqr@@slv_seq [ahb_slave_error_seq] Response 37: AHB_WRITE @0x00009080 -> AHB_RESP_ERROR, 2 wait states (unmapped)
# UVM_INFO ../src/mst/ahb_master_driver.sv(332) @ 1195000: uvm_test_top.env.master_agent.drv [ahb_master_driver] Beat[0/16] addr=0x00009080 trans=AHB_TRANS_NONSEQ resp=AHB_RESP_ERROR wdata=0x0322577c
# UVM_INFO ../src/mst/ahb_master_driver.sv(342) @ 1195000: uvm_test_top.env.master_agent.drv [ahb_master_driver] ERROR response on beat 0/16 - cancelling remaining burst
# UVM_INFO ../src/mst/ahb_master_driver.sv(376) @ 1195000: uvm_test_top.env.master_agent.drv [ahb_master_driver] Transaction complete: AHB_WRITE 0x00009080, 16 beats, burst=AHB_BURST_WRAP16
# UVM_INFO ../src/slv/ahb_slave_driver.sv(184) @ 1195000: uvm_test_top.env.slave_agent.drv [ahb_slave_driver] Beat AHB_WRITE addr=0x00009080 resp=AHB_RESP_ERROR waits=2 wdata=0x0322577c
# UVM_INFO ../src/slv/ahb_slave_monitor.sv(212) @ 1195000: uvm_test_top.env.slave_agent.mon [ahb_slave_monitor] Observed [AHB_WRITE]: HADDR=0x00009080, HBURST=AHB_BURST_WRAP16, HSIZE=AHB_SIZE_32B, 1 beats
# UVM_INFO ../src/env/ahb_coverage.sv(174) @ 1195000: uvm_test_top.env.slave_cov [ahb_coverage] Sampled [AHB_WRITE]: burst=AHB_BURST_WRAP16 size=AHB_SIZE_32B beats=16 error=1
# UVM_INFO ../src/mst/ahb_master_monitor.sv(128) @ 1195000: uvm_test_top.env.master_agent.mon [ahb_master_monitor] Beat[0] addr=0x00009080 wdata=0x0322577c resp=AHB_RESP_ERROR
# UVM_INFO ../src/mst/ahb_master_monitor.sv(231) @ 1195000: uvm_test_top.env.master_agent.mon [ahb_master_monitor] Observed [AHB_WRITE]: HADDR=0x00009080, HBURST=AHB_BURST_WRAP16, HSIZE=AHB_SIZE_32B, 1 beats
# UVM_INFO ../src/env/ahb_coverage.sv(174) @ 1195000: uvm_test_top.env.master_cov [ahb_coverage] Sampled [AHB_WRITE]: burst=AHB_BURST_WRAP16 size=AHB_SIZE_32B beats=16 error=1
# UVM_INFO ../src/env/ahb_scoreboard.sv(104) @ 1195000: uvm_test_top.env.scb [ahb_scoreboard] MATCH #9: [AHB_WRITE] HADDR=0x00009080 AHB_BURST_WRAP16 16 beats
# UVM_INFO ../src/mst_seq/ahb_error_seq.sv(131) @ 1195000: uvm_test_top.env.master_agent.sqr@@mst_seq [ahb_error_seq] AHB_WRITE AHB_BURST_WRAP16 @0x00009080: ERROR on beat 0 of 16, policy=  cancel, drove 1
# UVM_INFO ../src/mst/ahb_master_driver.sv(85) @ 1195000: uvm_test_top.env.master_agent.drv [ahb_master_driver] Queueing [AHB_READ]: HADDR=0x0000812e, HBURST=AHB_BURST_INCR16, HSIZE=AHB_SIZE_8B, 16 beats
# UVM_INFO ../src/mst/ahb_master_driver.sv(127) @ 1195000: uvm_test_top.env.master_agent.drv [ahb_master_driver] Driving [AHB_READ]: HADDR=0x0000812e, HBURST=AHB_BURST_INCR16, HSIZE=AHB_SIZE_8B, 16 beats               
# UVM_INFO ../src/slv_seq/ahb_slave_error_seq.sv(88) @ 1215000: uvm_test_top.env.slave_agent.sqr@@slv_seq [ahb_slave_error_seq] Response 38: AHB_READ @0x0000812e -> AHB_RESP_OKAY, 2 wait states           
# UVM_INFO ../src/mst/ahb_master_driver.sv(332) @ 1245000: uvm_test_top.env.master_agent.drv [ahb_master_driver] Beat[0/16] addr=0x0000812e trans=AHB_TRANS_NONSEQ resp=AHB_RESP_OKAY rdata=0xca132159
# UVM_INFO ../src/slv/ahb_slave_driver.sv(184) @ 1245000: uvm_test_top.env.slave_agent.drv [ahb_slave_driver] Beat AHB_READ addr=0x0000812e resp=AHB_RESP_OKAY waits=2 rdata=0xca132159
# UVM_INFO ../src/mst/ahb_master_monitor.sv(128) @ 1245000: uvm_test_top.env.master_agent.mon [ahb_master_monitor] Beat[0] addr=0x0000812e rdata=0xca132159 resp=AHB_RESP_OKAY
# UVM_INFO ../src/slv_seq/ahb_slave_error_seq.sv(88) @ 1245000: uvm_test_top.env.slave_agent.sqr@@slv_seq [ahb_slave_error_seq] Response 39: AHB_READ @0x0000812f -> AHB_RESP_OKAY, 2 wait states           
# UVM_INFO ../src/mst/ahb_master_driver.sv(332) @ 1275000: uvm_test_top.env.master_agent.drv [ahb_master_driver] Beat[1/16] addr=0x0000812f trans=AHB_TRANS_SEQ resp=AHB_RESP_OKAY rdata=0xcb5b503b
# UVM_INFO ../src/slv/ahb_slave_driver.sv(184) @ 1275000: uvm_test_top.env.slave_agent.drv [ahb_slave_driver] Beat AHB_READ addr=0x0000812f resp=AHB_RESP_OKAY waits=2 rdata=0xcb5b503b
# UVM_INFO ../src/mst/ahb_master_monitor.sv(128) @ 1275000: uvm_test_top.env.master_agent.mon [ahb_master_monitor] Beat[1] addr=0x0000812f rdata=0xcb5b503b resp=AHB_RESP_OKAY
# UVM_INFO ../src/slv_seq/ahb_slave_error_seq.sv(88) @ 1275000: uvm_test_top.env.slave_agent.sqr@@slv_seq [ahb_slave_error_seq] Response 40: AHB_READ @0x00008130 -> AHB_RESP_ERROR, 2 wait states           
# UVM_INFO ../src/mst/ahb_master_driver.sv(332) @ 1315000: uvm_test_top.env.master_agent.drv [ahb_master_driver] Beat[2/16] addr=0x00008130 trans=AHB_TRANS_SEQ resp=AHB_RESP_ERROR rdata=0xcb5b503b
# UVM_INFO ../src/mst/ahb_master_driver.sv(342) @ 1315000: uvm_test_top.env.master_agent.drv [ahb_master_driver] ERROR response on beat 2/16 - cancelling remaining burst
# UVM_INFO ../src/mst/ahb_master_driver.sv(376) @ 1315000: uvm_test_top.env.master_agent.drv [ahb_master_driver] Transaction complete: AHB_READ 0x0000812e, 16 beats, burst=AHB_BURST_INCR16
# UVM_INFO ../src/slv/ahb_slave_driver.sv(184) @ 1315000: uvm_test_top.env.slave_agent.drv [ahb_slave_driver] Beat AHB_READ addr=0x00008130 resp=AHB_RESP_ERROR waits=2 rdata=0xb27569a8
# UVM_INFO ../src/slv/ahb_slave_monitor.sv(212) @ 1315000: uvm_test_top.env.slave_agent.mon [ahb_slave_monitor] Observed [AHB_READ]: HADDR=0x0000812e, HBURST=AHB_BURST_INCR16, HSIZE=AHB_SIZE_8B, 3 beats
# UVM_INFO ../src/env/ahb_coverage.sv(174) @ 1315000: uvm_test_top.env.slave_cov [ahb_coverage] Sampled [AHB_READ]: burst=AHB_BURST_INCR16 size=AHB_SIZE_8B beats=16 error=1
# UVM_INFO ../src/mst/ahb_master_monitor.sv(128) @ 1315000: uvm_test_top.env.master_agent.mon [ahb_master_monitor] Beat[2] addr=0x00008130 rdata=0xcb5b503b resp=AHB_RESP_ERROR
# UVM_INFO ../src/mst/ahb_master_monitor.sv(231) @ 1315000: uvm_test_top.env.master_agent.mon [ahb_master_monitor] Observed [AHB_READ]: HADDR=0x0000812e, HBURST=AHB_BURST_INCR16, HSIZE=AHB_SIZE_8B, 3 beats
# UVM_INFO ../src/env/ahb_coverage.sv(174) @ 1315000: uvm_test_top.env.master_cov [ahb_coverage] Sampled [AHB_READ]: burst=AHB_BURST_INCR16 size=AHB_SIZE_8B beats=16 error=1
# UVM_INFO ../src/env/ahb_scoreboard.sv(104) @ 1315000: uvm_test_top.env.scb [ahb_scoreboard] MATCH #10: [AHB_READ] HADDR=0x0000812e AHB_BURST_INCR16 16 beats
# UVM_INFO ../src/mst_seq/ahb_error_seq.sv(131) @ 1315000: uvm_test_top.env.master_agent.sqr@@mst_seq [ahb_error_seq] AHB_READ AHB_BURST_INCR16 @0x0000812e: ERROR on beat 2 of 16, policy=  cancel, drove 3
# UVM_INFO ../src/mst/ahb_master_driver.sv(85) @ 1315000: uvm_test_top.env.master_agent.drv [ahb_master_driver] Queueing [AHB_WRITE]: HADDR=0x0000716a, HBURST=AHB_BURST_SINGLE, HSIZE=AHB_SIZE_8B, 1 beats
# UVM_INFO ../src/mst/ahb_master_driver.sv(127) @ 1315000: uvm_test_top.env.master_agent.drv [ahb_master_driver] Driving [AHB_WRITE]: HADDR=0x0000716a, HBURST=AHB_BURST_SINGLE, HSIZE=AHB_SIZE_8B, 1 beats               
# UVM_INFO ../src/slv_seq/ahb_slave_error_seq.sv(88) @ 1335000: uvm_test_top.env.slave_agent.sqr@@slv_seq [ahb_slave_error_seq] Response 41: AHB_WRITE @0x0000716a -> AHB_RESP_OKAY, 0 wait states           
# UVM_INFO ../src/mst/ahb_master_driver.sv(332) @ 1345000: uvm_test_top.env.master_agent.drv [ahb_master_driver] Beat[0/1] addr=0x0000716a trans=AHB_TRANS_NONSEQ resp=AHB_RESP_OKAY wdata=0x8a3b8fe1
# UVM_INFO ../src/mst/ahb_master_driver.sv(376) @ 1345000: uvm_test_top.env.master_agent.drv [ahb_master_driver] Transaction complete: AHB_WRITE 0x0000716a, 1 beats, burst=AHB_BURST_SINGLE
# UVM_INFO ../src/slv/ahb_slave_driver.sv(184) @ 1345000: uvm_test_top.env.slave_agent.drv [ahb_slave_driver] Beat AHB_WRITE addr=0x0000716a resp=AHB_RESP_OKAY waits=0 wdata=0x8a3b8fe1
# UVM_INFO ../src/mst/ahb_master_monitor.sv(128) @ 1345000: uvm_test_top.env.master_agent.mon [ahb_master_monitor] Beat[0] addr=0x0000716a wdata=0x8a3b8fe1 resp=AHB_RESP_OKAY
# UVM_INFO ../src/mst/ahb_master_monitor.sv(231) @ 1345000: uvm_test_top.env.master_agent.mon [ahb_master_monitor] Observed [AHB_WRITE]: HADDR=0x0000716a, HBURST=AHB_BURST_SINGLE, HSIZE=AHB_SIZE_8B, 1 beats
# UVM_INFO ../src/env/ahb_coverage.sv(174) @ 1345000: uvm_test_top.env.master_cov [ahb_coverage] Sampled [AHB_WRITE]: burst=AHB_BURST_SINGLE size=AHB_SIZE_8B beats=1 error=0
# UVM_INFO ../src/slv/ahb_slave_monitor.sv(212) @ 1345000: uvm_test_top.env.slave_agent.mon [ahb_slave_monitor] Observed [AHB_WRITE]: HADDR=0x0000716a, HBURST=AHB_BURST_SINGLE, HSIZE=AHB_SIZE_8B, 1 beats
# UVM_INFO ../src/env/ahb_scoreboard.sv(104) @ 1345000: uvm_test_top.env.scb [ahb_scoreboard] MATCH #11: [AHB_WRITE] HADDR=0x0000716a AHB_BURST_SINGLE 1 beats
# UVM_INFO ../src/env/ahb_coverage.sv(174) @ 1345000: uvm_test_top.env.slave_cov [ahb_coverage] Sampled [AHB_WRITE]: burst=AHB_BURST_SINGLE size=AHB_SIZE_8B beats=1 error=0
# UVM_INFO ../src/mst/ahb_master_driver.sv(85) @ 1345000: uvm_test_top.env.master_agent.drv [ahb_master_driver] Queueing [AHB_READ]: HADDR=0x000090fb, HBURST=AHB_BURST_INCR4, HSIZE=AHB_SIZE_8B, 4 beats
# UVM_INFO ../src/mst/ahb_master_driver.sv(127) @ 1345000: uvm_test_top.env.master_agent.drv [ahb_master_driver] Driving [AHB_READ]: HADDR=0x000090fb, HBURST=AHB_BURST_INCR4, HSIZE=AHB_SIZE_8B, 4 beats               
# UVM_INFO ../src/slv_seq/ahb_slave_error_seq.sv(88) @ 1365000: uvm_test_top.env.slave_agent.sqr@@slv_seq [ahb_slave_error_seq] Response 42: AHB_READ @0x000090fb -> AHB_RESP_ERROR, 2 wait states (unmapped)
# UVM_INFO ../src/mst/ahb_master_driver.sv(332) @ 1405000: uvm_test_top.env.master_agent.drv [ahb_master_driver] Beat[0/4] addr=0x000090fb trans=AHB_TRANS_NONSEQ resp=AHB_RESP_ERROR rdata=0xcb5b503b
# UVM_INFO ../src/mst/ahb_master_driver.sv(349) @ 1405000: uvm_test_top.env.master_agent.drv [ahb_master_driver] ERROR response on beat 0/4 - continuing burst (abort_on_error=0)
# UVM_INFO ../src/slv/ahb_slave_driver.sv(184) @ 1405000: uvm_test_top.env.slave_agent.drv [ahb_slave_driver] Beat AHB_READ addr=0x000090fb resp=AHB_RESP_ERROR waits=2 rdata=0xa4a109ae
# UVM_INFO ../src/mst/ahb_master_monitor.sv(128) @ 1405000: uvm_test_top.env.master_agent.mon [ahb_master_monitor] Beat[0] addr=0x000090fb rdata=0xcb5b503b resp=AHB_RESP_ERROR
# UVM_INFO ../src/slv_seq/ahb_slave_error_seq.sv(88) @ 1405000: uvm_test_top.env.slave_agent.sqr@@slv_seq [ahb_slave_error_seq] Response 43: AHB_READ @0x000090fc -> AHB_RESP_ERROR, 2 wait states (unmapped)
# UVM_INFO ../src/mst/ahb_master_driver.sv(332) @ 1445000: uvm_test_top.env.master_agent.drv [ahb_master_driver] Beat[1/4] addr=0x000090fc trans=AHB_TRANS_SEQ resp=AHB_RESP_ERROR rdata=0xcb5b503b
# UVM_INFO ../src/mst/ahb_master_driver.sv(349) @ 1445000: uvm_test_top.env.master_agent.drv [ahb_master_driver] ERROR response on beat 1/4 - continuing burst (abort_on_error=0)
# UVM_INFO ../src/slv/ahb_slave_driver.sv(184) @ 1445000: uvm_test_top.env.slave_agent.drv [ahb_slave_driver] Beat AHB_READ addr=0x000090fc resp=AHB_RESP_ERROR waits=2 rdata=0x90fec134
# UVM_INFO ../src/mst/ahb_master_monitor.sv(128) @ 1445000: uvm_test_top.env.master_agent.mon [ahb_master_monitor] Beat[1] addr=0x000090fc rdata=0xcb5b503b resp=AHB_RESP_ERROR
# UVM_INFO ../src/slv_seq/ahb_slave_error_seq.sv(88) @ 1445000: uvm_test_top.env.slave_agent.sqr@@slv_seq [ahb_slave_error_seq] Response 44: AHB_READ @0x000090fd -> AHB_RESP_ERROR, 1 wait states (unmapped)
# UVM_INFO ../src/mst/ahb_master_driver.sv(332) @ 1475000: uvm_test_top.env.master_agent.drv [ahb_master_driver] Beat[2/4] addr=0x000090fd trans=AHB_TRANS_SEQ resp=AHB_RESP_ERROR rdata=0xcb5b503b
# UVM_INFO ../src/mst/ahb_master_driver.sv(349) @ 1475000: uvm_test_top.env.master_agent.drv [ahb_master_driver] ERROR response on beat 2/4 - continuing burst (abort_on_error=0)
# UVM_INFO ../src/slv/ahb_slave_driver.sv(184) @ 1475000: uvm_test_top.env.slave_agent.drv [ahb_slave_driver] Beat AHB_READ addr=0x000090fd resp=AHB_RESP_ERROR waits=1 rdata=0x35aa2fa1
# UVM_INFO ../src/mst/ahb_master_monitor.sv(128) @ 1475000: uvm_test_top.env.master_agent.mon [ahb_master_monitor] Beat[2] addr=0x000090fd rdata=0xcb5b503b resp=AHB_RESP_ERROR
# UVM_INFO ../src/slv_seq/ahb_slave_error_seq.sv(88) @ 1475000: uvm_test_top.env.slave_agent.sqr@@slv_seq [ahb_slave_error_seq] Response 45: AHB_READ @0x000090fe -> AHB_RESP_ERROR, 0 wait states (unmapped)
# UVM_INFO ../src/mst/ahb_master_driver.sv(332) @ 1495000: uvm_test_top.env.master_agent.drv [ahb_master_driver] Beat[3/4] addr=0x000090fe trans=AHB_TRANS_SEQ resp=AHB_RESP_ERROR rdata=0xcb5b503b
# UVM_INFO ../src/mst/ahb_master_driver.sv(349) @ 1495000: uvm_test_top.env.master_agent.drv [ahb_master_driver] ERROR response on beat 3/4 - continuing burst (abort_on_error=0)
# UVM_INFO ../src/mst/ahb_master_driver.sv(376) @ 1495000: uvm_test_top.env.master_agent.drv [ahb_master_driver] Transaction complete: AHB_READ 0x000090fb, 4 beats, burst=AHB_BURST_INCR4
# UVM_INFO ../src/slv/ahb_slave_driver.sv(184) @ 1495000: uvm_test_top.env.slave_agent.drv [ahb_slave_driver] Beat AHB_READ addr=0x000090fe resp=AHB_RESP_ERROR waits=0 rdata=0xf4e78b66
# UVM_INFO ../src/slv/ahb_slave_monitor.sv(212) @ 1495000: uvm_test_top.env.slave_agent.mon [ahb_slave_monitor] Observed [AHB_READ]: HADDR=0x000090fb, HBURST=AHB_BURST_INCR4, HSIZE=AHB_SIZE_8B, 4 beats
# UVM_INFO ../src/env/ahb_coverage.sv(174) @ 1495000: uvm_test_top.env.slave_cov [ahb_coverage] Sampled [AHB_READ]: burst=AHB_BURST_INCR4 size=AHB_SIZE_8B beats=4 error=1
# UVM_INFO ../src/mst/ahb_master_monitor.sv(128) @ 1495000: uvm_test_top.env.master_agent.mon [ahb_master_monitor] Beat[3] addr=0x000090fe rdata=0xcb5b503b resp=AHB_RESP_ERROR
# UVM_INFO ../src/mst/ahb_master_monitor.sv(231) @ 1495000: uvm_test_top.env.master_agent.mon [ahb_master_monitor] Observed [AHB_READ]: HADDR=0x000090fb, HBURST=AHB_BURST_INCR4, HSIZE=AHB_SIZE_8B, 4 beats
# UVM_INFO ../src/env/ahb_coverage.sv(174) @ 1495000: uvm_test_top.env.master_cov [ahb_coverage] Sampled [AHB_READ]: burst=AHB_BURST_INCR4 size=AHB_SIZE_8B beats=4 error=1
# UVM_INFO ../src/env/ahb_scoreboard.sv(104) @ 1495000: uvm_test_top.env.scb [ahb_scoreboard] MATCH #12: [AHB_READ] HADDR=0x000090fb AHB_BURST_INCR4 4 beats
# UVM_INFO ../src/mst_seq/ahb_error_seq.sv(131) @ 1495000: uvm_test_top.env.master_agent.sqr@@mst_seq [ahb_error_seq] AHB_READ AHB_BURST_INCR4 @0x000090fb: ERROR on beat 0 of 4, policy=continue, drove 4
# UVM_INFO ../src/mst/ahb_master_driver.sv(85) @ 1495000: uvm_test_top.env.master_agent.drv [ahb_master_driver] Queueing [AHB_WRITE]: HADDR=0x000071ba, HBURST=AHB_BURST_SINGLE, HSIZE=AHB_SIZE_16B, 1 beats
# UVM_INFO ../src/mst/ahb_master_driver.sv(127) @ 1495000: uvm_test_top.env.master_agent.drv [ahb_master_driver] Driving [AHB_WRITE]: HADDR=0x000071ba, HBURST=AHB_BURST_SINGLE, HSIZE=AHB_SIZE_16B, 1 beats               
# UVM_INFO ../src/slv_seq/ahb_slave_error_seq.sv(88) @ 1515000: uvm_test_top.env.slave_agent.sqr@@slv_seq [ahb_slave_error_seq] Response 46: AHB_WRITE @0x000071ba -> AHB_RESP_ERROR, 1 wait states           
# UVM_INFO ../src/mst/ahb_master_driver.sv(332) @ 1545000: uvm_test_top.env.master_agent.drv [ahb_master_driver] Beat[0/1] addr=0x000071ba trans=AHB_TRANS_NONSEQ resp=AHB_RESP_ERROR wdata=0x8bc292fd
# UVM_INFO ../src/mst/ahb_master_driver.sv(342) @ 1545000: uvm_test_top.env.master_agent.drv [ahb_master_driver] ERROR response on beat 0/1                             
# UVM_INFO ../src/mst/ahb_master_driver.sv(376) @ 1545000: uvm_test_top.env.master_agent.drv [ahb_master_driver] Transaction complete: AHB_WRITE 0x000071ba, 1 beats, burst=AHB_BURST_SINGLE
# UVM_INFO ../src/slv/ahb_slave_driver.sv(184) @ 1545000: uvm_test_top.env.slave_agent.drv [ahb_slave_driver] Beat AHB_WRITE addr=0x000071ba resp=AHB_RESP_ERROR waits=1 wdata=0x8bc292fd
# UVM_INFO ../src/mst/ahb_master_monitor.sv(128) @ 1545000: uvm_test_top.env.master_agent.mon [ahb_master_monitor] Beat[0] addr=0x000071ba wdata=0x8bc292fd resp=AHB_RESP_ERROR
# UVM_INFO ../src/mst/ahb_master_monitor.sv(231) @ 1545000: uvm_test_top.env.master_agent.mon [ahb_master_monitor] Observed [AHB_WRITE]: HADDR=0x000071ba, HBURST=AHB_BURST_SINGLE, HSIZE=AHB_SIZE_16B, 1 beats
# UVM_INFO ../src/env/ahb_coverage.sv(174) @ 1545000: uvm_test_top.env.master_cov [ahb_coverage] Sampled [AHB_WRITE]: burst=AHB_BURST_SINGLE size=AHB_SIZE_16B beats=1 error=1
# UVM_INFO ../src/slv/ahb_slave_monitor.sv(212) @ 1545000: uvm_test_top.env.slave_agent.mon [ahb_slave_monitor] Observed [AHB_WRITE]: HADDR=0x000071ba, HBURST=AHB_BURST_SINGLE, HSIZE=AHB_SIZE_16B, 1 beats
# UVM_INFO ../src/env/ahb_scoreboard.sv(104) @ 1545000: uvm_test_top.env.scb [ahb_scoreboard] MATCH #13: [AHB_WRITE] HADDR=0x000071ba AHB_BURST_SINGLE 1 beats
# UVM_INFO ../src/env/ahb_coverage.sv(174) @ 1545000: uvm_test_top.env.slave_cov [ahb_coverage] Sampled [AHB_WRITE]: burst=AHB_BURST_SINGLE size=AHB_SIZE_16B beats=1 error=1
# UVM_INFO ../src/mst_seq/ahb_error_seq.sv(131) @ 1545000: uvm_test_top.env.master_agent.sqr@@mst_seq [ahb_error_seq] AHB_WRITE AHB_BURST_SINGLE @0x000071ba: ERROR on beat 0 of 1, policy=  cancel, drove 1
# UVM_INFO ../src/mst/ahb_master_driver.sv(85) @ 1545000: uvm_test_top.env.master_agent.drv [ahb_master_driver] Queueing [AHB_READ]: HADDR=0x00008192, HBURST=AHB_BURST_INCR, HSIZE=AHB_SIZE_16B, 3 beats
# UVM_INFO ../src/mst/ahb_master_driver.sv(127) @ 1545000: uvm_test_top.env.master_agent.drv [ahb_master_driver] Driving [AHB_READ]: HADDR=0x00008192, HBURST=AHB_BURST_INCR, HSIZE=AHB_SIZE_16B, 3 beats               
# UVM_INFO ../src/slv_seq/ahb_slave_error_seq.sv(88) @ 1565000: uvm_test_top.env.slave_agent.sqr@@slv_seq [ahb_slave_error_seq] Response 47: AHB_READ @0x00008192 -> AHB_RESP_OKAY, 0 wait states           
# UVM_INFO ../src/mst/ahb_master_driver.sv(332) @ 1575000: uvm_test_top.env.master_agent.drv [ahb_master_driver] Beat[0/3] addr=0x00008192 trans=AHB_TRANS_NONSEQ resp=AHB_RESP_OKAY rdata=0x3e7b1e69
# UVM_INFO ../src/slv/ahb_slave_driver.sv(184) @ 1575000: uvm_test_top.env.slave_agent.drv [ahb_slave_driver] Beat AHB_READ addr=0x00008192 resp=AHB_RESP_OKAY waits=0 rdata=0x3e7b1e69
# UVM_INFO ../src/mst/ahb_master_monitor.sv(128) @ 1575000: uvm_test_top.env.master_agent.mon [ahb_master_monitor] Beat[0] addr=0x00008192 rdata=0x3e7b1e69 resp=AHB_RESP_OKAY
# UVM_INFO ../src/slv_seq/ahb_slave_error_seq.sv(88) @ 1575000: uvm_test_top.env.slave_agent.sqr@@slv_seq [ahb_slave_error_seq] Response 48: AHB_READ @0x00008194 -> AHB_RESP_OKAY, 2 wait states           
# UVM_INFO ../src/mst/ahb_master_driver.sv(332) @ 1605000: uvm_test_top.env.master_agent.drv [ahb_master_driver] Beat[1/3] addr=0x00008194 trans=AHB_TRANS_SEQ resp=AHB_RESP_OKAY rdata=0x956d308a
# UVM_INFO ../src/slv/ahb_slave_driver.sv(184) @ 1605000: uvm_test_top.env.slave_agent.drv [ahb_slave_driver] Beat AHB_READ addr=0x00008194 resp=AHB_RESP_OKAY waits=2 rdata=0x956d308a
# UVM_INFO ../src/mst/ahb_master_monitor.sv(128) @ 1605000: uvm_test_top.env.master_agent.mon [ahb_master_monitor] Beat[1] addr=0x00008194 rdata=0x956d308a resp=AHB_RESP_OKAY
# UVM_INFO ../src/slv_seq/ahb_slave_error_seq.sv(88) @ 1605000: uvm_test_top.env.slave_agent.sqr@@slv_seq [ahb_slave_error_seq] Response 49: AHB_READ @0x00008196 -> AHB_RESP_ERROR, 1 wait states           
# UVM_INFO ../src/mst/ahb_master_driver.sv(332) @ 1635000: uvm_test_top.env.master_agent.drv [ahb_master_driver] Beat[2/3] addr=0x00008196 trans=AHB_TRANS_SEQ resp=AHB_RESP_ERROR rdata=0x956d308a
# UVM_INFO ../src/mst/ahb_master_driver.sv(342) @ 1635000: uvm_test_top.env.master_agent.drv [ahb_master_driver] ERROR response on beat 2/3                             
# UVM_INFO ../src/mst/ahb_master_driver.sv(376) @ 1635000: uvm_test_top.env.master_agent.drv [ahb_master_driver] Transaction complete: AHB_READ 0x00008192, 3 beats, burst=AHB_BURST_INCR
# UVM_INFO ../src/slv/ahb_slave_driver.sv(184) @ 1635000: uvm_test_top.env.slave_agent.drv [ahb_slave_driver] Beat AHB_READ addr=0x00008196 resp=AHB_RESP_ERROR waits=1 rdata=0xb4d04438
# UVM_INFO ../src/slv/ahb_slave_monitor.sv(212) @ 1635000: uvm_test_top.env.slave_agent.mon [ahb_slave_monitor] Observed [AHB_READ]: HADDR=0x00008192, HBURST=AHB_BURST_INCR, HSIZE=AHB_SIZE_16B, 3 beats
# UVM_INFO ../src/env/ahb_coverage.sv(174) @ 1635000: uvm_test_top.env.slave_cov [ahb_coverage] Sampled [AHB_READ]: burst=AHB_BURST_INCR size=AHB_SIZE_16B beats=3 error=1
# UVM_INFO ../src/mst/ahb_master_monitor.sv(128) @ 1635000: uvm_test_top.env.master_agent.mon [ahb_master_monitor] Beat[2] addr=0x00008196 rdata=0x956d308a resp=AHB_RESP_ERROR
# UVM_INFO ../src/mst/ahb_master_monitor.sv(231) @ 1635000: uvm_test_top.env.master_agent.mon [ahb_master_monitor] Observed [AHB_READ]: HADDR=0x00008192, HBURST=AHB_BURST_INCR, HSIZE=AHB_SIZE_16B, 3 beats
# UVM_INFO ../src/env/ahb_coverage.sv(174) @ 1635000: uvm_test_top.env.master_cov [ahb_coverage] Sampled [AHB_READ]: burst=AHB_BURST_INCR size=AHB_SIZE_16B beats=3 error=1
# UVM_INFO ../src/env/ahb_scoreboard.sv(104) @ 1635000: uvm_test_top.env.scb [ahb_scoreboard] MATCH #14: [AHB_READ] HADDR=0x00008192 AHB_BURST_INCR 3 beats
# UVM_INFO ../src/mst_seq/ahb_error_seq.sv(131) @ 1635000: uvm_test_top.env.master_agent.sqr@@mst_seq [ahb_error_seq] AHB_READ AHB_BURST_INCR @0x00008192: ERROR on beat 2 of 3, policy=  cancel, drove 3
# UVM_INFO ../src/mst/ahb_master_driver.sv(85) @ 1635000: uvm_test_top.env.master_agent.drv [ahb_master_driver] Queueing [AHB_WRITE]: HADDR=0x0000911e, HBURST=AHB_BURST_INCR4, HSIZE=AHB_SIZE_8B, 4 beats
# UVM_INFO ../src/mst/ahb_master_driver.sv(127) @ 1635000: uvm_test_top.env.master_agent.drv [ahb_master_driver] Driving [AHB_WRITE]: HADDR=0x0000911e, HBURST=AHB_BURST_INCR4, HSIZE=AHB_SIZE_8B, 4 beats               
# UVM_INFO ../src/slv_seq/ahb_slave_error_seq.sv(88) @ 1655000: uvm_test_top.env.slave_agent.sqr@@slv_seq [ahb_slave_error_seq] Response 50: AHB_WRITE @0x0000911e -> AHB_RESP_ERROR, 0 wait states (unmapped)
# UVM_INFO ../src/mst/ahb_master_driver.sv(332) @ 1675000: uvm_test_top.env.master_agent.drv [ahb_master_driver] Beat[0/4] addr=0x0000911e trans=AHB_TRANS_NONSEQ resp=AHB_RESP_ERROR wdata=0x4f187e67
# UVM_INFO ../src/mst/ahb_master_driver.sv(349) @ 1675000: uvm_test_top.env.master_agent.drv [ahb_master_driver] ERROR response on beat 0/4 - continuing burst (abort_on_error=0)
# UVM_INFO ../src/slv/ahb_slave_driver.sv(184) @ 1675000: uvm_test_top.env.slave_agent.drv [ahb_slave_driver] Beat AHB_WRITE addr=0x0000911e resp=AHB_RESP_ERROR waits=0 wdata=0x4f187e67
# UVM_INFO ../src/mst/ahb_master_monitor.sv(128) @ 1675000: uvm_test_top.env.master_agent.mon [ahb_master_monitor] Beat[0] addr=0x0000911e wdata=0x4f187e67 resp=AHB_RESP_ERROR
# UVM_INFO ../src/slv_seq/ahb_slave_error_seq.sv(88) @ 1675000: uvm_test_top.env.slave_agent.sqr@@slv_seq [ahb_slave_error_seq] Response 51: AHB_WRITE @0x0000911f -> AHB_RESP_ERROR, 1 wait states (unmapped)
# UVM_INFO ../src/mst/ahb_master_driver.sv(332) @ 1705000: uvm_test_top.env.master_agent.drv [ahb_master_driver] Beat[1/4] addr=0x0000911f trans=AHB_TRANS_SEQ resp=AHB_RESP_ERROR wdata=0x0720a941
# UVM_INFO ../src/mst/ahb_master_driver.sv(349) @ 1705000: uvm_test_top.env.master_agent.drv [ahb_master_driver] ERROR response on beat 1/4 - continuing burst (abort_on_error=0)
# UVM_INFO ../src/slv/ahb_slave_driver.sv(184) @ 1705000: uvm_test_top.env.slave_agent.drv [ahb_slave_driver] Beat AHB_WRITE addr=0x0000911f resp=AHB_RESP_ERROR waits=1 wdata=0x0720a941
# UVM_INFO ../src/mst/ahb_master_monitor.sv(128) @ 1705000: uvm_test_top.env.master_agent.mon [ahb_master_monitor] Beat[1] addr=0x0000911f wdata=0x0720a941 resp=AHB_RESP_ERROR
# UVM_INFO ../src/slv_seq/ahb_slave_error_seq.sv(88) @ 1705000: uvm_test_top.env.slave_agent.sqr@@slv_seq [ahb_slave_error_seq] Response 52: AHB_WRITE @0x00009120 -> AHB_RESP_ERROR, 0 wait states (unmapped)
# UVM_INFO ../src/mst/ahb_master_driver.sv(332) @ 1725000: uvm_test_top.env.master_agent.drv [ahb_master_driver] Beat[2/4] addr=0x00009120 trans=AHB_TRANS_SEQ resp=AHB_RESP_ERROR wdata=0xaccd9b84
# UVM_INFO ../src/mst/ahb_master_driver.sv(349) @ 1725000: uvm_test_top.env.master_agent.drv [ahb_master_driver] ERROR response on beat 2/4 - continuing burst (abort_on_error=0)
# UVM_INFO ../src/slv/ahb_slave_driver.sv(184) @ 1725000: uvm_test_top.env.slave_agent.drv [ahb_slave_driver] Beat AHB_WRITE addr=0x00009120 resp=AHB_RESP_ERROR waits=0 wdata=0xaccd9b84
# UVM_INFO ../src/mst/ahb_master_monitor.sv(128) @ 1725000: uvm_test_top.env.master_agent.mon [ahb_master_monitor] Beat[2] addr=0x00009120 wdata=0xaccd9b84 resp=AHB_RESP_ERROR
# UVM_INFO ../src/slv_seq/ahb_slave_error_seq.sv(88) @ 1725000: uvm_test_top.env.slave_agent.sqr@@slv_seq [ahb_slave_error_seq] Response 53: AHB_WRITE @0x00009121 -> AHB_RESP_ERROR, 0 wait states (unmapped)
# UVM_INFO ../src/mst/ahb_master_driver.sv(332) @ 1745000: uvm_test_top.env.master_agent.drv [ahb_master_driver] Beat[3/4] addr=0x00009121 trans=AHB_TRANS_SEQ resp=AHB_RESP_ERROR wdata=0xa3c310eb
# UVM_INFO ../src/mst/ahb_master_driver.sv(349) @ 1745000: uvm_test_top.env.master_agent.drv [ahb_master_driver] ERROR response on beat 3/4 - continuing burst (abort_on_error=0)
# UVM_INFO ../src/mst/ahb_master_driver.sv(376) @ 1745000: uvm_test_top.env.master_agent.drv [ahb_master_driver] Transaction complete: AHB_WRITE 0x0000911e, 4 beats, burst=AHB_BURST_INCR4
# UVM_INFO ../src/slv/ahb_slave_driver.sv(184) @ 1745000: uvm_test_top.env.slave_agent.drv [ahb_slave_driver] Beat AHB_WRITE addr=0x00009121 resp=AHB_RESP_ERROR waits=0 wdata=0xa3c310eb
# UVM_INFO ../src/mst/ahb_master_monitor.sv(128) @ 1745000: uvm_test_top.env.master_agent.mon [ahb_master_monitor] Beat[3] addr=0x00009121 wdata=0xa3c310eb resp=AHB_RESP_ERROR
# UVM_INFO ../src/mst/ahb_master_monitor.sv(231) @ 1745000: uvm_test_top.env.master_agent.mon [ahb_master_monitor] Observed [AHB_WRITE]: HADDR=0x0000911e, HBURST=AHB_BURST_INCR4, HSIZE=AHB_SIZE_8B, 4 beats
# UVM_INFO ../src/env/ahb_coverage.sv(174) @ 1745000: uvm_test_top.env.master_cov [ahb_coverage] Sampled [AHB_WRITE]: burst=AHB_BURST_INCR4 size=AHB_SIZE_8B beats=4 error=1
# UVM_INFO ../src/slv/ahb_slave_monitor.sv(212) @ 1745000: uvm_test_top.env.slave_agent.mon [ahb_slave_monitor] Observed [AHB_WRITE]: HADDR=0x0000911e, HBURST=AHB_BURST_INCR4, HSIZE=AHB_SIZE_8B, 4 beats
# UVM_INFO ../src/env/ahb_scoreboard.sv(104) @ 1745000: uvm_test_top.env.scb [ahb_scoreboard] MATCH #15: [AHB_WRITE] HADDR=0x0000911e AHB_BURST_INCR4 4 beats
# UVM_INFO ../src/env/ahb_coverage.sv(174) @ 1745000: uvm_test_top.env.slave_cov [ahb_coverage] Sampled [AHB_WRITE]: burst=AHB_BURST_INCR4 size=AHB_SIZE_8B beats=4 error=1
# UVM_INFO ../src/mst_seq/ahb_error_seq.sv(131) @ 1745000: uvm_test_top.env.master_agent.sqr@@mst_seq [ahb_error_seq] AHB_WRITE AHB_BURST_INCR4 @0x0000911e: ERROR on beat 0 of 4, policy=continue, drove 4
# UVM_INFO ../src/mst/ahb_master_driver.sv(85) @ 1745000: uvm_test_top.env.master_agent.drv [ahb_master_driver] Queueing [AHB_READ]: HADDR=0x000081e0, HBURST=AHB_BURST_SINGLE, HSIZE=AHB_SIZE_32B, 1 beats
# UVM_INFO ../src/mst/ahb_master_driver.sv(127) @ 1745000: uvm_test_top.env.master_agent.drv [ahb_master_driver] Driving [AHB_READ]: HADDR=0x000081e0, HBURST=AHB_BURST_SINGLE, HSIZE=AHB_SIZE_32B, 1 beats               
# UVM_INFO ../src/slv_seq/ahb_slave_error_seq.sv(88) @ 1765000: uvm_test_top.env.slave_agent.sqr@@slv_seq [ahb_slave_error_seq] Response 54: AHB_READ @0x000081e0 -> AHB_RESP_OKAY, 1 wait states           
# UVM_INFO ../src/mst/ahb_master_driver.sv(332) @ 1785000: uvm_test_top.env.master_agent.drv [ahb_master_driver] Beat[0/1] addr=0x000081e0 trans=AHB_TRANS_NONSEQ resp=AHB_RESP_OKAY rdata=0xa98ed548
# UVM_INFO ../src/mst/ahb_master_driver.sv(376) @ 1785000: uvm_test_top.env.master_agent.drv [ahb_master_driver] Transaction complete: AHB_READ 0x000081e0, 1 beats, burst=AHB_BURST_SINGLE
# UVM_INFO ../src/slv/ahb_slave_driver.sv(184) @ 1785000: uvm_test_top.env.slave_agent.drv [ahb_slave_driver] Beat AHB_READ addr=0x000081e0 resp=AHB_RESP_OKAY waits=1 rdata=0xa98ed548
# UVM_INFO ../src/mst/ahb_master_monitor.sv(128) @ 1785000: uvm_test_top.env.master_agent.mon [ahb_master_monitor] Beat[0] addr=0x000081e0 rdata=0xa98ed548 resp=AHB_RESP_OKAY
# UVM_INFO ../src/mst/ahb_master_monitor.sv(231) @ 1785000: uvm_test_top.env.master_agent.mon [ahb_master_monitor] Observed [AHB_READ]: HADDR=0x000081e0, HBURST=AHB_BURST_SINGLE, HSIZE=AHB_SIZE_32B, 1 beats
# UVM_INFO ../src/env/ahb_coverage.sv(174) @ 1785000: uvm_test_top.env.master_cov [ahb_coverage] Sampled [AHB_READ]: burst=AHB_BURST_SINGLE size=AHB_SIZE_32B beats=1 error=0
# UVM_INFO ../src/slv/ahb_slave_monitor.sv(212) @ 1785000: uvm_test_top.env.slave_agent.mon [ahb_slave_monitor] Observed [AHB_READ]: HADDR=0x000081e0, HBURST=AHB_BURST_SINGLE, HSIZE=AHB_SIZE_32B, 1 beats
# UVM_INFO ../src/env/ahb_scoreboard.sv(104) @ 1785000: uvm_test_top.env.scb [ahb_scoreboard] MATCH #16: [AHB_READ] HADDR=0x000081e0 AHB_BURST_SINGLE 1 beats
# UVM_INFO ../src/env/ahb_coverage.sv(174) @ 1785000: uvm_test_top.env.slave_cov [ahb_coverage] Sampled [AHB_READ]: burst=AHB_BURST_SINGLE size=AHB_SIZE_32B beats=1 error=0
# UVM_INFO ../src/mst_seq/ahb_error_seq.sv(150) @ 1785000: uvm_test_top.env.master_agent.sqr@@mst_seq [ahb_error_seq] ERROR response traffic done: bursts=16 with_error=11 cancelled=6 unmapped=5
# UVM_INFO ../src/test/ahb_error_response_test.sv(74) @ 1785000: uvm_test_top [ahb_error_response_test] Slave answered 54 beats: 29 ERROR, 14 in the unmapped region
# UVM_INFO verilog_src/uvm-1.1d/src/base/uvm_objection.svh(1268) @ 1785200: reporter [TEST_DONE] 'run' phase is ready to proceed to the 'extract' phase
# UVM_INFO ../src/env/ahb_coverage.sv(195) @ 1785200: uvm_test_top.env.master_cov [ahb_coverage] [master_cov] functional coverage: ahb_cg = 83.12%, ahb_trans_cg = 75.00%
# UVM_INFO ../src/env/ahb_scoreboard.sv(208) @ 1785200: uvm_test_top.env.scb [ahb_scoreboard] Passthrough : compared=16 matched=16 mismatched=0
# UVM_INFO ../src/env/ahb_scoreboard.sv(212) @ 1785200: uvm_test_top.env.scb [ahb_scoreboard] Ref-memory  : wr_bytes=7 rd_checked=0 rd_uninit=36 rd_mismatch=0
# UVM_INFO ../src/env/ahb_coverage.sv(195) @ 1785200: uvm_test_top.env.slave_cov [ahb_coverage] [slave_cov] functional coverage: ahb_cg = 83.12%, ahb_trans_cg = 75.00%
# UVM_INFO ../src/test/ahb_base_test.sv(74) @ 1785200: uvm_test_top [ahb_error_response_test] 
# === TEST PASSED ===
# 
# 
# --- UVM Report Summary ---
# 
# ** Report counts by severity
# UVM_INFO :  414
# UVM_WARNING :    0
# UVM_ERROR :    0
# UVM_FATAL :    0
# ** Report counts by id
# [Questa UVM]     3
# [RNTST]     1
# [TB_TOP]     3
# [TEST_DONE]     1
# [UVMTOP]     1
# [ahb_coverage]    34
# [ahb_error_response_test]     2
# [ahb_error_seq]    13
# [ahb_master_agent]     1
# [ahb_master_driver]   133
# [ahb_master_monitor]    71
# [ahb_scoreboard]    18
# [ahb_slave_agent]     1
# [ahb_slave_driver]    55
# [ahb_slave_error_seq]    55
# [ahb_slave_monitor]    17
# [ahb_vip_env]     5
# ** Note: $finish    : /cadtools/mentor/Questa_10.6b/questasim/linux_x86_64/../verilog_src/uvm-1.1d/src/base/uvm_root.svh(430)
#    Time: 1785200 ps  Iteration: 53  Instance: /tb_top
# Saving coverage database on exit...
# End time: 14:14:45 on Aug 06,2026, Elapsed time: 0:00:01
# Errors: 0, Warnings: 0
