# vsim -c -coverage -sv_seed 66650538 "+UVM_TESTNAME=ahb_back_to_back_test" "+UVM_VERBOSITY=UVM_HIGH" "+DUMP_VCD" -l ./report/logs/ahb_back_to_back_test_run_3_seed_66650538.log -do "coverage save -onexit ./report/coverage/ahb_back_to_back_test_run_3_seed_66650538.ucdb; run -all; quit -f" opt_tb_top 
# Start time: 12:12:16 on Aug 06,2026
# //  Questa Sim-64
# //  Version 10.6b linux_x86_64 May 25 2017
# //
# //  Copyright 1991-2017 Mentor Graphics Corporation
# //  All Rights Reserved.
# //
# //  QuestaSim and its associated documentation contain trade
# //  secrets and commercial or financial information that are the property of
# //  Mentor Graphics Corporation and are privileged, confidential,
# //  and exempt from disclosure under the Freedom of Information Act,
# //  5 U.S.C. Section 552. Furthermore, this information
# //  is prohibited from disclosure under the Trade Secrets Act,
# //  18 U.S.C. Section 1905.
# //
# Loading sv_std.std
# Loading work.ahb_if(fast)
# Loading mtiUvm.uvm_pkg
# Loading work.ahb_pkg(fast)
# Loading work.ahb_seq_pkg(fast)
# Loading work.ahb_test_pkg(fast)
# Loading work.tb_top(fast)
# Loading work.ahb_if(fast)
# Loading work.ahb_sva(fast)
# Loading mtiUvm.questa_uvm_pkg(fast)
# Loading /cadtools/mentor/Questa_10.6b/questasim/uvm-1.1d/linux_x86_64/uvm_dpi.so
# coverage save -onexit ./report/coverage/ahb_back_to_back_test_run_3_seed_66650538.ucdb
#  run -all
# ----------------------------------------------------------------
# UVM-1.1d
# (C) 2007-2013 Mentor Graphics Corporation
# (C) 2007-2013 Cadence Design Systems, Inc.
# (C) 2006-2013 Synopsys, Inc.
# (C) 2011-2013 Cypress Semiconductor Corp.
# ----------------------------------------------------------------
# 
#   ***********       IMPORTANT RELEASE NOTES         ************
# 
#   You are using a version of the UVM library that has been compiled
#   with `UVM_NO_DEPRECATED undefined.
#   See http://www.eda.org/svdb/view.php?id=3313 for more details.
# 
#   You are using a version of the UVM library that has been compiled
#   with `UVM_OBJECT_MUST_HAVE_CONSTRUCTOR undefined.
#   See http://www.eda.org/svdb/view.php?id=3770 for more details.
# 
#       (Specify +UVM_NO_RELNOTES to turn off this notice)
# 
# UVM_INFO verilog_src/questa_uvm_pkg-1.2/src/questa_uvm_pkg.sv(215) @ 0: reporter [Questa UVM] QUESTA_UVM-1.2.3
# UVM_INFO verilog_src/questa_uvm_pkg-1.2/src/questa_uvm_pkg.sv(217) @ 0: reporter [Questa UVM]  questa_uvm::init(+struct)
# UVM_INFO ../src/tb_top.sv(126) @ 0: reporter [TB_TOP] Virtual interface set in config_db
# UVM_INFO @ 0: reporter [RNTST] Running test ahb_back_to_back_test...
# UVM_INFO ../src/tb_top.sv(140) @ 0: reporter [TB_TOP] Waveform VCD dumping enabled (ahb_lite_vip.vcd)
# UVM_INFO ../src/env/ahb_vip_env.sv(64) @ 0: uvm_test_top.env [ahb_vip_env] slave_vif not set - reusing master_vif (passthrough mode)
# UVM_INFO ../src/env/ahb_vip_env.sv(72) @ 0: uvm_test_top.env [ahb_vip_env] Scoreboard created
# UVM_INFO ../src/env/ahb_vip_env.sv(78) @ 0: uvm_test_top.env [ahb_vip_env] Coverage collectors created
# UVM_INFO ../src/mst/ahb_master_agent.sv(61) @ 0: uvm_test_top.env.master_agent [ahb_master_agent] ACTIVE mode - driver + sequencer created
# UVM_INFO ../src/slv/ahb_slave_agent.sv(64) @ 0: uvm_test_top.env.slave_agent [ahb_slave_agent] ACTIVE mode - driver + sequencer created (    auto responses)
# UVM_INFO ../src/env/ahb_vip_env.sv(92) @ 0: uvm_test_top.env [ahb_vip_env] Scoreboard connected: master_mon.ap -> scb, slave_mon.ap -> scb
# UVM_INFO ../src/env/ahb_vip_env.sv(102) @ 0: uvm_test_top.env [ahb_vip_env] Coverage connected: master_mon.ap/trans_ap -> master_cov, slave_mon.ap/trans_ap -> slave_cov
# UVM_INFO @ 0: reporter [UVMTOP] UVM testbench topology:
# ---------------------------------------------------------------
# Name                       Type                     Size  Value
# ---------------------------------------------------------------
# uvm_test_top               ahb_back_to_back_test    -     @475 
#   env                      ahb_vip_env              -     @490 
#     master_agent           ahb_master_agent         -     @505 
#       drv                  ahb_master_driver        -     @570 
#         rsp_port           uvm_analysis_port        -     @585 
#         seq_item_port      uvm_seq_item_pull_port   -     @577 
#       mon                  ahb_master_monitor       -     @563 
#         ap                 uvm_analysis_port        -     @704 
#         trans_ap           uvm_analysis_port        -     @712 
#       sqr                  ahb_master_sequencer     -     @593 
#         rsp_export         uvm_analysis_export      -     @600 
#         seq_item_export    uvm_seq_item_pull_imp    -     @694 
#         arbitration_queue  array                    0     -    
#         lock_queue         array                    0     -    
#         num_last_reqs      integral                 32    'd1  
#         num_last_rsps      integral                 32    'd1  
#     master_cov             ahb_coverage             -     @526 
#       analysis_imp         uvm_analysis_imp         -     @533 
#       trans_export         uvm_analysis_imp_trans   -     @726 
#     scb                    ahb_scoreboard           -     @519 
#       master_export        uvm_analysis_imp_master  -     @734 
#       slave_export         uvm_analysis_imp_slave   -     @742 
#     slave_agent            ahb_slave_agent          -     @512 
#       drv                  ahb_slave_driver         -     @764 
#         rsp_port           uvm_analysis_port        -     @779 
#         seq_item_port      uvm_seq_item_pull_port   -     @771 
#       mon                  ahb_slave_monitor        -     @757 
#         ap                 uvm_analysis_port        -     @898 
#         trans_ap           uvm_analysis_port        -     @906 
#       sqr                  ahb_slave_sequencer      -     @787 
#         rsp_export         uvm_analysis_export      -     @794 
#         seq_item_export    uvm_seq_item_pull_imp    -     @888 
#         arbitration_queue  array                    0     -    
#         lock_queue         array                    0     -    
#         num_last_reqs      integral                 32    'd1  
#         num_last_rsps      integral                 32    'd1  
#     slave_cov              ahb_coverage             -     @541 
#       analysis_imp         uvm_analysis_imp         -     @548 
#       trans_export         uvm_analysis_imp_trans   -     @920 
# ---------------------------------------------------------------
# 
# UVM_INFO verilog_src/questa_uvm_pkg-1.2/src/questa_uvm_pkg.sv(277) @ 0: reporter [Questa UVM] End Of Elaboration
# UVM_INFO ../src/mst_seq/ahb_back_to_back_seq.sv(158) @ 0: uvm_test_top.env.master_agent.sqr@@seq [ahb_back_to_back_seq] Starting back-to-back traffic: 32 pairs from 0x00010000, 8 batches of 4
# UVM_INFO ../src/mst_seq/ahb_back_to_back_seq.sv(172) @ 0: uvm_test_top.env.master_agent.sqr@@seq [ahb_back_to_back_seq] Batch 1/8: 4 pairs, max_outstanding=unlimited
# UVM_INFO ../src/mst/ahb_master_driver.sv(183) @ 5000: uvm_test_top.env.master_agent.drv [ahb_master_driver] Flushed pending transactions (reset)
# UVM_INFO ../src/tb_top.sv(48) @ 95000: reporter [TB_TOP] Reset de-asserted
# UVM_INFO ../src/slv/ahb_slave_driver.sv(63) @ 95000: uvm_test_top.env.slave_agent.drv [ahb_slave_driver] Reset deasserted - slave driver active (    auto mode)
# UVM_INFO ../src/mst/ahb_master_driver.sv(72) @ 95000: uvm_test_top.env.master_agent.drv [ahb_master_driver] Reset deasserted - master driver active
# UVM_INFO ../src/mst/ahb_master_monitor.sv(81) @ 95000: uvm_test_top.env.master_agent.mon [ahb_master_monitor] Reset deasserted - master monitor active
# UVM_INFO ../src/slv/ahb_slave_monitor.sv(79) @ 95000: uvm_test_top.env.slave_agent.mon [ahb_slave_monitor] Reset deasserted - slave monitor active
# UVM_INFO ../src/mst/ahb_master_driver.sv(85) @ 95000: uvm_test_top.env.master_agent.drv [ahb_master_driver] Queueing [AHB_WRITE]: HADDR=0x00010036, HBURST=AHB_BURST_SINGLE, HSIZE=AHB_SIZE_16B, 1 beats
# UVM_INFO ../src/mst/ahb_master_driver.sv(127) @ 95000: uvm_test_top.env.master_agent.drv [ahb_master_driver] Driving [AHB_WRITE]: HADDR=0x00010036, HBURST=AHB_BURST_SINGLE, HSIZE=AHB_SIZE_16B, 1 beats               
# UVM_INFO ../src/mst/ahb_master_driver.sv(85) @ 95000: uvm_test_top.env.master_agent.drv [ahb_master_driver] Queueing [AHB_READ]: HADDR=0x00010036, HBURST=AHB_BURST_SINGLE, HSIZE=AHB_SIZE_16B, 1 beats
# UVM_INFO ../src/mst/ahb_master_driver.sv(85) @ 95000: uvm_test_top.env.master_agent.drv [ahb_master_driver] Queueing [AHB_WRITE]: HADDR=0x00010051, HBURST=AHB_BURST_SINGLE, HSIZE=AHB_SIZE_8B, 1 beats
# UVM_INFO ../src/mst/ahb_master_driver.sv(85) @ 95000: uvm_test_top.env.master_agent.drv [ahb_master_driver] Queueing [AHB_READ]: HADDR=0x00010051, HBURST=AHB_BURST_SINGLE, HSIZE=AHB_SIZE_8B, 1 beats
# UVM_INFO ../src/mst/ahb_master_driver.sv(85) @ 95000: uvm_test_top.env.master_agent.drv [ahb_master_driver] Queueing [AHB_WRITE]: HADDR=0x0001009e, HBURST=AHB_BURST_SINGLE, HSIZE=AHB_SIZE_16B, 1 beats
# UVM_INFO ../src/mst/ahb_master_driver.sv(85) @ 95000: uvm_test_top.env.master_agent.drv [ahb_master_driver] Queueing [AHB_READ]: HADDR=0x0001009e, HBURST=AHB_BURST_SINGLE, HSIZE=AHB_SIZE_16B, 1 beats
# UVM_INFO ../src/mst/ahb_master_driver.sv(85) @ 95000: uvm_test_top.env.master_agent.drv [ahb_master_driver] Queueing [AHB_WRITE]: HADDR=0x000100e6, HBURST=AHB_BURST_INCR8, HSIZE=AHB_SIZE_8B, 8 beats
# UVM_INFO ../src/mst/ahb_master_driver.sv(85) @ 95000: uvm_test_top.env.master_agent.drv [ahb_master_driver] Queueing [AHB_READ]: HADDR=0x000100e6, HBURST=AHB_BURST_INCR8, HSIZE=AHB_SIZE_8B, 8 beats
# UVM_INFO ../src/mst/ahb_master_driver.sv(332) @ 125000: uvm_test_top.env.master_agent.drv [ahb_master_driver] Beat[0/1] addr=0x00010036 trans=AHB_TRANS_NONSEQ resp=AHB_RESP_OKAY wdata=0xf07764cf
# UVM_INFO ../src/mst/ahb_master_driver.sv(376) @ 125000: uvm_test_top.env.master_agent.drv [ahb_master_driver] Transaction complete: AHB_WRITE 0x00010036, 1 beats, burst=AHB_BURST_SINGLE
# UVM_INFO ../src/mst/ahb_master_driver.sv(127) @ 125000: uvm_test_top.env.master_agent.drv [ahb_master_driver] Driving [AHB_READ]: HADDR=0x00010036, HBURST=AHB_BURST_SINGLE, HSIZE=AHB_SIZE_16B, 1 beats (back-to-back)
# UVM_INFO ../src/slv/ahb_slave_driver.sv(184) @ 125000: uvm_test_top.env.slave_agent.drv [ahb_slave_driver] Beat AHB_WRITE addr=0x00010036 resp=AHB_RESP_OKAY waits=1 wdata=0xf07764cf
# UVM_INFO ../src/mst/ahb_master_monitor.sv(128) @ 125000: uvm_test_top.env.master_agent.mon [ahb_master_monitor] Beat[0] addr=0x00010036 wdata=0xf07764cf resp=AHB_RESP_OKAY
# UVM_INFO ../src/mst/ahb_master_monitor.sv(231) @ 125000: uvm_test_top.env.master_agent.mon [ahb_master_monitor] Observed [AHB_WRITE]: HADDR=0x00010036, HBURST=AHB_BURST_SINGLE, HSIZE=AHB_SIZE_16B, 1 beats
# UVM_INFO ../src/env/ahb_coverage.sv(174) @ 125000: uvm_test_top.env.master_cov [ahb_coverage] Sampled [AHB_WRITE]: burst=AHB_BURST_SINGLE size=AHB_SIZE_16B beats=1 error=0
# UVM_INFO ../src/slv/ahb_slave_monitor.sv(212) @ 125000: uvm_test_top.env.slave_agent.mon [ahb_slave_monitor] Observed [AHB_WRITE]: HADDR=0x00010036, HBURST=AHB_BURST_SINGLE, HSIZE=AHB_SIZE_16B, 1 beats
# UVM_INFO ../src/env/ahb_scoreboard.sv(104) @ 125000: uvm_test_top.env.scb [ahb_scoreboard] MATCH #1: [AHB_WRITE] HADDR=0x00010036 AHB_BURST_SINGLE 1 beats
# UVM_INFO ../src/env/ahb_coverage.sv(174) @ 125000: uvm_test_top.env.slave_cov [ahb_coverage] Sampled [AHB_WRITE]: burst=AHB_BURST_SINGLE size=AHB_SIZE_16B beats=1 error=0
# UVM_INFO ../src/mst/ahb_master_driver.sv(332) @ 135000: uvm_test_top.env.master_agent.drv [ahb_master_driver] Beat[0/1] addr=0x00010036 trans=AHB_TRANS_NONSEQ resp=AHB_RESP_OKAY rdata=0xf07764cf
# UVM_INFO ../src/mst/ahb_master_driver.sv(376) @ 135000: uvm_test_top.env.master_agent.drv [ahb_master_driver] Transaction complete: AHB_READ 0x00010036, 1 beats, burst=AHB_BURST_SINGLE
# UVM_INFO ../src/mst/ahb_master_driver.sv(127) @ 135000: uvm_test_top.env.master_agent.drv [ahb_master_driver] Driving [AHB_WRITE]: HADDR=0x00010051, HBURST=AHB_BURST_SINGLE, HSIZE=AHB_SIZE_8B, 1 beats (back-to-back)
# UVM_INFO ../src/slv/ahb_slave_driver.sv(184) @ 135000: uvm_test_top.env.slave_agent.drv [ahb_slave_driver] Beat AHB_READ addr=0x00010036 resp=AHB_RESP_OKAY waits=0 rdata=0xf07764cf
# UVM_INFO ../src/slv/ahb_slave_monitor.sv(212) @ 135000: uvm_test_top.env.slave_agent.mon [ahb_slave_monitor] Observed [AHB_READ]: HADDR=0x00010036, HBURST=AHB_BURST_SINGLE, HSIZE=AHB_SIZE_16B, 1 beats
# UVM_INFO ../src/env/ahb_coverage.sv(174) @ 135000: uvm_test_top.env.slave_cov [ahb_coverage] Sampled [AHB_READ]: burst=AHB_BURST_SINGLE size=AHB_SIZE_16B beats=1 error=0
# UVM_INFO ../src/mst/ahb_master_monitor.sv(128) @ 135000: uvm_test_top.env.master_agent.mon [ahb_master_monitor] Beat[0] addr=0x00010036 rdata=0xf07764cf resp=AHB_RESP_OKAY
# UVM_INFO ../src/mst/ahb_master_monitor.sv(231) @ 135000: uvm_test_top.env.master_agent.mon [ahb_master_monitor] Observed [AHB_READ]: HADDR=0x00010036, HBURST=AHB_BURST_SINGLE, HSIZE=AHB_SIZE_16B, 1 beats
# UVM_INFO ../src/env/ahb_coverage.sv(174) @ 135000: uvm_test_top.env.master_cov [ahb_coverage] Sampled [AHB_READ]: burst=AHB_BURST_SINGLE size=AHB_SIZE_16B beats=1 error=0
# UVM_INFO ../src/env/ahb_scoreboard.sv(104) @ 135000: uvm_test_top.env.scb [ahb_scoreboard] MATCH #2: [AHB_READ] HADDR=0x00010036 AHB_BURST_SINGLE 1 beats
# UVM_INFO ../src/mst_seq/ahb_base_seq.sv(157) @ 135000: uvm_test_top.env.master_agent.sqr@@seq [ahb_back_to_back_seq] AHB_BURST_SINGLE AHB_SIZE_16B beat 0 @0x00010036 ok
# UVM_INFO ../src/mst/ahb_master_driver.sv(332) @ 155000: uvm_test_top.env.master_agent.drv [ahb_master_driver] Beat[0/1] addr=0x00010051 trans=AHB_TRANS_NONSEQ resp=AHB_RESP_OKAY wdata=0xb7a4abd8
# UVM_INFO ../src/mst/ahb_master_driver.sv(376) @ 155000: uvm_test_top.env.master_agent.drv [ahb_master_driver] Transaction complete: AHB_WRITE 0x00010051, 1 beats, burst=AHB_BURST_SINGLE
# UVM_INFO ../src/mst/ahb_master_driver.sv(127) @ 155000: uvm_test_top.env.master_agent.drv [ahb_master_driver] Driving [AHB_READ]: HADDR=0x00010051, HBURST=AHB_BURST_SINGLE, HSIZE=AHB_SIZE_8B, 1 beats (back-to-back)
# UVM_INFO ../src/slv/ahb_slave_driver.sv(184) @ 155000: uvm_test_top.env.slave_agent.drv [ahb_slave_driver] Beat AHB_WRITE addr=0x00010051 resp=AHB_RESP_OKAY waits=1 wdata=0xb7a4abd8
# UVM_INFO ../src/slv/ahb_slave_monitor.sv(212) @ 155000: uvm_test_top.env.slave_agent.mon [ahb_slave_monitor] Observed [AHB_WRITE]: HADDR=0x00010051, HBURST=AHB_BURST_SINGLE, HSIZE=AHB_SIZE_8B, 1 beats
# UVM_INFO ../src/env/ahb_coverage.sv(174) @ 155000: uvm_test_top.env.slave_cov [ahb_coverage] Sampled [AHB_WRITE]: burst=AHB_BURST_SINGLE size=AHB_SIZE_8B beats=1 error=0
# UVM_INFO ../src/mst/ahb_master_monitor.sv(128) @ 155000: uvm_test_top.env.master_agent.mon [ahb_master_monitor] Beat[0] addr=0x00010051 wdata=0xb7a4abd8 resp=AHB_RESP_OKAY
# UVM_INFO ../src/mst/ahb_master_monitor.sv(231) @ 155000: uvm_test_top.env.master_agent.mon [ahb_master_monitor] Observed [AHB_WRITE]: HADDR=0x00010051, HBURST=AHB_BURST_SINGLE, HSIZE=AHB_SIZE_8B, 1 beats
# UVM_INFO ../src/env/ahb_coverage.sv(174) @ 155000: uvm_test_top.env.master_cov [ahb_coverage] Sampled [AHB_WRITE]: burst=AHB_BURST_SINGLE size=AHB_SIZE_8B beats=1 error=0
# UVM_INFO ../src/env/ahb_scoreboard.sv(104) @ 155000: uvm_test_top.env.scb [ahb_scoreboard] MATCH #3: [AHB_WRITE] HADDR=0x00010051 AHB_BURST_SINGLE 1 beats
# UVM_INFO ../src/mst/ahb_master_driver.sv(332) @ 165000: uvm_test_top.env.master_agent.drv [ahb_master_driver] Beat[0/1] addr=0x00010051 trans=AHB_TRANS_NONSEQ resp=AHB_RESP_OKAY rdata=0xb7a4abd8
# UVM_INFO ../src/mst/ahb_master_driver.sv(376) @ 165000: uvm_test_top.env.master_agent.drv [ahb_master_driver] Transaction complete: AHB_READ 0x00010051, 1 beats, burst=AHB_BURST_SINGLE
# UVM_INFO ../src/mst/ahb_master_driver.sv(127) @ 165000: uvm_test_top.env.master_agent.drv [ahb_master_driver] Driving [AHB_WRITE]: HADDR=0x0001009e, HBURST=AHB_BURST_SINGLE, HSIZE=AHB_SIZE_16B, 1 beats (back-to-back)
# UVM_INFO ../src/slv/ahb_slave_driver.sv(184) @ 165000: uvm_test_top.env.slave_agent.drv [ahb_slave_driver] Beat AHB_READ addr=0x00010051 resp=AHB_RESP_OKAY waits=0 rdata=0xb7a4abd8
# UVM_INFO ../src/mst/ahb_master_monitor.sv(128) @ 165000: uvm_test_top.env.master_agent.mon [ahb_master_monitor] Beat[0] addr=0x00010051 rdata=0xb7a4abd8 resp=AHB_RESP_OKAY
# UVM_INFO ../src/mst/ahb_master_monitor.sv(231) @ 165000: uvm_test_top.env.master_agent.mon [ahb_master_monitor] Observed [AHB_READ]: HADDR=0x00010051, HBURST=AHB_BURST_SINGLE, HSIZE=AHB_SIZE_8B, 1 beats
# UVM_INFO ../src/env/ahb_coverage.sv(174) @ 165000: uvm_test_top.env.master_cov [ahb_coverage] Sampled [AHB_READ]: burst=AHB_BURST_SINGLE size=AHB_SIZE_8B beats=1 error=0
# UVM_INFO ../src/slv/ahb_slave_monitor.sv(212) @ 165000: uvm_test_top.env.slave_agent.mon [ahb_slave_monitor] Observed [AHB_READ]: HADDR=0x00010051, HBURST=AHB_BURST_SINGLE, HSIZE=AHB_SIZE_8B, 1 beats
# UVM_INFO ../src/env/ahb_scoreboard.sv(104) @ 165000: uvm_test_top.env.scb [ahb_scoreboard] MATCH #4: [AHB_READ] HADDR=0x00010051 AHB_BURST_SINGLE 1 beats
# UVM_INFO ../src/env/ahb_coverage.sv(174) @ 165000: uvm_test_top.env.slave_cov [ahb_coverage] Sampled [AHB_READ]: burst=AHB_BURST_SINGLE size=AHB_SIZE_8B beats=1 error=0
# UVM_INFO ../src/mst_seq/ahb_base_seq.sv(157) @ 165000: uvm_test_top.env.master_agent.sqr@@seq [ahb_back_to_back_seq] AHB_BURST_SINGLE AHB_SIZE_8B beat 0 @0x00010051 ok
# UVM_INFO ../src/mst/ahb_master_driver.sv(332) @ 175000: uvm_test_top.env.master_agent.drv [ahb_master_driver] Beat[0/1] addr=0x0001009e trans=AHB_TRANS_NONSEQ resp=AHB_RESP_OKAY wdata=0xb97b44b4
# UVM_INFO ../src/mst/ahb_master_driver.sv(376) @ 175000: uvm_test_top.env.master_agent.drv [ahb_master_driver] Transaction complete: AHB_WRITE 0x0001009e, 1 beats, burst=AHB_BURST_SINGLE
# UVM_INFO ../src/mst/ahb_master_driver.sv(127) @ 175000: uvm_test_top.env.master_agent.drv [ahb_master_driver] Driving [AHB_READ]: HADDR=0x0001009e, HBURST=AHB_BURST_SINGLE, HSIZE=AHB_SIZE_16B, 1 beats (back-to-back)
# UVM_INFO ../src/slv/ahb_slave_driver.sv(184) @ 175000: uvm_test_top.env.slave_agent.drv [ahb_slave_driver] Beat AHB_WRITE addr=0x0001009e resp=AHB_RESP_OKAY waits=0 wdata=0xb97b44b4
# UVM_INFO ../src/slv/ahb_slave_monitor.sv(212) @ 175000: uvm_test_top.env.slave_agent.mon [ahb_slave_monitor] Observed [AHB_WRITE]: HADDR=0x0001009e, HBURST=AHB_BURST_SINGLE, HSIZE=AHB_SIZE_16B, 1 beats
# UVM_INFO ../src/env/ahb_coverage.sv(174) @ 175000: uvm_test_top.env.slave_cov [ahb_coverage] Sampled [AHB_WRITE]: burst=AHB_BURST_SINGLE size=AHB_SIZE_16B beats=1 error=0
# UVM_INFO ../src/mst/ahb_master_monitor.sv(128) @ 175000: uvm_test_top.env.master_agent.mon [ahb_master_monitor] Beat[0] addr=0x0001009e wdata=0xb97b44b4 resp=AHB_RESP_OKAY
# UVM_INFO ../src/mst/ahb_master_monitor.sv(231) @ 175000: uvm_test_top.env.master_agent.mon [ahb_master_monitor] Observed [AHB_WRITE]: HADDR=0x0001009e, HBURST=AHB_BURST_SINGLE, HSIZE=AHB_SIZE_16B, 1 beats
# UVM_INFO ../src/env/ahb_coverage.sv(174) @ 175000: uvm_test_top.env.master_cov [ahb_coverage] Sampled [AHB_WRITE]: burst=AHB_BURST_SINGLE size=AHB_SIZE_16B beats=1 error=0
# UVM_INFO ../src/env/ahb_scoreboard.sv(104) @ 175000: uvm_test_top.env.scb [ahb_scoreboard] MATCH #5: [AHB_WRITE] HADDR=0x0001009e AHB_BURST_SINGLE 1 beats
# UVM_INFO ../src/mst/ahb_master_driver.sv(332) @ 195000: uvm_test_top.env.master_agent.drv [ahb_master_driver] Beat[0/1] addr=0x0001009e trans=AHB_TRANS_NONSEQ resp=AHB_RESP_OKAY rdata=0xb97b44b4
# UVM_INFO ../src/mst/ahb_master_driver.sv(376) @ 195000: uvm_test_top.env.master_agent.drv [ahb_master_driver] Transaction complete: AHB_READ 0x0001009e, 1 beats, burst=AHB_BURST_SINGLE
# UVM_INFO ../src/mst/ahb_master_driver.sv(127) @ 195000: uvm_test_top.env.master_agent.drv [ahb_master_driver] Driving [AHB_WRITE]: HADDR=0x000100e6, HBURST=AHB_BURST_INCR8, HSIZE=AHB_SIZE_8B, 8 beats (back-to-back)
# UVM_INFO ../src/slv/ahb_slave_driver.sv(184) @ 195000: uvm_test_top.env.slave_agent.drv [ahb_slave_driver] Beat AHB_READ addr=0x0001009e resp=AHB_RESP_OKAY waits=1 rdata=0xb97b44b4
# UVM_INFO ../src/slv/ahb_slave_monitor.sv(212) @ 195000: uvm_test_top.env.slave_agent.mon [ahb_slave_monitor] Observed [AHB_READ]: HADDR=0x0001009e, HBURST=AHB_BURST_SINGLE, HSIZE=AHB_SIZE_16B, 1 beats
# UVM_INFO ../src/env/ahb_coverage.sv(174) @ 195000: uvm_test_top.env.slave_cov [ahb_coverage] Sampled [AHB_READ]: burst=AHB_BURST_SINGLE size=AHB_SIZE_16B beats=1 error=0
# UVM_INFO ../src/mst/ahb_master_monitor.sv(128) @ 195000: uvm_test_top.env.master_agent.mon [ahb_master_monitor] Beat[0] addr=0x0001009e rdata=0xb97b44b4 resp=AHB_RESP_OKAY
# UVM_INFO ../src/mst/ahb_master_monitor.sv(231) @ 195000: uvm_test_top.env.master_agent.mon [ahb_master_monitor] Observed [AHB_READ]: HADDR=0x0001009e, HBURST=AHB_BURST_SINGLE, HSIZE=AHB_SIZE_16B, 1 beats
# UVM_INFO ../src/env/ahb_coverage.sv(174) @ 195000: uvm_test_top.env.master_cov [ahb_coverage] Sampled [AHB_READ]: burst=AHB_BURST_SINGLE size=AHB_SIZE_16B beats=1 error=0
# UVM_INFO ../src/env/ahb_scoreboard.sv(104) @ 195000: uvm_test_top.env.scb [ahb_scoreboard] MATCH #6: [AHB_READ] HADDR=0x0001009e AHB_BURST_SINGLE 1 beats
# UVM_INFO ../src/mst_seq/ahb_base_seq.sv(157) @ 195000: uvm_test_top.env.master_agent.sqr@@seq [ahb_back_to_back_seq] AHB_BURST_SINGLE AHB_SIZE_16B beat 0 @0x0001009e ok
# UVM_INFO ../src/mst/ahb_master_driver.sv(332) @ 205000: uvm_test_top.env.master_agent.drv [ahb_master_driver] Beat[0/8] addr=0x000100e6 trans=AHB_TRANS_NONSEQ resp=AHB_RESP_OKAY wdata=0xd9c4fa73
# UVM_INFO ../src/slv/ahb_slave_driver.sv(184) @ 205000: uvm_test_top.env.slave_agent.drv [ahb_slave_driver] Beat AHB_WRITE addr=0x000100e6 resp=AHB_RESP_OKAY waits=0 wdata=0xd9c4fa73
# UVM_INFO ../src/mst/ahb_master_monitor.sv(128) @ 205000: uvm_test_top.env.master_agent.mon [ahb_master_monitor] Beat[0] addr=0x000100e6 wdata=0xd9c4fa73 resp=AHB_RESP_OKAY
# UVM_INFO ../src/mst/ahb_master_driver.sv(332) @ 215000: uvm_test_top.env.master_agent.drv [ahb_master_driver] Beat[1/8] addr=0x000100e7 trans=AHB_TRANS_SEQ resp=AHB_RESP_OKAY wdata=0xab3909e5
# UVM_INFO ../src/slv/ahb_slave_driver.sv(184) @ 215000: uvm_test_top.env.slave_agent.drv [ahb_slave_driver] Beat AHB_WRITE addr=0x000100e7 resp=AHB_RESP_OKAY waits=0 wdata=0xab3909e5
# UVM_INFO ../src/mst/ahb_master_monitor.sv(128) @ 215000: uvm_test_top.env.master_agent.mon [ahb_master_monitor] Beat[1] addr=0x000100e7 wdata=0xab3909e5 resp=AHB_RESP_OKAY
# UVM_INFO ../src/mst/ahb_master_driver.sv(332) @ 235000: uvm_test_top.env.master_agent.drv [ahb_master_driver] Beat[2/8] addr=0x000100e8 trans=AHB_TRANS_SEQ resp=AHB_RESP_OKAY wdata=0xf76de905
# UVM_INFO ../src/slv/ahb_slave_driver.sv(184) @ 235000: uvm_test_top.env.slave_agent.drv [ahb_slave_driver] Beat AHB_WRITE addr=0x000100e8 resp=AHB_RESP_OKAY waits=1 wdata=0xf76de905
# UVM_INFO ../src/mst/ahb_master_monitor.sv(128) @ 235000: uvm_test_top.env.master_agent.mon [ahb_master_monitor] Beat[2] addr=0x000100e8 wdata=0xf76de905 resp=AHB_RESP_OKAY
# UVM_INFO ../src/mst/ahb_master_driver.sv(332) @ 245000: uvm_test_top.env.master_agent.drv [ahb_master_driver] Beat[3/8] addr=0x000100e9 trans=AHB_TRANS_SEQ resp=AHB_RESP_OKAY wdata=0x5bcc13e5
# UVM_INFO ../src/slv/ahb_slave_driver.sv(184) @ 245000: uvm_test_top.env.slave_agent.drv [ahb_slave_driver] Beat AHB_WRITE addr=0x000100e9 resp=AHB_RESP_OKAY waits=0 wdata=0x5bcc13e5
# UVM_INFO ../src/mst/ahb_master_monitor.sv(128) @ 245000: uvm_test_top.env.master_agent.mon [ahb_master_monitor] Beat[3] addr=0x000100e9 wdata=0x5bcc13e5 resp=AHB_RESP_OKAY
# UVM_INFO ../src/mst/ahb_master_driver.sv(332) @ 265000: uvm_test_top.env.master_agent.drv [ahb_master_driver] Beat[4/8] addr=0x000100ea trans=AHB_TRANS_SEQ resp=AHB_RESP_OKAY wdata=0xb6d04bad
# UVM_INFO ../src/slv/ahb_slave_driver.sv(184) @ 265000: uvm_test_top.env.slave_agent.drv [ahb_slave_driver] Beat AHB_WRITE addr=0x000100ea resp=AHB_RESP_OKAY waits=1 wdata=0xb6d04bad
# UVM_INFO ../src/mst/ahb_master_monitor.sv(128) @ 265000: uvm_test_top.env.master_agent.mon [ahb_master_monitor] Beat[4] addr=0x000100ea wdata=0xb6d04bad resp=AHB_RESP_OKAY
# UVM_INFO ../src/mst/ahb_master_driver.sv(332) @ 275000: uvm_test_top.env.master_agent.drv [ahb_master_driver] Beat[5/8] addr=0x000100eb trans=AHB_TRANS_SEQ resp=AHB_RESP_OKAY wdata=0xe9f15c24
# UVM_INFO ../src/slv/ahb_slave_driver.sv(184) @ 275000: uvm_test_top.env.slave_agent.drv [ahb_slave_driver] Beat AHB_WRITE addr=0x000100eb resp=AHB_RESP_OKAY waits=0 wdata=0xe9f15c24
# UVM_INFO ../src/mst/ahb_master_monitor.sv(128) @ 275000: uvm_test_top.env.master_agent.mon [ahb_master_monitor] Beat[5] addr=0x000100eb wdata=0xe9f15c24 resp=AHB_RESP_OKAY
# UVM_INFO ../src/mst/ahb_master_driver.sv(332) @ 285000: uvm_test_top.env.master_agent.drv [ahb_master_driver] Beat[6/8] addr=0x000100ec trans=AHB_TRANS_SEQ resp=AHB_RESP_OKAY wdata=0xb18c9b3f
# UVM_INFO ../src/slv/ahb_slave_driver.sv(184) @ 285000: uvm_test_top.env.slave_agent.drv [ahb_slave_driver] Beat AHB_WRITE addr=0x000100ec resp=AHB_RESP_OKAY waits=0 wdata=0xb18c9b3f
# UVM_INFO ../src/mst/ahb_master_monitor.sv(128) @ 285000: uvm_test_top.env.master_agent.mon [ahb_master_monitor] Beat[6] addr=0x000100ec wdata=0xb18c9b3f resp=AHB_RESP_OKAY
# UVM_INFO ../src/mst/ahb_master_driver.sv(332) @ 305000: uvm_test_top.env.master_agent.drv [ahb_master_driver] Beat[7/8] addr=0x000100ed trans=AHB_TRANS_SEQ resp=AHB_RESP_OKAY wdata=0x024fbb5f
# UVM_INFO ../src/mst/ahb_master_driver.sv(376) @ 305000: uvm_test_top.env.master_agent.drv [ahb_master_driver] Transaction complete: AHB_WRITE 0x000100e6, 8 beats, burst=AHB_BURST_INCR8
# UVM_INFO ../src/mst/ahb_master_driver.sv(127) @ 305000: uvm_test_top.env.master_agent.drv [ahb_master_driver] Driving [AHB_READ]: HADDR=0x000100e6, HBURST=AHB_BURST_INCR8, HSIZE=AHB_SIZE_8B, 8 beats (back-to-back)
# UVM_INFO ../src/slv/ahb_slave_driver.sv(184) @ 305000: uvm_test_top.env.slave_agent.drv [ahb_slave_driver] Beat AHB_WRITE addr=0x000100ed resp=AHB_RESP_OKAY waits=1 wdata=0x024fbb5f
# UVM_INFO ../src/mst/ahb_master_monitor.sv(128) @ 305000: uvm_test_top.env.master_agent.mon [ahb_master_monitor] Beat[7] addr=0x000100ed wdata=0x024fbb5f resp=AHB_RESP_OKAY
# UVM_INFO ../src/mst/ahb_master_monitor.sv(231) @ 305000: uvm_test_top.env.master_agent.mon [ahb_master_monitor] Observed [AHB_WRITE]: HADDR=0x000100e6, HBURST=AHB_BURST_INCR8, HSIZE=AHB_SIZE_8B, 8 beats
# UVM_INFO ../src/env/ahb_coverage.sv(174) @ 305000: uvm_test_top.env.master_cov [ahb_coverage] Sampled [AHB_WRITE]: burst=AHB_BURST_INCR8 size=AHB_SIZE_8B beats=8 error=0
# UVM_INFO ../src/slv/ahb_slave_monitor.sv(212) @ 305000: uvm_test_top.env.slave_agent.mon [ahb_slave_monitor] Observed [AHB_WRITE]: HADDR=0x000100e6, HBURST=AHB_BURST_INCR8, HSIZE=AHB_SIZE_8B, 8 beats
# UVM_INFO ../src/env/ahb_scoreboard.sv(104) @ 305000: uvm_test_top.env.scb [ahb_scoreboard] MATCH #7: [AHB_WRITE] HADDR=0x000100e6 AHB_BURST_INCR8 8 beats
# UVM_INFO ../src/env/ahb_coverage.sv(174) @ 305000: uvm_test_top.env.slave_cov [ahb_coverage] Sampled [AHB_WRITE]: burst=AHB_BURST_INCR8 size=AHB_SIZE_8B beats=8 error=0
# UVM_INFO ../src/mst/ahb_master_driver.sv(332) @ 325000: uvm_test_top.env.master_agent.drv [ahb_master_driver] Beat[0/8] addr=0x000100e6 trans=AHB_TRANS_NONSEQ resp=AHB_RESP_OKAY rdata=0xd9c4fa73
# UVM_INFO ../src/slv/ahb_slave_driver.sv(184) @ 325000: uvm_test_top.env.slave_agent.drv [ahb_slave_driver] Beat AHB_READ addr=0x000100e6 resp=AHB_RESP_OKAY waits=1 rdata=0xd9c4fa73
# UVM_INFO ../src/mst/ahb_master_monitor.sv(128) @ 325000: uvm_test_top.env.master_agent.mon [ahb_master_monitor] Beat[0] addr=0x000100e6 rdata=0xd9c4fa73 resp=AHB_RESP_OKAY
# UVM_INFO ../src/mst/ahb_master_driver.sv(332) @ 335000: uvm_test_top.env.master_agent.drv [ahb_master_driver] Beat[1/8] addr=0x000100e7 trans=AHB_TRANS_SEQ resp=AHB_RESP_OKAY rdata=0xab3909e5
# UVM_INFO ../src/slv/ahb_slave_driver.sv(184) @ 335000: uvm_test_top.env.slave_agent.drv [ahb_slave_driver] Beat AHB_READ addr=0x000100e7 resp=AHB_RESP_OKAY waits=0 rdata=0xab3909e5
# UVM_INFO ../src/mst/ahb_master_monitor.sv(128) @ 335000: uvm_test_top.env.master_agent.mon [ahb_master_monitor] Beat[1] addr=0x000100e7 rdata=0xab3909e5 resp=AHB_RESP_OKAY
# UVM_INFO ../src/mst/ahb_master_driver.sv(332) @ 345000: uvm_test_top.env.master_agent.drv [ahb_master_driver] Beat[2/8] addr=0x000100e8 trans=AHB_TRANS_SEQ resp=AHB_RESP_OKAY rdata=0xf76de905
# UVM_INFO ../src/slv/ahb_slave_driver.sv(184) @ 345000: uvm_test_top.env.slave_agent.drv [ahb_slave_driver] Beat AHB_READ addr=0x000100e8 resp=AHB_RESP_OKAY waits=0 rdata=0xf76de905
# UVM_INFO ../src/mst/ahb_master_monitor.sv(128) @ 345000: uvm_test_top.env.master_agent.mon [ahb_master_monitor] Beat[2] addr=0x000100e8 rdata=0xf76de905 resp=AHB_RESP_OKAY
# UVM_INFO ../src/mst/ahb_master_driver.sv(332) @ 365000: uvm_test_top.env.master_agent.drv [ahb_master_driver] Beat[3/8] addr=0x000100e9 trans=AHB_TRANS_SEQ resp=AHB_RESP_OKAY rdata=0x5bcc13e5
# UVM_INFO ../src/slv/ahb_slave_driver.sv(184) @ 365000: uvm_test_top.env.slave_agent.drv [ahb_slave_driver] Beat AHB_READ addr=0x000100e9 resp=AHB_RESP_OKAY waits=1 rdata=0x5bcc13e5
# UVM_INFO ../src/mst/ahb_master_monitor.sv(128) @ 365000: uvm_test_top.env.master_agent.mon [ahb_master_monitor] Beat[3] addr=0x000100e9 rdata=0x5bcc13e5 resp=AHB_RESP_OKAY
# UVM_INFO ../src/mst/ahb_master_driver.sv(332) @ 375000: uvm_test_top.env.master_agent.drv [ahb_master_driver] Beat[4/8] addr=0x000100ea trans=AHB_TRANS_SEQ resp=AHB_RESP_OKAY rdata=0xb6d04bad
# UVM_INFO ../src/slv/ahb_slave_driver.sv(184) @ 375000: uvm_test_top.env.slave_agent.drv [ahb_slave_driver] Beat AHB_READ addr=0x000100ea resp=AHB_RESP_OKAY waits=0 rdata=0xb6d04bad
# UVM_INFO ../src/mst/ahb_master_monitor.sv(128) @ 375000: uvm_test_top.env.master_agent.mon [ahb_master_monitor] Beat[4] addr=0x000100ea rdata=0xb6d04bad resp=AHB_RESP_OKAY
# UVM_INFO ../src/mst/ahb_master_driver.sv(332) @ 395000: uvm_test_top.env.master_agent.drv [ahb_master_driver] Beat[5/8] addr=0x000100eb trans=AHB_TRANS_SEQ resp=AHB_RESP_OKAY rdata=0xe9f15c24
# UVM_INFO ../src/slv/ahb_slave_driver.sv(184) @ 395000: uvm_test_top.env.slave_agent.drv [ahb_slave_driver] Beat AHB_READ addr=0x000100eb resp=AHB_RESP_OKAY waits=1 rdata=0xe9f15c24
# UVM_INFO ../src/mst/ahb_master_monitor.sv(128) @ 395000: uvm_test_top.env.master_agent.mon [ahb_master_monitor] Beat[5] addr=0x000100eb rdata=0xe9f15c24 resp=AHB_RESP_OKAY
# UVM_INFO ../src/mst/ahb_master_driver.sv(332) @ 415000: uvm_test_top.env.master_agent.drv [ahb_master_driver] Beat[6/8] addr=0x000100ec trans=AHB_TRANS_SEQ resp=AHB_RESP_OKAY rdata=0xb18c9b3f
# UVM_INFO ../src/slv/ahb_slave_driver.sv(184) @ 415000: uvm_test_top.env.slave_agent.drv [ahb_slave_driver] Beat AHB_READ addr=0x000100ec resp=AHB_RESP_OKAY waits=1 rdata=0xb18c9b3f
# UVM_INFO ../src/mst/ahb_master_monitor.sv(128) @ 415000: uvm_test_top.env.master_agent.mon [ahb_master_monitor] Beat[6] addr=0x000100ec rdata=0xb18c9b3f resp=AHB_RESP_OKAY
# UVM_INFO ../src/mst/ahb_master_driver.sv(332) @ 435000: uvm_test_top.env.master_agent.drv [ahb_master_driver] Beat[7/8] addr=0x000100ed trans=AHB_TRANS_SEQ resp=AHB_RESP_OKAY rdata=0x024fbb5f
# UVM_INFO ../src/mst/ahb_master_driver.sv(376) @ 435000: uvm_test_top.env.master_agent.drv [ahb_master_driver] Transaction complete: AHB_READ 0x000100e6, 8 beats, burst=AHB_BURST_INCR8
# UVM_INFO ../src/slv/ahb_slave_driver.sv(184) @ 435000: uvm_test_top.env.slave_agent.drv [ahb_slave_driver] Beat AHB_READ addr=0x000100ed resp=AHB_RESP_OKAY waits=1 rdata=0x024fbb5f
# UVM_INFO ../src/slv/ahb_slave_monitor.sv(212) @ 435000: uvm_test_top.env.slave_agent.mon [ahb_slave_monitor] Observed [AHB_READ]: HADDR=0x000100e6, HBURST=AHB_BURST_INCR8, HSIZE=AHB_SIZE_8B, 8 beats
# UVM_INFO ../src/env/ahb_coverage.sv(174) @ 435000: uvm_test_top.env.slave_cov [ahb_coverage] Sampled [AHB_READ]: burst=AHB_BURST_INCR8 size=AHB_SIZE_8B beats=8 error=0
# UVM_INFO ../src/mst/ahb_master_monitor.sv(128) @ 435000: uvm_test_top.env.master_agent.mon [ahb_master_monitor] Beat[7] addr=0x000100ed rdata=0x024fbb5f resp=AHB_RESP_OKAY
# UVM_INFO ../src/mst/ahb_master_monitor.sv(231) @ 435000: uvm_test_top.env.master_agent.mon [ahb_master_monitor] Observed [AHB_READ]: HADDR=0x000100e6, HBURST=AHB_BURST_INCR8, HSIZE=AHB_SIZE_8B, 8 beats
# UVM_INFO ../src/env/ahb_coverage.sv(174) @ 435000: uvm_test_top.env.master_cov [ahb_coverage] Sampled [AHB_READ]: burst=AHB_BURST_INCR8 size=AHB_SIZE_8B beats=8 error=0
# UVM_INFO ../src/env/ahb_scoreboard.sv(104) @ 435000: uvm_test_top.env.scb [ahb_scoreboard] MATCH #8: [AHB_READ] HADDR=0x000100e6 AHB_BURST_INCR8 8 beats
# UVM_INFO ../src/mst_seq/ahb_base_seq.sv(157) @ 435000: uvm_test_top.env.master_agent.sqr@@seq [ahb_back_to_back_seq] AHB_BURST_INCR8 AHB_SIZE_8B beat 0 @0x000100e6 ok
# UVM_INFO ../src/mst_seq/ahb_base_seq.sv(157) @ 435000: uvm_test_top.env.master_agent.sqr@@seq [ahb_back_to_back_seq] AHB_BURST_INCR8 AHB_SIZE_8B beat 1 @0x000100e7 ok
# UVM_INFO ../src/mst_seq/ahb_base_seq.sv(157) @ 435000: uvm_test_top.env.master_agent.sqr@@seq [ahb_back_to_back_seq] AHB_BURST_INCR8 AHB_SIZE_8B beat 2 @0x000100e8 ok
# UVM_INFO ../src/mst_seq/ahb_base_seq.sv(157) @ 435000: uvm_test_top.env.master_agent.sqr@@seq [ahb_back_to_back_seq] AHB_BURST_INCR8 AHB_SIZE_8B beat 3 @0x000100e9 ok
# UVM_INFO ../src/mst_seq/ahb_base_seq.sv(157) @ 435000: uvm_test_top.env.master_agent.sqr@@seq [ahb_back_to_back_seq] AHB_BURST_INCR8 AHB_SIZE_8B beat 4 @0x000100ea ok
# UVM_INFO ../src/mst_seq/ahb_base_seq.sv(157) @ 435000: uvm_test_top.env.master_agent.sqr@@seq [ahb_back_to_back_seq] AHB_BURST_INCR8 AHB_SIZE_8B beat 5 @0x000100eb ok
# UVM_INFO ../src/mst_seq/ahb_base_seq.sv(157) @ 435000: uvm_test_top.env.master_agent.sqr@@seq [ahb_back_to_back_seq] AHB_BURST_INCR8 AHB_SIZE_8B beat 6 @0x000100ec ok
# UVM_INFO ../src/mst_seq/ahb_base_seq.sv(157) @ 435000: uvm_test_top.env.master_agent.sqr@@seq [ahb_back_to_back_seq] AHB_BURST_INCR8 AHB_SIZE_8B beat 7 @0x000100ed ok
# UVM_INFO ../src/mst_seq/ahb_back_to_back_seq.sv(172) @ 435000: uvm_test_top.env.master_agent.sqr@@seq [ahb_back_to_back_seq] Batch 2/8: 4 pairs, max_outstanding=4
# UVM_INFO ../src/mst/ahb_master_driver.sv(85) @ 435000: uvm_test_top.env.master_agent.drv [ahb_master_driver] Queueing [AHB_WRITE]: HADDR=0x0001011e, HBURST=AHB_BURST_INCR, HSIZE=AHB_SIZE_8B, 7 beats
# UVM_INFO ../src/mst/ahb_master_driver.sv(127) @ 435000: uvm_test_top.env.master_agent.drv [ahb_master_driver] Driving [AHB_WRITE]: HADDR=0x0001011e, HBURST=AHB_BURST_INCR, HSIZE=AHB_SIZE_8B, 7 beats               
# UVM_INFO ../src/mst/ahb_master_driver.sv(85) @ 435000: uvm_test_top.env.master_agent.drv [ahb_master_driver] Queueing [AHB_READ]: HADDR=0x0001011e, HBURST=AHB_BURST_INCR, HSIZE=AHB_SIZE_8B, 7 beats
# UVM_INFO ../src/mst/ahb_master_driver.sv(85) @ 435000: uvm_test_top.env.master_agent.drv [ahb_master_driver] Queueing [AHB_WRITE]: HADDR=0x0001016c, HBURST=AHB_BURST_INCR, HSIZE=AHB_SIZE_16B, 6 beats
# UVM_INFO ../src/mst/ahb_master_driver.sv(85) @ 435000: uvm_test_top.env.master_agent.drv [ahb_master_driver] Queueing [AHB_READ]: HADDR=0x0001016c, HBURST=AHB_BURST_INCR, HSIZE=AHB_SIZE_16B, 6 beats
# UVM_INFO ../src/mst/ahb_master_driver.sv(332) @ 465000: uvm_test_top.env.master_agent.drv [ahb_master_driver] Beat[0/7] addr=0x0001011e trans=AHB_TRANS_NONSEQ resp=AHB_RESP_OKAY wdata=0x3c60820f
# UVM_INFO ../src/slv/ahb_slave_driver.sv(184) @ 465000: uvm_test_top.env.slave_agent.drv [ahb_slave_driver] Beat AHB_WRITE addr=0x0001011e resp=AHB_RESP_OKAY waits=0 wdata=0x3c60820f
# UVM_INFO ../src/mst/ahb_master_monitor.sv(128) @ 465000: uvm_test_top.env.master_agent.mon [ahb_master_monitor] Beat[0] addr=0x0001011e wdata=0x3c60820f resp=AHB_RESP_OKAY
# UVM_INFO ../src/mst/ahb_master_driver.sv(332) @ 475000: uvm_test_top.env.master_agent.drv [ahb_master_driver] Beat[1/7] addr=0x0001011f trans=AHB_TRANS_SEQ resp=AHB_RESP_OKAY wdata=0xc11222e3
# UVM_INFO ../src/slv/ahb_slave_driver.sv(184) @ 475000: uvm_test_top.env.slave_agent.drv [ahb_slave_driver] Beat AHB_WRITE addr=0x0001011f resp=AHB_RESP_OKAY waits=0 wdata=0xc11222e3
# UVM_INFO ../src/mst/ahb_master_monitor.sv(128) @ 475000: uvm_test_top.env.master_agent.mon [ahb_master_monitor] Beat[1] addr=0x0001011f wdata=0xc11222e3 resp=AHB_RESP_OKAY
# UVM_INFO ../src/mst/ahb_master_driver.sv(332) @ 485000: uvm_test_top.env.master_agent.drv [ahb_master_driver] Beat[2/7] addr=0x00010120 trans=AHB_TRANS_SEQ resp=AHB_RESP_OKAY wdata=0x9a675ee9
# UVM_INFO ../src/slv/ahb_slave_driver.sv(184) @ 485000: uvm_test_top.env.slave_agent.drv [ahb_slave_driver] Beat AHB_WRITE addr=0x00010120 resp=AHB_RESP_OKAY waits=0 wdata=0x9a675ee9
# UVM_INFO ../src/mst/ahb_master_monitor.sv(128) @ 485000: uvm_test_top.env.master_agent.mon [ahb_master_monitor] Beat[2] addr=0x00010120 wdata=0x9a675ee9 resp=AHB_RESP_OKAY
# UVM_INFO ../src/mst/ahb_master_driver.sv(332) @ 505000: uvm_test_top.env.master_agent.drv [ahb_master_driver] Beat[3/7] addr=0x00010121 trans=AHB_TRANS_SEQ resp=AHB_RESP_OKAY wdata=0x76d30d2f
# UVM_INFO ../src/slv/ahb_slave_driver.sv(184) @ 505000: uvm_test_top.env.slave_agent.drv [ahb_slave_driver] Beat AHB_WRITE addr=0x00010121 resp=AHB_RESP_OKAY waits=1 wdata=0x76d30d2f
# UVM_INFO ../src/mst/ahb_master_monitor.sv(128) @ 505000: uvm_test_top.env.master_agent.mon [ahb_master_monitor] Beat[3] addr=0x00010121 wdata=0x76d30d2f resp=AHB_RESP_OKAY
# UVM_INFO ../src/mst/ahb_master_driver.sv(332) @ 525000: uvm_test_top.env.master_agent.drv [ahb_master_driver] Beat[4/7] addr=0x00010122 trans=AHB_TRANS_SEQ resp=AHB_RESP_OKAY wdata=0x7015d2b4
# UVM_INFO ../src/slv/ahb_slave_driver.sv(184) @ 525000: uvm_test_top.env.slave_agent.drv [ahb_slave_driver] Beat AHB_WRITE addr=0x00010122 resp=AHB_RESP_OKAY waits=1 wdata=0x7015d2b4
# UVM_INFO ../src/mst/ahb_master_monitor.sv(128) @ 525000: uvm_test_top.env.master_agent.mon [ahb_master_monitor] Beat[4] addr=0x00010122 wdata=0x7015d2b4 resp=AHB_RESP_OKAY
# UVM_INFO ../src/mst/ahb_master_driver.sv(332) @ 535000: uvm_test_top.env.master_agent.drv [ahb_master_driver] Beat[5/7] addr=0x00010123 trans=AHB_TRANS_SEQ resp=AHB_RESP_OKAY wdata=0x603cbf4d
# UVM_INFO ../src/slv/ahb_slave_driver.sv(184) @ 535000: uvm_test_top.env.slave_agent.drv [ahb_slave_driver] Beat AHB_WRITE addr=0x00010123 resp=AHB_RESP_OKAY waits=0 wdata=0x603cbf4d
# UVM_INFO ../src/mst/ahb_master_monitor.sv(128) @ 535000: uvm_test_top.env.master_agent.mon [ahb_master_monitor] Beat[5] addr=0x00010123 wdata=0x603cbf4d resp=AHB_RESP_OKAY
# UVM_INFO ../src/mst/ahb_master_driver.sv(332) @ 545000: uvm_test_top.env.master_agent.drv [ahb_master_driver] Beat[6/7] addr=0x00010124 trans=AHB_TRANS_SEQ resp=AHB_RESP_OKAY wdata=0x97ee69c7
# UVM_INFO ../src/mst/ahb_master_driver.sv(376) @ 545000: uvm_test_top.env.master_agent.drv [ahb_master_driver] Transaction complete: AHB_WRITE 0x0001011e, 7 beats, burst=AHB_BURST_INCR
# UVM_INFO ../src/mst/ahb_master_driver.sv(127) @ 545000: uvm_test_top.env.master_agent.drv [ahb_master_driver] Driving [AHB_READ]: HADDR=0x0001011e, HBURST=AHB_BURST_INCR, HSIZE=AHB_SIZE_8B, 7 beats (back-to-back)
# UVM_INFO ../src/slv/ahb_slave_driver.sv(184) @ 545000: uvm_test_top.env.slave_agent.drv [ahb_slave_driver] Beat AHB_WRITE addr=0x00010124 resp=AHB_RESP_OKAY waits=0 wdata=0x97ee69c7
# UVM_INFO ../src/mst/ahb_master_monitor.sv(128) @ 545000: uvm_test_top.env.master_agent.mon [ahb_master_monitor] Beat[6] addr=0x00010124 wdata=0x97ee69c7 resp=AHB_RESP_OKAY
# UVM_INFO ../src/mst/ahb_master_monitor.sv(231) @ 545000: uvm_test_top.env.master_agent.mon [ahb_master_monitor] Observed [AHB_WRITE]: HADDR=0x0001011e, HBURST=AHB_BURST_INCR, HSIZE=AHB_SIZE_8B, 7 beats
# UVM_INFO ../src/env/ahb_coverage.sv(174) @ 545000: uvm_test_top.env.master_cov [ahb_coverage] Sampled [AHB_WRITE]: burst=AHB_BURST_INCR size=AHB_SIZE_8B beats=7 error=0
# UVM_INFO ../src/slv/ahb_slave_monitor.sv(212) @ 545000: uvm_test_top.env.slave_agent.mon [ahb_slave_monitor] Observed [AHB_WRITE]: HADDR=0x0001011e, HBURST=AHB_BURST_INCR, HSIZE=AHB_SIZE_8B, 7 beats
# UVM_INFO ../src/env/ahb_scoreboard.sv(104) @ 545000: uvm_test_top.env.scb [ahb_scoreboard] MATCH #9: [AHB_WRITE] HADDR=0x0001011e AHB_BURST_INCR 7 beats
# UVM_INFO ../src/env/ahb_coverage.sv(174) @ 545000: uvm_test_top.env.slave_cov [ahb_coverage] Sampled [AHB_WRITE]: burst=AHB_BURST_INCR size=AHB_SIZE_8B beats=7 error=0
# UVM_INFO ../src/mst/ahb_master_driver.sv(85) @ 545000: uvm_test_top.env.master_agent.drv [ahb_master_driver] Queueing [AHB_WRITE]: HADDR=0x000101ba, HBURST=AHB_BURST_WRAP4, HSIZE=AHB_SIZE_16B, 4 beats
# UVM_INFO ../src/mst/ahb_master_driver.sv(332) @ 565000: uvm_test_top.env.master_agent.drv [ahb_master_driver] Beat[0/7] addr=0x0001011e trans=AHB_TRANS_NONSEQ resp=AHB_RESP_OKAY rdata=0x3c60820f
# UVM_INFO ../src/slv/ahb_slave_driver.sv(184) @ 565000: uvm_test_top.env.slave_agent.drv [ahb_slave_driver] Beat AHB_READ addr=0x0001011e resp=AHB_RESP_OKAY waits=1 rdata=0x3c60820f
# UVM_INFO ../src/mst/ahb_master_monitor.sv(128) @ 565000: uvm_test_top.env.master_agent.mon [ahb_master_monitor] Beat[0] addr=0x0001011e rdata=0x3c60820f resp=AHB_RESP_OKAY
# UVM_INFO ../src/mst/ahb_master_driver.sv(332) @ 575000: uvm_test_top.env.master_agent.drv [ahb_master_driver] Beat[1/7] addr=0x0001011f trans=AHB_TRANS_SEQ resp=AHB_RESP_OKAY rdata=0xc11222e3
# UVM_INFO ../src/slv/ahb_slave_driver.sv(184) @ 575000: uvm_test_top.env.slave_agent.drv [ahb_slave_driver] Beat AHB_READ addr=0x0001011f resp=AHB_RESP_OKAY waits=0 rdata=0xc11222e3
# UVM_INFO ../src/mst/ahb_master_monitor.sv(128) @ 575000: uvm_test_top.env.master_agent.mon [ahb_master_monitor] Beat[1] addr=0x0001011f rdata=0xc11222e3 resp=AHB_RESP_OKAY
# UVM_INFO ../src/mst/ahb_master_driver.sv(332) @ 595000: uvm_test_top.env.master_agent.drv [ahb_master_driver] Beat[2/7] addr=0x00010120 trans=AHB_TRANS_SEQ resp=AHB_RESP_OKAY rdata=0x9a675ee9
# UVM_INFO ../src/slv/ahb_slave_driver.sv(184) @ 595000: uvm_test_top.env.slave_agent.drv [ahb_slave_driver] Beat AHB_READ addr=0x00010120 resp=AHB_RESP_OKAY waits=1 rdata=0x9a675ee9
# UVM_INFO ../src/mst/ahb_master_monitor.sv(128) @ 595000: uvm_test_top.env.master_agent.mon [ahb_master_monitor] Beat[2] addr=0x00010120 rdata=0x9a675ee9 resp=AHB_RESP_OKAY
# UVM_INFO ../src/mst/ahb_master_driver.sv(332) @ 605000: uvm_test_top.env.master_agent.drv [ahb_master_driver] Beat[3/7] addr=0x00010121 trans=AHB_TRANS_SEQ resp=AHB_RESP_OKAY rdata=0x76d30d2f
# UVM_INFO ../src/slv/ahb_slave_driver.sv(184) @ 605000: uvm_test_top.env.slave_agent.drv [ahb_slave_driver] Beat AHB_READ addr=0x00010121 resp=AHB_RESP_OKAY waits=0 rdata=0x76d30d2f
# UVM_INFO ../src/mst/ahb_master_monitor.sv(128) @ 605000: uvm_test_top.env.master_agent.mon [ahb_master_monitor] Beat[3] addr=0x00010121 rdata=0x76d30d2f resp=AHB_RESP_OKAY
# UVM_INFO ../src/mst/ahb_master_driver.sv(332) @ 615000: uvm_test_top.env.master_agent.drv [ahb_master_driver] Beat[4/7] addr=0x00010122 trans=AHB_TRANS_SEQ resp=AHB_RESP_OKAY rdata=0x7015d2b4
# UVM_INFO ../src/slv/ahb_slave_driver.sv(184) @ 615000: uvm_test_top.env.slave_agent.drv [ahb_slave_driver] Beat AHB_READ addr=0x00010122 resp=AHB_RESP_OKAY waits=0 rdata=0x7015d2b4
# UVM_INFO ../src/mst/ahb_master_monitor.sv(128) @ 615000: uvm_test_top.env.master_agent.mon [ahb_master_monitor] Beat[4] addr=0x00010122 rdata=0x7015d2b4 resp=AHB_RESP_OKAY
# UVM_INFO ../src/mst/ahb_master_driver.sv(332) @ 635000: uvm_test_top.env.master_agent.drv [ahb_master_driver] Beat[5/7] addr=0x00010123 trans=AHB_TRANS_SEQ resp=AHB_RESP_OKAY rdata=0x603cbf4d
# UVM_INFO ../src/slv/ahb_slave_driver.sv(184) @ 635000: uvm_test_top.env.slave_agent.drv [ahb_slave_driver] Beat AHB_READ addr=0x00010123 resp=AHB_RESP_OKAY waits=1 rdata=0x603cbf4d
# UVM_INFO ../src/mst/ahb_master_monitor.sv(128) @ 635000: uvm_test_top.env.master_agent.mon [ahb_master_monitor] Beat[5] addr=0x00010123 rdata=0x603cbf4d resp=AHB_RESP_OKAY
# UVM_INFO ../src/mst/ahb_master_driver.sv(332) @ 645000: uvm_test_top.env.master_agent.drv [ahb_master_driver] Beat[6/7] addr=0x00010124 trans=AHB_TRANS_SEQ resp=AHB_RESP_OKAY rdata=0x97ee69c7
# UVM_INFO ../src/mst/ahb_master_driver.sv(376) @ 645000: uvm_test_top.env.master_agent.drv [ahb_master_driver] Transaction complete: AHB_READ 0x0001011e, 7 beats, burst=AHB_BURST_INCR
# UVM_INFO ../src/mst/ahb_master_driver.sv(127) @ 645000: uvm_test_top.env.master_agent.drv [ahb_master_driver] Driving [AHB_WRITE]: HADDR=0x0001016c, HBURST=AHB_BURST_INCR, HSIZE=AHB_SIZE_16B, 6 beats (back-to-back)
# UVM_INFO ../src/slv/ahb_slave_driver.sv(184) @ 645000: uvm_test_top.env.slave_agent.drv [ahb_slave_driver] Beat AHB_READ addr=0x00010124 resp=AHB_RESP_OKAY waits=0 rdata=0x97ee69c7
# UVM_INFO ../src/mst/ahb_master_monitor.sv(128) @ 645000: uvm_test_top.env.master_agent.mon [ahb_master_monitor] Beat[6] addr=0x00010124 rdata=0x97ee69c7 resp=AHB_RESP_OKAY
# UVM_INFO ../src/mst/ahb_master_monitor.sv(231) @ 645000: uvm_test_top.env.master_agent.mon [ahb_master_monitor] Observed [AHB_READ]: HADDR=0x0001011e, HBURST=AHB_BURST_INCR, HSIZE=AHB_SIZE_8B, 7 beats
# UVM_INFO ../src/env/ahb_coverage.sv(174) @ 645000: uvm_test_top.env.master_cov [ahb_coverage] Sampled [AHB_READ]: burst=AHB_BURST_INCR size=AHB_SIZE_8B beats=7 error=0
# UVM_INFO ../src/slv/ahb_slave_monitor.sv(212) @ 645000: uvm_test_top.env.slave_agent.mon [ahb_slave_monitor] Observed [AHB_READ]: HADDR=0x0001011e, HBURST=AHB_BURST_INCR, HSIZE=AHB_SIZE_8B, 7 beats
# UVM_INFO ../src/env/ahb_scoreboard.sv(104) @ 645000: uvm_test_top.env.scb [ahb_scoreboard] MATCH #10: [AHB_READ] HADDR=0x0001011e AHB_BURST_INCR 7 beats
# UVM_INFO ../src/env/ahb_coverage.sv(174) @ 645000: uvm_test_top.env.slave_cov [ahb_coverage] Sampled [AHB_READ]: burst=AHB_BURST_INCR size=AHB_SIZE_8B beats=7 error=0
# UVM_INFO ../src/mst/ahb_master_driver.sv(85) @ 645000: uvm_test_top.env.master_agent.drv [ahb_master_driver] Queueing [AHB_READ]: HADDR=0x000101ba, HBURST=AHB_BURST_WRAP4, HSIZE=AHB_SIZE_16B, 4 beats
# UVM_INFO ../src/mst/ahb_master_driver.sv(332) @ 655000: uvm_test_top.env.master_agent.drv [ahb_master_driver] Beat[0/6] addr=0x0001016c trans=AHB_TRANS_NONSEQ resp=AHB_RESP_OKAY wdata=0x08a9df59
# UVM_INFO ../src/slv/ahb_slave_driver.sv(184) @ 655000: uvm_test_top.env.slave_agent.drv [ahb_slave_driver] Beat AHB_WRITE addr=0x0001016c resp=AHB_RESP_OKAY waits=0 wdata=0x08a9df59
# UVM_INFO ../src/mst/ahb_master_monitor.sv(128) @ 655000: uvm_test_top.env.master_agent.mon [ahb_master_monitor] Beat[0] addr=0x0001016c wdata=0x08a9df59 resp=AHB_RESP_OKAY
# UVM_INFO ../src/mst/ahb_master_driver.sv(332) @ 675000: uvm_test_top.env.master_agent.drv [ahb_master_driver] Beat[1/6] addr=0x0001016e trans=AHB_TRANS_SEQ resp=AHB_RESP_OKAY wdata=0xdf86578d
# UVM_INFO ../src/slv/ahb_slave_driver.sv(184) @ 675000: uvm_test_top.env.slave_agent.drv [ahb_slave_driver] Beat AHB_WRITE addr=0x0001016e resp=AHB_RESP_OKAY waits=1 wdata=0xdf86578d
# UVM_INFO ../src/mst/ahb_master_monitor.sv(128) @ 675000: uvm_test_top.env.master_agent.mon [ahb_master_monitor] Beat[1] addr=0x0001016e wdata=0xdf86578d resp=AHB_RESP_OKAY
# UVM_INFO ../src/mst/ahb_master_driver.sv(332) @ 695000: uvm_test_top.env.master_agent.drv [ahb_master_driver] Beat[2/6] addr=0x00010170 trans=AHB_TRANS_SEQ resp=AHB_RESP_OKAY wdata=0xb629feef
# UVM_INFO ../src/slv/ahb_slave_driver.sv(184) @ 695000: uvm_test_top.env.slave_agent.drv [ahb_slave_driver] Beat AHB_WRITE addr=0x00010170 resp=AHB_RESP_OKAY waits=1 wdata=0xb629feef
# UVM_INFO ../src/mst/ahb_master_monitor.sv(128) @ 695000: uvm_test_top.env.master_agent.mon [ahb_master_monitor] Beat[2] addr=0x00010170 wdata=0xb629feef resp=AHB_RESP_OKAY
# UVM_INFO ../src/mst/ahb_master_driver.sv(332) @ 715000: uvm_test_top.env.master_agent.drv [ahb_master_driver] Beat[3/6] addr=0x00010172 trans=AHB_TRANS_SEQ resp=AHB_RESP_OKAY wdata=0x9422ef79
# UVM_INFO ../src/slv/ahb_slave_driver.sv(184) @ 715000: uvm_test_top.env.slave_agent.drv [ahb_slave_driver] Beat AHB_WRITE addr=0x00010172 resp=AHB_RESP_OKAY waits=1 wdata=0x9422ef79
# UVM_INFO ../src/mst/ahb_master_monitor.sv(128) @ 715000: uvm_test_top.env.master_agent.mon [ahb_master_monitor] Beat[3] addr=0x00010172 wdata=0x9422ef79 resp=AHB_RESP_OKAY
# UVM_INFO ../src/mst/ahb_master_driver.sv(332) @ 735000: uvm_test_top.env.master_agent.drv [ahb_master_driver] Beat[4/6] addr=0x00010174 trans=AHB_TRANS_SEQ resp=AHB_RESP_OKAY wdata=0xe50cf36b
# UVM_INFO ../src/slv/ahb_slave_driver.sv(184) @ 735000: uvm_test_top.env.slave_agent.drv [ahb_slave_driver] Beat AHB_WRITE addr=0x00010174 resp=AHB_RESP_OKAY waits=1 wdata=0xe50cf36b
# UVM_INFO ../src/mst/ahb_master_monitor.sv(128) @ 735000: uvm_test_top.env.master_agent.mon [ahb_master_monitor] Beat[4] addr=0x00010174 wdata=0xe50cf36b resp=AHB_RESP_OKAY
# UVM_INFO ../src/mst/ahb_master_driver.sv(332) @ 755000: uvm_test_top.env.master_agent.drv [ahb_master_driver] Beat[5/6] addr=0x00010176 trans=AHB_TRANS_SEQ resp=AHB_RESP_OKAY wdata=0xaf50427c
# UVM_INFO ../src/mst/ahb_master_driver.sv(376) @ 755000: uvm_test_top.env.master_agent.drv [ahb_master_driver] Transaction complete: AHB_WRITE 0x0001016c, 6 beats, burst=AHB_BURST_INCR
# UVM_INFO ../src/mst/ahb_master_driver.sv(127) @ 755000: uvm_test_top.env.master_agent.drv [ahb_master_driver] Driving [AHB_READ]: HADDR=0x0001016c, HBURST=AHB_BURST_INCR, HSIZE=AHB_SIZE_16B, 6 beats (back-to-back)
# UVM_INFO ../src/slv/ahb_slave_driver.sv(184) @ 755000: uvm_test_top.env.slave_agent.drv [ahb_slave_driver] Beat AHB_WRITE addr=0x00010176 resp=AHB_RESP_OKAY waits=1 wdata=0xaf50427c
# UVM_INFO ../src/slv/ahb_slave_monitor.sv(212) @ 755000: uvm_test_top.env.slave_agent.mon [ahb_slave_monitor] Observed [AHB_WRITE]: HADDR=0x0001016c, HBURST=AHB_BURST_INCR, HSIZE=AHB_SIZE_16B, 6 beats
# UVM_INFO ../src/env/ahb_coverage.sv(174) @ 755000: uvm_test_top.env.slave_cov [ahb_coverage] Sampled [AHB_WRITE]: burst=AHB_BURST_INCR size=AHB_SIZE_16B beats=6 error=0
# UVM_INFO ../src/mst/ahb_master_monitor.sv(128) @ 755000: uvm_test_top.env.master_agent.mon [ahb_master_monitor] Beat[5] addr=0x00010176 wdata=0xaf50427c resp=AHB_RESP_OKAY
# UVM_INFO ../src/mst/ahb_master_monitor.sv(231) @ 755000: uvm_test_top.env.master_agent.mon [ahb_master_monitor] Observed [AHB_WRITE]: HADDR=0x0001016c, HBURST=AHB_BURST_INCR, HSIZE=AHB_SIZE_16B, 6 beats
# UVM_INFO ../src/env/ahb_coverage.sv(174) @ 755000: uvm_test_top.env.master_cov [ahb_coverage] Sampled [AHB_WRITE]: burst=AHB_BURST_INCR size=AHB_SIZE_16B beats=6 error=0
# UVM_INFO ../src/env/ahb_scoreboard.sv(104) @ 755000: uvm_test_top.env.scb [ahb_scoreboard] MATCH #11: [AHB_WRITE] HADDR=0x0001016c AHB_BURST_INCR 6 beats
# UVM_INFO ../src/mst/ahb_master_driver.sv(85) @ 755000: uvm_test_top.env.master_agent.drv [ahb_master_driver] Queueing [AHB_WRITE]: HADDR=0x000101e9, HBURST=AHB_BURST_INCR4, HSIZE=AHB_SIZE_8B, 4 beats
# UVM_INFO ../src/mst/ahb_master_driver.sv(332) @ 775000: uvm_test_top.env.master_agent.drv [ahb_master_driver] Beat[0/6] addr=0x0001016c trans=AHB_TRANS_NONSEQ resp=AHB_RESP_OKAY rdata=0x08a9df59
# UVM_INFO ../src/slv/ahb_slave_driver.sv(184) @ 775000: uvm_test_top.env.slave_agent.drv [ahb_slave_driver] Beat AHB_READ addr=0x0001016c resp=AHB_RESP_OKAY waits=1 rdata=0x08a9df59
# UVM_INFO ../src/mst/ahb_master_monitor.sv(128) @ 775000: uvm_test_top.env.master_agent.mon [ahb_master_monitor] Beat[0] addr=0x0001016c rdata=0x08a9df59 resp=AHB_RESP_OKAY
# UVM_INFO ../src/mst/ahb_master_driver.sv(332) @ 795000: uvm_test_top.env.master_agent.drv [ahb_master_driver] Beat[1/6] addr=0x0001016e trans=AHB_TRANS_SEQ resp=AHB_RESP_OKAY rdata=0xdf86578d
# UVM_INFO ../src/slv/ahb_slave_driver.sv(184) @ 795000: uvm_test_top.env.slave_agent.drv [ahb_slave_driver] Beat AHB_READ addr=0x0001016e resp=AHB_RESP_OKAY waits=1 rdata=0xdf86578d
# UVM_INFO ../src/mst/ahb_master_monitor.sv(128) @ 795000: uvm_test_top.env.master_agent.mon [ahb_master_monitor] Beat[1] addr=0x0001016e rdata=0xdf86578d resp=AHB_RESP_OKAY
# UVM_INFO ../src/mst/ahb_master_driver.sv(332) @ 815000: uvm_test_top.env.master_agent.drv [ahb_master_driver] Beat[2/6] addr=0x00010170 trans=AHB_TRANS_SEQ resp=AHB_RESP_OKAY rdata=0xb629feef
# UVM_INFO ../src/slv/ahb_slave_driver.sv(184) @ 815000: uvm_test_top.env.slave_agent.drv [ahb_slave_driver] Beat AHB_READ addr=0x00010170 resp=AHB_RESP_OKAY waits=1 rdata=0xb629feef
# UVM_INFO ../src/mst/ahb_master_monitor.sv(128) @ 815000: uvm_test_top.env.master_agent.mon [ahb_master_monitor] Beat[2] addr=0x00010170 rdata=0xb629feef resp=AHB_RESP_OKAY
# UVM_INFO ../src/mst/ahb_master_driver.sv(332) @ 835000: uvm_test_top.env.master_agent.drv [ahb_master_driver] Beat[3/6] addr=0x00010172 trans=AHB_TRANS_SEQ resp=AHB_RESP_OKAY rdata=0x9422ef79
# UVM_INFO ../src/slv/ahb_slave_driver.sv(184) @ 835000: uvm_test_top.env.slave_agent.drv [ahb_slave_driver] Beat AHB_READ addr=0x00010172 resp=AHB_RESP_OKAY waits=1 rdata=0x9422ef79
# UVM_INFO ../src/mst/ahb_master_monitor.sv(128) @ 835000: uvm_test_top.env.master_agent.mon [ahb_master_monitor] Beat[3] addr=0x00010172 rdata=0x9422ef79 resp=AHB_RESP_OKAY
# UVM_INFO ../src/mst/ahb_master_driver.sv(332) @ 855000: uvm_test_top.env.master_agent.drv [ahb_master_driver] Beat[4/6] addr=0x00010174 trans=AHB_TRANS_SEQ resp=AHB_RESP_OKAY rdata=0xe50cf36b
# UVM_INFO ../src/slv/ahb_slave_driver.sv(184) @ 855000: uvm_test_top.env.slave_agent.drv [ahb_slave_driver] Beat AHB_READ addr=0x00010174 resp=AHB_RESP_OKAY waits=1 rdata=0xe50cf36b
# UVM_INFO ../src/mst/ahb_master_monitor.sv(128) @ 855000: uvm_test_top.env.master_agent.mon [ahb_master_monitor] Beat[4] addr=0x00010174 rdata=0xe50cf36b resp=AHB_RESP_OKAY
# UVM_INFO ../src/mst/ahb_master_driver.sv(332) @ 875000: uvm_test_top.env.master_agent.drv [ahb_master_driver] Beat[5/6] addr=0x00010176 trans=AHB_TRANS_SEQ resp=AHB_RESP_OKAY rdata=0xaf50427c
# UVM_INFO ../src/mst/ahb_master_driver.sv(376) @ 875000: uvm_test_top.env.master_agent.drv [ahb_master_driver] Transaction complete: AHB_READ 0x0001016c, 6 beats, burst=AHB_BURST_INCR
# UVM_INFO ../src/mst/ahb_master_driver.sv(127) @ 875000: uvm_test_top.env.master_agent.drv [ahb_master_driver] Driving [AHB_WRITE]: HADDR=0x000101ba, HBURST=AHB_BURST_WRAP4, HSIZE=AHB_SIZE_16B, 4 beats (back-to-back)
# UVM_INFO ../src/slv/ahb_slave_driver.sv(184) @ 875000: uvm_test_top.env.slave_agent.drv [ahb_slave_driver] Beat AHB_READ addr=0x00010176 resp=AHB_RESP_OKAY waits=1 rdata=0xaf50427c
# UVM_INFO ../src/slv/ahb_slave_monitor.sv(212) @ 875000: uvm_test_top.env.slave_agent.mon [ahb_slave_monitor] Observed [AHB_READ]: HADDR=0x0001016c, HBURST=AHB_BURST_INCR, HSIZE=AHB_SIZE_16B, 6 beats
# UVM_INFO ../src/env/ahb_coverage.sv(174) @ 875000: uvm_test_top.env.slave_cov [ahb_coverage] Sampled [AHB_READ]: burst=AHB_BURST_INCR size=AHB_SIZE_16B beats=6 error=0
# UVM_INFO ../src/mst/ahb_master_monitor.sv(128) @ 875000: uvm_test_top.env.master_agent.mon [ahb_master_monitor] Beat[5] addr=0x00010176 rdata=0xaf50427c resp=AHB_RESP_OKAY
# UVM_INFO ../src/mst/ahb_master_monitor.sv(231) @ 875000: uvm_test_top.env.master_agent.mon [ahb_master_monitor] Observed [AHB_READ]: HADDR=0x0001016c, HBURST=AHB_BURST_INCR, HSIZE=AHB_SIZE_16B, 6 beats
# UVM_INFO ../src/env/ahb_coverage.sv(174) @ 875000: uvm_test_top.env.master_cov [ahb_coverage] Sampled [AHB_READ]: burst=AHB_BURST_INCR size=AHB_SIZE_16B beats=6 error=0
# UVM_INFO ../src/env/ahb_scoreboard.sv(104) @ 875000: uvm_test_top.env.scb [ahb_scoreboard] MATCH #12: [AHB_READ] HADDR=0x0001016c AHB_BURST_INCR 6 beats
# UVM_INFO ../src/mst/ahb_master_driver.sv(85) @ 875000: uvm_test_top.env.master_agent.drv [ahb_master_driver] Queueing [AHB_READ]: HADDR=0x000101e9, HBURST=AHB_BURST_INCR4, HSIZE=AHB_SIZE_8B, 4 beats
# UVM_INFO ../src/mst_seq/ahb_base_seq.sv(157) @ 875000: uvm_test_top.env.master_agent.sqr@@seq [ahb_back_to_back_seq] AHB_BURST_INCR AHB_SIZE_8B beat 0 @0x0001011e ok
# UVM_INFO ../src/mst_seq/ahb_base_seq.sv(157) @ 875000: uvm_test_top.env.master_agent.sqr@@seq [ahb_back_to_back_seq] AHB_BURST_INCR AHB_SIZE_8B beat 1 @0x0001011f ok
# UVM_INFO ../src/mst_seq/ahb_base_seq.sv(157) @ 875000: uvm_test_top.env.master_agent.sqr@@seq [ahb_back_to_back_seq] AHB_BURST_INCR AHB_SIZE_8B beat 2 @0x00010120 ok
# UVM_INFO ../src/mst_seq/ahb_base_seq.sv(157) @ 875000: uvm_test_top.env.master_agent.sqr@@seq [ahb_back_to_back_seq] AHB_BURST_INCR AHB_SIZE_8B beat 3 @0x00010121 ok
# UVM_INFO ../src/mst_seq/ahb_base_seq.sv(157) @ 875000: uvm_test_top.env.master_agent.sqr@@seq [ahb_back_to_back_seq] AHB_BURST_INCR AHB_SIZE_8B beat 4 @0x00010122 ok
# UVM_INFO ../src/mst_seq/ahb_base_seq.sv(157) @ 875000: uvm_test_top.env.master_agent.sqr@@seq [ahb_back_to_back_seq] AHB_BURST_INCR AHB_SIZE_8B beat 5 @0x00010123 ok
# UVM_INFO ../src/mst_seq/ahb_base_seq.sv(157) @ 875000: uvm_test_top.env.master_agent.sqr@@seq [ahb_back_to_back_seq] AHB_BURST_INCR AHB_SIZE_8B beat 6 @0x00010124 ok
# UVM_INFO ../src/mst_seq/ahb_base_seq.sv(157) @ 875000: uvm_test_top.env.master_agent.sqr@@seq [ahb_back_to_back_seq] AHB_BURST_INCR AHB_SIZE_16B beat 0 @0x0001016c ok
# UVM_INFO ../src/mst_seq/ahb_base_seq.sv(157) @ 875000: uvm_test_top.env.master_agent.sqr@@seq [ahb_back_to_back_seq] AHB_BURST_INCR AHB_SIZE_16B beat 1 @0x0001016e ok
# UVM_INFO ../src/mst_seq/ahb_base_seq.sv(157) @ 875000: uvm_test_top.env.master_agent.sqr@@seq [ahb_back_to_back_seq] AHB_BURST_INCR AHB_SIZE_16B beat 2 @0x00010170 ok
# UVM_INFO ../src/mst_seq/ahb_base_seq.sv(157) @ 875000: uvm_test_top.env.master_agent.sqr@@seq [ahb_back_to_back_seq] AHB_BURST_INCR AHB_SIZE_16B beat 3 @0x00010172 ok
# UVM_INFO ../src/mst_seq/ahb_base_seq.sv(157) @ 875000: uvm_test_top.env.master_agent.sqr@@seq [ahb_back_to_back_seq] AHB_BURST_INCR AHB_SIZE_16B beat 4 @0x00010174 ok
# UVM_INFO ../src/mst_seq/ahb_base_seq.sv(157) @ 875000: uvm_test_top.env.master_agent.sqr@@seq [ahb_back_to_back_seq] AHB_BURST_INCR AHB_SIZE_16B beat 5 @0x00010176 ok
# UVM_INFO ../src/mst/ahb_master_driver.sv(332) @ 885000: uvm_test_top.env.master_agent.drv [ahb_master_driver] Beat[0/4] addr=0x000101ba trans=AHB_TRANS_NONSEQ resp=AHB_RESP_OKAY wdata=0x92eebc2f
# UVM_INFO ../src/slv/ahb_slave_driver.sv(184) @ 885000: uvm_test_top.env.slave_agent.drv [ahb_slave_driver] Beat AHB_WRITE addr=0x000101ba resp=AHB_RESP_OKAY waits=0 wdata=0x92eebc2f
# UVM_INFO ../src/mst/ahb_master_monitor.sv(128) @ 885000: uvm_test_top.env.master_agent.mon [ahb_master_monitor] Beat[0] addr=0x000101ba wdata=0x92eebc2f resp=AHB_RESP_OKAY
# UVM_INFO ../src/mst/ahb_master_driver.sv(332) @ 905000: uvm_test_top.env.master_agent.drv [ahb_master_driver] Beat[1/4] addr=0x000101bc trans=AHB_TRANS_SEQ resp=AHB_RESP_OKAY wdata=0xd713b2a3
# UVM_INFO ../src/slv/ahb_slave_driver.sv(184) @ 905000: uvm_test_top.env.slave_agent.drv [ahb_slave_driver] Beat AHB_WRITE addr=0x000101bc resp=AHB_RESP_OKAY waits=1 wdata=0xd713b2a3
# UVM_INFO ../src/mst/ahb_master_monitor.sv(128) @ 905000: uvm_test_top.env.master_agent.mon [ahb_master_monitor] Beat[1] addr=0x000101bc wdata=0xd713b2a3 resp=AHB_RESP_OKAY
# UVM_INFO ../src/mst/ahb_master_driver.sv(332) @ 925000: uvm_test_top.env.master_agent.drv [ahb_master_driver] Beat[2/4] addr=0x000101be trans=AHB_TRANS_SEQ resp=AHB_RESP_OKAY wdata=0xf89e534b
# UVM_INFO ../src/slv/ahb_slave_driver.sv(184) @ 925000: uvm_test_top.env.slave_agent.drv [ahb_slave_driver] Beat AHB_WRITE addr=0x000101be resp=AHB_RESP_OKAY waits=1 wdata=0xf89e534b
# UVM_INFO ../src/mst/ahb_master_monitor.sv(128) @ 925000: uvm_test_top.env.master_agent.mon [ahb_master_monitor] Beat[2] addr=0x000101be wdata=0xf89e534b resp=AHB_RESP_OKAY
# UVM_INFO ../src/mst/ahb_master_driver.sv(332) @ 945000: uvm_test_top.env.master_agent.drv [ahb_master_driver] Beat[3/4] addr=0x000101b8 trans=AHB_TRANS_SEQ resp=AHB_RESP_OKAY wdata=0xec115068
# UVM_INFO ../src/mst/ahb_master_driver.sv(376) @ 945000: uvm_test_top.env.master_agent.drv [ahb_master_driver] Transaction complete: AHB_WRITE 0x000101ba, 4 beats, burst=AHB_BURST_WRAP4
# UVM_INFO ../src/mst/ahb_master_driver.sv(127) @ 945000: uvm_test_top.env.master_agent.drv [ahb_master_driver] Driving [AHB_READ]: HADDR=0x000101ba, HBURST=AHB_BURST_WRAP4, HSIZE=AHB_SIZE_16B, 4 beats (back-to-back)
# UVM_INFO ../src/slv/ahb_slave_driver.sv(184) @ 945000: uvm_test_top.env.slave_agent.drv [ahb_slave_driver] Beat AHB_WRITE addr=0x000101b8 resp=AHB_RESP_OKAY waits=1 wdata=0xec115068
# UVM_INFO ../src/mst/ahb_master_monitor.sv(128) @ 945000: uvm_test_top.env.master_agent.mon [ahb_master_monitor] Beat[3] addr=0x000101b8 wdata=0xec115068 resp=AHB_RESP_OKAY
# UVM_INFO ../src/mst/ahb_master_monitor.sv(231) @ 945000: uvm_test_top.env.master_agent.mon [ahb_master_monitor] Observed [AHB_WRITE]: HADDR=0x000101ba, HBURST=AHB_BURST_WRAP4, HSIZE=AHB_SIZE_16B, 4 beats
# UVM_INFO ../src/env/ahb_coverage.sv(174) @ 945000: uvm_test_top.env.master_cov [ahb_coverage] Sampled [AHB_WRITE]: burst=AHB_BURST_WRAP4 size=AHB_SIZE_16B beats=4 error=0
# UVM_INFO ../src/slv/ahb_slave_monitor.sv(212) @ 945000: uvm_test_top.env.slave_agent.mon [ahb_slave_monitor] Observed [AHB_WRITE]: HADDR=0x000101ba, HBURST=AHB_BURST_WRAP4, HSIZE=AHB_SIZE_16B, 4 beats
# UVM_INFO ../src/env/ahb_scoreboard.sv(104) @ 945000: uvm_test_top.env.scb [ahb_scoreboard] MATCH #13: [AHB_WRITE] HADDR=0x000101ba AHB_BURST_WRAP4 4 beats
# UVM_INFO ../src/env/ahb_coverage.sv(174) @ 945000: uvm_test_top.env.slave_cov [ahb_coverage] Sampled [AHB_WRITE]: burst=AHB_BURST_WRAP4 size=AHB_SIZE_16B beats=4 error=0
# UVM_INFO ../src/mst/ahb_master_driver.sv(332) @ 955000: uvm_test_top.env.master_agent.drv [ahb_master_driver] Beat[0/4] addr=0x000101ba trans=AHB_TRANS_NONSEQ resp=AHB_RESP_OKAY rdata=0x92eebc2f
# UVM_INFO ../src/slv/ahb_slave_driver.sv(184) @ 955000: uvm_test_top.env.slave_agent.drv [ahb_slave_driver] Beat AHB_READ addr=0x000101ba resp=AHB_RESP_OKAY waits=0 rdata=0x92eebc2f
# UVM_INFO ../src/mst/ahb_master_monitor.sv(128) @ 955000: uvm_test_top.env.master_agent.mon [ahb_master_monitor] Beat[0] addr=0x000101ba rdata=0x92eebc2f resp=AHB_RESP_OKAY
# UVM_INFO ../src/mst/ahb_master_driver.sv(332) @ 975000: uvm_test_top.env.master_agent.drv [ahb_master_driver] Beat[1/4] addr=0x000101bc trans=AHB_TRANS_SEQ resp=AHB_RESP_OKAY rdata=0xd713b2a3
# UVM_INFO ../src/slv/ahb_slave_driver.sv(184) @ 975000: uvm_test_top.env.slave_agent.drv [ahb_slave_driver] Beat AHB_READ addr=0x000101bc resp=AHB_RESP_OKAY waits=1 rdata=0xd713b2a3
# UVM_INFO ../src/mst/ahb_master_monitor.sv(128) @ 975000: uvm_test_top.env.master_agent.mon [ahb_master_monitor] Beat[1] addr=0x000101bc rdata=0xd713b2a3 resp=AHB_RESP_OKAY
# UVM_INFO ../src/mst/ahb_master_driver.sv(332) @ 985000: uvm_test_top.env.master_agent.drv [ahb_master_driver] Beat[2/4] addr=0x000101be trans=AHB_TRANS_SEQ resp=AHB_RESP_OKAY rdata=0xf89e534b
# UVM_INFO ../src/slv/ahb_slave_driver.sv(184) @ 985000: uvm_test_top.env.slave_agent.drv [ahb_slave_driver] Beat AHB_READ addr=0x000101be resp=AHB_RESP_OKAY waits=0 rdata=0xf89e534b
# UVM_INFO ../src/mst/ahb_master_monitor.sv(128) @ 985000: uvm_test_top.env.master_agent.mon [ahb_master_monitor] Beat[2] addr=0x000101be rdata=0xf89e534b resp=AHB_RESP_OKAY
# UVM_INFO ../src/mst/ahb_master_driver.sv(332) @ 995000: uvm_test_top.env.master_agent.drv [ahb_master_driver] Beat[3/4] addr=0x000101b8 trans=AHB_TRANS_SEQ resp=AHB_RESP_OKAY rdata=0xec115068
# UVM_INFO ../src/mst/ahb_master_driver.sv(376) @ 995000: uvm_test_top.env.master_agent.drv [ahb_master_driver] Transaction complete: AHB_READ 0x000101ba, 4 beats, burst=AHB_BURST_WRAP4
# UVM_INFO ../src/mst/ahb_master_driver.sv(127) @ 995000: uvm_test_top.env.master_agent.drv [ahb_master_driver] Driving [AHB_WRITE]: HADDR=0x000101e9, HBURST=AHB_BURST_INCR4, HSIZE=AHB_SIZE_8B, 4 beats (back-to-back)
# UVM_INFO ../src/slv/ahb_slave_driver.sv(184) @ 995000: uvm_test_top.env.slave_agent.drv [ahb_slave_driver] Beat AHB_READ addr=0x000101b8 resp=AHB_RESP_OKAY waits=0 rdata=0xec115068
# UVM_INFO ../src/slv/ahb_slave_monitor.sv(212) @ 995000: uvm_test_top.env.slave_agent.mon [ahb_slave_monitor] Observed [AHB_READ]: HADDR=0x000101ba, HBURST=AHB_BURST_WRAP4, HSIZE=AHB_SIZE_16B, 4 beats
# UVM_INFO ../src/env/ahb_coverage.sv(174) @ 995000: uvm_test_top.env.slave_cov [ahb_coverage] Sampled [AHB_READ]: burst=AHB_BURST_WRAP4 size=AHB_SIZE_16B beats=4 error=0
# UVM_INFO ../src/mst/ahb_master_monitor.sv(128) @ 995000: uvm_test_top.env.master_agent.mon [ahb_master_monitor] Beat[3] addr=0x000101b8 rdata=0xec115068 resp=AHB_RESP_OKAY
# UVM_INFO ../src/mst/ahb_master_monitor.sv(231) @ 995000: uvm_test_top.env.master_agent.mon [ahb_master_monitor] Observed [AHB_READ]: HADDR=0x000101ba, HBURST=AHB_BURST_WRAP4, HSIZE=AHB_SIZE_16B, 4 beats
# UVM_INFO ../src/env/ahb_coverage.sv(174) @ 995000: uvm_test_top.env.master_cov [ahb_coverage] Sampled [AHB_READ]: burst=AHB_BURST_WRAP4 size=AHB_SIZE_16B beats=4 error=0
# UVM_INFO ../src/env/ahb_scoreboard.sv(104) @ 995000: uvm_test_top.env.scb [ahb_scoreboard] MATCH #14: [AHB_READ] HADDR=0x000101ba AHB_BURST_WRAP4 4 beats
# UVM_INFO ../src/mst_seq/ahb_base_seq.sv(157) @ 995000: uvm_test_top.env.master_agent.sqr@@seq [ahb_back_to_back_seq] AHB_BURST_WRAP4 AHB_SIZE_16B beat 0 @0x000101ba ok
# UVM_INFO ../src/mst_seq/ahb_base_seq.sv(157) @ 995000: uvm_test_top.env.master_agent.sqr@@seq [ahb_back_to_back_seq] AHB_BURST_WRAP4 AHB_SIZE_16B beat 1 @0x000101bc ok
# UVM_INFO ../src/mst_seq/ahb_base_seq.sv(157) @ 995000: uvm_test_top.env.master_agent.sqr@@seq [ahb_back_to_back_seq] AHB_BURST_WRAP4 AHB_SIZE_16B beat 2 @0x000101be ok
# UVM_INFO ../src/mst_seq/ahb_base_seq.sv(157) @ 995000: uvm_test_top.env.master_agent.sqr@@seq [ahb_back_to_back_seq] AHB_BURST_WRAP4 AHB_SIZE_16B beat 3 @0x000101b8 ok
# UVM_INFO ../src/mst/ahb_master_driver.sv(332) @ 1005000: uvm_test_top.env.master_agent.drv [ahb_master_driver] Beat[0/4] addr=0x000101e9 trans=AHB_TRANS_NONSEQ resp=AHB_RESP_OKAY wdata=0xdcff6432
# UVM_INFO ../src/slv/ahb_slave_driver.sv(184) @ 1005000: uvm_test_top.env.slave_agent.drv [ahb_slave_driver] Beat AHB_WRITE addr=0x000101e9 resp=AHB_RESP_OKAY waits=0 wdata=0xdcff6432
# UVM_INFO ../src/mst/ahb_master_monitor.sv(128) @ 1005000: uvm_test_top.env.master_agent.mon [ahb_master_monitor] Beat[0] addr=0x000101e9 wdata=0xdcff6432 resp=AHB_RESP_OKAY
# UVM_INFO ../src/mst/ahb_master_driver.sv(332) @ 1015000: uvm_test_top.env.master_agent.drv [ahb_master_driver] Beat[1/4] addr=0x000101ea trans=AHB_TRANS_SEQ resp=AHB_RESP_OKAY wdata=0x9f88e0fa
# UVM_INFO ../src/slv/ahb_slave_driver.sv(184) @ 1015000: uvm_test_top.env.slave_agent.drv [ahb_slave_driver] Beat AHB_WRITE addr=0x000101ea resp=AHB_RESP_OKAY waits=0 wdata=0x9f88e0fa
# UVM_INFO ../src/mst/ahb_master_monitor.sv(128) @ 1015000: uvm_test_top.env.master_agent.mon [ahb_master_monitor] Beat[1] addr=0x000101ea wdata=0x9f88e0fa resp=AHB_RESP_OKAY
# UVM_INFO ../src/mst/ahb_master_driver.sv(332) @ 1025000: uvm_test_top.env.master_agent.drv [ahb_master_driver] Beat[2/4] addr=0x000101eb trans=AHB_TRANS_SEQ resp=AHB_RESP_OKAY wdata=0x542db14a
# UVM_INFO ../src/slv/ahb_slave_driver.sv(184) @ 1025000: uvm_test_top.env.slave_agent.drv [ahb_slave_driver] Beat AHB_WRITE addr=0x000101eb resp=AHB_RESP_OKAY waits=0 wdata=0x542db14a
# UVM_INFO ../src/mst/ahb_master_monitor.sv(128) @ 1025000: uvm_test_top.env.master_agent.mon [ahb_master_monitor] Beat[2] addr=0x000101eb wdata=0x542db14a resp=AHB_RESP_OKAY
# UVM_INFO ../src/mst/ahb_master_driver.sv(332) @ 1035000: uvm_test_top.env.master_agent.drv [ahb_master_driver] Beat[3/4] addr=0x000101ec trans=AHB_TRANS_SEQ resp=AHB_RESP_OKAY wdata=0x4c13e916
# UVM_INFO ../src/mst/ahb_master_driver.sv(376) @ 1035000: uvm_test_top.env.master_agent.drv [ahb_master_driver] Transaction complete: AHB_WRITE 0x000101e9, 4 beats, burst=AHB_BURST_INCR4
# UVM_INFO ../src/mst/ahb_master_driver.sv(127) @ 1035000: uvm_test_top.env.master_agent.drv [ahb_master_driver] Driving [AHB_READ]: HADDR=0x000101e9, HBURST=AHB_BURST_INCR4, HSIZE=AHB_SIZE_8B, 4 beats (back-to-back)
# UVM_INFO ../src/slv/ahb_slave_driver.sv(184) @ 1035000: uvm_test_top.env.slave_agent.drv [ahb_slave_driver] Beat AHB_WRITE addr=0x000101ec resp=AHB_RESP_OKAY waits=0 wdata=0x4c13e916
# UVM_INFO ../src/slv/ahb_slave_monitor.sv(212) @ 1035000: uvm_test_top.env.slave_agent.mon [ahb_slave_monitor] Observed [AHB_WRITE]: HADDR=0x000101e9, HBURST=AHB_BURST_INCR4, HSIZE=AHB_SIZE_8B, 4 beats
# UVM_INFO ../src/env/ahb_coverage.sv(174) @ 1035000: uvm_test_top.env.slave_cov [ahb_coverage] Sampled [AHB_WRITE]: burst=AHB_BURST_INCR4 size=AHB_SIZE_8B beats=4 error=0
# UVM_INFO ../src/mst/ahb_master_monitor.sv(128) @ 1035000: uvm_test_top.env.master_agent.mon [ahb_master_monitor] Beat[3] addr=0x000101ec wdata=0x4c13e916 resp=AHB_RESP_OKAY
# UVM_INFO ../src/mst/ahb_master_monitor.sv(231) @ 1035000: uvm_test_top.env.master_agent.mon [ahb_master_monitor] Observed [AHB_WRITE]: HADDR=0x000101e9, HBURST=AHB_BURST_INCR4, HSIZE=AHB_SIZE_8B, 4 beats
# UVM_INFO ../src/env/ahb_coverage.sv(174) @ 1035000: uvm_test_top.env.master_cov [ahb_coverage] Sampled [AHB_WRITE]: burst=AHB_BURST_INCR4 size=AHB_SIZE_8B beats=4 error=0
# UVM_INFO ../src/env/ahb_scoreboard.sv(104) @ 1035000: uvm_test_top.env.scb [ahb_scoreboard] MATCH #15: [AHB_WRITE] HADDR=0x000101e9 AHB_BURST_INCR4 4 beats
# UVM_INFO ../src/mst/ahb_master_driver.sv(332) @ 1045000: uvm_test_top.env.master_agent.drv [ahb_master_driver] Beat[0/4] addr=0x000101e9 trans=AHB_TRANS_NONSEQ resp=AHB_RESP_OKAY rdata=0xdcff6432
# UVM_INFO ../src/slv/ahb_slave_driver.sv(184) @ 1045000: uvm_test_top.env.slave_agent.drv [ahb_slave_driver] Beat AHB_READ addr=0x000101e9 resp=AHB_RESP_OKAY waits=0 rdata=0xdcff6432
# UVM_INFO ../src/mst/ahb_master_monitor.sv(128) @ 1045000: uvm_test_top.env.master_agent.mon [ahb_master_monitor] Beat[0] addr=0x000101e9 rdata=0xdcff6432 resp=AHB_RESP_OKAY
# UVM_INFO ../src/mst/ahb_master_driver.sv(332) @ 1055000: uvm_test_top.env.master_agent.drv [ahb_master_driver] Beat[1/4] addr=0x000101ea trans=AHB_TRANS_SEQ resp=AHB_RESP_OKAY rdata=0x9f88e0fa
# UVM_INFO ../src/slv/ahb_slave_driver.sv(184) @ 1055000: uvm_test_top.env.slave_agent.drv [ahb_slave_driver] Beat AHB_READ addr=0x000101ea resp=AHB_RESP_OKAY waits=0 rdata=0x9f88e0fa
# UVM_INFO ../src/mst/ahb_master_monitor.sv(128) @ 1055000: uvm_test_top.env.master_agent.mon [ahb_master_monitor] Beat[1] addr=0x000101ea rdata=0x9f88e0fa resp=AHB_RESP_OKAY
# UVM_INFO ../src/mst/ahb_master_driver.sv(332) @ 1075000: uvm_test_top.env.master_agent.drv [ahb_master_driver] Beat[2/4] addr=0x000101eb trans=AHB_TRANS_SEQ resp=AHB_RESP_OKAY rdata=0x542db14a
# UVM_INFO ../src/slv/ahb_slave_driver.sv(184) @ 1075000: uvm_test_top.env.slave_agent.drv [ahb_slave_driver] Beat AHB_READ addr=0x000101eb resp=AHB_RESP_OKAY waits=1 rdata=0x542db14a
# UVM_INFO ../src/mst/ahb_master_monitor.sv(128) @ 1075000: uvm_test_top.env.master_agent.mon [ahb_master_monitor] Beat[2] addr=0x000101eb rdata=0x542db14a resp=AHB_RESP_OKAY
# UVM_INFO ../src/mst/ahb_master_driver.sv(332) @ 1095000: uvm_test_top.env.master_agent.drv [ahb_master_driver] Beat[3/4] addr=0x000101ec trans=AHB_TRANS_SEQ resp=AHB_RESP_OKAY rdata=0x4c13e916
# UVM_INFO ../src/mst/ahb_master_driver.sv(376) @ 1095000: uvm_test_top.env.master_agent.drv [ahb_master_driver] Transaction complete: AHB_READ 0x000101e9, 4 beats, burst=AHB_BURST_INCR4
# UVM_INFO ../src/slv/ahb_slave_driver.sv(184) @ 1095000: uvm_test_top.env.slave_agent.drv [ahb_slave_driver] Beat AHB_READ addr=0x000101ec resp=AHB_RESP_OKAY waits=1 rdata=0x4c13e916
# UVM_INFO ../src/slv/ahb_slave_monitor.sv(212) @ 1095000: uvm_test_top.env.slave_agent.mon [ahb_slave_monitor] Observed [AHB_READ]: HADDR=0x000101e9, HBURST=AHB_BURST_INCR4, HSIZE=AHB_SIZE_8B, 4 beats
# UVM_INFO ../src/env/ahb_coverage.sv(174) @ 1095000: uvm_test_top.env.slave_cov [ahb_coverage] Sampled [AHB_READ]: burst=AHB_BURST_INCR4 size=AHB_SIZE_8B beats=4 error=0
# UVM_INFO ../src/mst/ahb_master_monitor.sv(128) @ 1095000: uvm_test_top.env.master_agent.mon [ahb_master_monitor] Beat[3] addr=0x000101ec rdata=0x4c13e916 resp=AHB_RESP_OKAY
# UVM_INFO ../src/mst/ahb_master_monitor.sv(231) @ 1095000: uvm_test_top.env.master_agent.mon [ahb_master_monitor] Observed [AHB_READ]: HADDR=0x000101e9, HBURST=AHB_BURST_INCR4, HSIZE=AHB_SIZE_8B, 4 beats
# UVM_INFO ../src/env/ahb_coverage.sv(174) @ 1095000: uvm_test_top.env.master_cov [ahb_coverage] Sampled [AHB_READ]: burst=AHB_BURST_INCR4 size=AHB_SIZE_8B beats=4 error=0
# UVM_INFO ../src/env/ahb_scoreboard.sv(104) @ 1095000: uvm_test_top.env.scb [ahb_scoreboard] MATCH #16: [AHB_READ] HADDR=0x000101e9 AHB_BURST_INCR4 4 beats
# UVM_INFO ../src/mst_seq/ahb_base_seq.sv(157) @ 1095000: uvm_test_top.env.master_agent.sqr@@seq [ahb_back_to_back_seq] AHB_BURST_INCR4 AHB_SIZE_8B beat 0 @0x000101e9 ok
# UVM_INFO ../src/mst_seq/ahb_base_seq.sv(157) @ 1095000: uvm_test_top.env.master_agent.sqr@@seq [ahb_back_to_back_seq] AHB_BURST_INCR4 AHB_SIZE_8B beat 1 @0x000101ea ok
# UVM_INFO ../src/mst_seq/ahb_base_seq.sv(157) @ 1095000: uvm_test_top.env.master_agent.sqr@@seq [ahb_back_to_back_seq] AHB_BURST_INCR4 AHB_SIZE_8B beat 2 @0x000101eb ok
# UVM_INFO ../src/mst_seq/ahb_base_seq.sv(157) @ 1095000: uvm_test_top.env.master_agent.sqr@@seq [ahb_back_to_back_seq] AHB_BURST_INCR4 AHB_SIZE_8B beat 3 @0x000101ec ok
# UVM_INFO ../src/mst_seq/ahb_back_to_back_seq.sv(172) @ 1095000: uvm_test_top.env.master_agent.sqr@@seq [ahb_back_to_back_seq] Batch 3/8: 4 pairs, max_outstanding=2
# UVM_INFO ../src/mst/ahb_master_driver.sv(85) @ 1095000: uvm_test_top.env.master_agent.drv [ahb_master_driver] Queueing [AHB_WRITE]: HADDR=0x0001020e, HBURST=AHB_BURST_WRAP4, HSIZE=AHB_SIZE_16B, 4 beats
# UVM_INFO ../src/mst/ahb_master_driver.sv(127) @ 1095000: uvm_test_top.env.master_agent.drv [ahb_master_driver] Driving [AHB_WRITE]: HADDR=0x0001020e, HBURST=AHB_BURST_WRAP4, HSIZE=AHB_SIZE_16B, 4 beats               
# UVM_INFO ../src/mst/ahb_master_driver.sv(85) @ 1095000: uvm_test_top.env.master_agent.drv [ahb_master_driver] Queueing [AHB_READ]: HADDR=0x0001020e, HBURST=AHB_BURST_WRAP4, HSIZE=AHB_SIZE_16B, 4 beats
# UVM_INFO ../src/mst/ahb_master_driver.sv(332) @ 1125000: uvm_test_top.env.master_agent.drv [ahb_master_driver] Beat[0/4] addr=0x0001020e trans=AHB_TRANS_NONSEQ resp=AHB_RESP_OKAY wdata=0x44fd8c82
# UVM_INFO ../src/slv/ahb_slave_driver.sv(184) @ 1125000: uvm_test_top.env.slave_agent.drv [ahb_slave_driver] Beat AHB_WRITE addr=0x0001020e resp=AHB_RESP_OKAY waits=0 wdata=0x44fd8c82
# UVM_INFO ../src/mst/ahb_master_monitor.sv(128) @ 1125000: uvm_test_top.env.master_agent.mon [ahb_master_monitor] Beat[0] addr=0x0001020e wdata=0x44fd8c82 resp=AHB_RESP_OKAY
# UVM_INFO ../src/mst/ahb_master_driver.sv(332) @ 1135000: uvm_test_top.env.master_agent.drv [ahb_master_driver] Beat[1/4] addr=0x00010208 trans=AHB_TRANS_SEQ resp=AHB_RESP_OKAY wdata=0x88639825
# UVM_INFO ../src/slv/ahb_slave_driver.sv(184) @ 1135000: uvm_test_top.env.slave_agent.drv [ahb_slave_driver] Beat AHB_WRITE addr=0x00010208 resp=AHB_RESP_OKAY waits=0 wdata=0x88639825
# UVM_INFO ../src/mst/ahb_master_monitor.sv(128) @ 1135000: uvm_test_top.env.master_agent.mon [ahb_master_monitor] Beat[1] addr=0x00010208 wdata=0x88639825 resp=AHB_RESP_OKAY
# UVM_INFO ../src/mst/ahb_master_driver.sv(332) @ 1155000: uvm_test_top.env.master_agent.drv [ahb_master_driver] Beat[2/4] addr=0x0001020a trans=AHB_TRANS_SEQ resp=AHB_RESP_OKAY wdata=0xe057c5b2
# UVM_INFO ../src/slv/ahb_slave_driver.sv(184) @ 1155000: uvm_test_top.env.slave_agent.drv [ahb_slave_driver] Beat AHB_WRITE addr=0x0001020a resp=AHB_RESP_OKAY waits=1 wdata=0xe057c5b2
# UVM_INFO ../src/mst/ahb_master_monitor.sv(128) @ 1155000: uvm_test_top.env.master_agent.mon [ahb_master_monitor] Beat[2] addr=0x0001020a wdata=0xe057c5b2 resp=AHB_RESP_OKAY
# UVM_INFO ../src/mst/ahb_master_driver.sv(332) @ 1165000: uvm_test_top.env.master_agent.drv [ahb_master_driver] Beat[3/4] addr=0x0001020c trans=AHB_TRANS_SEQ resp=AHB_RESP_OKAY wdata=0xf3609863
# UVM_INFO ../src/mst/ahb_master_driver.sv(376) @ 1165000: uvm_test_top.env.master_agent.drv [ahb_master_driver] Transaction complete: AHB_WRITE 0x0001020e, 4 beats, burst=AHB_BURST_WRAP4
# UVM_INFO ../src/mst/ahb_master_driver.sv(127) @ 1165000: uvm_test_top.env.master_agent.drv [ahb_master_driver] Driving [AHB_READ]: HADDR=0x0001020e, HBURST=AHB_BURST_WRAP4, HSIZE=AHB_SIZE_16B, 4 beats (back-to-back)
# UVM_INFO ../src/slv/ahb_slave_driver.sv(184) @ 1165000: uvm_test_top.env.slave_agent.drv [ahb_slave_driver] Beat AHB_WRITE addr=0x0001020c resp=AHB_RESP_OKAY waits=0 wdata=0xf3609863
# UVM_INFO ../src/mst/ahb_master_monitor.sv(128) @ 1165000: uvm_test_top.env.master_agent.mon [ahb_master_monitor] Beat[3] addr=0x0001020c wdata=0xf3609863 resp=AHB_RESP_OKAY
# UVM_INFO ../src/mst/ahb_master_monitor.sv(231) @ 1165000: uvm_test_top.env.master_agent.mon [ahb_master_monitor] Observed [AHB_WRITE]: HADDR=0x0001020e, HBURST=AHB_BURST_WRAP4, HSIZE=AHB_SIZE_16B, 4 beats
# UVM_INFO ../src/env/ahb_coverage.sv(174) @ 1165000: uvm_test_top.env.master_cov [ahb_coverage] Sampled [AHB_WRITE]: burst=AHB_BURST_WRAP4 size=AHB_SIZE_16B beats=4 error=0
# UVM_INFO ../src/slv/ahb_slave_monitor.sv(212) @ 1165000: uvm_test_top.env.slave_agent.mon [ahb_slave_monitor] Observed [AHB_WRITE]: HADDR=0x0001020e, HBURST=AHB_BURST_WRAP4, HSIZE=AHB_SIZE_16B, 4 beats
# UVM_INFO ../src/env/ahb_scoreboard.sv(104) @ 1165000: uvm_test_top.env.scb [ahb_scoreboard] MATCH #17: [AHB_WRITE] HADDR=0x0001020e AHB_BURST_WRAP4 4 beats
# UVM_INFO ../src/env/ahb_coverage.sv(174) @ 1165000: uvm_test_top.env.slave_cov [ahb_coverage] Sampled [AHB_WRITE]: burst=AHB_BURST_WRAP4 size=AHB_SIZE_16B beats=4 error=0
# UVM_INFO ../src/mst/ahb_master_driver.sv(85) @ 1165000: uvm_test_top.env.master_agent.drv [ahb_master_driver] Queueing [AHB_WRITE]: HADDR=0x00010258, HBURST=AHB_BURST_INCR4, HSIZE=AHB_SIZE_32B, 4 beats
# UVM_INFO ../src/mst/ahb_master_driver.sv(332) @ 1185000: uvm_test_top.env.master_agent.drv [ahb_master_driver] Beat[0/4] addr=0x0001020e trans=AHB_TRANS_NONSEQ resp=AHB_RESP_OKAY rdata=0x44fd8c82
# UVM_INFO ../src/slv/ahb_slave_driver.sv(184) @ 1185000: uvm_test_top.env.slave_agent.drv [ahb_slave_driver] Beat AHB_READ addr=0x0001020e resp=AHB_RESP_OKAY waits=1 rdata=0x44fd8c82
# UVM_INFO ../src/mst/ahb_master_monitor.sv(128) @ 1185000: uvm_test_top.env.master_agent.mon [ahb_master_monitor] Beat[0] addr=0x0001020e rdata=0x44fd8c82 resp=AHB_RESP_OKAY
# UVM_INFO ../src/mst/ahb_master_driver.sv(332) @ 1205000: uvm_test_top.env.master_agent.drv [ahb_master_driver] Beat[1/4] addr=0x00010208 trans=AHB_TRANS_SEQ resp=AHB_RESP_OKAY rdata=0x88639825
# UVM_INFO ../src/slv/ahb_slave_driver.sv(184) @ 1205000: uvm_test_top.env.slave_agent.drv [ahb_slave_driver] Beat AHB_READ addr=0x00010208 resp=AHB_RESP_OKAY waits=1 rdata=0x88639825
# UVM_INFO ../src/mst/ahb_master_monitor.sv(128) @ 1205000: uvm_test_top.env.master_agent.mon [ahb_master_monitor] Beat[1] addr=0x00010208 rdata=0x88639825 resp=AHB_RESP_OKAY
# UVM_INFO ../src/mst/ahb_master_driver.sv(332) @ 1215000: uvm_test_top.env.master_agent.drv [ahb_master_driver] Beat[2/4] addr=0x0001020a trans=AHB_TRANS_SEQ resp=AHB_RESP_OKAY rdata=0xe057c5b2
# UVM_INFO ../src/slv/ahb_slave_driver.sv(184) @ 1215000: uvm_test_top.env.slave_agent.drv [ahb_slave_driver] Beat AHB_READ addr=0x0001020a resp=AHB_RESP_OKAY waits=0 rdata=0xe057c5b2
# UVM_INFO ../src/mst/ahb_master_monitor.sv(128) @ 1215000: uvm_test_top.env.master_agent.mon [ahb_master_monitor] Beat[2] addr=0x0001020a rdata=0xe057c5b2 resp=AHB_RESP_OKAY
# UVM_INFO ../src/mst/ahb_master_driver.sv(332) @ 1235000: uvm_test_top.env.master_agent.drv [ahb_master_driver] Beat[3/4] addr=0x0001020c trans=AHB_TRANS_SEQ resp=AHB_RESP_OKAY rdata=0xf3609863
# UVM_INFO ../src/mst/ahb_master_driver.sv(376) @ 1235000: uvm_test_top.env.master_agent.drv [ahb_master_driver] Transaction complete: AHB_READ 0x0001020e, 4 beats, burst=AHB_BURST_WRAP4
# UVM_INFO ../src/mst/ahb_master_driver.sv(127) @ 1235000: uvm_test_top.env.master_agent.drv [ahb_master_driver] Driving [AHB_WRITE]: HADDR=0x00010258, HBURST=AHB_BURST_INCR4, HSIZE=AHB_SIZE_32B, 4 beats (back-to-back)
# UVM_INFO ../src/slv/ahb_slave_driver.sv(184) @ 1235000: uvm_test_top.env.slave_agent.drv [ahb_slave_driver] Beat AHB_READ addr=0x0001020c resp=AHB_RESP_OKAY waits=1 rdata=0xf3609863
# UVM_INFO ../src/slv/ahb_slave_monitor.sv(212) @ 1235000: uvm_test_top.env.slave_agent.mon [ahb_slave_monitor] Observed [AHB_READ]: HADDR=0x0001020e, HBURST=AHB_BURST_WRAP4, HSIZE=AHB_SIZE_16B, 4 beats
# UVM_INFO ../src/env/ahb_coverage.sv(174) @ 1235000: uvm_test_top.env.slave_cov [ahb_coverage] Sampled [AHB_READ]: burst=AHB_BURST_WRAP4 size=AHB_SIZE_16B beats=4 error=0
# UVM_INFO ../src/mst/ahb_master_monitor.sv(128) @ 1235000: uvm_test_top.env.master_agent.mon [ahb_master_monitor] Beat[3] addr=0x0001020c rdata=0xf3609863 resp=AHB_RESP_OKAY
# UVM_INFO ../src/mst/ahb_master_monitor.sv(231) @ 1235000: uvm_test_top.env.master_agent.mon [ahb_master_monitor] Observed [AHB_READ]: HADDR=0x0001020e, HBURST=AHB_BURST_WRAP4, HSIZE=AHB_SIZE_16B, 4 beats
# UVM_INFO ../src/env/ahb_coverage.sv(174) @ 1235000: uvm_test_top.env.master_cov [ahb_coverage] Sampled [AHB_READ]: burst=AHB_BURST_WRAP4 size=AHB_SIZE_16B beats=4 error=0
# UVM_INFO ../src/env/ahb_scoreboard.sv(104) @ 1235000: uvm_test_top.env.scb [ahb_scoreboard] MATCH #18: [AHB_READ] HADDR=0x0001020e AHB_BURST_WRAP4 4 beats
# UVM_INFO ../src/mst/ahb_master_driver.sv(85) @ 1235000: uvm_test_top.env.master_agent.drv [ahb_master_driver] Queueing [AHB_READ]: HADDR=0x00010258, HBURST=AHB_BURST_INCR4, HSIZE=AHB_SIZE_32B, 4 beats
# UVM_INFO ../src/mst/ahb_master_driver.sv(332) @ 1245000: uvm_test_top.env.master_agent.drv [ahb_master_driver] Beat[0/4] addr=0x00010258 trans=AHB_TRANS_NONSEQ resp=AHB_RESP_OKAY wdata=0xd8dacc13
# UVM_INFO ../src/slv/ahb_slave_driver.sv(184) @ 1245000: uvm_test_top.env.slave_agent.drv [ahb_slave_driver] Beat AHB_WRITE addr=0x00010258 resp=AHB_RESP_OKAY waits=0 wdata=0xd8dacc13
# UVM_INFO ../src/mst/ahb_master_monitor.sv(128) @ 1245000: uvm_test_top.env.master_agent.mon [ahb_master_monitor] Beat[0] addr=0x00010258 wdata=0xd8dacc13 resp=AHB_RESP_OKAY
# UVM_INFO ../src/mst/ahb_master_driver.sv(332) @ 1255000: uvm_test_top.env.master_agent.drv [ahb_master_driver] Beat[1/4] addr=0x0001025c trans=AHB_TRANS_SEQ resp=AHB_RESP_OKAY wdata=0x341435dc
# UVM_INFO ../src/slv/ahb_slave_driver.sv(184) @ 1255000: uvm_test_top.env.slave_agent.drv [ahb_slave_driver] Beat AHB_WRITE addr=0x0001025c resp=AHB_RESP_OKAY waits=0 wdata=0x341435dc
# UVM_INFO ../src/mst/ahb_master_monitor.sv(128) @ 1255000: uvm_test_top.env.master_agent.mon [ahb_master_monitor] Beat[1] addr=0x0001025c wdata=0x341435dc resp=AHB_RESP_OKAY
# UVM_INFO ../src/mst/ahb_master_driver.sv(332) @ 1265000: uvm_test_top.env.master_agent.drv [ahb_master_driver] Beat[2/4] addr=0x00010260 trans=AHB_TRANS_SEQ resp=AHB_RESP_OKAY wdata=0x0f11ae0d
# UVM_INFO ../src/slv/ahb_slave_driver.sv(184) @ 1265000: uvm_test_top.env.slave_agent.drv [ahb_slave_driver] Beat AHB_WRITE addr=0x00010260 resp=AHB_RESP_OKAY waits=0 wdata=0x0f11ae0d
# UVM_INFO ../src/mst/ahb_master_monitor.sv(128) @ 1265000: uvm_test_top.env.master_agent.mon [ahb_master_monitor] Beat[2] addr=0x00010260 wdata=0x0f11ae0d resp=AHB_RESP_OKAY
# UVM_INFO ../src/mst/ahb_master_driver.sv(332) @ 1285000: uvm_test_top.env.master_agent.drv [ahb_master_driver] Beat[3/4] addr=0x00010264 trans=AHB_TRANS_SEQ resp=AHB_RESP_OKAY wdata=0xe05ad5a8
# UVM_INFO ../src/mst/ahb_master_driver.sv(376) @ 1285000: uvm_test_top.env.master_agent.drv [ahb_master_driver] Transaction complete: AHB_WRITE 0x00010258, 4 beats, burst=AHB_BURST_INCR4
# UVM_INFO ../src/mst/ahb_master_driver.sv(127) @ 1285000: uvm_test_top.env.master_agent.drv [ahb_master_driver] Driving [AHB_READ]: HADDR=0x00010258, HBURST=AHB_BURST_INCR4, HSIZE=AHB_SIZE_32B, 4 beats (back-to-back)
# UVM_INFO ../src/slv/ahb_slave_driver.sv(184) @ 1285000: uvm_test_top.env.slave_agent.drv [ahb_slave_driver] Beat AHB_WRITE addr=0x00010264 resp=AHB_RESP_OKAY waits=1 wdata=0xe05ad5a8
# UVM_INFO ../src/mst/ahb_master_monitor.sv(128) @ 1285000: uvm_test_top.env.master_agent.mon [ahb_master_monitor] Beat[3] addr=0x00010264 wdata=0xe05ad5a8 resp=AHB_RESP_OKAY
# UVM_INFO ../src/mst/ahb_master_monitor.sv(231) @ 1285000: uvm_test_top.env.master_agent.mon [ahb_master_monitor] Observed [AHB_WRITE]: HADDR=0x00010258, HBURST=AHB_BURST_INCR4, HSIZE=AHB_SIZE_32B, 4 beats
# UVM_INFO ../src/env/ahb_coverage.sv(174) @ 1285000: uvm_test_top.env.master_cov [ahb_coverage] Sampled [AHB_WRITE]: burst=AHB_BURST_INCR4 size=AHB_SIZE_32B beats=4 error=0
# UVM_INFO ../src/slv/ahb_slave_monitor.sv(212) @ 1285000: uvm_test_top.env.slave_agent.mon [ahb_slave_monitor] Observed [AHB_WRITE]: HADDR=0x00010258, HBURST=AHB_BURST_INCR4, HSIZE=AHB_SIZE_32B, 4 beats
# UVM_INFO ../src/env/ahb_scoreboard.sv(104) @ 1285000: uvm_test_top.env.scb [ahb_scoreboard] MATCH #19: [AHB_WRITE] HADDR=0x00010258 AHB_BURST_INCR4 4 beats
# UVM_INFO ../src/env/ahb_coverage.sv(174) @ 1285000: uvm_test_top.env.slave_cov [ahb_coverage] Sampled [AHB_WRITE]: burst=AHB_BURST_INCR4 size=AHB_SIZE_32B beats=4 error=0
# UVM_INFO ../src/mst/ahb_master_driver.sv(85) @ 1285000: uvm_test_top.env.master_agent.drv [ahb_master_driver] Queueing [AHB_WRITE]: HADDR=0x000102a4, HBURST=AHB_BURST_SINGLE, HSIZE=AHB_SIZE_16B, 1 beats
# UVM_INFO ../src/mst/ahb_master_driver.sv(332) @ 1305000: uvm_test_top.env.master_agent.drv [ahb_master_driver] Beat[0/4] addr=0x00010258 trans=AHB_TRANS_NONSEQ resp=AHB_RESP_OKAY rdata=0xd8dacc13
# UVM_INFO ../src/slv/ahb_slave_driver.sv(184) @ 1305000: uvm_test_top.env.slave_agent.drv [ahb_slave_driver] Beat AHB_READ addr=0x00010258 resp=AHB_RESP_OKAY waits=1 rdata=0xd8dacc13
# UVM_INFO ../src/mst/ahb_master_monitor.sv(128) @ 1305000: uvm_test_top.env.master_agent.mon [ahb_master_monitor] Beat[0] addr=0x00010258 rdata=0xd8dacc13 resp=AHB_RESP_OKAY
# UVM_INFO ../src/mst/ahb_master_driver.sv(332) @ 1325000: uvm_test_top.env.master_agent.drv [ahb_master_driver] Beat[1/4] addr=0x0001025c trans=AHB_TRANS_SEQ resp=AHB_RESP_OKAY rdata=0x341435dc
# UVM_INFO ../src/slv/ahb_slave_driver.sv(184) @ 1325000: uvm_test_top.env.slave_agent.drv [ahb_slave_driver] Beat AHB_READ addr=0x0001025c resp=AHB_RESP_OKAY waits=1 rdata=0x341435dc
# UVM_INFO ../src/mst/ahb_master_monitor.sv(128) @ 1325000: uvm_test_top.env.master_agent.mon [ahb_master_monitor] Beat[1] addr=0x0001025c rdata=0x341435dc resp=AHB_RESP_OKAY
# UVM_INFO ../src/mst/ahb_master_driver.sv(332) @ 1345000: uvm_test_top.env.master_agent.drv [ahb_master_driver] Beat[2/4] addr=0x00010260 trans=AHB_TRANS_SEQ resp=AHB_RESP_OKAY rdata=0x0f11ae0d
# UVM_INFO ../src/slv/ahb_slave_driver.sv(184) @ 1345000: uvm_test_top.env.slave_agent.drv [ahb_slave_driver] Beat AHB_READ addr=0x00010260 resp=AHB_RESP_OKAY waits=1 rdata=0x0f11ae0d
# UVM_INFO ../src/mst/ahb_master_monitor.sv(128) @ 1345000: uvm_test_top.env.master_agent.mon [ahb_master_monitor] Beat[2] addr=0x00010260 rdata=0x0f11ae0d resp=AHB_RESP_OKAY
# UVM_INFO ../src/mst/ahb_master_driver.sv(332) @ 1355000: uvm_test_top.env.master_agent.drv [ahb_master_driver] Beat[3/4] addr=0x00010264 trans=AHB_TRANS_SEQ resp=AHB_RESP_OKAY rdata=0xe05ad5a8
# UVM_INFO ../src/mst/ahb_master_driver.sv(376) @ 1355000: uvm_test_top.env.master_agent.drv [ahb_master_driver] Transaction complete: AHB_READ 0x00010258, 4 beats, burst=AHB_BURST_INCR4
# UVM_INFO ../src/mst/ahb_master_driver.sv(127) @ 1355000: uvm_test_top.env.master_agent.drv [ahb_master_driver] Driving [AHB_WRITE]: HADDR=0x000102a4, HBURST=AHB_BURST_SINGLE, HSIZE=AHB_SIZE_16B, 1 beats (back-to-back)
# UVM_INFO ../src/slv/ahb_slave_driver.sv(184) @ 1355000: uvm_test_top.env.slave_agent.drv [ahb_slave_driver] Beat AHB_READ addr=0x00010264 resp=AHB_RESP_OKAY waits=0 rdata=0xe05ad5a8
# UVM_INFO ../src/slv/ahb_slave_monitor.sv(212) @ 1355000: uvm_test_top.env.slave_agent.mon [ahb_slave_monitor] Observed [AHB_READ]: HADDR=0x00010258, HBURST=AHB_BURST_INCR4, HSIZE=AHB_SIZE_32B, 4 beats
# UVM_INFO ../src/env/ahb_coverage.sv(174) @ 1355000: uvm_test_top.env.slave_cov [ahb_coverage] Sampled [AHB_READ]: burst=AHB_BURST_INCR4 size=AHB_SIZE_32B beats=4 error=0
# UVM_INFO ../src/mst/ahb_master_monitor.sv(128) @ 1355000: uvm_test_top.env.master_agent.mon [ahb_master_monitor] Beat[3] addr=0x00010264 rdata=0xe05ad5a8 resp=AHB_RESP_OKAY
# UVM_INFO ../src/mst/ahb_master_monitor.sv(231) @ 1355000: uvm_test_top.env.master_agent.mon [ahb_master_monitor] Observed [AHB_READ]: HADDR=0x00010258, HBURST=AHB_BURST_INCR4, HSIZE=AHB_SIZE_32B, 4 beats
# UVM_INFO ../src/env/ahb_coverage.sv(174) @ 1355000: uvm_test_top.env.master_cov [ahb_coverage] Sampled [AHB_READ]: burst=AHB_BURST_INCR4 size=AHB_SIZE_32B beats=4 error=0
# UVM_INFO ../src/env/ahb_scoreboard.sv(104) @ 1355000: uvm_test_top.env.scb [ahb_scoreboard] MATCH #20: [AHB_READ] HADDR=0x00010258 AHB_BURST_INCR4 4 beats
# UVM_INFO ../src/mst/ahb_master_driver.sv(85) @ 1355000: uvm_test_top.env.master_agent.drv [ahb_master_driver] Queueing [AHB_READ]: HADDR=0x000102a4, HBURST=AHB_BURST_SINGLE, HSIZE=AHB_SIZE_16B, 1 beats
# UVM_INFO ../src/mst/ahb_master_driver.sv(332) @ 1375000: uvm_test_top.env.master_agent.drv [ahb_master_driver] Beat[0/1] addr=0x000102a4 trans=AHB_TRANS_NONSEQ resp=AHB_RESP_OKAY wdata=0x719b365a
# UVM_INFO ../src/mst/ahb_master_driver.sv(376) @ 1375000: uvm_test_top.env.master_agent.drv [ahb_master_driver] Transaction complete: AHB_WRITE 0x000102a4, 1 beats, burst=AHB_BURST_SINGLE
# UVM_INFO ../src/mst/ahb_master_driver.sv(127) @ 1375000: uvm_test_top.env.master_agent.drv [ahb_master_driver] Driving [AHB_READ]: HADDR=0x000102a4, HBURST=AHB_BURST_SINGLE, HSIZE=AHB_SIZE_16B, 1 beats               
# UVM_INFO ../src/slv/ahb_slave_driver.sv(184) @ 1375000: uvm_test_top.env.slave_agent.drv [ahb_slave_driver] Beat AHB_WRITE addr=0x000102a4 resp=AHB_RESP_OKAY waits=1 wdata=0x719b365a
# UVM_INFO ../src/slv/ahb_slave_monitor.sv(212) @ 1375000: uvm_test_top.env.slave_agent.mon [ahb_slave_monitor] Observed [AHB_WRITE]: HADDR=0x000102a4, HBURST=AHB_BURST_SINGLE, HSIZE=AHB_SIZE_16B, 1 beats
# UVM_INFO ../src/env/ahb_coverage.sv(174) @ 1375000: uvm_test_top.env.slave_cov [ahb_coverage] Sampled [AHB_WRITE]: burst=AHB_BURST_SINGLE size=AHB_SIZE_16B beats=1 error=0
# UVM_INFO ../src/mst/ahb_master_monitor.sv(128) @ 1375000: uvm_test_top.env.master_agent.mon [ahb_master_monitor] Beat[0] addr=0x000102a4 wdata=0x719b365a resp=AHB_RESP_OKAY
# UVM_INFO ../src/mst/ahb_master_monitor.sv(231) @ 1375000: uvm_test_top.env.master_agent.mon [ahb_master_monitor] Observed [AHB_WRITE]: HADDR=0x000102a4, HBURST=AHB_BURST_SINGLE, HSIZE=AHB_SIZE_16B, 1 beats
# UVM_INFO ../src/env/ahb_coverage.sv(174) @ 1375000: uvm_test_top.env.master_cov [ahb_coverage] Sampled [AHB_WRITE]: burst=AHB_BURST_SINGLE size=AHB_SIZE_16B beats=1 error=0
# UVM_INFO ../src/env/ahb_scoreboard.sv(104) @ 1375000: uvm_test_top.env.scb [ahb_scoreboard] MATCH #21: [AHB_WRITE] HADDR=0x000102a4 AHB_BURST_SINGLE 1 beats
# UVM_INFO ../src/mst/ahb_master_driver.sv(85) @ 1375000: uvm_test_top.env.master_agent.drv [ahb_master_driver] Queueing [AHB_WRITE]: HADDR=0x000102fa, HBURST=AHB_BURST_SINGLE, HSIZE=AHB_SIZE_8B, 1 beats
# UVM_INFO ../src/mst/ahb_master_driver.sv(332) @ 1415000: uvm_test_top.env.master_agent.drv [ahb_master_driver] Beat[0/1] addr=0x000102a4 trans=AHB_TRANS_NONSEQ resp=AHB_RESP_OKAY rdata=0x719b365a
# UVM_INFO ../src/mst/ahb_master_driver.sv(376) @ 1415000: uvm_test_top.env.master_agent.drv [ahb_master_driver] Transaction complete: AHB_READ 0x000102a4, 1 beats, burst=AHB_BURST_SINGLE
# UVM_INFO ../src/mst/ahb_master_driver.sv(127) @ 1415000: uvm_test_top.env.master_agent.drv [ahb_master_driver] Driving [AHB_WRITE]: HADDR=0x000102fa, HBURST=AHB_BURST_SINGLE, HSIZE=AHB_SIZE_8B, 1 beats (back-to-back)
# UVM_INFO ../src/slv/ahb_slave_driver.sv(184) @ 1415000: uvm_test_top.env.slave_agent.drv [ahb_slave_driver] Beat AHB_READ addr=0x000102a4 resp=AHB_RESP_OKAY waits=1 rdata=0x719b365a
# UVM_INFO ../src/slv/ahb_slave_monitor.sv(212) @ 1415000: uvm_test_top.env.slave_agent.mon [ahb_slave_monitor] Observed [AHB_READ]: HADDR=0x000102a4, HBURST=AHB_BURST_SINGLE, HSIZE=AHB_SIZE_16B, 1 beats
# UVM_INFO ../src/env/ahb_coverage.sv(174) @ 1415000: uvm_test_top.env.slave_cov [ahb_coverage] Sampled [AHB_READ]: burst=AHB_BURST_SINGLE size=AHB_SIZE_16B beats=1 error=0
# UVM_INFO ../src/mst/ahb_master_monitor.sv(128) @ 1415000: uvm_test_top.env.master_agent.mon [ahb_master_monitor] Beat[0] addr=0x000102a4 rdata=0x719b365a resp=AHB_RESP_OKAY
# UVM_INFO ../src/mst/ahb_master_monitor.sv(231) @ 1415000: uvm_test_top.env.master_agent.mon [ahb_master_monitor] Observed [AHB_READ]: HADDR=0x000102a4, HBURST=AHB_BURST_SINGLE, HSIZE=AHB_SIZE_16B, 1 beats
# UVM_INFO ../src/env/ahb_coverage.sv(174) @ 1415000: uvm_test_top.env.master_cov [ahb_coverage] Sampled [AHB_READ]: burst=AHB_BURST_SINGLE size=AHB_SIZE_16B beats=1 error=0
# UVM_INFO ../src/env/ahb_scoreboard.sv(104) @ 1415000: uvm_test_top.env.scb [ahb_scoreboard] MATCH #22: [AHB_READ] HADDR=0x000102a4 AHB_BURST_SINGLE 1 beats
# UVM_INFO ../src/mst/ahb_master_driver.sv(85) @ 1415000: uvm_test_top.env.master_agent.drv [ahb_master_driver] Queueing [AHB_READ]: HADDR=0x000102fa, HBURST=AHB_BURST_SINGLE, HSIZE=AHB_SIZE_8B, 1 beats
# UVM_INFO ../src/mst_seq/ahb_base_seq.sv(157) @ 1415000: uvm_test_top.env.master_agent.sqr@@seq [ahb_back_to_back_seq] AHB_BURST_WRAP4 AHB_SIZE_16B beat 0 @0x0001020e ok
# UVM_INFO ../src/mst_seq/ahb_base_seq.sv(157) @ 1415000: uvm_test_top.env.master_agent.sqr@@seq [ahb_back_to_back_seq] AHB_BURST_WRAP4 AHB_SIZE_16B beat 1 @0x00010208 ok
# UVM_INFO ../src/mst_seq/ahb_base_seq.sv(157) @ 1415000: uvm_test_top.env.master_agent.sqr@@seq [ahb_back_to_back_seq] AHB_BURST_WRAP4 AHB_SIZE_16B beat 2 @0x0001020a ok
# UVM_INFO ../src/mst_seq/ahb_base_seq.sv(157) @ 1415000: uvm_test_top.env.master_agent.sqr@@seq [ahb_back_to_back_seq] AHB_BURST_WRAP4 AHB_SIZE_16B beat 3 @0x0001020c ok
# UVM_INFO ../src/mst_seq/ahb_base_seq.sv(157) @ 1415000: uvm_test_top.env.master_agent.sqr@@seq [ahb_back_to_back_seq] AHB_BURST_INCR4 AHB_SIZE_32B beat 0 @0x00010258 ok
# UVM_INFO ../src/mst_seq/ahb_base_seq.sv(157) @ 1415000: uvm_test_top.env.master_agent.sqr@@seq [ahb_back_to_back_seq] AHB_BURST_INCR4 AHB_SIZE_32B beat 1 @0x0001025c ok
# UVM_INFO ../src/mst_seq/ahb_base_seq.sv(157) @ 1415000: uvm_test_top.env.master_agent.sqr@@seq [ahb_back_to_back_seq] AHB_BURST_INCR4 AHB_SIZE_32B beat 2 @0x00010260 ok
# UVM_INFO ../src/mst_seq/ahb_base_seq.sv(157) @ 1415000: uvm_test_top.env.master_agent.sqr@@seq [ahb_back_to_back_seq] AHB_BURST_INCR4 AHB_SIZE_32B beat 3 @0x00010264 ok
# UVM_INFO ../src/mst_seq/ahb_base_seq.sv(157) @ 1415000: uvm_test_top.env.master_agent.sqr@@seq [ahb_back_to_back_seq] AHB_BURST_SINGLE AHB_SIZE_16B beat 0 @0x000102a4 ok
# UVM_INFO ../src/mst/ahb_master_driver.sv(332) @ 1425000: uvm_test_top.env.master_agent.drv [ahb_master_driver] Beat[0/1] addr=0x000102fa trans=AHB_TRANS_NONSEQ resp=AHB_RESP_OKAY wdata=0x64ded51d
# UVM_INFO ../src/mst/ahb_master_driver.sv(376) @ 1425000: uvm_test_top.env.master_agent.drv [ahb_master_driver] Transaction complete: AHB_WRITE 0x000102fa, 1 beats, burst=AHB_BURST_SINGLE
# UVM_INFO ../src/mst/ahb_master_driver.sv(127) @ 1425000: uvm_test_top.env.master_agent.drv [ahb_master_driver] Driving [AHB_READ]: HADDR=0x000102fa, HBURST=AHB_BURST_SINGLE, HSIZE=AHB_SIZE_8B, 1 beats               
# UVM_INFO ../src/slv/ahb_slave_driver.sv(184) @ 1425000: uvm_test_top.env.slave_agent.drv [ahb_slave_driver] Beat AHB_WRITE addr=0x000102fa resp=AHB_RESP_OKAY waits=0 wdata=0x64ded51d
# UVM_INFO ../src/mst/ahb_master_monitor.sv(128) @ 1425000: uvm_test_top.env.master_agent.mon [ahb_master_monitor] Beat[0] addr=0x000102fa wdata=0x64ded51d resp=AHB_RESP_OKAY
# UVM_INFO ../src/mst/ahb_master_monitor.sv(231) @ 1425000: uvm_test_top.env.master_agent.mon [ahb_master_monitor] Observed [AHB_WRITE]: HADDR=0x000102fa, HBURST=AHB_BURST_SINGLE, HSIZE=AHB_SIZE_8B, 1 beats
# UVM_INFO ../src/env/ahb_coverage.sv(174) @ 1425000: uvm_test_top.env.master_cov [ahb_coverage] Sampled [AHB_WRITE]: burst=AHB_BURST_SINGLE size=AHB_SIZE_8B beats=1 error=0
# UVM_INFO ../src/slv/ahb_slave_monitor.sv(212) @ 1425000: uvm_test_top.env.slave_agent.mon [ahb_slave_monitor] Observed [AHB_WRITE]: HADDR=0x000102fa, HBURST=AHB_BURST_SINGLE, HSIZE=AHB_SIZE_8B, 1 beats
# UVM_INFO ../src/env/ahb_scoreboard.sv(104) @ 1425000: uvm_test_top.env.scb [ahb_scoreboard] MATCH #23: [AHB_WRITE] HADDR=0x000102fa AHB_BURST_SINGLE 1 beats
# UVM_INFO ../src/env/ahb_coverage.sv(174) @ 1425000: uvm_test_top.env.slave_cov [ahb_coverage] Sampled [AHB_WRITE]: burst=AHB_BURST_SINGLE size=AHB_SIZE_8B beats=1 error=0
# UVM_INFO ../src/mst/ahb_master_driver.sv(332) @ 1465000: uvm_test_top.env.master_agent.drv [ahb_master_driver] Beat[0/1] addr=0x000102fa trans=AHB_TRANS_NONSEQ resp=AHB_RESP_OKAY rdata=0x64ded51d
# UVM_INFO ../src/mst/ahb_master_driver.sv(376) @ 1465000: uvm_test_top.env.master_agent.drv [ahb_master_driver] Transaction complete: AHB_READ 0x000102fa, 1 beats, burst=AHB_BURST_SINGLE
# UVM_INFO ../src/slv/ahb_slave_driver.sv(184) @ 1465000: uvm_test_top.env.slave_agent.drv [ahb_slave_driver] Beat AHB_READ addr=0x000102fa resp=AHB_RESP_OKAY waits=1 rdata=0x64ded51d
# UVM_INFO ../src/mst/ahb_master_monitor.sv(128) @ 1465000: uvm_test_top.env.master_agent.mon [ahb_master_monitor] Beat[0] addr=0x000102fa rdata=0x64ded51d resp=AHB_RESP_OKAY
# UVM_INFO ../src/mst/ahb_master_monitor.sv(231) @ 1465000: uvm_test_top.env.master_agent.mon [ahb_master_monitor] Observed [AHB_READ]: HADDR=0x000102fa, HBURST=AHB_BURST_SINGLE, HSIZE=AHB_SIZE_8B, 1 beats
# UVM_INFO ../src/env/ahb_coverage.sv(174) @ 1465000: uvm_test_top.env.master_cov [ahb_coverage] Sampled [AHB_READ]: burst=AHB_BURST_SINGLE size=AHB_SIZE_8B beats=1 error=0
# UVM_INFO ../src/slv/ahb_slave_monitor.sv(212) @ 1465000: uvm_test_top.env.slave_agent.mon [ahb_slave_monitor] Observed [AHB_READ]: HADDR=0x000102fa, HBURST=AHB_BURST_SINGLE, HSIZE=AHB_SIZE_8B, 1 beats
# UVM_INFO ../src/env/ahb_scoreboard.sv(104) @ 1465000: uvm_test_top.env.scb [ahb_scoreboard] MATCH #24: [AHB_READ] HADDR=0x000102fa AHB_BURST_SINGLE 1 beats
# UVM_INFO ../src/env/ahb_coverage.sv(174) @ 1465000: uvm_test_top.env.slave_cov [ahb_coverage] Sampled [AHB_READ]: burst=AHB_BURST_SINGLE size=AHB_SIZE_8B beats=1 error=0
# UVM_INFO ../src/mst_seq/ahb_base_seq.sv(157) @ 1465000: uvm_test_top.env.master_agent.sqr@@seq [ahb_back_to_back_seq] AHB_BURST_SINGLE AHB_SIZE_8B beat 0 @0x000102fa ok
# UVM_INFO ../src/mst_seq/ahb_back_to_back_seq.sv(172) @ 1465000: uvm_test_top.env.master_agent.sqr@@seq [ahb_back_to_back_seq] Batch 4/8: 4 pairs, max_outstanding=1
# UVM_INFO ../src/mst/ahb_master_driver.sv(85) @ 1465000: uvm_test_top.env.master_agent.drv [ahb_master_driver] Queueing [AHB_WRITE]: HADDR=0x0001030d, HBURST=AHB_BURST_INCR4, HSIZE=AHB_SIZE_8B, 4 beats
# UVM_INFO ../src/mst/ahb_master_driver.sv(127) @ 1465000: uvm_test_top.env.master_agent.drv [ahb_master_driver] Driving [AHB_WRITE]: HADDR=0x0001030d, HBURST=AHB_BURST_INCR4, HSIZE=AHB_SIZE_8B, 4 beats               
# UVM_INFO ../src/mst/ahb_master_driver.sv(332) @ 1505000: uvm_test_top.env.master_agent.drv [ahb_master_driver] Beat[0/4] addr=0x0001030d trans=AHB_TRANS_NONSEQ resp=AHB_RESP_OKAY wdata=0x0fdac17f
# UVM_INFO ../src/slv/ahb_slave_driver.sv(184) @ 1505000: uvm_test_top.env.slave_agent.drv [ahb_slave_driver] Beat AHB_WRITE addr=0x0001030d resp=AHB_RESP_OKAY waits=1 wdata=0x0fdac17f
# UVM_INFO ../src/mst/ahb_master_monitor.sv(128) @ 1505000: uvm_test_top.env.master_agent.mon [ahb_master_monitor] Beat[0] addr=0x0001030d wdata=0x0fdac17f resp=AHB_RESP_OKAY
# UVM_INFO ../src/mst/ahb_master_driver.sv(332) @ 1515000: uvm_test_top.env.master_agent.drv [ahb_master_driver] Beat[1/4] addr=0x0001030e trans=AHB_TRANS_SEQ resp=AHB_RESP_OKAY wdata=0x1ea3baf5
# UVM_INFO ../src/slv/ahb_slave_driver.sv(184) @ 1515000: uvm_test_top.env.slave_agent.drv [ahb_slave_driver] Beat AHB_WRITE addr=0x0001030e resp=AHB_RESP_OKAY waits=0 wdata=0x1ea3baf5
# UVM_INFO ../src/mst/ahb_master_monitor.sv(128) @ 1515000: uvm_test_top.env.master_agent.mon [ahb_master_monitor] Beat[1] addr=0x0001030e wdata=0x1ea3baf5 resp=AHB_RESP_OKAY
