# vsim -c -coverage -sv_seed 10558186 "+UVM_TESTNAME=ahb_busy_test" "+UVM_VERBOSITY=UVM_HIGH" "+DUMP_VCD" -l ./report/logs/ahb_busy_test_run_1_seed_10558186.log -do "coverage save -onexit ./report/coverage/ahb_busy_test_run_1_seed_10558186.ucdb; run -all; quit -f" opt_tb_top 
# Start time: 08:33:30 on Aug 04,2026
# //  Questa Sim-64
# //  Version 10.6b linux_x86_64 May 25 2017
# //
# //  Copyright 1991-2017 Mentor Graphics Corporation
# //  All Rights Reserved.
# //
# //  QuestaSim and its associated documentation contain trade
# //  secrets and commercial or financial information that are the property of
# //  Mentor Graphics Corporation and are privileged, confidential,
# //  and exempt from disclosure under the Freedom of Information Act,
# //  5 U.S.C. Section 552. Furthermore, this information
# //  is prohibited from disclosure under the Trade Secrets Act,
# //  18 U.S.C. Section 1905.
# //
# Loading sv_std.std
# Loading work.ahb_if(fast)
# Loading mtiUvm.uvm_pkg
# Loading work.ahb_pkg(fast)
# Loading work.ahb_seq_pkg(fast)
# Loading work.ahb_test_pkg(fast)
# Loading work.tb_top(fast)
# Loading work.ahb_if(fast)
# Loading work.ahb_sva(fast)
# Loading mtiUvm.questa_uvm_pkg(fast)
# Loading /cadtools/mentor/Questa_10.6b/questasim/uvm-1.1d/linux_x86_64/uvm_dpi.so
# coverage save -onexit ./report/coverage/ahb_busy_test_run_1_seed_10558186.ucdb
#  run -all
# ----------------------------------------------------------------
# UVM-1.1d
# (C) 2007-2013 Mentor Graphics Corporation
# (C) 2007-2013 Cadence Design Systems, Inc.
# (C) 2006-2013 Synopsys, Inc.
# (C) 2011-2013 Cypress Semiconductor Corp.
# ----------------------------------------------------------------
# 
#   ***********       IMPORTANT RELEASE NOTES         ************
# 
#   You are using a version of the UVM library that has been compiled
#   with `UVM_NO_DEPRECATED undefined.
#   See http://www.eda.org/svdb/view.php?id=3313 for more details.
# 
#   You are using a version of the UVM library that has been compiled
#   with `UVM_OBJECT_MUST_HAVE_CONSTRUCTOR undefined.
#   See http://www.eda.org/svdb/view.php?id=3770 for more details.
# 
#       (Specify +UVM_NO_RELNOTES to turn off this notice)
# 
# UVM_INFO verilog_src/questa_uvm_pkg-1.2/src/questa_uvm_pkg.sv(215) @ 0: reporter [Questa UVM] QUESTA_UVM-1.2.3
# UVM_INFO verilog_src/questa_uvm_pkg-1.2/src/questa_uvm_pkg.sv(217) @ 0: reporter [Questa UVM]  questa_uvm::init(+struct)
# UVM_INFO ../src/tb_top.sv(126) @ 0: reporter [TB_TOP] Virtual interface set in config_db
# UVM_INFO @ 0: reporter [RNTST] Running test ahb_busy_test...
# UVM_INFO ../src/tb_top.sv(140) @ 0: reporter [TB_TOP] Waveform VCD dumping enabled (ahb_lite_vip.vcd)
# UVM_INFO ../src/env/ahb_vip_env.sv(64) @ 0: uvm_test_top.env [ahb_vip_env] slave_vif not set - reusing master_vif (passthrough mode)
# UVM_INFO ../src/env/ahb_vip_env.sv(72) @ 0: uvm_test_top.env [ahb_vip_env] Scoreboard created
# UVM_INFO ../src/env/ahb_vip_env.sv(78) @ 0: uvm_test_top.env [ahb_vip_env] Coverage collectors created
# UVM_INFO ../src/mst/ahb_master_agent.sv(61) @ 0: uvm_test_top.env.master_agent [ahb_master_agent] ACTIVE mode - driver + sequencer created
# UVM_INFO ../src/slv/ahb_slave_agent.sv(64) @ 0: uvm_test_top.env.slave_agent [ahb_slave_agent] ACTIVE mode - driver + sequencer created (    auto responses)
# UVM_INFO ../src/env/ahb_vip_env.sv(92) @ 0: uvm_test_top.env [ahb_vip_env] Scoreboard connected: master_mon.ap -> scb, slave_mon.ap -> scb
# UVM_INFO ../src/env/ahb_vip_env.sv(99) @ 0: uvm_test_top.env [ahb_vip_env] Coverage connected: master_mon.ap -> master_cov, slave_mon.ap -> slave_cov
# UVM_INFO @ 0: reporter [UVMTOP] UVM testbench topology:
# ---------------------------------------------------------------
# Name                       Type                     Size  Value
# ---------------------------------------------------------------
# uvm_test_top               ahb_busy_test            -     @475 
#   env                      ahb_vip_env              -     @490 
#     master_agent           ahb_master_agent         -     @505 
#       drv                  ahb_master_driver        -     @570 
#         rsp_port           uvm_analysis_port        -     @585 
#         seq_item_port      uvm_seq_item_pull_port   -     @577 
#       mon                  ahb_master_monitor       -     @563 
#         ap                 uvm_analysis_port        -     @704 
#       sqr                  ahb_master_sequencer     -     @593 
#         rsp_export         uvm_analysis_export      -     @600 
#         seq_item_export    uvm_seq_item_pull_imp    -     @694 
#         arbitration_queue  array                    0     -    
#         lock_queue         array                    0     -    
#         num_last_reqs      integral                 32    'd1  
#         num_last_rsps      integral                 32    'd1  
#     master_cov             ahb_coverage             -     @526 
#       analysis_imp         uvm_analysis_imp         -     @533 
#     scb                    ahb_scoreboard           -     @519 
#       master_export        uvm_analysis_imp_master  -     @718 
#       slave_export         uvm_analysis_imp_slave   -     @726 
#     slave_agent            ahb_slave_agent          -     @512 
#       drv                  ahb_slave_driver         -     @748 
#         rsp_port           uvm_analysis_port        -     @763 
#         seq_item_port      uvm_seq_item_pull_port   -     @755 
#       mon                  ahb_slave_monitor        -     @741 
#         ap                 uvm_analysis_port        -     @882 
#       sqr                  ahb_slave_sequencer      -     @771 
#         rsp_export         uvm_analysis_export      -     @778 
#         seq_item_export    uvm_seq_item_pull_imp    -     @872 
#         arbitration_queue  array                    0     -    
#         lock_queue         array                    0     -    
#         num_last_reqs      integral                 32    'd1  
#         num_last_rsps      integral                 32    'd1  
#     slave_cov              ahb_coverage             -     @541 
#       analysis_imp         uvm_analysis_imp         -     @548 
# ---------------------------------------------------------------
# 
# UVM_INFO verilog_src/questa_uvm_pkg-1.2/src/questa_uvm_pkg.sv(277) @ 0: reporter [Questa UVM] End Of Elaboration
# UVM_INFO ../src/mst_seq/ahb_busy_seq.sv(54) @ 0: uvm_test_top.env.master_agent.sqr@@seq [ahb_busy_seq] Starting BUSY traffic: 16 bursts from 0x0000c000
# UVM_INFO ../src/mst_seq/ahb_busy_seq.sv(105) @ 0: uvm_test_top.env.master_agent.sqr@@seq [ahb_busy_seq] AHB_BURST_WRAP4 AHB_SIZE_16B @0x0000c002, 4 beats, retract=0
# UVM_INFO ../src/mst/ahb_master_driver.sv(186) @ 5000: uvm_test_top.env.master_agent.drv [ahb_master_driver] Flushed pending transactions (reset)
# UVM_INFO ../src/tb_top.sv(48) @ 95000: reporter [TB_TOP] Reset de-asserted
# UVM_INFO ../src/slv/ahb_slave_driver.sv(63) @ 95000: uvm_test_top.env.slave_agent.drv [ahb_slave_driver] Reset deasserted - slave driver active (    auto mode)
# UVM_INFO ../src/mst/ahb_master_driver.sv(73) @ 95000: uvm_test_top.env.master_agent.drv [ahb_master_driver] Reset deasserted - master driver active
# UVM_INFO ../src/mst/ahb_master_monitor.sv(75) @ 95000: uvm_test_top.env.master_agent.mon [ahb_master_monitor] Reset deasserted - master monitor active
# UVM_INFO ../src/slv/ahb_slave_monitor.sv(69) @ 95000: uvm_test_top.env.slave_agent.mon [ahb_slave_monitor] Reset deasserted - slave monitor active
# UVM_INFO ../src/mst/ahb_master_driver.sv(87) @ 95000: uvm_test_top.env.master_agent.drv [ahb_master_driver] Queueing [AHB_WRITE]: HADDR=0x0000c002, HBURST=AHB_BURST_WRAP4, HSIZE=AHB_SIZE_16B, 4 beats
# UVM_INFO ../src/mst/ahb_master_driver.sv(129) @ 95000: uvm_test_top.env.master_agent.drv [ahb_master_driver] Driving [AHB_WRITE]: HADDR=0x0000c002, HBURST=AHB_BURST_WRAP4, HSIZE=AHB_SIZE_16B, 4 beats               
# UVM_INFO ../src/mst/ahb_master_driver.sv(340) @ 115000: uvm_test_top.env.master_agent.drv [ahb_master_driver] Beat[0/4] addr=0x0000c002 trans=AHB_TRANS_NONSEQ resp=AHB_RESP_OKAY wdata=0x1b61b16e
# UVM_INFO ../src/slv/ahb_slave_driver.sv(184) @ 115000: uvm_test_top.env.slave_agent.drv [ahb_slave_driver] Beat AHB_WRITE addr=0x0000c002 resp=AHB_RESP_OKAY waits=0 wdata=0x1b61b16e
# UVM_INFO ../src/mst/ahb_master_monitor.sv(117) @ 115000: uvm_test_top.env.master_agent.mon [ahb_master_monitor] Beat[0] addr=0x0000c002 wdata=0x1b61b16e resp=AHB_RESP_OKAY
# UVM_INFO ../src/mst/ahb_master_driver.sv(340) @ 165000: uvm_test_top.env.master_agent.drv [ahb_master_driver] Beat[1/4] addr=0x0000c004 trans=AHB_TRANS_SEQ resp=AHB_RESP_OKAY wdata=0x92de2de7
# UVM_INFO ../src/slv/ahb_slave_driver.sv(184) @ 165000: uvm_test_top.env.slave_agent.drv [ahb_slave_driver] Beat AHB_WRITE addr=0x0000c004 resp=AHB_RESP_OKAY waits=2 wdata=0x92de2de7
# UVM_INFO ../src/mst/ahb_master_monitor.sv(117) @ 165000: uvm_test_top.env.master_agent.mon [ahb_master_monitor] Beat[1] addr=0x0000c004 wdata=0x92de2de7 resp=AHB_RESP_OKAY
# UVM_INFO ../src/mst/ahb_master_driver.sv(340) @ 205000: uvm_test_top.env.master_agent.drv [ahb_master_driver] Beat[2/4] addr=0x0000c006 trans=AHB_TRANS_SEQ resp=AHB_RESP_OKAY wdata=0xca5e61c4
# UVM_INFO ../src/slv/ahb_slave_driver.sv(184) @ 205000: uvm_test_top.env.slave_agent.drv [ahb_slave_driver] Beat AHB_WRITE addr=0x0000c006 resp=AHB_RESP_OKAY waits=2 wdata=0xca5e61c4
# UVM_INFO ../src/mst/ahb_master_monitor.sv(117) @ 205000: uvm_test_top.env.master_agent.mon [ahb_master_monitor] Beat[2] addr=0x0000c006 wdata=0xca5e61c4 resp=AHB_RESP_OKAY
# UVM_INFO ../src/mst/ahb_master_driver.sv(340) @ 255000: uvm_test_top.env.master_agent.drv [ahb_master_driver] Beat[3/4] addr=0x0000c000 trans=AHB_TRANS_SEQ resp=AHB_RESP_OKAY wdata=0x30bf7926
# UVM_INFO ../src/mst/ahb_master_driver.sv(385) @ 255000: uvm_test_top.env.master_agent.drv [ahb_master_driver] Transaction complete: AHB_WRITE 0x0000c002, 4 beats, burst=AHB_BURST_WRAP4
# UVM_INFO ../src/slv/ahb_slave_driver.sv(184) @ 255000: uvm_test_top.env.slave_agent.drv [ahb_slave_driver] Beat AHB_WRITE addr=0x0000c000 resp=AHB_RESP_OKAY waits=1 wdata=0x30bf7926
# UVM_INFO ../src/slv/ahb_slave_monitor.sv(197) @ 255000: uvm_test_top.env.slave_agent.mon [ahb_slave_monitor] Observed [AHB_WRITE]: HADDR=0x0000c002, HBURST=AHB_BURST_WRAP4, HSIZE=AHB_SIZE_16B, 4 beats
# UVM_INFO ../src/env/ahb_coverage.sv(127) @ 255000: uvm_test_top.env.slave_cov [ahb_coverage] Sampled [AHB_WRITE]: burst=AHB_BURST_WRAP4 size=AHB_SIZE_16B beats=4 error=0
# UVM_INFO ../src/mst/ahb_master_monitor.sv(117) @ 255000: uvm_test_top.env.master_agent.mon [ahb_master_monitor] Beat[3] addr=0x0000c000 wdata=0x30bf7926 resp=AHB_RESP_OKAY
# UVM_INFO ../src/mst/ahb_master_monitor.sv(222) @ 255000: uvm_test_top.env.master_agent.mon [ahb_master_monitor] Observed [AHB_WRITE]: HADDR=0x0000c002, HBURST=AHB_BURST_WRAP4, HSIZE=AHB_SIZE_16B, 4 beats
# UVM_INFO ../src/env/ahb_coverage.sv(127) @ 255000: uvm_test_top.env.master_cov [ahb_coverage] Sampled [AHB_WRITE]: burst=AHB_BURST_WRAP4 size=AHB_SIZE_16B beats=4 error=0
# UVM_INFO ../src/env/ahb_scoreboard.sv(104) @ 255000: uvm_test_top.env.scb [ahb_scoreboard] MATCH #1: [AHB_WRITE] HADDR=0x0000c002 AHB_BURST_WRAP4 4 beats
# UVM_INFO ../src/mst/ahb_master_driver.sv(87) @ 255000: uvm_test_top.env.master_agent.drv [ahb_master_driver] Queueing [AHB_READ]: HADDR=0x0000c002, HBURST=AHB_BURST_WRAP4, HSIZE=AHB_SIZE_16B, 4 beats
# UVM_INFO ../src/mst/ahb_master_driver.sv(129) @ 255000: uvm_test_top.env.master_agent.drv [ahb_master_driver] Driving [AHB_READ]: HADDR=0x0000c002, HBURST=AHB_BURST_WRAP4, HSIZE=AHB_SIZE_16B, 4 beats               
# UVM_INFO ../src/mst/ahb_master_driver.sv(340) @ 305000: uvm_test_top.env.master_agent.drv [ahb_master_driver] Beat[0/4] addr=0x0000c002 trans=AHB_TRANS_NONSEQ resp=AHB_RESP_OKAY rdata=0x1b61b16e
# UVM_INFO ../src/slv/ahb_slave_driver.sv(184) @ 305000: uvm_test_top.env.slave_agent.drv [ahb_slave_driver] Beat AHB_READ addr=0x0000c002 resp=AHB_RESP_OKAY waits=2 rdata=0x1b61b16e
# UVM_INFO ../src/mst/ahb_master_monitor.sv(117) @ 305000: uvm_test_top.env.master_agent.mon [ahb_master_monitor] Beat[0] addr=0x0000c002 rdata=0x1b61b16e resp=AHB_RESP_OKAY
# UVM_INFO ../src/mst/ahb_master_driver.sv(340) @ 325000: uvm_test_top.env.master_agent.drv [ahb_master_driver] Beat[1/4] addr=0x0000c004 trans=AHB_TRANS_SEQ resp=AHB_RESP_OKAY rdata=0x92de2de7
# UVM_INFO ../src/slv/ahb_slave_driver.sv(184) @ 325000: uvm_test_top.env.slave_agent.drv [ahb_slave_driver] Beat AHB_READ addr=0x0000c004 resp=AHB_RESP_OKAY waits=1 rdata=0x92de2de7
# UVM_INFO ../src/mst/ahb_master_monitor.sv(117) @ 325000: uvm_test_top.env.master_agent.mon [ahb_master_monitor] Beat[1] addr=0x0000c004 rdata=0x92de2de7 resp=AHB_RESP_OKAY
# UVM_INFO ../src/mst/ahb_master_driver.sv(340) @ 335000: uvm_test_top.env.master_agent.drv [ahb_master_driver] Beat[2/4] addr=0x0000c006 trans=AHB_TRANS_SEQ resp=AHB_RESP_OKAY rdata=0xca5e61c4
# UVM_INFO ../src/slv/ahb_slave_driver.sv(184) @ 335000: uvm_test_top.env.slave_agent.drv [ahb_slave_driver] Beat AHB_READ addr=0x0000c006 resp=AHB_RESP_OKAY waits=0 rdata=0xca5e61c4
# UVM_INFO ../src/mst/ahb_master_monitor.sv(117) @ 335000: uvm_test_top.env.master_agent.mon [ahb_master_monitor] Beat[2] addr=0x0000c006 rdata=0xca5e61c4 resp=AHB_RESP_OKAY
# UVM_INFO ../src/mst/ahb_master_driver.sv(340) @ 365000: uvm_test_top.env.master_agent.drv [ahb_master_driver] Beat[3/4] addr=0x0000c000 trans=AHB_TRANS_SEQ resp=AHB_RESP_OKAY rdata=0x30bf7926
# UVM_INFO ../src/mst/ahb_master_driver.sv(385) @ 365000: uvm_test_top.env.master_agent.drv [ahb_master_driver] Transaction complete: AHB_READ 0x0000c002, 4 beats, burst=AHB_BURST_WRAP4
# UVM_INFO ../src/slv/ahb_slave_driver.sv(184) @ 365000: uvm_test_top.env.slave_agent.drv [ahb_slave_driver] Beat AHB_READ addr=0x0000c000 resp=AHB_RESP_OKAY waits=2 rdata=0x30bf7926
# UVM_INFO ../src/mst/ahb_master_monitor.sv(117) @ 365000: uvm_test_top.env.master_agent.mon [ahb_master_monitor] Beat[3] addr=0x0000c000 rdata=0x30bf7926 resp=AHB_RESP_OKAY
# UVM_INFO ../src/mst/ahb_master_monitor.sv(222) @ 365000: uvm_test_top.env.master_agent.mon [ahb_master_monitor] Observed [AHB_READ]: HADDR=0x0000c002, HBURST=AHB_BURST_WRAP4, HSIZE=AHB_SIZE_16B, 4 beats
# UVM_INFO ../src/env/ahb_coverage.sv(127) @ 365000: uvm_test_top.env.master_cov [ahb_coverage] Sampled [AHB_READ]: burst=AHB_BURST_WRAP4 size=AHB_SIZE_16B beats=4 error=0
# UVM_INFO ../src/slv/ahb_slave_monitor.sv(197) @ 365000: uvm_test_top.env.slave_agent.mon [ahb_slave_monitor] Observed [AHB_READ]: HADDR=0x0000c002, HBURST=AHB_BURST_WRAP4, HSIZE=AHB_SIZE_16B, 4 beats
# UVM_INFO ../src/env/ahb_scoreboard.sv(104) @ 365000: uvm_test_top.env.scb [ahb_scoreboard] MATCH #2: [AHB_READ] HADDR=0x0000c002 AHB_BURST_WRAP4 4 beats
# UVM_INFO ../src/env/ahb_coverage.sv(127) @ 365000: uvm_test_top.env.slave_cov [ahb_coverage] Sampled [AHB_READ]: burst=AHB_BURST_WRAP4 size=AHB_SIZE_16B beats=4 error=0
# UVM_INFO ../src/mst_seq/ahb_base_seq.sv(182) @ 365000: uvm_test_top.env.master_agent.sqr@@seq [ahb_busy_seq] AHB_BURST_WRAP4 AHB_SIZE_16B beat 0 @0x0000c002 ok
# UVM_INFO ../src/mst_seq/ahb_base_seq.sv(182) @ 365000: uvm_test_top.env.master_agent.sqr@@seq [ahb_busy_seq] AHB_BURST_WRAP4 AHB_SIZE_16B beat 1 @0x0000c004 ok
# UVM_INFO ../src/mst_seq/ahb_base_seq.sv(182) @ 365000: uvm_test_top.env.master_agent.sqr@@seq [ahb_busy_seq] AHB_BURST_WRAP4 AHB_SIZE_16B beat 2 @0x0000c006 ok
# UVM_INFO ../src/mst_seq/ahb_base_seq.sv(182) @ 365000: uvm_test_top.env.master_agent.sqr@@seq [ahb_busy_seq] AHB_BURST_WRAP4 AHB_SIZE_16B beat 3 @0x0000c000 ok
# UVM_INFO ../src/mst_seq/ahb_busy_seq.sv(105) @ 365000: uvm_test_top.env.master_agent.sqr@@seq [ahb_busy_seq] AHB_BURST_WRAP8 AHB_SIZE_16B @0x0000c060, 8 beats, retract=0
# UVM_INFO ../src/mst/ahb_master_driver.sv(87) @ 365000: uvm_test_top.env.master_agent.drv [ahb_master_driver] Queueing [AHB_WRITE]: HADDR=0x0000c060, HBURST=AHB_BURST_WRAP8, HSIZE=AHB_SIZE_16B, 8 beats
# UVM_INFO ../src/mst/ahb_master_driver.sv(129) @ 365000: uvm_test_top.env.master_agent.drv [ahb_master_driver] Driving [AHB_WRITE]: HADDR=0x0000c060, HBURST=AHB_BURST_WRAP8, HSIZE=AHB_SIZE_16B, 8 beats               
# UVM_INFO ../src/mst/ahb_master_driver.sv(340) @ 405000: uvm_test_top.env.master_agent.drv [ahb_master_driver] Beat[0/8] addr=0x0000c060 trans=AHB_TRANS_NONSEQ resp=AHB_RESP_OKAY wdata=0xa4291d84
# UVM_INFO ../src/slv/ahb_slave_driver.sv(184) @ 405000: uvm_test_top.env.slave_agent.drv [ahb_slave_driver] Beat AHB_WRITE addr=0x0000c060 resp=AHB_RESP_OKAY waits=1 wdata=0xa4291d84
# UVM_INFO ../src/mst/ahb_master_monitor.sv(117) @ 405000: uvm_test_top.env.master_agent.mon [ahb_master_monitor] Beat[0] addr=0x0000c060 wdata=0xa4291d84 resp=AHB_RESP_OKAY
# UVM_INFO ../src/mst/ahb_master_driver.sv(340) @ 465000: uvm_test_top.env.master_agent.drv [ahb_master_driver] Beat[1/8] addr=0x0000c062 trans=AHB_TRANS_SEQ resp=AHB_RESP_OKAY wdata=0xf38515ca
# UVM_INFO ../src/slv/ahb_slave_driver.sv(184) @ 465000: uvm_test_top.env.slave_agent.drv [ahb_slave_driver] Beat AHB_WRITE addr=0x0000c062 resp=AHB_RESP_OKAY waits=2 wdata=0xf38515ca
# UVM_INFO ../src/mst/ahb_master_monitor.sv(117) @ 465000: uvm_test_top.env.master_agent.mon [ahb_master_monitor] Beat[1] addr=0x0000c062 wdata=0xf38515ca resp=AHB_RESP_OKAY
# UVM_INFO ../src/mst/ahb_master_driver.sv(340) @ 505000: uvm_test_top.env.master_agent.drv [ahb_master_driver] Beat[2/8] addr=0x0000c064 trans=AHB_TRANS_SEQ resp=AHB_RESP_OKAY wdata=0x3e2037bb
# UVM_INFO ../src/slv/ahb_slave_driver.sv(184) @ 505000: uvm_test_top.env.slave_agent.drv [ahb_slave_driver] Beat AHB_WRITE addr=0x0000c064 resp=AHB_RESP_OKAY waits=0 wdata=0x3e2037bb
# UVM_INFO ../src/mst/ahb_master_monitor.sv(117) @ 505000: uvm_test_top.env.master_agent.mon [ahb_master_monitor] Beat[2] addr=0x0000c064 wdata=0x3e2037bb resp=AHB_RESP_OKAY
# UVM_INFO ../src/mst/ahb_master_driver.sv(340) @ 525000: uvm_test_top.env.master_agent.drv [ahb_master_driver] Beat[3/8] addr=0x0000c066 trans=AHB_TRANS_SEQ resp=AHB_RESP_OKAY wdata=0x738e0129
# UVM_INFO ../src/slv/ahb_slave_driver.sv(184) @ 525000: uvm_test_top.env.slave_agent.drv [ahb_slave_driver] Beat AHB_WRITE addr=0x0000c066 resp=AHB_RESP_OKAY waits=0 wdata=0x738e0129
# UVM_INFO ../src/mst/ahb_master_monitor.sv(117) @ 525000: uvm_test_top.env.master_agent.mon [ahb_master_monitor] Beat[3] addr=0x0000c066 wdata=0x738e0129 resp=AHB_RESP_OKAY
# UVM_INFO ../src/mst/ahb_master_driver.sv(340) @ 565000: uvm_test_top.env.master_agent.drv [ahb_master_driver] Beat[4/8] addr=0x0000c068 trans=AHB_TRANS_SEQ resp=AHB_RESP_OKAY wdata=0xd675cdf6
# UVM_INFO ../src/slv/ahb_slave_driver.sv(184) @ 565000: uvm_test_top.env.slave_agent.drv [ahb_slave_driver] Beat AHB_WRITE addr=0x0000c068 resp=AHB_RESP_OKAY waits=0 wdata=0xd675cdf6
# UVM_INFO ../src/mst/ahb_master_monitor.sv(117) @ 565000: uvm_test_top.env.master_agent.mon [ahb_master_monitor] Beat[4] addr=0x0000c068 wdata=0xd675cdf6 resp=AHB_RESP_OKAY
# UVM_INFO ../src/mst/ahb_master_driver.sv(340) @ 595000: uvm_test_top.env.master_agent.drv [ahb_master_driver] Beat[5/8] addr=0x0000c06a trans=AHB_TRANS_SEQ resp=AHB_RESP_OKAY wdata=0x5e0abd27
# UVM_INFO ../src/slv/ahb_slave_driver.sv(184) @ 595000: uvm_test_top.env.slave_agent.drv [ahb_slave_driver] Beat AHB_WRITE addr=0x0000c06a resp=AHB_RESP_OKAY waits=1 wdata=0x5e0abd27
# UVM_INFO ../src/mst/ahb_master_monitor.sv(117) @ 595000: uvm_test_top.env.master_agent.mon [ahb_master_monitor] Beat[5] addr=0x0000c06a wdata=0x5e0abd27 resp=AHB_RESP_OKAY
# UVM_INFO ../src/mst/ahb_master_driver.sv(340) @ 635000: uvm_test_top.env.master_agent.drv [ahb_master_driver] Beat[6/8] addr=0x0000c06c trans=AHB_TRANS_SEQ resp=AHB_RESP_OKAY wdata=0xb5142701
# UVM_INFO ../src/slv/ahb_slave_driver.sv(184) @ 635000: uvm_test_top.env.slave_agent.drv [ahb_slave_driver] Beat AHB_WRITE addr=0x0000c06c resp=AHB_RESP_OKAY waits=2 wdata=0xb5142701
# UVM_INFO ../src/mst/ahb_master_monitor.sv(117) @ 635000: uvm_test_top.env.master_agent.mon [ahb_master_monitor] Beat[6] addr=0x0000c06c wdata=0xb5142701 resp=AHB_RESP_OKAY
# UVM_INFO ../src/mst/ahb_master_driver.sv(340) @ 665000: uvm_test_top.env.master_agent.drv [ahb_master_driver] Beat[7/8] addr=0x0000c06e trans=AHB_TRANS_SEQ resp=AHB_RESP_OKAY wdata=0x44f35423
# UVM_INFO ../src/mst/ahb_master_driver.sv(385) @ 665000: uvm_test_top.env.master_agent.drv [ahb_master_driver] Transaction complete: AHB_WRITE 0x0000c060, 8 beats, burst=AHB_BURST_WRAP8
# UVM_INFO ../src/slv/ahb_slave_driver.sv(184) @ 665000: uvm_test_top.env.slave_agent.drv [ahb_slave_driver] Beat AHB_WRITE addr=0x0000c06e resp=AHB_RESP_OKAY waits=1 wdata=0x44f35423
# UVM_INFO ../src/mst/ahb_master_monitor.sv(117) @ 665000: uvm_test_top.env.master_agent.mon [ahb_master_monitor] Beat[7] addr=0x0000c06e wdata=0x44f35423 resp=AHB_RESP_OKAY
# UVM_INFO ../src/mst/ahb_master_monitor.sv(222) @ 665000: uvm_test_top.env.master_agent.mon [ahb_master_monitor] Observed [AHB_WRITE]: HADDR=0x0000c060, HBURST=AHB_BURST_WRAP8, HSIZE=AHB_SIZE_16B, 8 beats
# UVM_INFO ../src/env/ahb_coverage.sv(127) @ 665000: uvm_test_top.env.master_cov [ahb_coverage] Sampled [AHB_WRITE]: burst=AHB_BURST_WRAP8 size=AHB_SIZE_16B beats=8 error=0
# UVM_INFO ../src/slv/ahb_slave_monitor.sv(197) @ 665000: uvm_test_top.env.slave_agent.mon [ahb_slave_monitor] Observed [AHB_WRITE]: HADDR=0x0000c060, HBURST=AHB_BURST_WRAP8, HSIZE=AHB_SIZE_16B, 8 beats
# UVM_INFO ../src/env/ahb_scoreboard.sv(104) @ 665000: uvm_test_top.env.scb [ahb_scoreboard] MATCH #3: [AHB_WRITE] HADDR=0x0000c060 AHB_BURST_WRAP8 8 beats
# UVM_INFO ../src/env/ahb_coverage.sv(127) @ 665000: uvm_test_top.env.slave_cov [ahb_coverage] Sampled [AHB_WRITE]: burst=AHB_BURST_WRAP8 size=AHB_SIZE_16B beats=8 error=0
# UVM_INFO ../src/mst/ahb_master_driver.sv(87) @ 665000: uvm_test_top.env.master_agent.drv [ahb_master_driver] Queueing [AHB_READ]: HADDR=0x0000c060, HBURST=AHB_BURST_WRAP8, HSIZE=AHB_SIZE_16B, 8 beats
# UVM_INFO ../src/mst/ahb_master_driver.sv(129) @ 665000: uvm_test_top.env.master_agent.drv [ahb_master_driver] Driving [AHB_READ]: HADDR=0x0000c060, HBURST=AHB_BURST_WRAP8, HSIZE=AHB_SIZE_16B, 8 beats               
# UVM_INFO ../src/mst/ahb_master_driver.sv(340) @ 695000: uvm_test_top.env.master_agent.drv [ahb_master_driver] Beat[0/8] addr=0x0000c060 trans=AHB_TRANS_NONSEQ resp=AHB_RESP_OKAY rdata=0xa4291d84
# UVM_INFO ../src/slv/ahb_slave_driver.sv(184) @ 695000: uvm_test_top.env.slave_agent.drv [ahb_slave_driver] Beat AHB_READ addr=0x0000c060 resp=AHB_RESP_OKAY waits=0 rdata=0xa4291d84
# UVM_INFO ../src/mst/ahb_master_monitor.sv(117) @ 695000: uvm_test_top.env.master_agent.mon [ahb_master_monitor] Beat[0] addr=0x0000c060 rdata=0xa4291d84 resp=AHB_RESP_OKAY
# UVM_INFO ../src/mst/ahb_master_driver.sv(340) @ 705000: uvm_test_top.env.master_agent.drv [ahb_master_driver] Beat[1/8] addr=0x0000c062 trans=AHB_TRANS_SEQ resp=AHB_RESP_OKAY rdata=0xf38515ca
# UVM_INFO ../src/slv/ahb_slave_driver.sv(184) @ 705000: uvm_test_top.env.slave_agent.drv [ahb_slave_driver] Beat AHB_READ addr=0x0000c062 resp=AHB_RESP_OKAY waits=0 rdata=0xf38515ca
# UVM_INFO ../src/mst/ahb_master_monitor.sv(117) @ 705000: uvm_test_top.env.master_agent.mon [ahb_master_monitor] Beat[1] addr=0x0000c062 rdata=0xf38515ca resp=AHB_RESP_OKAY
# UVM_INFO ../src/mst/ahb_master_driver.sv(340) @ 725000: uvm_test_top.env.master_agent.drv [ahb_master_driver] Beat[2/8] addr=0x0000c064 trans=AHB_TRANS_SEQ resp=AHB_RESP_OKAY rdata=0x3e2037bb
# UVM_INFO ../src/slv/ahb_slave_driver.sv(184) @ 725000: uvm_test_top.env.slave_agent.drv [ahb_slave_driver] Beat AHB_READ addr=0x0000c064 resp=AHB_RESP_OKAY waits=1 rdata=0x3e2037bb
# UVM_INFO ../src/mst/ahb_master_monitor.sv(117) @ 725000: uvm_test_top.env.master_agent.mon [ahb_master_monitor] Beat[2] addr=0x0000c064 rdata=0x3e2037bb resp=AHB_RESP_OKAY
# UVM_INFO ../src/mst/ahb_master_driver.sv(340) @ 745000: uvm_test_top.env.master_agent.drv [ahb_master_driver] Beat[3/8] addr=0x0000c066 trans=AHB_TRANS_SEQ resp=AHB_RESP_OKAY rdata=0x738e0129
# UVM_INFO ../src/slv/ahb_slave_driver.sv(184) @ 745000: uvm_test_top.env.slave_agent.drv [ahb_slave_driver] Beat AHB_READ addr=0x0000c066 resp=AHB_RESP_OKAY waits=1 rdata=0x738e0129
# UVM_INFO ../src/mst/ahb_master_monitor.sv(117) @ 745000: uvm_test_top.env.master_agent.mon [ahb_master_monitor] Beat[3] addr=0x0000c066 rdata=0x738e0129 resp=AHB_RESP_OKAY
# UVM_INFO ../src/mst/ahb_master_driver.sv(340) @ 765000: uvm_test_top.env.master_agent.drv [ahb_master_driver] Beat[4/8] addr=0x0000c068 trans=AHB_TRANS_SEQ resp=AHB_RESP_OKAY rdata=0xd675cdf6
# UVM_INFO ../src/slv/ahb_slave_driver.sv(184) @ 765000: uvm_test_top.env.slave_agent.drv [ahb_slave_driver] Beat AHB_READ addr=0x0000c068 resp=AHB_RESP_OKAY waits=1 rdata=0xd675cdf6
# UVM_INFO ../src/mst/ahb_master_monitor.sv(117) @ 765000: uvm_test_top.env.master_agent.mon [ahb_master_monitor] Beat[4] addr=0x0000c068 rdata=0xd675cdf6 resp=AHB_RESP_OKAY
# UVM_INFO ../src/mst/ahb_master_driver.sv(340) @ 785000: uvm_test_top.env.master_agent.drv [ahb_master_driver] Beat[5/8] addr=0x0000c06a trans=AHB_TRANS_SEQ resp=AHB_RESP_OKAY rdata=0x5e0abd27
# UVM_INFO ../src/slv/ahb_slave_driver.sv(184) @ 785000: uvm_test_top.env.slave_agent.drv [ahb_slave_driver] Beat AHB_READ addr=0x0000c06a resp=AHB_RESP_OKAY waits=1 rdata=0x5e0abd27
# UVM_INFO ../src/mst/ahb_master_monitor.sv(117) @ 785000: uvm_test_top.env.master_agent.mon [ahb_master_monitor] Beat[5] addr=0x0000c06a rdata=0x5e0abd27 resp=AHB_RESP_OKAY
# UVM_INFO ../src/mst/ahb_master_driver.sv(340) @ 795000: uvm_test_top.env.master_agent.drv [ahb_master_driver] Beat[6/8] addr=0x0000c06c trans=AHB_TRANS_SEQ resp=AHB_RESP_OKAY rdata=0xb5142701
# UVM_INFO ../src/slv/ahb_slave_driver.sv(184) @ 795000: uvm_test_top.env.slave_agent.drv [ahb_slave_driver] Beat AHB_READ addr=0x0000c06c resp=AHB_RESP_OKAY waits=0 rdata=0xb5142701
# UVM_INFO ../src/mst/ahb_master_monitor.sv(117) @ 795000: uvm_test_top.env.master_agent.mon [ahb_master_monitor] Beat[6] addr=0x0000c06c rdata=0xb5142701 resp=AHB_RESP_OKAY
# UVM_INFO ../src/mst/ahb_master_driver.sv(340) @ 805000: uvm_test_top.env.master_agent.drv [ahb_master_driver] Beat[7/8] addr=0x0000c06e trans=AHB_TRANS_SEQ resp=AHB_RESP_OKAY rdata=0x44f35423
# UVM_INFO ../src/mst/ahb_master_driver.sv(385) @ 805000: uvm_test_top.env.master_agent.drv [ahb_master_driver] Transaction complete: AHB_READ 0x0000c060, 8 beats, burst=AHB_BURST_WRAP8
# UVM_INFO ../src/slv/ahb_slave_driver.sv(184) @ 805000: uvm_test_top.env.slave_agent.drv [ahb_slave_driver] Beat AHB_READ addr=0x0000c06e resp=AHB_RESP_OKAY waits=0 rdata=0x44f35423
# UVM_INFO ../src/mst/ahb_master_monitor.sv(117) @ 805000: uvm_test_top.env.master_agent.mon [ahb_master_monitor] Beat[7] addr=0x0000c06e rdata=0x44f35423 resp=AHB_RESP_OKAY
# UVM_INFO ../src/mst/ahb_master_monitor.sv(222) @ 805000: uvm_test_top.env.master_agent.mon [ahb_master_monitor] Observed [AHB_READ]: HADDR=0x0000c060, HBURST=AHB_BURST_WRAP8, HSIZE=AHB_SIZE_16B, 8 beats
# UVM_INFO ../src/env/ahb_coverage.sv(127) @ 805000: uvm_test_top.env.master_cov [ahb_coverage] Sampled [AHB_READ]: burst=AHB_BURST_WRAP8 size=AHB_SIZE_16B beats=8 error=0
# UVM_INFO ../src/slv/ahb_slave_monitor.sv(197) @ 805000: uvm_test_top.env.slave_agent.mon [ahb_slave_monitor] Observed [AHB_READ]: HADDR=0x0000c060, HBURST=AHB_BURST_WRAP8, HSIZE=AHB_SIZE_16B, 8 beats
# UVM_INFO ../src/env/ahb_scoreboard.sv(104) @ 805000: uvm_test_top.env.scb [ahb_scoreboard] MATCH #4: [AHB_READ] HADDR=0x0000c060 AHB_BURST_WRAP8 8 beats
# UVM_INFO ../src/env/ahb_coverage.sv(127) @ 805000: uvm_test_top.env.slave_cov [ahb_coverage] Sampled [AHB_READ]: burst=AHB_BURST_WRAP8 size=AHB_SIZE_16B beats=8 error=0
# UVM_INFO ../src/mst_seq/ahb_base_seq.sv(182) @ 805000: uvm_test_top.env.master_agent.sqr@@seq [ahb_busy_seq] AHB_BURST_WRAP8 AHB_SIZE_16B beat 0 @0x0000c060 ok
# UVM_INFO ../src/mst_seq/ahb_base_seq.sv(182) @ 805000: uvm_test_top.env.master_agent.sqr@@seq [ahb_busy_seq] AHB_BURST_WRAP8 AHB_SIZE_16B beat 1 @0x0000c062 ok
# UVM_INFO ../src/mst_seq/ahb_base_seq.sv(182) @ 805000: uvm_test_top.env.master_agent.sqr@@seq [ahb_busy_seq] AHB_BURST_WRAP8 AHB_SIZE_16B beat 2 @0x0000c064 ok
# UVM_INFO ../src/mst_seq/ahb_base_seq.sv(182) @ 805000: uvm_test_top.env.master_agent.sqr@@seq [ahb_busy_seq] AHB_BURST_WRAP8 AHB_SIZE_16B beat 3 @0x0000c066 ok
# UVM_INFO ../src/mst_seq/ahb_base_seq.sv(182) @ 805000: uvm_test_top.env.master_agent.sqr@@seq [ahb_busy_seq] AHB_BURST_WRAP8 AHB_SIZE_16B beat 4 @0x0000c068 ok
# UVM_INFO ../src/mst_seq/ahb_base_seq.sv(182) @ 805000: uvm_test_top.env.master_agent.sqr@@seq [ahb_busy_seq] AHB_BURST_WRAP8 AHB_SIZE_16B beat 5 @0x0000c06a ok
# UVM_INFO ../src/mst_seq/ahb_base_seq.sv(182) @ 805000: uvm_test_top.env.master_agent.sqr@@seq [ahb_busy_seq] AHB_BURST_WRAP8 AHB_SIZE_16B beat 6 @0x0000c06c ok
# UVM_INFO ../src/mst_seq/ahb_base_seq.sv(182) @ 805000: uvm_test_top.env.master_agent.sqr@@seq [ahb_busy_seq] AHB_BURST_WRAP8 AHB_SIZE_16B beat 7 @0x0000c06e ok
# UVM_INFO ../src/mst_seq/ahb_busy_seq.sv(105) @ 805000: uvm_test_top.env.master_agent.sqr@@seq [ahb_busy_seq] AHB_BURST_INCR8 AHB_SIZE_16B @0x0000c088, 8 beats, retract=1
# UVM_INFO ../src/mst/ahb_master_driver.sv(87) @ 805000: uvm_test_top.env.master_agent.drv [ahb_master_driver] Queueing [AHB_WRITE]: HADDR=0x0000c088, HBURST=AHB_BURST_INCR8, HSIZE=AHB_SIZE_16B, 8 beats
# UVM_INFO ../src/mst/ahb_master_driver.sv(129) @ 805000: uvm_test_top.env.master_agent.drv [ahb_master_driver] Driving [AHB_WRITE]: HADDR=0x0000c088, HBURST=AHB_BURST_INCR8, HSIZE=AHB_SIZE_16B, 8 beats               
# UVM_INFO ../src/mst/ahb_master_driver.sv(340) @ 855000: uvm_test_top.env.master_agent.drv [ahb_master_driver] Beat[0/8] addr=0x0000c088 trans=AHB_TRANS_NONSEQ resp=AHB_RESP_OKAY wdata=0xad9ca1cf
# UVM_INFO ../src/slv/ahb_slave_driver.sv(184) @ 855000: uvm_test_top.env.slave_agent.drv [ahb_slave_driver] Beat AHB_WRITE addr=0x0000c088 resp=AHB_RESP_OKAY waits=2 wdata=0xad9ca1cf
# UVM_INFO ../src/mst/ahb_master_monitor.sv(117) @ 855000: uvm_test_top.env.master_agent.mon [ahb_master_monitor] Beat[0] addr=0x0000c088 wdata=0xad9ca1cf resp=AHB_RESP_OKAY
# UVM_INFO ../src/mst/ahb_master_driver.sv(340) @ 875000: uvm_test_top.env.master_agent.drv [ahb_master_driver] Beat[1/8] addr=0x0000c08a trans=AHB_TRANS_SEQ resp=AHB_RESP_OKAY wdata=0xd66733aa
# UVM_INFO ../src/slv/ahb_slave_driver.sv(184) @ 875000: uvm_test_top.env.slave_agent.drv [ahb_slave_driver] Beat AHB_WRITE addr=0x0000c08a resp=AHB_RESP_OKAY waits=1 wdata=0xd66733aa
# UVM_INFO ../src/mst/ahb_master_monitor.sv(117) @ 875000: uvm_test_top.env.master_agent.mon [ahb_master_monitor] Beat[1] addr=0x0000c08a wdata=0xd66733aa resp=AHB_RESP_OKAY
# UVM_INFO ../src/mst/ahb_master_driver.sv(340) @ 905000: uvm_test_top.env.master_agent.drv [ahb_master_driver] Beat[2/8] addr=0x0000c08c trans=AHB_TRANS_SEQ resp=AHB_RESP_OKAY wdata=0xcd2b7eec
# UVM_INFO ../src/slv/ahb_slave_driver.sv(184) @ 905000: uvm_test_top.env.slave_agent.drv [ahb_slave_driver] Beat AHB_WRITE addr=0x0000c08c resp=AHB_RESP_OKAY waits=2 wdata=0xcd2b7eec
# UVM_INFO ../src/mst/ahb_master_monitor.sv(117) @ 905000: uvm_test_top.env.master_agent.mon [ahb_master_monitor] Beat[2] addr=0x0000c08c wdata=0xcd2b7eec resp=AHB_RESP_OKAY
# UVM_INFO ../src/mst/ahb_master_driver.sv(340) @ 935000: uvm_test_top.env.master_agent.drv [ahb_master_driver] Beat[3/8] addr=0x0000c08e trans=AHB_TRANS_SEQ resp=AHB_RESP_OKAY wdata=0xf26b2980
# UVM_INFO ../src/slv/ahb_slave_driver.sv(184) @ 935000: uvm_test_top.env.slave_agent.drv [ahb_slave_driver] Beat AHB_WRITE addr=0x0000c08e resp=AHB_RESP_OKAY waits=2 wdata=0xf26b2980
# UVM_INFO ../src/mst/ahb_master_monitor.sv(117) @ 935000: uvm_test_top.env.master_agent.mon [ahb_master_monitor] Beat[3] addr=0x0000c08e wdata=0xf26b2980 resp=AHB_RESP_OKAY
# UVM_INFO ../src/mst/ahb_master_driver.sv(340) @ 945000: uvm_test_top.env.master_agent.drv [ahb_master_driver] Beat[4/8] addr=0x0000c090 trans=AHB_TRANS_SEQ resp=AHB_RESP_OKAY wdata=0x56dcc5dd
# UVM_INFO ../src/slv/ahb_slave_driver.sv(184) @ 945000: uvm_test_top.env.slave_agent.drv [ahb_slave_driver] Beat AHB_WRITE addr=0x0000c090 resp=AHB_RESP_OKAY waits=0 wdata=0x56dcc5dd
# UVM_INFO ../src/mst/ahb_master_monitor.sv(117) @ 945000: uvm_test_top.env.master_agent.mon [ahb_master_monitor] Beat[4] addr=0x0000c090 wdata=0x56dcc5dd resp=AHB_RESP_OKAY
# UVM_INFO ../src/mst/ahb_master_driver.sv(340) @ 965000: uvm_test_top.env.master_agent.drv [ahb_master_driver] Beat[5/8] addr=0x0000c092 trans=AHB_TRANS_SEQ resp=AHB_RESP_OKAY wdata=0x1adf2168
# UVM_INFO ../src/slv/ahb_slave_driver.sv(184) @ 965000: uvm_test_top.env.slave_agent.drv [ahb_slave_driver] Beat AHB_WRITE addr=0x0000c092 resp=AHB_RESP_OKAY waits=0 wdata=0x1adf2168
# UVM_INFO ../src/mst/ahb_master_monitor.sv(117) @ 965000: uvm_test_top.env.master_agent.mon [ahb_master_monitor] Beat[5] addr=0x0000c092 wdata=0x1adf2168 resp=AHB_RESP_OKAY
# UVM_INFO ../src/mst/ahb_master_driver.sv(340) @ 1025000: uvm_test_top.env.master_agent.drv [ahb_master_driver] Beat[6/8] addr=0x0000c094 trans=AHB_TRANS_SEQ resp=AHB_RESP_OKAY wdata=0xbd9d14c0
# UVM_INFO ../src/slv/ahb_slave_driver.sv(184) @ 1025000: uvm_test_top.env.slave_agent.drv [ahb_slave_driver] Beat AHB_WRITE addr=0x0000c094 resp=AHB_RESP_OKAY waits=2 wdata=0xbd9d14c0
# UVM_INFO ../src/mst/ahb_master_monitor.sv(117) @ 1025000: uvm_test_top.env.master_agent.mon [ahb_master_monitor] Beat[6] addr=0x0000c094 wdata=0xbd9d14c0 resp=AHB_RESP_OKAY
# UVM_INFO ../src/mst/ahb_master_driver.sv(340) @ 1055000: uvm_test_top.env.master_agent.drv [ahb_master_driver] Beat[7/8] addr=0x0000c096 trans=AHB_TRANS_SEQ resp=AHB_RESP_OKAY wdata=0x6681eaaf
# UVM_INFO ../src/mst/ahb_master_driver.sv(385) @ 1055000: uvm_test_top.env.master_agent.drv [ahb_master_driver] Transaction complete: AHB_WRITE 0x0000c088, 8 beats, burst=AHB_BURST_INCR8
# UVM_INFO ../src/slv/ahb_slave_driver.sv(184) @ 1055000: uvm_test_top.env.slave_agent.drv [ahb_slave_driver] Beat AHB_WRITE addr=0x0000c096 resp=AHB_RESP_OKAY waits=2 wdata=0x6681eaaf
# UVM_INFO ../src/slv/ahb_slave_monitor.sv(197) @ 1055000: uvm_test_top.env.slave_agent.mon [ahb_slave_monitor] Observed [AHB_WRITE]: HADDR=0x0000c088, HBURST=AHB_BURST_INCR8, HSIZE=AHB_SIZE_16B, 8 beats
# UVM_INFO ../src/env/ahb_coverage.sv(127) @ 1055000: uvm_test_top.env.slave_cov [ahb_coverage] Sampled [AHB_WRITE]: burst=AHB_BURST_INCR8 size=AHB_SIZE_16B beats=8 error=0
# UVM_INFO ../src/mst/ahb_master_monitor.sv(117) @ 1055000: uvm_test_top.env.master_agent.mon [ahb_master_monitor] Beat[7] addr=0x0000c096 wdata=0x6681eaaf resp=AHB_RESP_OKAY
# UVM_INFO ../src/mst/ahb_master_monitor.sv(222) @ 1055000: uvm_test_top.env.master_agent.mon [ahb_master_monitor] Observed [AHB_WRITE]: HADDR=0x0000c088, HBURST=AHB_BURST_INCR8, HSIZE=AHB_SIZE_16B, 8 beats
# UVM_INFO ../src/env/ahb_coverage.sv(127) @ 1055000: uvm_test_top.env.master_cov [ahb_coverage] Sampled [AHB_WRITE]: burst=AHB_BURST_INCR8 size=AHB_SIZE_16B beats=8 error=0
# UVM_INFO ../src/env/ahb_scoreboard.sv(104) @ 1055000: uvm_test_top.env.scb [ahb_scoreboard] MATCH #5: [AHB_WRITE] HADDR=0x0000c088 AHB_BURST_INCR8 8 beats
# UVM_INFO ../src/mst/ahb_master_driver.sv(87) @ 1055000: uvm_test_top.env.master_agent.drv [ahb_master_driver] Queueing [AHB_READ]: HADDR=0x0000c088, HBURST=AHB_BURST_INCR8, HSIZE=AHB_SIZE_16B, 8 beats
# UVM_INFO ../src/mst/ahb_master_driver.sv(129) @ 1055000: uvm_test_top.env.master_agent.drv [ahb_master_driver] Driving [AHB_READ]: HADDR=0x0000c088, HBURST=AHB_BURST_INCR8, HSIZE=AHB_SIZE_16B, 8 beats               
# UVM_INFO ../src/mst/ahb_master_driver.sv(340) @ 1095000: uvm_test_top.env.master_agent.drv [ahb_master_driver] Beat[0/8] addr=0x0000c088 trans=AHB_TRANS_NONSEQ resp=AHB_RESP_OKAY rdata=0xad9ca1cf
# UVM_INFO ../src/slv/ahb_slave_driver.sv(184) @ 1095000: uvm_test_top.env.slave_agent.drv [ahb_slave_driver] Beat AHB_READ addr=0x0000c088 resp=AHB_RESP_OKAY waits=1 rdata=0xad9ca1cf
# UVM_INFO ../src/mst/ahb_master_monitor.sv(117) @ 1095000: uvm_test_top.env.master_agent.mon [ahb_master_monitor] Beat[0] addr=0x0000c088 rdata=0xad9ca1cf resp=AHB_RESP_OKAY
# UVM_INFO ../src/mst/ahb_master_driver.sv(340) @ 1125000: uvm_test_top.env.master_agent.drv [ahb_master_driver] Beat[1/8] addr=0x0000c08a trans=AHB_TRANS_SEQ resp=AHB_RESP_OKAY rdata=0xd66733aa
# UVM_INFO ../src/slv/ahb_slave_driver.sv(184) @ 1125000: uvm_test_top.env.slave_agent.drv [ahb_slave_driver] Beat AHB_READ addr=0x0000c08a resp=AHB_RESP_OKAY waits=2 rdata=0xd66733aa
# UVM_INFO ../src/mst/ahb_master_monitor.sv(117) @ 1125000: uvm_test_top.env.master_agent.mon [ahb_master_monitor] Beat[1] addr=0x0000c08a rdata=0xd66733aa resp=AHB_RESP_OKAY
# UVM_INFO ../src/mst/ahb_master_driver.sv(340) @ 1135000: uvm_test_top.env.master_agent.drv [ahb_master_driver] Beat[2/8] addr=0x0000c08c trans=AHB_TRANS_SEQ resp=AHB_RESP_OKAY rdata=0xcd2b7eec
# UVM_INFO ../src/slv/ahb_slave_driver.sv(184) @ 1135000: uvm_test_top.env.slave_agent.drv [ahb_slave_driver] Beat AHB_READ addr=0x0000c08c resp=AHB_RESP_OKAY waits=0 rdata=0xcd2b7eec
# UVM_INFO ../src/mst/ahb_master_monitor.sv(117) @ 1135000: uvm_test_top.env.master_agent.mon [ahb_master_monitor] Beat[2] addr=0x0000c08c rdata=0xcd2b7eec resp=AHB_RESP_OKAY
# UVM_INFO ../src/mst/ahb_master_driver.sv(340) @ 1145000: uvm_test_top.env.master_agent.drv [ahb_master_driver] Beat[3/8] addr=0x0000c08e trans=AHB_TRANS_SEQ resp=AHB_RESP_OKAY rdata=0xf26b2980
# UVM_INFO ../src/slv/ahb_slave_driver.sv(184) @ 1145000: uvm_test_top.env.slave_agent.drv [ahb_slave_driver] Beat AHB_READ addr=0x0000c08e resp=AHB_RESP_OKAY waits=0 rdata=0xf26b2980
# UVM_INFO ../src/mst/ahb_master_monitor.sv(117) @ 1145000: uvm_test_top.env.master_agent.mon [ahb_master_monitor] Beat[3] addr=0x0000c08e rdata=0xf26b2980 resp=AHB_RESP_OKAY
# UVM_INFO ../src/mst/ahb_master_driver.sv(340) @ 1155000: uvm_test_top.env.master_agent.drv [ahb_master_driver] Beat[4/8] addr=0x0000c090 trans=AHB_TRANS_SEQ resp=AHB_RESP_OKAY rdata=0x56dcc5dd
# UVM_INFO ../src/slv/ahb_slave_driver.sv(184) @ 1155000: uvm_test_top.env.slave_agent.drv [ahb_slave_driver] Beat AHB_READ addr=0x0000c090 resp=AHB_RESP_OKAY waits=0 rdata=0x56dcc5dd
# UVM_INFO ../src/mst/ahb_master_monitor.sv(117) @ 1155000: uvm_test_top.env.master_agent.mon [ahb_master_monitor] Beat[4] addr=0x0000c090 rdata=0x56dcc5dd resp=AHB_RESP_OKAY
# UVM_INFO ../src/mst/ahb_master_driver.sv(340) @ 1175000: uvm_test_top.env.master_agent.drv [ahb_master_driver] Beat[5/8] addr=0x0000c092 trans=AHB_TRANS_SEQ resp=AHB_RESP_OKAY rdata=0x1adf2168
# UVM_INFO ../src/slv/ahb_slave_driver.sv(184) @ 1175000: uvm_test_top.env.slave_agent.drv [ahb_slave_driver] Beat AHB_READ addr=0x0000c092 resp=AHB_RESP_OKAY waits=1 rdata=0x1adf2168
# UVM_INFO ../src/mst/ahb_master_monitor.sv(117) @ 1175000: uvm_test_top.env.master_agent.mon [ahb_master_monitor] Beat[5] addr=0x0000c092 rdata=0x1adf2168 resp=AHB_RESP_OKAY
# UVM_INFO ../src/mst/ahb_master_driver.sv(340) @ 1205000: uvm_test_top.env.master_agent.drv [ahb_master_driver] Beat[6/8] addr=0x0000c094 trans=AHB_TRANS_SEQ resp=AHB_RESP_OKAY rdata=0xbd9d14c0
# UVM_INFO ../src/slv/ahb_slave_driver.sv(184) @ 1205000: uvm_test_top.env.slave_agent.drv [ahb_slave_driver] Beat AHB_READ addr=0x0000c094 resp=AHB_RESP_OKAY waits=2 rdata=0xbd9d14c0
# UVM_INFO ../src/mst/ahb_master_monitor.sv(117) @ 1205000: uvm_test_top.env.master_agent.mon [ahb_master_monitor] Beat[6] addr=0x0000c094 rdata=0xbd9d14c0 resp=AHB_RESP_OKAY
# UVM_INFO ../src/mst/ahb_master_driver.sv(340) @ 1225000: uvm_test_top.env.master_agent.drv [ahb_master_driver] Beat[7/8] addr=0x0000c096 trans=AHB_TRANS_SEQ resp=AHB_RESP_OKAY rdata=0x6681eaaf
# UVM_INFO ../src/mst/ahb_master_driver.sv(385) @ 1225000: uvm_test_top.env.master_agent.drv [ahb_master_driver] Transaction complete: AHB_READ 0x0000c088, 8 beats, burst=AHB_BURST_INCR8
# UVM_INFO ../src/slv/ahb_slave_driver.sv(184) @ 1225000: uvm_test_top.env.slave_agent.drv [ahb_slave_driver] Beat AHB_READ addr=0x0000c096 resp=AHB_RESP_OKAY waits=1 rdata=0x6681eaaf
# UVM_INFO ../src/mst/ahb_master_monitor.sv(117) @ 1225000: uvm_test_top.env.master_agent.mon [ahb_master_monitor] Beat[7] addr=0x0000c096 rdata=0x6681eaaf resp=AHB_RESP_OKAY
# UVM_INFO ../src/mst/ahb_master_monitor.sv(222) @ 1225000: uvm_test_top.env.master_agent.mon [ahb_master_monitor] Observed [AHB_READ]: HADDR=0x0000c088, HBURST=AHB_BURST_INCR8, HSIZE=AHB_SIZE_16B, 8 beats
# UVM_INFO ../src/env/ahb_coverage.sv(127) @ 1225000: uvm_test_top.env.master_cov [ahb_coverage] Sampled [AHB_READ]: burst=AHB_BURST_INCR8 size=AHB_SIZE_16B beats=8 error=0
# UVM_INFO ../src/slv/ahb_slave_monitor.sv(197) @ 1225000: uvm_test_top.env.slave_agent.mon [ahb_slave_monitor] Observed [AHB_READ]: HADDR=0x0000c088, HBURST=AHB_BURST_INCR8, HSIZE=AHB_SIZE_16B, 8 beats
# UVM_INFO ../src/env/ahb_scoreboard.sv(104) @ 1225000: uvm_test_top.env.scb [ahb_scoreboard] MATCH #6: [AHB_READ] HADDR=0x0000c088 AHB_BURST_INCR8 8 beats
# UVM_INFO ../src/env/ahb_coverage.sv(127) @ 1225000: uvm_test_top.env.slave_cov [ahb_coverage] Sampled [AHB_READ]: burst=AHB_BURST_INCR8 size=AHB_SIZE_16B beats=8 error=0
# UVM_INFO ../src/mst_seq/ahb_base_seq.sv(182) @ 1225000: uvm_test_top.env.master_agent.sqr@@seq [ahb_busy_seq] AHB_BURST_INCR8 AHB_SIZE_16B beat 0 @0x0000c088 ok
# UVM_INFO ../src/mst_seq/ahb_base_seq.sv(182) @ 1225000: uvm_test_top.env.master_agent.sqr@@seq [ahb_busy_seq] AHB_BURST_INCR8 AHB_SIZE_16B beat 1 @0x0000c08a ok
# UVM_INFO ../src/mst_seq/ahb_base_seq.sv(182) @ 1225000: uvm_test_top.env.master_agent.sqr@@seq [ahb_busy_seq] AHB_BURST_INCR8 AHB_SIZE_16B beat 2 @0x0000c08c ok
# UVM_INFO ../src/mst_seq/ahb_base_seq.sv(182) @ 1225000: uvm_test_top.env.master_agent.sqr@@seq [ahb_busy_seq] AHB_BURST_INCR8 AHB_SIZE_16B beat 3 @0x0000c08e ok
# UVM_INFO ../src/mst_seq/ahb_base_seq.sv(182) @ 1225000: uvm_test_top.env.master_agent.sqr@@seq [ahb_busy_seq] AHB_BURST_INCR8 AHB_SIZE_16B beat 4 @0x0000c090 ok
# UVM_INFO ../src/mst_seq/ahb_base_seq.sv(182) @ 1225000: uvm_test_top.env.master_agent.sqr@@seq [ahb_busy_seq] AHB_BURST_INCR8 AHB_SIZE_16B beat 5 @0x0000c092 ok
# UVM_INFO ../src/mst_seq/ahb_base_seq.sv(182) @ 1225000: uvm_test_top.env.master_agent.sqr@@seq [ahb_busy_seq] AHB_BURST_INCR8 AHB_SIZE_16B beat 6 @0x0000c094 ok
# UVM_INFO ../src/mst_seq/ahb_base_seq.sv(182) @ 1225000: uvm_test_top.env.master_agent.sqr@@seq [ahb_busy_seq] AHB_BURST_INCR8 AHB_SIZE_16B beat 7 @0x0000c096 ok
# UVM_INFO ../src/mst_seq/ahb_busy_seq.sv(105) @ 1225000: uvm_test_top.env.master_agent.sqr@@seq [ahb_busy_seq] AHB_BURST_INCR AHB_SIZE_8B @0x0000c0df, 14 beats, retract=1
# UVM_INFO ../src/mst/ahb_master_driver.sv(87) @ 1225000: uvm_test_top.env.master_agent.drv [ahb_master_driver] Queueing [AHB_WRITE]: HADDR=0x0000c0df, HBURST=AHB_BURST_INCR, HSIZE=AHB_SIZE_8B, 14 beats
# UVM_INFO ../src/mst/ahb_master_driver.sv(129) @ 1225000: uvm_test_top.env.master_agent.drv [ahb_master_driver] Driving [AHB_WRITE]: HADDR=0x0000c0df, HBURST=AHB_BURST_INCR, HSIZE=AHB_SIZE_8B, 14 beats               
# UVM_INFO ../src/mst/ahb_master_driver.sv(340) @ 1265000: uvm_test_top.env.master_agent.drv [ahb_master_driver] Beat[0/14] addr=0x0000c0df trans=AHB_TRANS_NONSEQ resp=AHB_RESP_OKAY wdata=0x0c1650fa
# UVM_INFO ../src/slv/ahb_slave_driver.sv(184) @ 1265000: uvm_test_top.env.slave_agent.drv [ahb_slave_driver] Beat AHB_WRITE addr=0x0000c0df resp=AHB_RESP_OKAY waits=1 wdata=0x0c1650fa
# UVM_INFO ../src/mst/ahb_master_monitor.sv(117) @ 1265000: uvm_test_top.env.master_agent.mon [ahb_master_monitor] Beat[0] addr=0x0000c0df wdata=0x0c1650fa resp=AHB_RESP_OKAY
# UVM_INFO ../src/mst/ahb_master_driver.sv(340) @ 1295000: uvm_test_top.env.master_agent.drv [ahb_master_driver] Beat[1/14] addr=0x0000c0e0 trans=AHB_TRANS_SEQ resp=AHB_RESP_OKAY wdata=0x73b0aeb9
# UVM_INFO ../src/slv/ahb_slave_driver.sv(184) @ 1295000: uvm_test_top.env.slave_agent.drv [ahb_slave_driver] Beat AHB_WRITE addr=0x0000c0e0 resp=AHB_RESP_OKAY waits=2 wdata=0x73b0aeb9
# UVM_INFO ../src/mst/ahb_master_monitor.sv(117) @ 1295000: uvm_test_top.env.master_agent.mon [ahb_master_monitor] Beat[1] addr=0x0000c0e0 wdata=0x73b0aeb9 resp=AHB_RESP_OKAY
# UVM_INFO ../src/mst/ahb_master_driver.sv(340) @ 1315000: uvm_test_top.env.master_agent.drv [ahb_master_driver] Beat[2/14] addr=0x0000c0e1 trans=AHB_TRANS_SEQ resp=AHB_RESP_OKAY wdata=0x53b1d71c
# UVM_INFO ../src/slv/ahb_slave_driver.sv(184) @ 1315000: uvm_test_top.env.slave_agent.drv [ahb_slave_driver] Beat AHB_WRITE addr=0x0000c0e1 resp=AHB_RESP_OKAY waits=1 wdata=0x53b1d71c
# UVM_INFO ../src/mst/ahb_master_monitor.sv(117) @ 1315000: uvm_test_top.env.master_agent.mon [ahb_master_monitor] Beat[2] addr=0x0000c0e1 wdata=0x53b1d71c resp=AHB_RESP_OKAY
# UVM_INFO ../src/mst/ahb_master_driver.sv(340) @ 1335000: uvm_test_top.env.master_agent.drv [ahb_master_driver] Beat[3/14] addr=0x0000c0e2 trans=AHB_TRANS_SEQ resp=AHB_RESP_OKAY wdata=0x1a0026a1
# UVM_INFO ../src/slv/ahb_slave_driver.sv(184) @ 1335000: uvm_test_top.env.slave_agent.drv [ahb_slave_driver] Beat AHB_WRITE addr=0x0000c0e2 resp=AHB_RESP_OKAY waits=1 wdata=0x1a0026a1
# UVM_INFO ../src/mst/ahb_master_monitor.sv(117) @ 1335000: uvm_test_top.env.master_agent.mon [ahb_master_monitor] Beat[3] addr=0x0000c0e2 wdata=0x1a0026a1 resp=AHB_RESP_OKAY
# UVM_INFO ../src/mst/ahb_master_driver.sv(340) @ 1345000: uvm_test_top.env.master_agent.drv [ahb_master_driver] Beat[4/14] addr=0x0000c0e3 trans=AHB_TRANS_SEQ resp=AHB_RESP_OKAY wdata=0x8e5e415a
# UVM_INFO ../src/slv/ahb_slave_driver.sv(184) @ 1345000: uvm_test_top.env.slave_agent.drv [ahb_slave_driver] Beat AHB_WRITE addr=0x0000c0e3 resp=AHB_RESP_OKAY waits=0 wdata=0x8e5e415a
# UVM_INFO ../src/mst/ahb_master_monitor.sv(117) @ 1345000: uvm_test_top.env.master_agent.mon [ahb_master_monitor] Beat[4] addr=0x0000c0e3 wdata=0x8e5e415a resp=AHB_RESP_OKAY
# UVM_INFO ../src/mst/ahb_master_driver.sv(340) @ 1375000: uvm_test_top.env.master_agent.drv [ahb_master_driver] Beat[5/14] addr=0x0000c0e4 trans=AHB_TRANS_SEQ resp=AHB_RESP_OKAY wdata=0x0b51ec50
# UVM_INFO ../src/slv/ahb_slave_driver.sv(184) @ 1375000: uvm_test_top.env.slave_agent.drv [ahb_slave_driver] Beat AHB_WRITE addr=0x0000c0e4 resp=AHB_RESP_OKAY waits=1 wdata=0x0b51ec50
# UVM_INFO ../src/mst/ahb_master_monitor.sv(117) @ 1375000: uvm_test_top.env.master_agent.mon [ahb_master_monitor] Beat[5] addr=0x0000c0e4 wdata=0x0b51ec50 resp=AHB_RESP_OKAY
# UVM_INFO ../src/mst/ahb_master_driver.sv(340) @ 1385000: uvm_test_top.env.master_agent.drv [ahb_master_driver] Beat[6/14] addr=0x0000c0e5 trans=AHB_TRANS_SEQ resp=AHB_RESP_OKAY wdata=0x4c40a7bf
# UVM_INFO ../src/slv/ahb_slave_driver.sv(184) @ 1385000: uvm_test_top.env.slave_agent.drv [ahb_slave_driver] Beat AHB_WRITE addr=0x0000c0e5 resp=AHB_RESP_OKAY waits=0 wdata=0x4c40a7bf
# UVM_INFO ../src/mst/ahb_master_monitor.sv(117) @ 1385000: uvm_test_top.env.master_agent.mon [ahb_master_monitor] Beat[6] addr=0x0000c0e5 wdata=0x4c40a7bf resp=AHB_RESP_OKAY
# UVM_INFO ../src/mst/ahb_master_driver.sv(340) @ 1435000: uvm_test_top.env.master_agent.drv [ahb_master_driver] Beat[7/14] addr=0x0000c0e6 trans=AHB_TRANS_SEQ resp=AHB_RESP_OKAY wdata=0xeed05e3e
# UVM_INFO ../src/slv/ahb_slave_driver.sv(184) @ 1435000: uvm_test_top.env.slave_agent.drv [ahb_slave_driver] Beat AHB_WRITE addr=0x0000c0e6 resp=AHB_RESP_OKAY waits=1 wdata=0xeed05e3e
# UVM_INFO ../src/mst/ahb_master_monitor.sv(117) @ 1435000: uvm_test_top.env.master_agent.mon [ahb_master_monitor] Beat[7] addr=0x0000c0e6 wdata=0xeed05e3e resp=AHB_RESP_OKAY
# UVM_INFO ../src/mst/ahb_master_driver.sv(340) @ 1465000: uvm_test_top.env.master_agent.drv [ahb_master_driver] Beat[8/14] addr=0x0000c0e7 trans=AHB_TRANS_SEQ resp=AHB_RESP_OKAY wdata=0xed14d987
# UVM_INFO ../src/slv/ahb_slave_driver.sv(184) @ 1465000: uvm_test_top.env.slave_agent.drv [ahb_slave_driver] Beat AHB_WRITE addr=0x0000c0e7 resp=AHB_RESP_OKAY waits=2 wdata=0xed14d987
# UVM_INFO ../src/mst/ahb_master_monitor.sv(117) @ 1465000: uvm_test_top.env.master_agent.mon [ahb_master_monitor] Beat[8] addr=0x0000c0e7 wdata=0xed14d987 resp=AHB_RESP_OKAY
# UVM_INFO ../src/mst/ahb_master_driver.sv(340) @ 1475000: uvm_test_top.env.master_agent.drv [ahb_master_driver] Beat[9/14] addr=0x0000c0e8 trans=AHB_TRANS_SEQ resp=AHB_RESP_OKAY wdata=0xc4c15bb2
# UVM_INFO ../src/slv/ahb_slave_driver.sv(184) @ 1475000: uvm_test_top.env.slave_agent.drv [ahb_slave_driver] Beat AHB_WRITE addr=0x0000c0e8 resp=AHB_RESP_OKAY waits=0 wdata=0xc4c15bb2
# UVM_INFO ../src/mst/ahb_master_monitor.sv(117) @ 1475000: uvm_test_top.env.master_agent.mon [ahb_master_monitor] Beat[9] addr=0x0000c0e8 wdata=0xc4c15bb2 resp=AHB_RESP_OKAY
# UVM_INFO ../src/mst/ahb_master_driver.sv(340) @ 1515000: uvm_test_top.env.master_agent.drv [ahb_master_driver] Beat[10/14] addr=0x0000c0e9 trans=AHB_TRANS_SEQ resp=AHB_RESP_OKAY wdata=0xa3b60fce
# UVM_INFO ../src/slv/ahb_slave_driver.sv(184) @ 1515000: uvm_test_top.env.slave_agent.drv [ahb_slave_driver] Beat AHB_WRITE addr=0x0000c0e9 resp=AHB_RESP_OKAY waits=0 wdata=0xa3b60fce
# UVM_INFO ../src/mst/ahb_master_monitor.sv(117) @ 1515000: uvm_test_top.env.master_agent.mon [ahb_master_monitor] Beat[10] addr=0x0000c0e9 wdata=0xa3b60fce resp=AHB_RESP_OKAY
# UVM_INFO ../src/mst/ahb_master_driver.sv(340) @ 1535000: uvm_test_top.env.master_agent.drv [ahb_master_driver] Beat[11/14] addr=0x0000c0ea trans=AHB_TRANS_SEQ resp=AHB_RESP_OKAY wdata=0x99e2be37
# UVM_INFO ../src/slv/ahb_slave_driver.sv(184) @ 1535000: uvm_test_top.env.slave_agent.drv [ahb_slave_driver] Beat AHB_WRITE addr=0x0000c0ea resp=AHB_RESP_OKAY waits=0 wdata=0x99e2be37
# UVM_INFO ../src/mst/ahb_master_monitor.sv(117) @ 1535000: uvm_test_top.env.master_agent.mon [ahb_master_monitor] Beat[11] addr=0x0000c0ea wdata=0x99e2be37 resp=AHB_RESP_OKAY
# UVM_INFO ../src/mst/ahb_master_driver.sv(340) @ 1575000: uvm_test_top.env.master_agent.drv [ahb_master_driver] Beat[12/14] addr=0x0000c0eb trans=AHB_TRANS_SEQ resp=AHB_RESP_OKAY wdata=0x01ca2014
# UVM_INFO ../src/slv/ahb_slave_driver.sv(184) @ 1575000: uvm_test_top.env.slave_agent.drv [ahb_slave_driver] Beat AHB_WRITE addr=0x0000c0eb resp=AHB_RESP_OKAY waits=2 wdata=0x01ca2014
# UVM_INFO ../src/mst/ahb_master_monitor.sv(117) @ 1575000: uvm_test_top.env.master_agent.mon [ahb_master_monitor] Beat[12] addr=0x0000c0eb wdata=0x01ca2014 resp=AHB_RESP_OKAY
# UVM_INFO ../src/mst/ahb_master_driver.sv(340) @ 1585000: uvm_test_top.env.master_agent.drv [ahb_master_driver] Beat[13/14] addr=0x0000c0ec trans=AHB_TRANS_SEQ resp=AHB_RESP_OKAY wdata=0x3130f2c0
# UVM_INFO ../src/mst/ahb_master_driver.sv(385) @ 1585000: uvm_test_top.env.master_agent.drv [ahb_master_driver] Transaction complete: AHB_WRITE 0x0000c0df, 14 beats, burst=AHB_BURST_INCR
# UVM_INFO ../src/slv/ahb_slave_driver.sv(184) @ 1585000: uvm_test_top.env.slave_agent.drv [ahb_slave_driver] Beat AHB_WRITE addr=0x0000c0ec resp=AHB_RESP_OKAY waits=0 wdata=0x3130f2c0
# UVM_INFO ../src/mst/ahb_master_monitor.sv(117) @ 1585000: uvm_test_top.env.master_agent.mon [ahb_master_monitor] Beat[13] addr=0x0000c0ec wdata=0x3130f2c0 resp=AHB_RESP_OKAY
# UVM_INFO ../src/mst/ahb_master_monitor.sv(222) @ 1585000: uvm_test_top.env.master_agent.mon [ahb_master_monitor] Observed [AHB_WRITE]: HADDR=0x0000c0df, HBURST=AHB_BURST_INCR, HSIZE=AHB_SIZE_8B, 14 beats
# UVM_INFO ../src/env/ahb_coverage.sv(127) @ 1585000: uvm_test_top.env.master_cov [ahb_coverage] Sampled [AHB_WRITE]: burst=AHB_BURST_INCR size=AHB_SIZE_8B beats=14 error=0
# UVM_INFO ../src/slv/ahb_slave_monitor.sv(197) @ 1585000: uvm_test_top.env.slave_agent.mon [ahb_slave_monitor] Observed [AHB_WRITE]: HADDR=0x0000c0df, HBURST=AHB_BURST_INCR, HSIZE=AHB_SIZE_8B, 14 beats
# UVM_INFO ../src/env/ahb_scoreboard.sv(104) @ 1585000: uvm_test_top.env.scb [ahb_scoreboard] MATCH #7: [AHB_WRITE] HADDR=0x0000c0df AHB_BURST_INCR 14 beats
# UVM_INFO ../src/env/ahb_coverage.sv(127) @ 1585000: uvm_test_top.env.slave_cov [ahb_coverage] Sampled [AHB_WRITE]: burst=AHB_BURST_INCR size=AHB_SIZE_8B beats=14 error=0
# UVM_INFO ../src/mst/ahb_master_driver.sv(87) @ 1585000: uvm_test_top.env.master_agent.drv [ahb_master_driver] Queueing [AHB_READ]: HADDR=0x0000c0df, HBURST=AHB_BURST_INCR, HSIZE=AHB_SIZE_8B, 14 beats
# UVM_INFO ../src/mst/ahb_master_driver.sv(129) @ 1585000: uvm_test_top.env.master_agent.drv [ahb_master_driver] Driving [AHB_READ]: HADDR=0x0000c0df, HBURST=AHB_BURST_INCR, HSIZE=AHB_SIZE_8B, 14 beats               
# UVM_INFO ../src/mst/ahb_master_driver.sv(340) @ 1625000: uvm_test_top.env.master_agent.drv [ahb_master_driver] Beat[0/14] addr=0x0000c0df trans=AHB_TRANS_NONSEQ resp=AHB_RESP_OKAY rdata=0x0c1650fa
# UVM_INFO ../src/slv/ahb_slave_driver.sv(184) @ 1625000: uvm_test_top.env.slave_agent.drv [ahb_slave_driver] Beat AHB_READ addr=0x0000c0df resp=AHB_RESP_OKAY waits=1 rdata=0x0c1650fa
# UVM_INFO ../src/mst/ahb_master_monitor.sv(117) @ 1625000: uvm_test_top.env.master_agent.mon [ahb_master_monitor] Beat[0] addr=0x0000c0df rdata=0x0c1650fa resp=AHB_RESP_OKAY
# UVM_INFO ../src/mst/ahb_master_driver.sv(340) @ 1655000: uvm_test_top.env.master_agent.drv [ahb_master_driver] Beat[1/14] addr=0x0000c0e0 trans=AHB_TRANS_SEQ resp=AHB_RESP_OKAY rdata=0x73b0aeb9
# UVM_INFO ../src/slv/ahb_slave_driver.sv(184) @ 1655000: uvm_test_top.env.slave_agent.drv [ahb_slave_driver] Beat AHB_READ addr=0x0000c0e0 resp=AHB_RESP_OKAY waits=2 rdata=0x73b0aeb9
# UVM_INFO ../src/mst/ahb_master_monitor.sv(117) @ 1655000: uvm_test_top.env.master_agent.mon [ahb_master_monitor] Beat[1] addr=0x0000c0e0 rdata=0x73b0aeb9 resp=AHB_RESP_OKAY
# UVM_INFO ../src/mst/ahb_master_driver.sv(340) @ 1685000: uvm_test_top.env.master_agent.drv [ahb_master_driver] Beat[2/14] addr=0x0000c0e1 trans=AHB_TRANS_SEQ resp=AHB_RESP_OKAY rdata=0x53b1d71c
# UVM_INFO ../src/slv/ahb_slave_driver.sv(184) @ 1685000: uvm_test_top.env.slave_agent.drv [ahb_slave_driver] Beat AHB_READ addr=0x0000c0e1 resp=AHB_RESP_OKAY waits=2 rdata=0x53b1d71c
# UVM_INFO ../src/mst/ahb_master_monitor.sv(117) @ 1685000: uvm_test_top.env.master_agent.mon [ahb_master_monitor] Beat[2] addr=0x0000c0e1 rdata=0x53b1d71c resp=AHB_RESP_OKAY
# UVM_INFO ../src/mst/ahb_master_driver.sv(340) @ 1705000: uvm_test_top.env.master_agent.drv [ahb_master_driver] Beat[3/14] addr=0x0000c0e2 trans=AHB_TRANS_SEQ resp=AHB_RESP_OKAY rdata=0x1a0026a1
# UVM_INFO ../src/slv/ahb_slave_driver.sv(184) @ 1705000: uvm_test_top.env.slave_agent.drv [ahb_slave_driver] Beat AHB_READ addr=0x0000c0e2 resp=AHB_RESP_OKAY waits=1 rdata=0x1a0026a1
# UVM_INFO ../src/mst/ahb_master_monitor.sv(117) @ 1705000: uvm_test_top.env.master_agent.mon [ahb_master_monitor] Beat[3] addr=0x0000c0e2 rdata=0x1a0026a1 resp=AHB_RESP_OKAY
# UVM_INFO ../src/mst/ahb_master_driver.sv(340) @ 1735000: uvm_test_top.env.master_agent.drv [ahb_master_driver] Beat[4/14] addr=0x0000c0e3 trans=AHB_TRANS_SEQ resp=AHB_RESP_OKAY rdata=0x8e5e415a
# UVM_INFO ../src/slv/ahb_slave_driver.sv(184) @ 1735000: uvm_test_top.env.slave_agent.drv [ahb_slave_driver] Beat AHB_READ addr=0x0000c0e3 resp=AHB_RESP_OKAY waits=2 rdata=0x8e5e415a
# UVM_INFO ../src/mst/ahb_master_monitor.sv(117) @ 1735000: uvm_test_top.env.master_agent.mon [ahb_master_monitor] Beat[4] addr=0x0000c0e3 rdata=0x8e5e415a resp=AHB_RESP_OKAY
# UVM_INFO ../src/mst/ahb_master_driver.sv(340) @ 1755000: uvm_test_top.env.master_agent.drv [ahb_master_driver] Beat[5/14] addr=0x0000c0e4 trans=AHB_TRANS_SEQ resp=AHB_RESP_OKAY rdata=0x0b51ec50
# UVM_INFO ../src/slv/ahb_slave_driver.sv(184) @ 1755000: uvm_test_top.env.slave_agent.drv [ahb_slave_driver] Beat AHB_READ addr=0x0000c0e4 resp=AHB_RESP_OKAY waits=1 rdata=0x0b51ec50
# UVM_INFO ../src/mst/ahb_master_monitor.sv(117) @ 1755000: uvm_test_top.env.master_agent.mon [ahb_master_monitor] Beat[5] addr=0x0000c0e4 rdata=0x0b51ec50 resp=AHB_RESP_OKAY
# UVM_INFO ../src/mst/ahb_master_driver.sv(340) @ 1775000: uvm_test_top.env.master_agent.drv [ahb_master_driver] Beat[6/14] addr=0x0000c0e5 trans=AHB_TRANS_SEQ resp=AHB_RESP_OKAY rdata=0x4c40a7bf
# UVM_INFO ../src/slv/ahb_slave_driver.sv(184) @ 1775000: uvm_test_top.env.slave_agent.drv [ahb_slave_driver] Beat AHB_READ addr=0x0000c0e5 resp=AHB_RESP_OKAY waits=1 rdata=0x4c40a7bf
# UVM_INFO ../src/mst/ahb_master_monitor.sv(117) @ 1775000: uvm_test_top.env.master_agent.mon [ahb_master_monitor] Beat[6] addr=0x0000c0e5 rdata=0x4c40a7bf resp=AHB_RESP_OKAY
# UVM_INFO ../src/mst/ahb_master_driver.sv(340) @ 1795000: uvm_test_top.env.master_agent.drv [ahb_master_driver] Beat[7/14] addr=0x0000c0e6 trans=AHB_TRANS_SEQ resp=AHB_RESP_OKAY rdata=0xeed05e3e
# UVM_INFO ../src/slv/ahb_slave_driver.sv(184) @ 1795000: uvm_test_top.env.slave_agent.drv [ahb_slave_driver] Beat AHB_READ addr=0x0000c0e6 resp=AHB_RESP_OKAY waits=1 rdata=0xeed05e3e
# UVM_INFO ../src/mst/ahb_master_monitor.sv(117) @ 1795000: uvm_test_top.env.master_agent.mon [ahb_master_monitor] Beat[7] addr=0x0000c0e6 rdata=0xeed05e3e resp=AHB_RESP_OKAY
# UVM_INFO ../src/mst/ahb_master_driver.sv(340) @ 1815000: uvm_test_top.env.master_agent.drv [ahb_master_driver] Beat[8/14] addr=0x0000c0e7 trans=AHB_TRANS_SEQ resp=AHB_RESP_OKAY rdata=0xed14d987
# UVM_INFO ../src/slv/ahb_slave_driver.sv(184) @ 1815000: uvm_test_top.env.slave_agent.drv [ahb_slave_driver] Beat AHB_READ addr=0x0000c0e7 resp=AHB_RESP_OKAY waits=1 rdata=0xed14d987
# UVM_INFO ../src/mst/ahb_master_monitor.sv(117) @ 1815000: uvm_test_top.env.master_agent.mon [ahb_master_monitor] Beat[8] addr=0x0000c0e7 rdata=0xed14d987 resp=AHB_RESP_OKAY
# UVM_INFO ../src/mst/ahb_master_driver.sv(340) @ 1835000: uvm_test_top.env.master_agent.drv [ahb_master_driver] Beat[9/14] addr=0x0000c0e8 trans=AHB_TRANS_SEQ resp=AHB_RESP_OKAY rdata=0xc4c15bb2
# UVM_INFO ../src/slv/ahb_slave_driver.sv(184) @ 1835000: uvm_test_top.env.slave_agent.drv [ahb_slave_driver] Beat AHB_READ addr=0x0000c0e8 resp=AHB_RESP_OKAY waits=1 rdata=0xc4c15bb2
# UVM_INFO ../src/mst/ahb_master_monitor.sv(117) @ 1835000: uvm_test_top.env.master_agent.mon [ahb_master_monitor] Beat[9] addr=0x0000c0e8 rdata=0xc4c15bb2 resp=AHB_RESP_OKAY
# UVM_INFO ../src/mst/ahb_master_driver.sv(340) @ 1865000: uvm_test_top.env.master_agent.drv [ahb_master_driver] Beat[10/14] addr=0x0000c0e9 trans=AHB_TRANS_SEQ resp=AHB_RESP_OKAY rdata=0xa3b60fce
# UVM_INFO ../src/slv/ahb_slave_driver.sv(184) @ 1865000: uvm_test_top.env.slave_agent.drv [ahb_slave_driver] Beat AHB_READ addr=0x0000c0e9 resp=AHB_RESP_OKAY waits=2 rdata=0xa3b60fce
# UVM_INFO ../src/mst/ahb_master_monitor.sv(117) @ 1865000: uvm_test_top.env.master_agent.mon [ahb_master_monitor] Beat[10] addr=0x0000c0e9 rdata=0xa3b60fce resp=AHB_RESP_OKAY
# UVM_INFO ../src/mst/ahb_master_driver.sv(340) @ 1895000: uvm_test_top.env.master_agent.drv [ahb_master_driver] Beat[11/14] addr=0x0000c0ea trans=AHB_TRANS_SEQ resp=AHB_RESP_OKAY rdata=0x99e2be37
# UVM_INFO ../src/slv/ahb_slave_driver.sv(184) @ 1895000: uvm_test_top.env.slave_agent.drv [ahb_slave_driver] Beat AHB_READ addr=0x0000c0ea resp=AHB_RESP_OKAY waits=2 rdata=0x99e2be37
# UVM_INFO ../src/mst/ahb_master_monitor.sv(117) @ 1895000: uvm_test_top.env.master_agent.mon [ahb_master_monitor] Beat[11] addr=0x0000c0ea rdata=0x99e2be37 resp=AHB_RESP_OKAY
# UVM_INFO ../src/mst/ahb_master_driver.sv(340) @ 1905000: uvm_test_top.env.master_agent.drv [ahb_master_driver] Beat[12/14] addr=0x0000c0eb trans=AHB_TRANS_SEQ resp=AHB_RESP_OKAY rdata=0x01ca2014
# UVM_INFO ../src/slv/ahb_slave_driver.sv(184) @ 1905000: uvm_test_top.env.slave_agent.drv [ahb_slave_driver] Beat AHB_READ addr=0x0000c0eb resp=AHB_RESP_OKAY waits=0 rdata=0x01ca2014
# UVM_INFO ../src/mst/ahb_master_monitor.sv(117) @ 1905000: uvm_test_top.env.master_agent.mon [ahb_master_monitor] Beat[12] addr=0x0000c0eb rdata=0x01ca2014 resp=AHB_RESP_OKAY
# UVM_INFO ../src/mst/ahb_master_driver.sv(340) @ 1935000: uvm_test_top.env.master_agent.drv [ahb_master_driver] Beat[13/14] addr=0x0000c0ec trans=AHB_TRANS_SEQ resp=AHB_RESP_OKAY rdata=0x3130f2c0
# UVM_INFO ../src/mst/ahb_master_driver.sv(385) @ 1935000: uvm_test_top.env.master_agent.drv [ahb_master_driver] Transaction complete: AHB_READ 0x0000c0df, 14 beats, burst=AHB_BURST_INCR
# UVM_INFO ../src/slv/ahb_slave_driver.sv(184) @ 1935000: uvm_test_top.env.slave_agent.drv [ahb_slave_driver] Beat AHB_READ addr=0x0000c0ec resp=AHB_RESP_OKAY waits=2 rdata=0x3130f2c0
# UVM_INFO ../src/slv/ahb_slave_monitor.sv(197) @ 1935000: uvm_test_top.env.slave_agent.mon [ahb_slave_monitor] Observed [AHB_READ]: HADDR=0x0000c0df, HBURST=AHB_BURST_INCR, HSIZE=AHB_SIZE_8B, 14 beats
# UVM_INFO ../src/env/ahb_coverage.sv(127) @ 1935000: uvm_test_top.env.slave_cov [ahb_coverage] Sampled [AHB_READ]: burst=AHB_BURST_INCR size=AHB_SIZE_8B beats=14 error=0
# UVM_INFO ../src/mst/ahb_master_monitor.sv(117) @ 1935000: uvm_test_top.env.master_agent.mon [ahb_master_monitor] Beat[13] addr=0x0000c0ec rdata=0x3130f2c0 resp=AHB_RESP_OKAY
# UVM_INFO ../src/mst/ahb_master_monitor.sv(222) @ 1935000: uvm_test_top.env.master_agent.mon [ahb_master_monitor] Observed [AHB_READ]: HADDR=0x0000c0df, HBURST=AHB_BURST_INCR, HSIZE=AHB_SIZE_8B, 14 beats
# UVM_INFO ../src/env/ahb_coverage.sv(127) @ 1935000: uvm_test_top.env.master_cov [ahb_coverage] Sampled [AHB_READ]: burst=AHB_BURST_INCR size=AHB_SIZE_8B beats=14 error=0
# UVM_INFO ../src/env/ahb_scoreboard.sv(104) @ 1935000: uvm_test_top.env.scb [ahb_scoreboard] MATCH #8: [AHB_READ] HADDR=0x0000c0df AHB_BURST_INCR 14 beats
# UVM_INFO ../src/mst_seq/ahb_base_seq.sv(182) @ 1935000: uvm_test_top.env.master_agent.sqr@@seq [ahb_busy_seq] AHB_BURST_INCR AHB_SIZE_8B beat 0 @0x0000c0df ok
# UVM_INFO ../src/mst_seq/ahb_base_seq.sv(182) @ 1935000: uvm_test_top.env.master_agent.sqr@@seq [ahb_busy_seq] AHB_BURST_INCR AHB_SIZE_8B beat 1 @0x0000c0e0 ok
# UVM_INFO ../src/mst_seq/ahb_base_seq.sv(182) @ 1935000: uvm_test_top.env.master_agent.sqr@@seq [ahb_busy_seq] AHB_BURST_INCR AHB_SIZE_8B beat 2 @0x0000c0e1 ok
# UVM_INFO ../src/mst_seq/ahb_base_seq.sv(182) @ 1935000: uvm_test_top.env.master_agent.sqr@@seq [ahb_busy_seq] AHB_BURST_INCR AHB_SIZE_8B beat 3 @0x0000c0e2 ok
# UVM_INFO ../src/mst_seq/ahb_base_seq.sv(182) @ 1935000: uvm_test_top.env.master_agent.sqr@@seq [ahb_busy_seq] AHB_BURST_INCR AHB_SIZE_8B beat 4 @0x0000c0e3 ok
# UVM_INFO ../src/mst_seq/ahb_base_seq.sv(182) @ 1935000: uvm_test_top.env.master_agent.sqr@@seq [ahb_busy_seq] AHB_BURST_INCR AHB_SIZE_8B beat 5 @0x0000c0e4 ok
# UVM_INFO ../src/mst_seq/ahb_base_seq.sv(182) @ 1935000: uvm_test_top.env.master_agent.sqr@@seq [ahb_busy_seq] AHB_BURST_INCR AHB_SIZE_8B beat 6 @0x0000c0e5 ok
# UVM_INFO ../src/mst_seq/ahb_base_seq.sv(182) @ 1935000: uvm_test_top.env.master_agent.sqr@@seq [ahb_busy_seq] AHB_BURST_INCR AHB_SIZE_8B beat 7 @0x0000c0e6 ok
# UVM_INFO ../src/mst_seq/ahb_base_seq.sv(182) @ 1935000: uvm_test_top.env.master_agent.sqr@@seq [ahb_busy_seq] AHB_BURST_INCR AHB_SIZE_8B beat 8 @0x0000c0e7 ok
# UVM_INFO ../src/mst_seq/ahb_base_seq.sv(182) @ 1935000: uvm_test_top.env.master_agent.sqr@@seq [ahb_busy_seq] AHB_BURST_INCR AHB_SIZE_8B beat 9 @0x0000c0e8 ok
# UVM_INFO ../src/mst_seq/ahb_base_seq.sv(182) @ 1935000: uvm_test_top.env.master_agent.sqr@@seq [ahb_busy_seq] AHB_BURST_INCR AHB_SIZE_8B beat 10 @0x0000c0e9 ok
# UVM_INFO ../src/mst_seq/ahb_base_seq.sv(182) @ 1935000: uvm_test_top.env.master_agent.sqr@@seq [ahb_busy_seq] AHB_BURST_INCR AHB_SIZE_8B beat 11 @0x0000c0ea ok
# UVM_INFO ../src/mst_seq/ahb_base_seq.sv(182) @ 1935000: uvm_test_top.env.master_agent.sqr@@seq [ahb_busy_seq] AHB_BURST_INCR AHB_SIZE_8B beat 12 @0x0000c0eb ok
# UVM_INFO ../src/mst_seq/ahb_base_seq.sv(182) @ 1935000: uvm_test_top.env.master_agent.sqr@@seq [ahb_busy_seq] AHB_BURST_INCR AHB_SIZE_8B beat 13 @0x0000c0ec ok
# UVM_INFO ../src/mst_seq/ahb_busy_seq.sv(105) @ 1935000: uvm_test_top.env.master_agent.sqr@@seq [ahb_busy_seq] AHB_BURST_INCR4 AHB_SIZE_8B @0x0000c10b, 4 beats, retract=0
# UVM_INFO ../src/mst/ahb_master_driver.sv(87) @ 1935000: uvm_test_top.env.master_agent.drv [ahb_master_driver] Queueing [AHB_WRITE]: HADDR=0x0000c10b, HBURST=AHB_BURST_INCR4, HSIZE=AHB_SIZE_8B, 4 beats
# UVM_INFO ../src/mst/ahb_master_driver.sv(129) @ 1935000: uvm_test_top.env.master_agent.drv [ahb_master_driver] Driving [AHB_WRITE]: HADDR=0x0000c10b, HBURST=AHB_BURST_INCR4, HSIZE=AHB_SIZE_8B, 4 beats               
# UVM_INFO ../src/mst/ahb_master_driver.sv(340) @ 1985000: uvm_test_top.env.master_agent.drv [ahb_master_driver] Beat[0/4] addr=0x0000c10b trans=AHB_TRANS_NONSEQ resp=AHB_RESP_OKAY wdata=0xcf603150
# UVM_INFO ../src/slv/ahb_slave_driver.sv(184) @ 1985000: uvm_test_top.env.slave_agent.drv [ahb_slave_driver] Beat AHB_WRITE addr=0x0000c10b resp=AHB_RESP_OKAY waits=2 wdata=0xcf603150
# UVM_INFO ../src/mst/ahb_master_monitor.sv(117) @ 1985000: uvm_test_top.env.master_agent.mon [ahb_master_monitor] Beat[0] addr=0x0000c10b wdata=0xcf603150 resp=AHB_RESP_OKAY
# UVM_INFO ../src/mst/ahb_master_driver.sv(340) @ 2035000: uvm_test_top.env.master_agent.drv [ahb_master_driver] Beat[1/4] addr=0x0000c10c trans=AHB_TRANS_SEQ resp=AHB_RESP_OKAY wdata=0x967ce612
# UVM_INFO ../src/slv/ahb_slave_driver.sv(184) @ 2035000: uvm_test_top.env.slave_agent.drv [ahb_slave_driver] Beat AHB_WRITE addr=0x0000c10c resp=AHB_RESP_OKAY waits=1 wdata=0x967ce612
# UVM_INFO ../src/mst/ahb_master_monitor.sv(117) @ 2035000: uvm_test_top.env.master_agent.mon [ahb_master_monitor] Beat[1] addr=0x0000c10c wdata=0x967ce612 resp=AHB_RESP_OKAY
# UVM_INFO ../src/mst/ahb_master_driver.sv(340) @ 2065000: uvm_test_top.env.master_agent.drv [ahb_master_driver] Beat[2/4] addr=0x0000c10d trans=AHB_TRANS_SEQ resp=AHB_RESP_OKAY wdata=0xfa453983
# UVM_INFO ../src/slv/ahb_slave_driver.sv(184) @ 2065000: uvm_test_top.env.slave_agent.drv [ahb_slave_driver] Beat AHB_WRITE addr=0x0000c10d resp=AHB_RESP_OKAY waits=1 wdata=0xfa453983
# UVM_INFO ../src/mst/ahb_master_monitor.sv(117) @ 2065000: uvm_test_top.env.master_agent.mon [ahb_master_monitor] Beat[2] addr=0x0000c10d wdata=0xfa453983 resp=AHB_RESP_OKAY
# UVM_INFO ../src/mst/ahb_master_driver.sv(340) @ 2085000: uvm_test_top.env.master_agent.drv [ahb_master_driver] Beat[3/4] addr=0x0000c10e trans=AHB_TRANS_SEQ resp=AHB_RESP_OKAY wdata=0xeee0d61e
# UVM_INFO ../src/mst/ahb_master_driver.sv(385) @ 2085000: uvm_test_top.env.master_agent.drv [ahb_master_driver] Transaction complete: AHB_WRITE 0x0000c10b, 4 beats, burst=AHB_BURST_INCR4
# UVM_INFO ../src/slv/ahb_slave_driver.sv(184) @ 2085000: uvm_test_top.env.slave_agent.drv [ahb_slave_driver] Beat AHB_WRITE addr=0x0000c10e resp=AHB_RESP_OKAY waits=0 wdata=0xeee0d61e
# UVM_INFO ../src/mst/ahb_master_monitor.sv(117) @ 2085000: uvm_test_top.env.master_agent.mon [ahb_master_monitor] Beat[3] addr=0x0000c10e wdata=0xeee0d61e resp=AHB_RESP_OKAY
# UVM_INFO ../src/mst/ahb_master_monitor.sv(222) @ 2085000: uvm_test_top.env.master_agent.mon [ahb_master_monitor] Observed [AHB_WRITE]: HADDR=0x0000c10b, HBURST=AHB_BURST_INCR4, HSIZE=AHB_SIZE_8B, 4 beats
# UVM_INFO ../src/env/ahb_coverage.sv(127) @ 2085000: uvm_test_top.env.master_cov [ahb_coverage] Sampled [AHB_WRITE]: burst=AHB_BURST_INCR4 size=AHB_SIZE_8B beats=4 error=0
# UVM_INFO ../src/slv/ahb_slave_monitor.sv(197) @ 2085000: uvm_test_top.env.slave_agent.mon [ahb_slave_monitor] Observed [AHB_WRITE]: HADDR=0x0000c10b, HBURST=AHB_BURST_INCR4, HSIZE=AHB_SIZE_8B, 4 beats
# UVM_INFO ../src/env/ahb_scoreboard.sv(104) @ 2085000: uvm_test_top.env.scb [ahb_scoreboard] MATCH #9: [AHB_WRITE] HADDR=0x0000c10b AHB_BURST_INCR4 4 beats
# UVM_INFO ../src/env/ahb_coverage.sv(127) @ 2085000: uvm_test_top.env.slave_cov [ahb_coverage] Sampled [AHB_WRITE]: burst=AHB_BURST_INCR4 size=AHB_SIZE_8B beats=4 error=0
# UVM_INFO ../src/mst/ahb_master_driver.sv(87) @ 2085000: uvm_test_top.env.master_agent.drv [ahb_master_driver] Queueing [AHB_READ]: HADDR=0x0000c10b, HBURST=AHB_BURST_INCR4, HSIZE=AHB_SIZE_8B, 4 beats
# UVM_INFO ../src/mst/ahb_master_driver.sv(129) @ 2085000: uvm_test_top.env.master_agent.drv [ahb_master_driver] Driving [AHB_READ]: HADDR=0x0000c10b, HBURST=AHB_BURST_INCR4, HSIZE=AHB_SIZE_8B, 4 beats               
# UVM_INFO ../src/mst/ahb_master_driver.sv(340) @ 2135000: uvm_test_top.env.master_agent.drv [ahb_master_driver] Beat[0/4] addr=0x0000c10b trans=AHB_TRANS_NONSEQ resp=AHB_RESP_OKAY rdata=0xcf603150
# UVM_INFO ../src/slv/ahb_slave_driver.sv(184) @ 2135000: uvm_test_top.env.slave_agent.drv [ahb_slave_driver] Beat AHB_READ addr=0x0000c10b resp=AHB_RESP_OKAY waits=2 rdata=0xcf603150
# UVM_INFO ../src/mst/ahb_master_monitor.sv(117) @ 2135000: uvm_test_top.env.master_agent.mon [ahb_master_monitor] Beat[0] addr=0x0000c10b rdata=0xcf603150 resp=AHB_RESP_OKAY
# UVM_INFO ../src/mst/ahb_master_driver.sv(340) @ 2155000: uvm_test_top.env.master_agent.drv [ahb_master_driver] Beat[1/4] addr=0x0000c10c trans=AHB_TRANS_SEQ resp=AHB_RESP_OKAY rdata=0x967ce612
# UVM_INFO ../src/slv/ahb_slave_driver.sv(184) @ 2155000: uvm_test_top.env.slave_agent.drv [ahb_slave_driver] Beat AHB_READ addr=0x0000c10c resp=AHB_RESP_OKAY waits=1 rdata=0x967ce612
# UVM_INFO ../src/mst/ahb_master_monitor.sv(117) @ 2155000: uvm_test_top.env.master_agent.mon [ahb_master_monitor] Beat[1] addr=0x0000c10c rdata=0x967ce612 resp=AHB_RESP_OKAY
# UVM_INFO ../src/mst/ahb_master_driver.sv(340) @ 2165000: uvm_test_top.env.master_agent.drv [ahb_master_driver] Beat[2/4] addr=0x0000c10d trans=AHB_TRANS_SEQ resp=AHB_RESP_OKAY rdata=0xfa453983
# UVM_INFO ../src/slv/ahb_slave_driver.sv(184) @ 2165000: uvm_test_top.env.slave_agent.drv [ahb_slave_driver] Beat AHB_READ addr=0x0000c10d resp=AHB_RESP_OKAY waits=0 rdata=0xfa453983
# UVM_INFO ../src/mst/ahb_master_monitor.sv(117) @ 2165000: uvm_test_top.env.master_agent.mon [ahb_master_monitor] Beat[2] addr=0x0000c10d rdata=0xfa453983 resp=AHB_RESP_OKAY
# UVM_INFO ../src/mst/ahb_master_driver.sv(340) @ 2175000: uvm_test_top.env.master_agent.drv [ahb_master_driver] Beat[3/4] addr=0x0000c10e trans=AHB_TRANS_SEQ resp=AHB_RESP_OKAY rdata=0xeee0d61e
# UVM_INFO ../src/mst/ahb_master_driver.sv(385) @ 2175000: uvm_test_top.env.master_agent.drv [ahb_master_driver] Transaction complete: AHB_READ 0x0000c10b, 4 beats, burst=AHB_BURST_INCR4
# UVM_INFO ../src/slv/ahb_slave_driver.sv(184) @ 2175000: uvm_test_top.env.slave_agent.drv [ahb_slave_driver] Beat AHB_READ addr=0x0000c10e resp=AHB_RESP_OKAY waits=0 rdata=0xeee0d61e
# UVM_INFO ../src/slv/ahb_slave_monitor.sv(197) @ 2175000: uvm_test_top.env.slave_agent.mon [ahb_slave_monitor] Observed [AHB_READ]: HADDR=0x0000c10b, HBURST=AHB_BURST_INCR4, HSIZE=AHB_SIZE_8B, 4 beats
# UVM_INFO ../src/env/ahb_coverage.sv(127) @ 2175000: uvm_test_top.env.slave_cov [ahb_coverage] Sampled [AHB_READ]: burst=AHB_BURST_INCR4 size=AHB_SIZE_8B beats=4 error=0
# UVM_INFO ../src/mst/ahb_master_monitor.sv(117) @ 2175000: uvm_test_top.env.master_agent.mon [ahb_master_monitor] Beat[3] addr=0x0000c10e rdata=0xeee0d61e resp=AHB_RESP_OKAY
# UVM_INFO ../src/mst/ahb_master_monitor.sv(222) @ 2175000: uvm_test_top.env.master_agent.mon [ahb_master_monitor] Observed [AHB_READ]: HADDR=0x0000c10b, HBURST=AHB_BURST_INCR4, HSIZE=AHB_SIZE_8B, 4 beats
# UVM_INFO ../src/env/ahb_coverage.sv(127) @ 2175000: uvm_test_top.env.master_cov [ahb_coverage] Sampled [AHB_READ]: burst=AHB_BURST_INCR4 size=AHB_SIZE_8B beats=4 error=0
# UVM_INFO ../src/env/ahb_scoreboard.sv(104) @ 2175000: uvm_test_top.env.scb [ahb_scoreboard] MATCH #10: [AHB_READ] HADDR=0x0000c10b AHB_BURST_INCR4 4 beats
# UVM_INFO ../src/mst_seq/ahb_base_seq.sv(182) @ 2175000: uvm_test_top.env.master_agent.sqr@@seq [ahb_busy_seq] AHB_BURST_INCR4 AHB_SIZE_8B beat 0 @0x0000c10b ok
# UVM_INFO ../src/mst_seq/ahb_base_seq.sv(182) @ 2175000: uvm_test_top.env.master_agent.sqr@@seq [ahb_busy_seq] AHB_BURST_INCR4 AHB_SIZE_8B beat 1 @0x0000c10c ok
# UVM_INFO ../src/mst_seq/ahb_base_seq.sv(182) @ 2175000: uvm_test_top.env.master_agent.sqr@@seq [ahb_busy_seq] AHB_BURST_INCR4 AHB_SIZE_8B beat 2 @0x0000c10d ok
# UVM_INFO ../src/mst_seq/ahb_base_seq.sv(182) @ 2175000: uvm_test_top.env.master_agent.sqr@@seq [ahb_busy_seq] AHB_BURST_INCR4 AHB_SIZE_8B beat 3 @0x0000c10e ok
# UVM_INFO ../src/mst_seq/ahb_busy_seq.sv(105) @ 2175000: uvm_test_top.env.master_agent.sqr@@seq [ahb_busy_seq] AHB_BURST_INCR4 AHB_SIZE_8B @0x0000c16f, 4 beats, retract=0
# UVM_INFO ../src/mst/ahb_master_driver.sv(87) @ 2175000: uvm_test_top.env.master_agent.drv [ahb_master_driver] Queueing [AHB_WRITE]: HADDR=0x0000c16f, HBURST=AHB_BURST_INCR4, HSIZE=AHB_SIZE_8B, 4 beats
# UVM_INFO ../src/mst/ahb_master_driver.sv(129) @ 2175000: uvm_test_top.env.master_agent.drv [ahb_master_driver] Driving [AHB_WRITE]: HADDR=0x0000c16f, HBURST=AHB_BURST_INCR4, HSIZE=AHB_SIZE_8B, 4 beats               
# UVM_INFO ../src/mst/ahb_master_driver.sv(340) @ 2205000: uvm_test_top.env.master_agent.drv [ahb_master_driver] Beat[0/4] addr=0x0000c16f trans=AHB_TRANS_NONSEQ resp=AHB_RESP_OKAY wdata=0xa4427e23
# UVM_INFO ../src/slv/ahb_slave_driver.sv(184) @ 2205000: uvm_test_top.env.slave_agent.drv [ahb_slave_driver] Beat AHB_WRITE addr=0x0000c16f resp=AHB_RESP_OKAY waits=0 wdata=0xa4427e23
# UVM_INFO ../src/mst/ahb_master_monitor.sv(117) @ 2205000: uvm_test_top.env.master_agent.mon [ahb_master_monitor] Beat[0] addr=0x0000c16f wdata=0xa4427e23 resp=AHB_RESP_OKAY
# UVM_INFO ../src/mst/ahb_master_driver.sv(340) @ 2245000: uvm_test_top.env.master_agent.drv [ahb_master_driver] Beat[1/4] addr=0x0000c170 trans=AHB_TRANS_SEQ resp=AHB_RESP_OKAY wdata=0xe3046c9c
# UVM_INFO ../src/slv/ahb_slave_driver.sv(184) @ 2245000: uvm_test_top.env.slave_agent.drv [ahb_slave_driver] Beat AHB_WRITE addr=0x0000c170 resp=AHB_RESP_OKAY waits=2 wdata=0xe3046c9c
# UVM_INFO ../src/mst/ahb_master_monitor.sv(117) @ 2245000: uvm_test_top.env.master_agent.mon [ahb_master_monitor] Beat[1] addr=0x0000c170 wdata=0xe3046c9c resp=AHB_RESP_OKAY
# UVM_INFO ../src/mst/ahb_master_driver.sv(340) @ 2305000: uvm_test_top.env.master_agent.drv [ahb_master_driver] Beat[2/4] addr=0x0000c171 trans=AHB_TRANS_SEQ resp=AHB_RESP_OKAY wdata=0x204252d7
# UVM_INFO ../src/slv/ahb_slave_driver.sv(184) @ 2305000: uvm_test_top.env.slave_agent.drv [ahb_slave_driver] Beat AHB_WRITE addr=0x0000c171 resp=AHB_RESP_OKAY waits=2 wdata=0x204252d7
# UVM_INFO ../src/mst/ahb_master_monitor.sv(117) @ 2305000: uvm_test_top.env.master_agent.mon [ahb_master_monitor] Beat[2] addr=0x0000c171 wdata=0x204252d7 resp=AHB_RESP_OKAY
# UVM_INFO ../src/mst/ahb_master_driver.sv(340) @ 2345000: uvm_test_top.env.master_agent.drv [ahb_master_driver] Beat[3/4] addr=0x0000c172 trans=AHB_TRANS_SEQ resp=AHB_RESP_OKAY wdata=0x84ba932d
# UVM_INFO ../src/mst/ahb_master_driver.sv(385) @ 2345000: uvm_test_top.env.master_agent.drv [ahb_master_driver] Transaction complete: AHB_WRITE 0x0000c16f, 4 beats, burst=AHB_BURST_INCR4
# UVM_INFO ../src/slv/ahb_slave_driver.sv(184) @ 2345000: uvm_test_top.env.slave_agent.drv [ahb_slave_driver] Beat AHB_WRITE addr=0x0000c172 resp=AHB_RESP_OKAY waits=2 wdata=0x84ba932d
# UVM_INFO ../src/mst/ahb_master_monitor.sv(117) @ 2345000: uvm_test_top.env.master_agent.mon [ahb_master_monitor] Beat[3] addr=0x0000c172 wdata=0x84ba932d resp=AHB_RESP_OKAY
# UVM_INFO ../src/mst/ahb_master_monitor.sv(222) @ 2345000: uvm_test_top.env.master_agent.mon [ahb_master_monitor] Observed [AHB_WRITE]: HADDR=0x0000c16f, HBURST=AHB_BURST_INCR4, HSIZE=AHB_SIZE_8B, 4 beats
# UVM_INFO ../src/env/ahb_coverage.sv(127) @ 2345000: uvm_test_top.env.master_cov [ahb_coverage] Sampled [AHB_WRITE]: burst=AHB_BURST_INCR4 size=AHB_SIZE_8B beats=4 error=0
# UVM_INFO ../src/slv/ahb_slave_monitor.sv(197) @ 2345000: uvm_test_top.env.slave_agent.mon [ahb_slave_monitor] Observed [AHB_WRITE]: HADDR=0x0000c16f, HBURST=AHB_BURST_INCR4, HSIZE=AHB_SIZE_8B, 4 beats
# UVM_INFO ../src/env/ahb_scoreboard.sv(104) @ 2345000: uvm_test_top.env.scb [ahb_scoreboard] MATCH #11: [AHB_WRITE] HADDR=0x0000c16f AHB_BURST_INCR4 4 beats
# UVM_INFO ../src/env/ahb_coverage.sv(127) @ 2345000: uvm_test_top.env.slave_cov [ahb_coverage] Sampled [AHB_WRITE]: burst=AHB_BURST_INCR4 size=AHB_SIZE_8B beats=4 error=0
# UVM_INFO ../src/mst/ahb_master_driver.sv(87) @ 2345000: uvm_test_top.env.master_agent.drv [ahb_master_driver] Queueing [AHB_READ]: HADDR=0x0000c16f, HBURST=AHB_BURST_INCR4, HSIZE=AHB_SIZE_8B, 4 beats
# UVM_INFO ../src/mst/ahb_master_driver.sv(129) @ 2345000: uvm_test_top.env.master_agent.drv [ahb_master_driver] Driving [AHB_READ]: HADDR=0x0000c16f, HBURST=AHB_BURST_INCR4, HSIZE=AHB_SIZE_8B, 4 beats               
# UVM_INFO ../src/mst/ahb_master_driver.sv(340) @ 2375000: uvm_test_top.env.master_agent.drv [ahb_master_driver] Beat[0/4] addr=0x0000c16f trans=AHB_TRANS_NONSEQ resp=AHB_RESP_OKAY rdata=0xa4427e23
# UVM_INFO ../src/slv/ahb_slave_driver.sv(184) @ 2375000: uvm_test_top.env.slave_agent.drv [ahb_slave_driver] Beat AHB_READ addr=0x0000c16f resp=AHB_RESP_OKAY waits=0 rdata=0xa4427e23
# UVM_INFO ../src/mst/ahb_master_monitor.sv(117) @ 2375000: uvm_test_top.env.master_agent.mon [ahb_master_monitor] Beat[0] addr=0x0000c16f rdata=0xa4427e23 resp=AHB_RESP_OKAY
# UVM_INFO ../src/mst/ahb_master_driver.sv(340) @ 2405000: uvm_test_top.env.master_agent.drv [ahb_master_driver] Beat[1/4] addr=0x0000c170 trans=AHB_TRANS_SEQ resp=AHB_RESP_OKAY rdata=0xe3046c9c
# UVM_INFO ../src/slv/ahb_slave_driver.sv(184) @ 2405000: uvm_test_top.env.slave_agent.drv [ahb_slave_driver] Beat AHB_READ addr=0x0000c170 resp=AHB_RESP_OKAY waits=2 rdata=0xe3046c9c
# UVM_INFO ../src/mst/ahb_master_monitor.sv(117) @ 2405000: uvm_test_top.env.master_agent.mon [ahb_master_monitor] Beat[1] addr=0x0000c170 rdata=0xe3046c9c resp=AHB_RESP_OKAY
# UVM_INFO ../src/mst/ahb_master_driver.sv(340) @ 2415000: uvm_test_top.env.master_agent.drv [ahb_master_driver] Beat[2/4] addr=0x0000c171 trans=AHB_TRANS_SEQ resp=AHB_RESP_OKAY rdata=0x204252d7
# UVM_INFO ../src/slv/ahb_slave_driver.sv(184) @ 2415000: uvm_test_top.env.slave_agent.drv [ahb_slave_driver] Beat AHB_READ addr=0x0000c171 resp=AHB_RESP_OKAY waits=0 rdata=0x204252d7
# UVM_INFO ../src/mst/ahb_master_monitor.sv(117) @ 2415000: uvm_test_top.env.master_agent.mon [ahb_master_monitor] Beat[2] addr=0x0000c171 rdata=0x204252d7 resp=AHB_RESP_OKAY
# UVM_INFO ../src/mst/ahb_master_driver.sv(340) @ 2445000: uvm_test_top.env.master_agent.drv [ahb_master_driver] Beat[3/4] addr=0x0000c172 trans=AHB_TRANS_SEQ resp=AHB_RESP_OKAY rdata=0x84ba932d
# UVM_INFO ../src/mst/ahb_master_driver.sv(385) @ 2445000: uvm_test_top.env.master_agent.drv [ahb_master_driver] Transaction complete: AHB_READ 0x0000c16f, 4 beats, burst=AHB_BURST_INCR4
# UVM_INFO ../src/slv/ahb_slave_driver.sv(184) @ 2445000: uvm_test_top.env.slave_agent.drv [ahb_slave_driver] Beat AHB_READ addr=0x0000c172 resp=AHB_RESP_OKAY waits=2 rdata=0x84ba932d
# UVM_INFO ../src/mst/ahb_master_monitor.sv(117) @ 2445000: uvm_test_top.env.master_agent.mon [ahb_master_monitor] Beat[3] addr=0x0000c172 rdata=0x84ba932d resp=AHB_RESP_OKAY
# UVM_INFO ../src/mst/ahb_master_monitor.sv(222) @ 2445000: uvm_test_top.env.master_agent.mon [ahb_master_monitor] Observed [AHB_READ]: HADDR=0x0000c16f, HBURST=AHB_BURST_INCR4, HSIZE=AHB_SIZE_8B, 4 beats
# UVM_INFO ../src/env/ahb_coverage.sv(127) @ 2445000: uvm_test_top.env.master_cov [ahb_coverage] Sampled [AHB_READ]: burst=AHB_BURST_INCR4 size=AHB_SIZE_8B beats=4 error=0
# UVM_INFO ../src/slv/ahb_slave_monitor.sv(197) @ 2445000: uvm_test_top.env.slave_agent.mon [ahb_slave_monitor] Observed [AHB_READ]: HADDR=0x0000c16f, HBURST=AHB_BURST_INCR4, HSIZE=AHB_SIZE_8B, 4 beats
# UVM_INFO ../src/env/ahb_scoreboard.sv(104) @ 2445000: uvm_test_top.env.scb [ahb_scoreboard] MATCH #12: [AHB_READ] HADDR=0x0000c16f AHB_BURST_INCR4 4 beats
# UVM_INFO ../src/env/ahb_coverage.sv(127) @ 2445000: uvm_test_top.env.slave_cov [ahb_coverage] Sampled [AHB_READ]: burst=AHB_BURST_INCR4 size=AHB_SIZE_8B beats=4 error=0
# UVM_INFO ../src/mst_seq/ahb_base_seq.sv(182) @ 2445000: uvm_test_top.env.master_agent.sqr@@seq [ahb_busy_seq] AHB_BURST_INCR4 AHB_SIZE_8B beat 0 @0x0000c16f ok
# UVM_INFO ../src/mst_seq/ahb_base_seq.sv(182) @ 2445000: uvm_test_top.env.master_agent.sqr@@seq [ahb_busy_seq] AHB_BURST_INCR4 AHB_SIZE_8B beat 1 @0x0000c170 ok
# UVM_INFO ../src/mst_seq/ahb_base_seq.sv(182) @ 2445000: uvm_test_top.env.master_agent.sqr@@seq [ahb_busy_seq] AHB_BURST_INCR4 AHB_SIZE_8B beat 2 @0x0000c171 ok
# UVM_INFO ../src/mst_seq/ahb_base_seq.sv(182) @ 2445000: uvm_test_top.env.master_agent.sqr@@seq [ahb_busy_seq] AHB_BURST_INCR4 AHB_SIZE_8B beat 3 @0x0000c172 ok
# UVM_INFO ../src/mst_seq/ahb_busy_seq.sv(105) @ 2445000: uvm_test_top.env.master_agent.sqr@@seq [ahb_busy_seq] AHB_BURST_INCR4 AHB_SIZE_16B @0x0000c19e, 4 beats, retract=1
# UVM_INFO ../src/mst/ahb_master_driver.sv(87) @ 2445000: uvm_test_top.env.master_agent.drv [ahb_master_driver] Queueing [AHB_WRITE]: HADDR=0x0000c19e, HBURST=AHB_BURST_INCR4, HSIZE=AHB_SIZE_16B, 4 beats
# UVM_INFO ../src/mst/ahb_master_driver.sv(129) @ 2445000: uvm_test_top.env.master_agent.drv [ahb_master_driver] Driving [AHB_WRITE]: HADDR=0x0000c19e, HBURST=AHB_BURST_INCR4, HSIZE=AHB_SIZE_16B, 4 beats               
# UVM_INFO ../src/mst/ahb_master_driver.sv(340) @ 2475000: uvm_test_top.env.master_agent.drv [ahb_master_driver] Beat[0/4] addr=0x0000c19e trans=AHB_TRANS_NONSEQ resp=AHB_RESP_OKAY wdata=0xfe26aaf0
# UVM_INFO ../src/slv/ahb_slave_driver.sv(184) @ 2475000: uvm_test_top.env.slave_agent.drv [ahb_slave_driver] Beat AHB_WRITE addr=0x0000c19e resp=AHB_RESP_OKAY waits=0 wdata=0xfe26aaf0
# UVM_INFO ../src/mst/ahb_master_monitor.sv(117) @ 2475000: uvm_test_top.env.master_agent.mon [ahb_master_monitor] Beat[0] addr=0x0000c19e wdata=0xfe26aaf0 resp=AHB_RESP_OKAY
# UVM_INFO ../src/mst/ahb_master_driver.sv(340) @ 2515000: uvm_test_top.env.master_agent.drv [ahb_master_driver] Beat[1/4] addr=0x0000c1a0 trans=AHB_TRANS_SEQ resp=AHB_RESP_OKAY wdata=0x6441cee0
# UVM_INFO ../src/slv/ahb_slave_driver.sv(184) @ 2515000: uvm_test_top.env.slave_agent.drv [ahb_slave_driver] Beat AHB_WRITE addr=0x0000c1a0 resp=AHB_RESP_OKAY waits=1 wdata=0x6441cee0
# UVM_INFO ../src/mst/ahb_master_monitor.sv(117) @ 2515000: uvm_test_top.env.master_agent.mon [ahb_master_monitor] Beat[1] addr=0x0000c1a0 wdata=0x6441cee0 resp=AHB_RESP_OKAY
# UVM_INFO ../src/mst/ahb_master_driver.sv(340) @ 2545000: uvm_test_top.env.master_agent.drv [ahb_master_driver] Beat[2/4] addr=0x0000c1a2 trans=AHB_TRANS_SEQ resp=AHB_RESP_OKAY wdata=0x721e3777
# UVM_INFO ../src/slv/ahb_slave_driver.sv(184) @ 2545000: uvm_test_top.env.slave_agent.drv [ahb_slave_driver] Beat AHB_WRITE addr=0x0000c1a2 resp=AHB_RESP_OKAY waits=2 wdata=0x721e3777
# UVM_INFO ../src/mst/ahb_master_monitor.sv(117) @ 2545000: uvm_test_top.env.master_agent.mon [ahb_master_monitor] Beat[2] addr=0x0000c1a2 wdata=0x721e3777 resp=AHB_RESP_OKAY
# UVM_INFO ../src/mst/ahb_master_driver.sv(340) @ 2555000: uvm_test_top.env.master_agent.drv [ahb_master_driver] Beat[3/4] addr=0x0000c1a4 trans=AHB_TRANS_SEQ resp=AHB_RESP_OKAY wdata=0x9824e2fb
# UVM_INFO ../src/mst/ahb_master_driver.sv(385) @ 2555000: uvm_test_top.env.master_agent.drv [ahb_master_driver] Transaction complete: AHB_WRITE 0x0000c19e, 4 beats, burst=AHB_BURST_INCR4
# UVM_INFO ../src/slv/ahb_slave_driver.sv(184) @ 2555000: uvm_test_top.env.slave_agent.drv [ahb_slave_driver] Beat AHB_WRITE addr=0x0000c1a4 resp=AHB_RESP_OKAY waits=0 wdata=0x9824e2fb
# UVM_INFO ../src/slv/ahb_slave_monitor.sv(197) @ 2555000: uvm_test_top.env.slave_agent.mon [ahb_slave_monitor] Observed [AHB_WRITE]: HADDR=0x0000c19e, HBURST=AHB_BURST_INCR4, HSIZE=AHB_SIZE_16B, 4 beats
# UVM_INFO ../src/env/ahb_coverage.sv(127) @ 2555000: uvm_test_top.env.slave_cov [ahb_coverage] Sampled [AHB_WRITE]: burst=AHB_BURST_INCR4 size=AHB_SIZE_16B beats=4 error=0
# UVM_INFO ../src/mst/ahb_master_monitor.sv(117) @ 2555000: uvm_test_top.env.master_agent.mon [ahb_master_monitor] Beat[3] addr=0x0000c1a4 wdata=0x9824e2fb resp=AHB_RESP_OKAY
# UVM_INFO ../src/mst/ahb_master_monitor.sv(222) @ 2555000: uvm_test_top.env.master_agent.mon [ahb_master_monitor] Observed [AHB_WRITE]: HADDR=0x0000c19e, HBURST=AHB_BURST_INCR4, HSIZE=AHB_SIZE_16B, 4 beats
# UVM_INFO ../src/env/ahb_coverage.sv(127) @ 2555000: uvm_test_top.env.master_cov [ahb_coverage] Sampled [AHB_WRITE]: burst=AHB_BURST_INCR4 size=AHB_SIZE_16B beats=4 error=0
# UVM_INFO ../src/env/ahb_scoreboard.sv(104) @ 2555000: uvm_test_top.env.scb [ahb_scoreboard] MATCH #13: [AHB_WRITE] HADDR=0x0000c19e AHB_BURST_INCR4 4 beats
# UVM_INFO ../src/mst/ahb_master_driver.sv(87) @ 2555000: uvm_test_top.env.master_agent.drv [ahb_master_driver] Queueing [AHB_READ]: HADDR=0x0000c19e, HBURST=AHB_BURST_INCR4, HSIZE=AHB_SIZE_16B, 4 beats
# UVM_INFO ../src/mst/ahb_master_driver.sv(129) @ 2555000: uvm_test_top.env.master_agent.drv [ahb_master_driver] Driving [AHB_READ]: HADDR=0x0000c19e, HBURST=AHB_BURST_INCR4, HSIZE=AHB_SIZE_16B, 4 beats               
# UVM_INFO ../src/mst/ahb_master_driver.sv(340) @ 2595000: uvm_test_top.env.master_agent.drv [ahb_master_driver] Beat[0/4] addr=0x0000c19e trans=AHB_TRANS_NONSEQ resp=AHB_RESP_OKAY rdata=0xfe26aaf0
# UVM_INFO ../src/slv/ahb_slave_driver.sv(184) @ 2595000: uvm_test_top.env.slave_agent.drv [ahb_slave_driver] Beat AHB_READ addr=0x0000c19e resp=AHB_RESP_OKAY waits=1 rdata=0xfe26aaf0
# UVM_INFO ../src/mst/ahb_master_monitor.sv(117) @ 2595000: uvm_test_top.env.master_agent.mon [ahb_master_monitor] Beat[0] addr=0x0000c19e rdata=0xfe26aaf0 resp=AHB_RESP_OKAY
# UVM_INFO ../src/mst/ahb_master_driver.sv(340) @ 2605000: uvm_test_top.env.master_agent.drv [ahb_master_driver] Beat[1/4] addr=0x0000c1a0 trans=AHB_TRANS_SEQ resp=AHB_RESP_OKAY rdata=0x6441cee0
# UVM_INFO ../src/slv/ahb_slave_driver.sv(184) @ 2605000: uvm_test_top.env.slave_agent.drv [ahb_slave_driver] Beat AHB_READ addr=0x0000c1a0 resp=AHB_RESP_OKAY waits=0 rdata=0x6441cee0
# UVM_INFO ../src/mst/ahb_master_monitor.sv(117) @ 2605000: uvm_test_top.env.master_agent.mon [ahb_master_monitor] Beat[1] addr=0x0000c1a0 rdata=0x6441cee0 resp=AHB_RESP_OKAY
# UVM_INFO ../src/mst/ahb_master_driver.sv(340) @ 2615000: uvm_test_top.env.master_agent.drv [ahb_master_driver] Beat[2/4] addr=0x0000c1a2 trans=AHB_TRANS_SEQ resp=AHB_RESP_OKAY rdata=0x721e3777
# UVM_INFO ../src/slv/ahb_slave_driver.sv(184) @ 2615000: uvm_test_top.env.slave_agent.drv [ahb_slave_driver] Beat AHB_READ addr=0x0000c1a2 resp=AHB_RESP_OKAY waits=0 rdata=0x721e3777
# UVM_INFO ../src/mst/ahb_master_monitor.sv(117) @ 2615000: uvm_test_top.env.master_agent.mon [ahb_master_monitor] Beat[2] addr=0x0000c1a2 rdata=0x721e3777 resp=AHB_RESP_OKAY
# UVM_INFO ../src/mst/ahb_master_driver.sv(340) @ 2645000: uvm_test_top.env.master_agent.drv [ahb_master_driver] Beat[3/4] addr=0x0000c1a4 trans=AHB_TRANS_SEQ resp=AHB_RESP_OKAY rdata=0x9824e2fb
# UVM_INFO ../src/mst/ahb_master_driver.sv(385) @ 2645000: uvm_test_top.env.master_agent.drv [ahb_master_driver] Transaction complete: AHB_READ 0x0000c19e, 4 beats, burst=AHB_BURST_INCR4
# UVM_INFO ../src/slv/ahb_slave_driver.sv(184) @ 2645000: uvm_test_top.env.slave_agent.drv [ahb_slave_driver] Beat AHB_READ addr=0x0000c1a4 resp=AHB_RESP_OKAY waits=2 rdata=0x9824e2fb
# UVM_INFO ../src/mst/ahb_master_monitor.sv(117) @ 2645000: uvm_test_top.env.master_agent.mon [ahb_master_monitor] Beat[3] addr=0x0000c1a4 rdata=0x9824e2fb resp=AHB_RESP_OKAY
# UVM_INFO ../src/mst/ahb_master_monitor.sv(222) @ 2645000: uvm_test_top.env.master_agent.mon [ahb_master_monitor] Observed [AHB_READ]: HADDR=0x0000c19e, HBURST=AHB_BURST_INCR4, HSIZE=AHB_SIZE_16B, 4 beats
# UVM_INFO ../src/env/ahb_coverage.sv(127) @ 2645000: uvm_test_top.env.master_cov [ahb_coverage] Sampled [AHB_READ]: burst=AHB_BURST_INCR4 size=AHB_SIZE_16B beats=4 error=0
# UVM_INFO ../src/slv/ahb_slave_monitor.sv(197) @ 2645000: uvm_test_top.env.slave_agent.mon [ahb_slave_monitor] Observed [AHB_READ]: HADDR=0x0000c19e, HBURST=AHB_BURST_INCR4, HSIZE=AHB_SIZE_16B, 4 beats
# UVM_INFO ../src/env/ahb_scoreboard.sv(104) @ 2645000: uvm_test_top.env.scb [ahb_scoreboard] MATCH #14: [AHB_READ] HADDR=0x0000c19e AHB_BURST_INCR4 4 beats
# UVM_INFO ../src/env/ahb_coverage.sv(127) @ 2645000: uvm_test_top.env.slave_cov [ahb_coverage] Sampled [AHB_READ]: burst=AHB_BURST_INCR4 size=AHB_SIZE_16B beats=4 error=0
# UVM_INFO ../src/mst_seq/ahb_base_seq.sv(182) @ 2645000: uvm_test_top.env.master_agent.sqr@@seq [ahb_busy_seq] AHB_BURST_INCR4 AHB_SIZE_16B beat 0 @0x0000c19e ok
# UVM_INFO ../src/mst_seq/ahb_base_seq.sv(182) @ 2645000: uvm_test_top.env.master_agent.sqr@@seq [ahb_busy_seq] AHB_BURST_INCR4 AHB_SIZE_16B beat 1 @0x0000c1a0 ok
# UVM_INFO ../src/mst_seq/ahb_base_seq.sv(182) @ 2645000: uvm_test_top.env.master_agent.sqr@@seq [ahb_busy_seq] AHB_BURST_INCR4 AHB_SIZE_16B beat 2 @0x0000c1a2 ok
# UVM_INFO ../src/mst_seq/ahb_base_seq.sv(182) @ 2645000: uvm_test_top.env.master_agent.sqr@@seq [ahb_busy_seq] AHB_BURST_INCR4 AHB_SIZE_16B beat 3 @0x0000c1a4 ok
# UVM_INFO ../src/mst_seq/ahb_busy_seq.sv(105) @ 2645000: uvm_test_top.env.master_agent.sqr@@seq [ahb_busy_seq] AHB_BURST_INCR AHB_SIZE_8B @0x0000c1d5, 13 beats, retract=1
# UVM_INFO ../src/mst/ahb_master_driver.sv(87) @ 2645000: uvm_test_top.env.master_agent.drv [ahb_master_driver] Queueing [AHB_WRITE]: HADDR=0x0000c1d5, HBURST=AHB_BURST_INCR, HSIZE=AHB_SIZE_8B, 13 beats
# UVM_INFO ../src/mst/ahb_master_driver.sv(129) @ 2645000: uvm_test_top.env.master_agent.drv [ahb_master_driver] Driving [AHB_WRITE]: HADDR=0x0000c1d5, HBURST=AHB_BURST_INCR, HSIZE=AHB_SIZE_8B, 13 beats               
# UVM_INFO ../src/mst/ahb_master_driver.sv(340) @ 2675000: uvm_test_top.env.master_agent.drv [ahb_master_driver] Beat[0/13] addr=0x0000c1d5 trans=AHB_TRANS_NONSEQ resp=AHB_RESP_OKAY wdata=0xc932c611
# UVM_INFO ../src/slv/ahb_slave_driver.sv(184) @ 2675000: uvm_test_top.env.slave_agent.drv [ahb_slave_driver] Beat AHB_WRITE addr=0x0000c1d5 resp=AHB_RESP_OKAY waits=0 wdata=0xc932c611
# UVM_INFO ../src/mst/ahb_master_monitor.sv(117) @ 2675000: uvm_test_top.env.master_agent.mon [ahb_master_monitor] Beat[0] addr=0x0000c1d5 wdata=0xc932c611 resp=AHB_RESP_OKAY
# UVM_INFO ../src/mst/ahb_master_driver.sv(340) @ 2705000: uvm_test_top.env.master_agent.drv [ahb_master_driver] Beat[1/13] addr=0x0000c1d6 trans=AHB_TRANS_SEQ resp=AHB_RESP_OKAY wdata=0x74a795b1
# UVM_INFO ../src/slv/ahb_slave_driver.sv(184) @ 2705000: uvm_test_top.env.slave_agent.drv [ahb_slave_driver] Beat AHB_WRITE addr=0x0000c1d6 resp=AHB_RESP_OKAY waits=0 wdata=0x74a795b1
# UVM_INFO ../src/mst/ahb_master_monitor.sv(117) @ 2705000: uvm_test_top.env.master_agent.mon [ahb_master_monitor] Beat[1] addr=0x0000c1d6 wdata=0x74a795b1 resp=AHB_RESP_OKAY
# UVM_INFO ../src/mst/ahb_master_driver.sv(340) @ 2755000: uvm_test_top.env.master_agent.drv [ahb_master_driver] Beat[2/13] addr=0x0000c1d7 trans=AHB_TRANS_SEQ resp=AHB_RESP_OKAY wdata=0x89aed86e
# UVM_INFO ../src/slv/ahb_slave_driver.sv(184) @ 2755000: uvm_test_top.env.slave_agent.drv [ahb_slave_driver] Beat AHB_WRITE addr=0x0000c1d7 resp=AHB_RESP_OKAY waits=2 wdata=0x89aed86e
# UVM_INFO ../src/mst/ahb_master_monitor.sv(117) @ 2755000: uvm_test_top.env.master_agent.mon [ahb_master_monitor] Beat[2] addr=0x0000c1d7 wdata=0x89aed86e resp=AHB_RESP_OKAY
# UVM_INFO ../src/mst/ahb_master_driver.sv(340) @ 2775000: uvm_test_top.env.master_agent.drv [ahb_master_driver] Beat[3/13] addr=0x0000c1d8 trans=AHB_TRANS_SEQ resp=AHB_RESP_OKAY wdata=0x4950b511
# UVM_INFO ../src/slv/ahb_slave_driver.sv(184) @ 2775000: uvm_test_top.env.slave_agent.drv [ahb_slave_driver] Beat AHB_WRITE addr=0x0000c1d8 resp=AHB_RESP_OKAY waits=1 wdata=0x4950b511
# UVM_INFO ../src/mst/ahb_master_monitor.sv(117) @ 2775000: uvm_test_top.env.master_agent.mon [ahb_master_monitor] Beat[3] addr=0x0000c1d8 wdata=0x4950b511 resp=AHB_RESP_OKAY
# UVM_INFO ../src/mst/ahb_master_driver.sv(340) @ 2795000: uvm_test_top.env.master_agent.drv [ahb_master_driver] Beat[4/13] addr=0x0000c1d9 trans=AHB_TRANS_SEQ resp=AHB_RESP_OKAY wdata=0x92f92e65
# UVM_INFO ../src/slv/ahb_slave_driver.sv(184) @ 2795000: uvm_test_top.env.slave_agent.drv [ahb_slave_driver] Beat AHB_WRITE addr=0x0000c1d9 resp=AHB_RESP_OKAY waits=1 wdata=0x92f92e65
# UVM_INFO ../src/mst/ahb_master_monitor.sv(117) @ 2795000: uvm_test_top.env.master_agent.mon [ahb_master_monitor] Beat[4] addr=0x0000c1d9 wdata=0x92f92e65 resp=AHB_RESP_OKAY
# UVM_INFO ../src/mst/ahb_master_driver.sv(340) @ 2815000: uvm_test_top.env.master_agent.drv [ahb_master_driver] Beat[5/13] addr=0x0000c1da trans=AHB_TRANS_SEQ resp=AHB_RESP_OKAY wdata=0x8b04a473
# UVM_INFO ../src/slv/ahb_slave_driver.sv(184) @ 2815000: uvm_test_top.env.slave_agent.drv [ahb_slave_driver] Beat AHB_WRITE addr=0x0000c1da resp=AHB_RESP_OKAY waits=1 wdata=0x8b04a473
# UVM_INFO ../src/mst/ahb_master_monitor.sv(117) @ 2815000: uvm_test_top.env.master_agent.mon [ahb_master_monitor] Beat[5] addr=0x0000c1da wdata=0x8b04a473 resp=AHB_RESP_OKAY
# UVM_INFO ../src/mst/ahb_master_driver.sv(340) @ 2835000: uvm_test_top.env.master_agent.drv [ahb_master_driver] Beat[6/13] addr=0x0000c1db trans=AHB_TRANS_SEQ resp=AHB_RESP_OKAY wdata=0x51ea6579
# UVM_INFO ../src/slv/ahb_slave_driver.sv(184) @ 2835000: uvm_test_top.env.slave_agent.drv [ahb_slave_driver] Beat AHB_WRITE addr=0x0000c1db resp=AHB_RESP_OKAY waits=1 wdata=0x51ea6579
# UVM_INFO ../src/mst/ahb_master_monitor.sv(117) @ 2835000: uvm_test_top.env.master_agent.mon [ahb_master_monitor] Beat[6] addr=0x0000c1db wdata=0x51ea6579 resp=AHB_RESP_OKAY
# UVM_INFO ../src/mst/ahb_master_driver.sv(340) @ 2845000: uvm_test_top.env.master_agent.drv [ahb_master_driver] Beat[7/13] addr=0x0000c1dc trans=AHB_TRANS_SEQ resp=AHB_RESP_OKAY wdata=0xe62c83cd
# UVM_INFO ../src/slv/ahb_slave_driver.sv(184) @ 2845000: uvm_test_top.env.slave_agent.drv [ahb_slave_driver] Beat AHB_WRITE addr=0x0000c1dc resp=AHB_RESP_OKAY waits=0 wdata=0xe62c83cd
# UVM_INFO ../src/mst/ahb_master_monitor.sv(117) @ 2845000: uvm_test_top.env.master_agent.mon [ahb_master_monitor] Beat[7] addr=0x0000c1dc wdata=0xe62c83cd resp=AHB_RESP_OKAY
# UVM_INFO ../src/mst/ahb_master_driver.sv(340) @ 2885000: uvm_test_top.env.master_agent.drv [ahb_master_driver] Beat[8/13] addr=0x0000c1dd trans=AHB_TRANS_SEQ resp=AHB_RESP_OKAY wdata=0x15b11b34
# UVM_INFO ../src/slv/ahb_slave_driver.sv(184) @ 2885000: uvm_test_top.env.slave_agent.drv [ahb_slave_driver] Beat AHB_WRITE addr=0x0000c1dd resp=AHB_RESP_OKAY waits=0 wdata=0x15b11b34
# UVM_INFO ../src/mst/ahb_master_monitor.sv(117) @ 2885000: uvm_test_top.env.master_agent.mon [ahb_master_monitor] Beat[8] addr=0x0000c1dd wdata=0x15b11b34 resp=AHB_RESP_OKAY
# UVM_INFO ../src/mst/ahb_master_driver.sv(340) @ 2925000: uvm_test_top.env.master_agent.drv [ahb_master_driver] Beat[9/13] addr=0x0000c1de trans=AHB_TRANS_SEQ resp=AHB_RESP_OKAY wdata=0xb48bb2e3
# UVM_INFO ../src/slv/ahb_slave_driver.sv(184) @ 2925000: uvm_test_top.env.slave_agent.drv [ahb_slave_driver] Beat AHB_WRITE addr=0x0000c1de resp=AHB_RESP_OKAY waits=1 wdata=0xb48bb2e3
# UVM_INFO ../src/mst/ahb_master_monitor.sv(117) @ 2925000: uvm_test_top.env.master_agent.mon [ahb_master_monitor] Beat[9] addr=0x0000c1de wdata=0xb48bb2e3 resp=AHB_RESP_OKAY
# UVM_INFO ../src/mst/ahb_master_driver.sv(340) @ 2955000: uvm_test_top.env.master_agent.drv [ahb_master_driver] Beat[10/13] addr=0x0000c1df trans=AHB_TRANS_SEQ resp=AHB_RESP_OKAY wdata=0xe36dfbf0
# UVM_INFO ../src/slv/ahb_slave_driver.sv(184) @ 2955000: uvm_test_top.env.slave_agent.drv [ahb_slave_driver] Beat AHB_WRITE addr=0x0000c1df resp=AHB_RESP_OKAY waits=2 wdata=0xe36dfbf0
# UVM_INFO ../src/mst/ahb_master_monitor.sv(117) @ 2955000: uvm_test_top.env.master_agent.mon [ahb_master_monitor] Beat[10] addr=0x0000c1df wdata=0xe36dfbf0 resp=AHB_RESP_OKAY
# UVM_INFO ../src/mst/ahb_master_driver.sv(340) @ 2985000: uvm_test_top.env.master_agent.drv [ahb_master_driver] Beat[11/13] addr=0x0000c1e0 trans=AHB_TRANS_SEQ resp=AHB_RESP_OKAY wdata=0x11375d4f
# UVM_INFO ../src/slv/ahb_slave_driver.sv(184) @ 2985000: uvm_test_top.env.slave_agent.drv [ahb_slave_driver] Beat AHB_WRITE addr=0x0000c1e0 resp=AHB_RESP_OKAY waits=2 wdata=0x11375d4f
# UVM_INFO ../src/mst/ahb_master_monitor.sv(117) @ 2985000: uvm_test_top.env.master_agent.mon [ahb_master_monitor] Beat[11] addr=0x0000c1e0 wdata=0x11375d4f resp=AHB_RESP_OKAY
# UVM_INFO ../src/mst/ahb_master_driver.sv(340) @ 3005000: uvm_test_top.env.master_agent.drv [ahb_master_driver] Beat[12/13] addr=0x0000c1e1 trans=AHB_TRANS_SEQ resp=AHB_RESP_OKAY wdata=0xbdf9c715
# UVM_INFO ../src/mst/ahb_master_driver.sv(385) @ 3005000: uvm_test_top.env.master_agent.drv [ahb_master_driver] Transaction complete: AHB_WRITE 0x0000c1d5, 13 beats, burst=AHB_BURST_INCR
# UVM_INFO ../src/slv/ahb_slave_driver.sv(184) @ 3005000: uvm_test_top.env.slave_agent.drv [ahb_slave_driver] Beat AHB_WRITE addr=0x0000c1e1 resp=AHB_RESP_OKAY waits=1 wdata=0xbdf9c715
# UVM_INFO ../src/mst/ahb_master_monitor.sv(117) @ 3005000: uvm_test_top.env.master_agent.mon [ahb_master_monitor] Beat[12] addr=0x0000c1e1 wdata=0xbdf9c715 resp=AHB_RESP_OKAY
# UVM_INFO ../src/mst/ahb_master_monitor.sv(222) @ 3005000: uvm_test_top.env.master_agent.mon [ahb_master_monitor] Observed [AHB_WRITE]: HADDR=0x0000c1d5, HBURST=AHB_BURST_INCR, HSIZE=AHB_SIZE_8B, 13 beats
# UVM_INFO ../src/env/ahb_coverage.sv(127) @ 3005000: uvm_test_top.env.master_cov [ahb_coverage] Sampled [AHB_WRITE]: burst=AHB_BURST_INCR size=AHB_SIZE_8B beats=13 error=0
# UVM_INFO ../src/slv/ahb_slave_monitor.sv(197) @ 3005000: uvm_test_top.env.slave_agent.mon [ahb_slave_monitor] Observed [AHB_WRITE]: HADDR=0x0000c1d5, HBURST=AHB_BURST_INCR, HSIZE=AHB_SIZE_8B, 13 beats
# UVM_INFO ../src/env/ahb_scoreboard.sv(104) @ 3005000: uvm_test_top.env.scb [ahb_scoreboard] MATCH #15: [AHB_WRITE] HADDR=0x0000c1d5 AHB_BURST_INCR 13 beats
# UVM_INFO ../src/env/ahb_coverage.sv(127) @ 3005000: uvm_test_top.env.slave_cov [ahb_coverage] Sampled [AHB_WRITE]: burst=AHB_BURST_INCR size=AHB_SIZE_8B beats=13 error=0
# UVM_INFO ../src/mst/ahb_master_driver.sv(87) @ 3005000: uvm_test_top.env.master_agent.drv [ahb_master_driver] Queueing [AHB_READ]: HADDR=0x0000c1d5, HBURST=AHB_BURST_INCR, HSIZE=AHB_SIZE_8B, 13 beats
# UVM_INFO ../src/mst/ahb_master_driver.sv(129) @ 3005000: uvm_test_top.env.master_agent.drv [ahb_master_driver] Driving [AHB_READ]: HADDR=0x0000c1d5, HBURST=AHB_BURST_INCR, HSIZE=AHB_SIZE_8B, 13 beats               
# UVM_INFO ../src/mst/ahb_master_driver.sv(340) @ 3035000: uvm_test_top.env.master_agent.drv [ahb_master_driver] Beat[0/13] addr=0x0000c1d5 trans=AHB_TRANS_NONSEQ resp=AHB_RESP_OKAY rdata=0xc932c611
# UVM_INFO ../src/slv/ahb_slave_driver.sv(184) @ 3035000: uvm_test_top.env.slave_agent.drv [ahb_slave_driver] Beat AHB_READ addr=0x0000c1d5 resp=AHB_RESP_OKAY waits=0 rdata=0xc932c611
# UVM_INFO ../src/mst/ahb_master_monitor.sv(117) @ 3035000: uvm_test_top.env.master_agent.mon [ahb_master_monitor] Beat[0] addr=0x0000c1d5 rdata=0xc932c611 resp=AHB_RESP_OKAY
# UVM_INFO ../src/mst/ahb_master_driver.sv(340) @ 3045000: uvm_test_top.env.master_agent.drv [ahb_master_driver] Beat[1/13] addr=0x0000c1d6 trans=AHB_TRANS_SEQ resp=AHB_RESP_OKAY rdata=0x74a795b1
# UVM_INFO ../src/slv/ahb_slave_driver.sv(184) @ 3045000: uvm_test_top.env.slave_agent.drv [ahb_slave_driver] Beat AHB_READ addr=0x0000c1d6 resp=AHB_RESP_OKAY waits=0 rdata=0x74a795b1
# UVM_INFO ../src/mst/ahb_master_monitor.sv(117) @ 3045000: uvm_test_top.env.master_agent.mon [ahb_master_monitor] Beat[1] addr=0x0000c1d6 rdata=0x74a795b1 resp=AHB_RESP_OKAY
# UVM_INFO ../src/mst/ahb_master_driver.sv(340) @ 3075000: uvm_test_top.env.master_agent.drv [ahb_master_driver] Beat[2/13] addr=0x0000c1d7 trans=AHB_TRANS_SEQ resp=AHB_RESP_OKAY rdata=0x89aed86e
# UVM_INFO ../src/slv/ahb_slave_driver.sv(184) @ 3075000: uvm_test_top.env.slave_agent.drv [ahb_slave_driver] Beat AHB_READ addr=0x0000c1d7 resp=AHB_RESP_OKAY waits=2 rdata=0x89aed86e
# UVM_INFO ../src/mst/ahb_master_monitor.sv(117) @ 3075000: uvm_test_top.env.master_agent.mon [ahb_master_monitor] Beat[2] addr=0x0000c1d7 rdata=0x89aed86e resp=AHB_RESP_OKAY
# UVM_INFO ../src/mst/ahb_master_driver.sv(340) @ 3095000: uvm_test_top.env.master_agent.drv [ahb_master_driver] Beat[3/13] addr=0x0000c1d8 trans=AHB_TRANS_SEQ resp=AHB_RESP_OKAY rdata=0x4950b511
# UVM_INFO ../src/slv/ahb_slave_driver.sv(184) @ 3095000: uvm_test_top.env.slave_agent.drv [ahb_slave_driver] Beat AHB_READ addr=0x0000c1d8 resp=AHB_RESP_OKAY waits=1 rdata=0x4950b511
# UVM_INFO ../src/mst/ahb_master_monitor.sv(117) @ 3095000: uvm_test_top.env.master_agent.mon [ahb_master_monitor] Beat[3] addr=0x0000c1d8 rdata=0x4950b511 resp=AHB_RESP_OKAY
