# vsim -c -coverage -sv_seed 66296666 "+UVM_TESTNAME=ahb_wrap_burst_test" "+UVM_VERBOSITY=UVM_HIGH" "+DUMP_VCD" -l ./report/logs/ahb_wrap_burst_test_run_4_seed_66296666.log -do "coverage save -onexit ./report/coverage/ahb_wrap_burst_test_run_4_seed_66296666.ucdb; run -all; quit -f" opt_tb_top 
# Start time: 13:03:29 on Aug 03,2026
# //  Questa Sim-64
# //  Version 10.6b linux_x86_64 May 25 2017
# //
# //  Copyright 1991-2017 Mentor Graphics Corporation
# //  All Rights Reserved.
# //
# //  QuestaSim and its associated documentation contain trade
# //  secrets and commercial or financial information that are the property of
# //  Mentor Graphics Corporation and are privileged, confidential,
# //  and exempt from disclosure under the Freedom of Information Act,
# //  5 U.S.C. Section 552. Furthermore, this information
# //  is prohibited from disclosure under the Trade Secrets Act,
# //  18 U.S.C. Section 1905.
# //
# Loading sv_std.std
# Loading work.ahb_if(fast)
# Loading mtiUvm.uvm_pkg
# Loading work.ahb_pkg(fast)
# Loading work.ahb_seq_pkg(fast)
# Loading work.ahb_test_pkg(fast)
# Loading work.tb_top(fast)
# Loading work.ahb_if(fast)
# Loading work.ahb_sva(fast)
# Loading mtiUvm.questa_uvm_pkg(fast)
# Loading /cadtools/mentor/Questa_10.6b/questasim/uvm-1.1d/linux_x86_64/uvm_dpi.so
# coverage save -onexit ./report/coverage/ahb_wrap_burst_test_run_4_seed_66296666.ucdb
#  run -all
# ----------------------------------------------------------------
# UVM-1.1d
# (C) 2007-2013 Mentor Graphics Corporation
# (C) 2007-2013 Cadence Design Systems, Inc.
# (C) 2006-2013 Synopsys, Inc.
# (C) 2011-2013 Cypress Semiconductor Corp.
# ----------------------------------------------------------------
# 
#   ***********       IMPORTANT RELEASE NOTES         ************
# 
#   You are using a version of the UVM library that has been compiled
#   with `UVM_NO_DEPRECATED undefined.
#   See http://www.eda.org/svdb/view.php?id=3313 for more details.
# 
#   You are using a version of the UVM library that has been compiled
#   with `UVM_OBJECT_MUST_HAVE_CONSTRUCTOR undefined.
#   See http://www.eda.org/svdb/view.php?id=3770 for more details.
# 
#       (Specify +UVM_NO_RELNOTES to turn off this notice)
# 
# UVM_INFO verilog_src/questa_uvm_pkg-1.2/src/questa_uvm_pkg.sv(215) @ 0: reporter [Questa UVM] QUESTA_UVM-1.2.3
# UVM_INFO verilog_src/questa_uvm_pkg-1.2/src/questa_uvm_pkg.sv(217) @ 0: reporter [Questa UVM]  questa_uvm::init(+struct)
# UVM_INFO ../src/tb_top.sv(126) @ 0: reporter [TB_TOP] Virtual interface set in config_db
# UVM_INFO @ 0: reporter [RNTST] Running test ahb_wrap_burst_test...
# UVM_INFO ../src/tb_top.sv(140) @ 0: reporter [TB_TOP] Waveform VCD dumping enabled (ahb_lite_vip.vcd)
# UVM_INFO ../src/env/ahb_vip_env.sv(64) @ 0: uvm_test_top.env [ahb_vip_env] slave_vif not set - reusing master_vif (passthrough mode)
# UVM_INFO ../src/env/ahb_vip_env.sv(72) @ 0: uvm_test_top.env [ahb_vip_env] Scoreboard created
# UVM_INFO ../src/env/ahb_vip_env.sv(78) @ 0: uvm_test_top.env [ahb_vip_env] Coverage collectors created
# UVM_INFO ../src/mst/ahb_master_agent.sv(61) @ 0: uvm_test_top.env.master_agent [ahb_master_agent] ACTIVE mode - driver + sequencer created
# UVM_INFO ../src/slv/ahb_slave_agent.sv(64) @ 0: uvm_test_top.env.slave_agent [ahb_slave_agent] ACTIVE mode - driver + sequencer created (    auto responses)
# UVM_INFO ../src/env/ahb_vip_env.sv(92) @ 0: uvm_test_top.env [ahb_vip_env] Scoreboard connected: master_mon.ap -> scb, slave_mon.ap -> scb
# UVM_INFO ../src/env/ahb_vip_env.sv(99) @ 0: uvm_test_top.env [ahb_vip_env] Coverage connected: master_mon.ap -> master_cov, slave_mon.ap -> slave_cov
# UVM_INFO @ 0: reporter [UVMTOP] UVM testbench topology:
# ---------------------------------------------------------------
# Name                       Type                     Size  Value
# ---------------------------------------------------------------
# uvm_test_top               ahb_wrap_burst_test      -     @475 
#   env                      ahb_vip_env              -     @490 
#     master_agent           ahb_master_agent         -     @505 
#       drv                  ahb_master_driver        -     @570 
#         rsp_port           uvm_analysis_port        -     @585 
#         seq_item_port      uvm_seq_item_pull_port   -     @577 
#       mon                  ahb_master_monitor       -     @563 
#         ap                 uvm_analysis_port        -     @704 
#       sqr                  ahb_master_sequencer     -     @593 
#         rsp_export         uvm_analysis_export      -     @600 
#         seq_item_export    uvm_seq_item_pull_imp    -     @694 
#         arbitration_queue  array                    0     -    
#         lock_queue         array                    0     -    
#         num_last_reqs      integral                 32    'd1  
#         num_last_rsps      integral                 32    'd1  
#     master_cov             ahb_coverage             -     @526 
#       analysis_imp         uvm_analysis_imp         -     @533 
#     scb                    ahb_scoreboard           -     @519 
#       master_export        uvm_analysis_imp_master  -     @718 
#       slave_export         uvm_analysis_imp_slave   -     @726 
#     slave_agent            ahb_slave_agent          -     @512 
#       drv                  ahb_slave_driver         -     @748 
#         rsp_port           uvm_analysis_port        -     @763 
#         seq_item_port      uvm_seq_item_pull_port   -     @755 
#       mon                  ahb_slave_monitor        -     @741 
#         ap                 uvm_analysis_port        -     @882 
#       sqr                  ahb_slave_sequencer      -     @771 
#         rsp_export         uvm_analysis_export      -     @778 
#         seq_item_export    uvm_seq_item_pull_imp    -     @872 
#         arbitration_queue  array                    0     -    
#         lock_queue         array                    0     -    
#         num_last_reqs      integral                 32    'd1  
#         num_last_rsps      integral                 32    'd1  
#     slave_cov              ahb_coverage             -     @541 
#       analysis_imp         uvm_analysis_imp         -     @548 
# ---------------------------------------------------------------
# 
# UVM_INFO verilog_src/questa_uvm_pkg-1.2/src/questa_uvm_pkg.sv(277) @ 0: reporter [Questa UVM] End Of Elaboration
# UVM_INFO ../src/mst_seq/ahb_wrap_burst_seq.sv(49) @ 0: uvm_test_top.env.master_agent.sqr@@seq [ahb_wrap_burst_seq] Starting WRAP bursts: 16 iterations from 0x00004000
# UVM_INFO ../src/mst/ahb_master_driver.sv(181) @ 5000: uvm_test_top.env.master_agent.drv [ahb_master_driver] Flushed pending transactions (reset)
# UVM_INFO ../src/tb_top.sv(48) @ 95000: reporter [TB_TOP] Reset de-asserted
# UVM_INFO ../src/slv/ahb_slave_driver.sv(63) @ 95000: uvm_test_top.env.slave_agent.drv [ahb_slave_driver] Reset deasserted - slave driver active (    auto mode)
# UVM_INFO ../src/mst/ahb_master_driver.sv(68) @ 95000: uvm_test_top.env.master_agent.drv [ahb_master_driver] Reset deasserted - master driver active
# UVM_INFO ../src/mst/ahb_master_monitor.sv(75) @ 95000: uvm_test_top.env.master_agent.mon [ahb_master_monitor] Reset deasserted - master monitor active
# UVM_INFO ../src/slv/ahb_slave_monitor.sv(69) @ 95000: uvm_test_top.env.slave_agent.mon [ahb_slave_monitor] Reset deasserted - slave monitor active
# UVM_INFO ../src/mst/ahb_master_driver.sv(82) @ 95000: uvm_test_top.env.master_agent.drv [ahb_master_driver] Queueing [AHB_WRITE]: HADDR=0x0000401e, HBURST=AHB_BURST_WRAP8, HSIZE=AHB_SIZE_8B, 8 beats
# UVM_INFO ../src/mst/ahb_master_driver.sv(124) @ 95000: uvm_test_top.env.master_agent.drv [ahb_master_driver] Driving [AHB_WRITE]: HADDR=0x0000401e, HBURST=AHB_BURST_WRAP8, HSIZE=AHB_SIZE_8B, 8 beats               
# UVM_INFO ../src/mst/ahb_master_driver.sv(317) @ 115000: uvm_test_top.env.master_agent.drv [ahb_master_driver] Beat[0/8] addr=0x0000401e trans=AHB_TRANS_NONSEQ resp=AHB_RESP_OKAY wdata=0x47086e4f
# UVM_INFO ../src/slv/ahb_slave_driver.sv(184) @ 115000: uvm_test_top.env.slave_agent.drv [ahb_slave_driver] Beat AHB_WRITE addr=0x0000401e resp=AHB_RESP_OKAY waits=0 wdata=0x47086e4f
# UVM_INFO ../src/mst/ahb_master_monitor.sv(117) @ 115000: uvm_test_top.env.master_agent.mon [ahb_master_monitor] Beat[0] addr=0x0000401e wdata=0x47086e4f resp=AHB_RESP_OKAY
# UVM_INFO ../src/mst/ahb_master_driver.sv(317) @ 145000: uvm_test_top.env.master_agent.drv [ahb_master_driver] Beat[1/8] addr=0x0000401f trans=AHB_TRANS_SEQ resp=AHB_RESP_OKAY wdata=0xde314120
# UVM_INFO ../src/slv/ahb_slave_driver.sv(184) @ 145000: uvm_test_top.env.slave_agent.drv [ahb_slave_driver] Beat AHB_WRITE addr=0x0000401f resp=AHB_RESP_OKAY waits=2 wdata=0xde314120
# UVM_INFO ../src/mst/ahb_master_monitor.sv(117) @ 145000: uvm_test_top.env.master_agent.mon [ahb_master_monitor] Beat[1] addr=0x0000401f wdata=0xde314120 resp=AHB_RESP_OKAY
# UVM_INFO ../src/mst/ahb_master_driver.sv(317) @ 175000: uvm_test_top.env.master_agent.drv [ahb_master_driver] Beat[2/8] addr=0x00004018 trans=AHB_TRANS_SEQ resp=AHB_RESP_OKAY wdata=0x135aa1aa
# UVM_INFO ../src/slv/ahb_slave_driver.sv(184) @ 175000: uvm_test_top.env.slave_agent.drv [ahb_slave_driver] Beat AHB_WRITE addr=0x00004018 resp=AHB_RESP_OKAY waits=2 wdata=0x135aa1aa
# UVM_INFO ../src/mst/ahb_master_monitor.sv(117) @ 175000: uvm_test_top.env.master_agent.mon [ahb_master_monitor] Beat[2] addr=0x00004018 wdata=0x135aa1aa resp=AHB_RESP_OKAY
# UVM_INFO ../src/mst/ahb_master_driver.sv(317) @ 195000: uvm_test_top.env.master_agent.drv [ahb_master_driver] Beat[3/8] addr=0x00004019 trans=AHB_TRANS_SEQ resp=AHB_RESP_OKAY wdata=0x488fe520
# UVM_INFO ../src/slv/ahb_slave_driver.sv(184) @ 195000: uvm_test_top.env.slave_agent.drv [ahb_slave_driver] Beat AHB_WRITE addr=0x00004019 resp=AHB_RESP_OKAY waits=1 wdata=0x488fe520
# UVM_INFO ../src/mst/ahb_master_monitor.sv(117) @ 195000: uvm_test_top.env.master_agent.mon [ahb_master_monitor] Beat[3] addr=0x00004019 wdata=0x488fe520 resp=AHB_RESP_OKAY
# UVM_INFO ../src/mst/ahb_master_driver.sv(317) @ 205000: uvm_test_top.env.master_agent.drv [ahb_master_driver] Beat[4/8] addr=0x0000401a trans=AHB_TRANS_SEQ resp=AHB_RESP_OKAY wdata=0x4f50ff34
# UVM_INFO ../src/slv/ahb_slave_driver.sv(184) @ 205000: uvm_test_top.env.slave_agent.drv [ahb_slave_driver] Beat AHB_WRITE addr=0x0000401a resp=AHB_RESP_OKAY waits=0 wdata=0x4f50ff34
# UVM_INFO ../src/mst/ahb_master_monitor.sv(117) @ 205000: uvm_test_top.env.master_agent.mon [ahb_master_monitor] Beat[4] addr=0x0000401a wdata=0x4f50ff34 resp=AHB_RESP_OKAY
# UVM_INFO ../src/mst/ahb_master_driver.sv(317) @ 235000: uvm_test_top.env.master_agent.drv [ahb_master_driver] Beat[5/8] addr=0x0000401b trans=AHB_TRANS_SEQ resp=AHB_RESP_OKAY wdata=0x7ab671fc
# UVM_INFO ../src/slv/ahb_slave_driver.sv(184) @ 235000: uvm_test_top.env.slave_agent.drv [ahb_slave_driver] Beat AHB_WRITE addr=0x0000401b resp=AHB_RESP_OKAY waits=2 wdata=0x7ab671fc
# UVM_INFO ../src/mst/ahb_master_monitor.sv(117) @ 235000: uvm_test_top.env.master_agent.mon [ahb_master_monitor] Beat[5] addr=0x0000401b wdata=0x7ab671fc resp=AHB_RESP_OKAY
# UVM_INFO ../src/mst/ahb_master_driver.sv(317) @ 245000: uvm_test_top.env.master_agent.drv [ahb_master_driver] Beat[6/8] addr=0x0000401c trans=AHB_TRANS_SEQ resp=AHB_RESP_OKAY wdata=0x082cda1d
# UVM_INFO ../src/slv/ahb_slave_driver.sv(184) @ 245000: uvm_test_top.env.slave_agent.drv [ahb_slave_driver] Beat AHB_WRITE addr=0x0000401c resp=AHB_RESP_OKAY waits=0 wdata=0x082cda1d
# UVM_INFO ../src/mst/ahb_master_monitor.sv(117) @ 245000: uvm_test_top.env.master_agent.mon [ahb_master_monitor] Beat[6] addr=0x0000401c wdata=0x082cda1d resp=AHB_RESP_OKAY
# UVM_INFO ../src/mst/ahb_master_driver.sv(317) @ 255000: uvm_test_top.env.master_agent.drv [ahb_master_driver] Beat[7/8] addr=0x0000401d trans=AHB_TRANS_SEQ resp=AHB_RESP_OKAY wdata=0xeac08ee6
# UVM_INFO ../src/mst/ahb_master_driver.sv(362) @ 255000: uvm_test_top.env.master_agent.drv [ahb_master_driver] Transaction complete: AHB_WRITE 0x0000401e, 8 beats, burst=AHB_BURST_WRAP8
# UVM_INFO ../src/slv/ahb_slave_driver.sv(184) @ 255000: uvm_test_top.env.slave_agent.drv [ahb_slave_driver] Beat AHB_WRITE addr=0x0000401d resp=AHB_RESP_OKAY waits=0 wdata=0xeac08ee6
# UVM_INFO ../src/slv/ahb_slave_monitor.sv(197) @ 255000: uvm_test_top.env.slave_agent.mon [ahb_slave_monitor] Observed [AHB_WRITE]: HADDR=0x0000401e, HBURST=AHB_BURST_WRAP8, HSIZE=AHB_SIZE_8B, 8 beats
# UVM_INFO ../src/env/ahb_coverage.sv(127) @ 255000: uvm_test_top.env.slave_cov [ahb_coverage] Sampled [AHB_WRITE]: burst=AHB_BURST_WRAP8 size=AHB_SIZE_8B beats=8 error=0
# UVM_INFO ../src/mst/ahb_master_monitor.sv(117) @ 255000: uvm_test_top.env.master_agent.mon [ahb_master_monitor] Beat[7] addr=0x0000401d wdata=0xeac08ee6 resp=AHB_RESP_OKAY
# UVM_INFO ../src/mst/ahb_master_monitor.sv(222) @ 255000: uvm_test_top.env.master_agent.mon [ahb_master_monitor] Observed [AHB_WRITE]: HADDR=0x0000401e, HBURST=AHB_BURST_WRAP8, HSIZE=AHB_SIZE_8B, 8 beats
# UVM_INFO ../src/env/ahb_coverage.sv(127) @ 255000: uvm_test_top.env.master_cov [ahb_coverage] Sampled [AHB_WRITE]: burst=AHB_BURST_WRAP8 size=AHB_SIZE_8B beats=8 error=0
# UVM_INFO ../src/env/ahb_scoreboard.sv(104) @ 255000: uvm_test_top.env.scb [ahb_scoreboard] MATCH #1: [AHB_WRITE] HADDR=0x0000401e AHB_BURST_WRAP8 8 beats
# UVM_INFO ../src/mst/ahb_master_driver.sv(82) @ 255000: uvm_test_top.env.master_agent.drv [ahb_master_driver] Queueing [AHB_READ]: HADDR=0x0000401e, HBURST=AHB_BURST_WRAP8, HSIZE=AHB_SIZE_8B, 8 beats
# UVM_INFO ../src/mst/ahb_master_driver.sv(124) @ 255000: uvm_test_top.env.master_agent.drv [ahb_master_driver] Driving [AHB_READ]: HADDR=0x0000401e, HBURST=AHB_BURST_WRAP8, HSIZE=AHB_SIZE_8B, 8 beats               
# UVM_INFO ../src/mst/ahb_master_driver.sv(317) @ 305000: uvm_test_top.env.master_agent.drv [ahb_master_driver] Beat[0/8] addr=0x0000401e trans=AHB_TRANS_NONSEQ resp=AHB_RESP_OKAY rdata=0x47086e4f
# UVM_INFO ../src/slv/ahb_slave_driver.sv(184) @ 305000: uvm_test_top.env.slave_agent.drv [ahb_slave_driver] Beat AHB_READ addr=0x0000401e resp=AHB_RESP_OKAY waits=2 rdata=0x47086e4f
# UVM_INFO ../src/mst/ahb_master_monitor.sv(117) @ 305000: uvm_test_top.env.master_agent.mon [ahb_master_monitor] Beat[0] addr=0x0000401e rdata=0x47086e4f resp=AHB_RESP_OKAY
# UVM_INFO ../src/mst/ahb_master_driver.sv(317) @ 325000: uvm_test_top.env.master_agent.drv [ahb_master_driver] Beat[1/8] addr=0x0000401f trans=AHB_TRANS_SEQ resp=AHB_RESP_OKAY rdata=0xde314120
# UVM_INFO ../src/slv/ahb_slave_driver.sv(184) @ 325000: uvm_test_top.env.slave_agent.drv [ahb_slave_driver] Beat AHB_READ addr=0x0000401f resp=AHB_RESP_OKAY waits=1 rdata=0xde314120
# UVM_INFO ../src/mst/ahb_master_monitor.sv(117) @ 325000: uvm_test_top.env.master_agent.mon [ahb_master_monitor] Beat[1] addr=0x0000401f rdata=0xde314120 resp=AHB_RESP_OKAY
# UVM_INFO ../src/mst/ahb_master_driver.sv(317) @ 335000: uvm_test_top.env.master_agent.drv [ahb_master_driver] Beat[2/8] addr=0x00004018 trans=AHB_TRANS_SEQ resp=AHB_RESP_OKAY rdata=0x135aa1aa
# UVM_INFO ../src/slv/ahb_slave_driver.sv(184) @ 335000: uvm_test_top.env.slave_agent.drv [ahb_slave_driver] Beat AHB_READ addr=0x00004018 resp=AHB_RESP_OKAY waits=0 rdata=0x135aa1aa
# UVM_INFO ../src/mst/ahb_master_monitor.sv(117) @ 335000: uvm_test_top.env.master_agent.mon [ahb_master_monitor] Beat[2] addr=0x00004018 rdata=0x135aa1aa resp=AHB_RESP_OKAY
# UVM_INFO ../src/mst/ahb_master_driver.sv(317) @ 345000: uvm_test_top.env.master_agent.drv [ahb_master_driver] Beat[3/8] addr=0x00004019 trans=AHB_TRANS_SEQ resp=AHB_RESP_OKAY rdata=0x488fe520
# UVM_INFO ../src/slv/ahb_slave_driver.sv(184) @ 345000: uvm_test_top.env.slave_agent.drv [ahb_slave_driver] Beat AHB_READ addr=0x00004019 resp=AHB_RESP_OKAY waits=0 rdata=0x488fe520
# UVM_INFO ../src/mst/ahb_master_monitor.sv(117) @ 345000: uvm_test_top.env.master_agent.mon [ahb_master_monitor] Beat[3] addr=0x00004019 rdata=0x488fe520 resp=AHB_RESP_OKAY
# UVM_INFO ../src/mst/ahb_master_driver.sv(317) @ 355000: uvm_test_top.env.master_agent.drv [ahb_master_driver] Beat[4/8] addr=0x0000401a trans=AHB_TRANS_SEQ resp=AHB_RESP_OKAY rdata=0x4f50ff34
# UVM_INFO ../src/slv/ahb_slave_driver.sv(184) @ 355000: uvm_test_top.env.slave_agent.drv [ahb_slave_driver] Beat AHB_READ addr=0x0000401a resp=AHB_RESP_OKAY waits=0 rdata=0x4f50ff34
# UVM_INFO ../src/mst/ahb_master_monitor.sv(117) @ 355000: uvm_test_top.env.master_agent.mon [ahb_master_monitor] Beat[4] addr=0x0000401a rdata=0x4f50ff34 resp=AHB_RESP_OKAY
# UVM_INFO ../src/mst/ahb_master_driver.sv(317) @ 385000: uvm_test_top.env.master_agent.drv [ahb_master_driver] Beat[5/8] addr=0x0000401b trans=AHB_TRANS_SEQ resp=AHB_RESP_OKAY rdata=0x7ab671fc
# UVM_INFO ../src/slv/ahb_slave_driver.sv(184) @ 385000: uvm_test_top.env.slave_agent.drv [ahb_slave_driver] Beat AHB_READ addr=0x0000401b resp=AHB_RESP_OKAY waits=2 rdata=0x7ab671fc
# UVM_INFO ../src/mst/ahb_master_monitor.sv(117) @ 385000: uvm_test_top.env.master_agent.mon [ahb_master_monitor] Beat[5] addr=0x0000401b rdata=0x7ab671fc resp=AHB_RESP_OKAY
# UVM_INFO ../src/mst/ahb_master_driver.sv(317) @ 405000: uvm_test_top.env.master_agent.drv [ahb_master_driver] Beat[6/8] addr=0x0000401c trans=AHB_TRANS_SEQ resp=AHB_RESP_OKAY rdata=0x082cda1d
# UVM_INFO ../src/slv/ahb_slave_driver.sv(184) @ 405000: uvm_test_top.env.slave_agent.drv [ahb_slave_driver] Beat AHB_READ addr=0x0000401c resp=AHB_RESP_OKAY waits=1 rdata=0x082cda1d
# UVM_INFO ../src/mst/ahb_master_monitor.sv(117) @ 405000: uvm_test_top.env.master_agent.mon [ahb_master_monitor] Beat[6] addr=0x0000401c rdata=0x082cda1d resp=AHB_RESP_OKAY
# UVM_INFO ../src/mst/ahb_master_driver.sv(317) @ 435000: uvm_test_top.env.master_agent.drv [ahb_master_driver] Beat[7/8] addr=0x0000401d trans=AHB_TRANS_SEQ resp=AHB_RESP_OKAY rdata=0xeac08ee6
# UVM_INFO ../src/mst/ahb_master_driver.sv(362) @ 435000: uvm_test_top.env.master_agent.drv [ahb_master_driver] Transaction complete: AHB_READ 0x0000401e, 8 beats, burst=AHB_BURST_WRAP8
# UVM_INFO ../src/slv/ahb_slave_driver.sv(184) @ 435000: uvm_test_top.env.slave_agent.drv [ahb_slave_driver] Beat AHB_READ addr=0x0000401d resp=AHB_RESP_OKAY waits=2 rdata=0xeac08ee6
# UVM_INFO ../src/slv/ahb_slave_monitor.sv(197) @ 435000: uvm_test_top.env.slave_agent.mon [ahb_slave_monitor] Observed [AHB_READ]: HADDR=0x0000401e, HBURST=AHB_BURST_WRAP8, HSIZE=AHB_SIZE_8B, 8 beats
# UVM_INFO ../src/env/ahb_coverage.sv(127) @ 435000: uvm_test_top.env.slave_cov [ahb_coverage] Sampled [AHB_READ]: burst=AHB_BURST_WRAP8 size=AHB_SIZE_8B beats=8 error=0
# UVM_INFO ../src/mst/ahb_master_monitor.sv(117) @ 435000: uvm_test_top.env.master_agent.mon [ahb_master_monitor] Beat[7] addr=0x0000401d rdata=0xeac08ee6 resp=AHB_RESP_OKAY
# UVM_INFO ../src/mst/ahb_master_monitor.sv(222) @ 435000: uvm_test_top.env.master_agent.mon [ahb_master_monitor] Observed [AHB_READ]: HADDR=0x0000401e, HBURST=AHB_BURST_WRAP8, HSIZE=AHB_SIZE_8B, 8 beats
# UVM_INFO ../src/env/ahb_coverage.sv(127) @ 435000: uvm_test_top.env.master_cov [ahb_coverage] Sampled [AHB_READ]: burst=AHB_BURST_WRAP8 size=AHB_SIZE_8B beats=8 error=0
# UVM_INFO ../src/env/ahb_scoreboard.sv(104) @ 435000: uvm_test_top.env.scb [ahb_scoreboard] MATCH #2: [AHB_READ] HADDR=0x0000401e AHB_BURST_WRAP8 8 beats
# UVM_INFO ../src/mst_seq/ahb_base_seq.sv(164) @ 435000: uvm_test_top.env.master_agent.sqr@@seq [ahb_wrap_burst_seq] AHB_BURST_WRAP8 AHB_SIZE_8B beat 0 @0x0000401e ok
# UVM_INFO ../src/mst_seq/ahb_base_seq.sv(164) @ 435000: uvm_test_top.env.master_agent.sqr@@seq [ahb_wrap_burst_seq] AHB_BURST_WRAP8 AHB_SIZE_8B beat 1 @0x0000401f ok
# UVM_INFO ../src/mst_seq/ahb_base_seq.sv(164) @ 435000: uvm_test_top.env.master_agent.sqr@@seq [ahb_wrap_burst_seq] AHB_BURST_WRAP8 AHB_SIZE_8B beat 2 @0x00004018 ok
# UVM_INFO ../src/mst_seq/ahb_base_seq.sv(164) @ 435000: uvm_test_top.env.master_agent.sqr@@seq [ahb_wrap_burst_seq] AHB_BURST_WRAP8 AHB_SIZE_8B beat 3 @0x00004019 ok
# UVM_INFO ../src/mst_seq/ahb_base_seq.sv(164) @ 435000: uvm_test_top.env.master_agent.sqr@@seq [ahb_wrap_burst_seq] AHB_BURST_WRAP8 AHB_SIZE_8B beat 4 @0x0000401a ok
# UVM_INFO ../src/mst_seq/ahb_base_seq.sv(164) @ 435000: uvm_test_top.env.master_agent.sqr@@seq [ahb_wrap_burst_seq] AHB_BURST_WRAP8 AHB_SIZE_8B beat 5 @0x0000401b ok
# UVM_INFO ../src/mst_seq/ahb_base_seq.sv(164) @ 435000: uvm_test_top.env.master_agent.sqr@@seq [ahb_wrap_burst_seq] AHB_BURST_WRAP8 AHB_SIZE_8B beat 6 @0x0000401c ok
# UVM_INFO ../src/mst_seq/ahb_base_seq.sv(164) @ 435000: uvm_test_top.env.master_agent.sqr@@seq [ahb_wrap_burst_seq] AHB_BURST_WRAP8 AHB_SIZE_8B beat 7 @0x0000401d ok
# UVM_INFO ../src/mst/ahb_master_driver.sv(82) @ 435000: uvm_test_top.env.master_agent.drv [ahb_master_driver] Queueing [AHB_WRITE]: HADDR=0x00004040, HBURST=AHB_BURST_WRAP4, HSIZE=AHB_SIZE_16B, 4 beats
# UVM_INFO ../src/mst/ahb_master_driver.sv(124) @ 435000: uvm_test_top.env.master_agent.drv [ahb_master_driver] Driving [AHB_WRITE]: HADDR=0x00004040, HBURST=AHB_BURST_WRAP4, HSIZE=AHB_SIZE_16B, 4 beats               
# UVM_INFO ../src/mst/ahb_master_driver.sv(317) @ 475000: uvm_test_top.env.master_agent.drv [ahb_master_driver] Beat[0/4] addr=0x00004040 trans=AHB_TRANS_NONSEQ resp=AHB_RESP_OKAY wdata=0x8d236a1a
# UVM_INFO ../src/slv/ahb_slave_driver.sv(184) @ 475000: uvm_test_top.env.slave_agent.drv [ahb_slave_driver] Beat AHB_WRITE addr=0x00004040 resp=AHB_RESP_OKAY waits=1 wdata=0x8d236a1a
# UVM_INFO ../src/mst/ahb_master_monitor.sv(117) @ 475000: uvm_test_top.env.master_agent.mon [ahb_master_monitor] Beat[0] addr=0x00004040 wdata=0x8d236a1a resp=AHB_RESP_OKAY
# UVM_INFO ../src/mst/ahb_master_driver.sv(317) @ 485000: uvm_test_top.env.master_agent.drv [ahb_master_driver] Beat[1/4] addr=0x00004042 trans=AHB_TRANS_SEQ resp=AHB_RESP_OKAY wdata=0x810aba0a
# UVM_INFO ../src/slv/ahb_slave_driver.sv(184) @ 485000: uvm_test_top.env.slave_agent.drv [ahb_slave_driver] Beat AHB_WRITE addr=0x00004042 resp=AHB_RESP_OKAY waits=0 wdata=0x810aba0a
# UVM_INFO ../src/mst/ahb_master_monitor.sv(117) @ 485000: uvm_test_top.env.master_agent.mon [ahb_master_monitor] Beat[1] addr=0x00004042 wdata=0x810aba0a resp=AHB_RESP_OKAY
# UVM_INFO ../src/mst/ahb_master_driver.sv(317) @ 495000: uvm_test_top.env.master_agent.drv [ahb_master_driver] Beat[2/4] addr=0x00004044 trans=AHB_TRANS_SEQ resp=AHB_RESP_OKAY wdata=0x9750064a
# UVM_INFO ../src/slv/ahb_slave_driver.sv(184) @ 495000: uvm_test_top.env.slave_agent.drv [ahb_slave_driver] Beat AHB_WRITE addr=0x00004044 resp=AHB_RESP_OKAY waits=0 wdata=0x9750064a
# UVM_INFO ../src/mst/ahb_master_monitor.sv(117) @ 495000: uvm_test_top.env.master_agent.mon [ahb_master_monitor] Beat[2] addr=0x00004044 wdata=0x9750064a resp=AHB_RESP_OKAY
# UVM_INFO ../src/mst/ahb_master_driver.sv(317) @ 525000: uvm_test_top.env.master_agent.drv [ahb_master_driver] Beat[3/4] addr=0x00004046 trans=AHB_TRANS_SEQ resp=AHB_RESP_OKAY wdata=0x50a3260b
# UVM_INFO ../src/mst/ahb_master_driver.sv(362) @ 525000: uvm_test_top.env.master_agent.drv [ahb_master_driver] Transaction complete: AHB_WRITE 0x00004040, 4 beats, burst=AHB_BURST_WRAP4
# UVM_INFO ../src/slv/ahb_slave_driver.sv(184) @ 525000: uvm_test_top.env.slave_agent.drv [ahb_slave_driver] Beat AHB_WRITE addr=0x00004046 resp=AHB_RESP_OKAY waits=2 wdata=0x50a3260b
# UVM_INFO ../src/mst/ahb_master_monitor.sv(117) @ 525000: uvm_test_top.env.master_agent.mon [ahb_master_monitor] Beat[3] addr=0x00004046 wdata=0x50a3260b resp=AHB_RESP_OKAY
# UVM_INFO ../src/mst/ahb_master_monitor.sv(222) @ 525000: uvm_test_top.env.master_agent.mon [ahb_master_monitor] Observed [AHB_WRITE]: HADDR=0x00004040, HBURST=AHB_BURST_WRAP4, HSIZE=AHB_SIZE_16B, 4 beats
# UVM_INFO ../src/env/ahb_coverage.sv(127) @ 525000: uvm_test_top.env.master_cov [ahb_coverage] Sampled [AHB_WRITE]: burst=AHB_BURST_WRAP4 size=AHB_SIZE_16B beats=4 error=0
# UVM_INFO ../src/slv/ahb_slave_monitor.sv(197) @ 525000: uvm_test_top.env.slave_agent.mon [ahb_slave_monitor] Observed [AHB_WRITE]: HADDR=0x00004040, HBURST=AHB_BURST_WRAP4, HSIZE=AHB_SIZE_16B, 4 beats
# UVM_INFO ../src/env/ahb_scoreboard.sv(104) @ 525000: uvm_test_top.env.scb [ahb_scoreboard] MATCH #3: [AHB_WRITE] HADDR=0x00004040 AHB_BURST_WRAP4 4 beats
# UVM_INFO ../src/env/ahb_coverage.sv(127) @ 525000: uvm_test_top.env.slave_cov [ahb_coverage] Sampled [AHB_WRITE]: burst=AHB_BURST_WRAP4 size=AHB_SIZE_16B beats=4 error=0
# UVM_INFO ../src/mst/ahb_master_driver.sv(82) @ 525000: uvm_test_top.env.master_agent.drv [ahb_master_driver] Queueing [AHB_READ]: HADDR=0x00004040, HBURST=AHB_BURST_WRAP4, HSIZE=AHB_SIZE_16B, 4 beats
# UVM_INFO ../src/mst/ahb_master_driver.sv(124) @ 525000: uvm_test_top.env.master_agent.drv [ahb_master_driver] Driving [AHB_READ]: HADDR=0x00004040, HBURST=AHB_BURST_WRAP4, HSIZE=AHB_SIZE_16B, 4 beats               
# UVM_INFO ../src/mst/ahb_master_driver.sv(317) @ 565000: uvm_test_top.env.master_agent.drv [ahb_master_driver] Beat[0/4] addr=0x00004040 trans=AHB_TRANS_NONSEQ resp=AHB_RESP_OKAY rdata=0x8d236a1a
# UVM_INFO ../src/slv/ahb_slave_driver.sv(184) @ 565000: uvm_test_top.env.slave_agent.drv [ahb_slave_driver] Beat AHB_READ addr=0x00004040 resp=AHB_RESP_OKAY waits=1 rdata=0x8d236a1a
# UVM_INFO ../src/mst/ahb_master_monitor.sv(117) @ 565000: uvm_test_top.env.master_agent.mon [ahb_master_monitor] Beat[0] addr=0x00004040 rdata=0x8d236a1a resp=AHB_RESP_OKAY
# UVM_INFO ../src/mst/ahb_master_driver.sv(317) @ 585000: uvm_test_top.env.master_agent.drv [ahb_master_driver] Beat[1/4] addr=0x00004042 trans=AHB_TRANS_SEQ resp=AHB_RESP_OKAY rdata=0x810aba0a
# UVM_INFO ../src/slv/ahb_slave_driver.sv(184) @ 585000: uvm_test_top.env.slave_agent.drv [ahb_slave_driver] Beat AHB_READ addr=0x00004042 resp=AHB_RESP_OKAY waits=1 rdata=0x810aba0a
# UVM_INFO ../src/mst/ahb_master_monitor.sv(117) @ 585000: uvm_test_top.env.master_agent.mon [ahb_master_monitor] Beat[1] addr=0x00004042 rdata=0x810aba0a resp=AHB_RESP_OKAY
# UVM_INFO ../src/mst/ahb_master_driver.sv(317) @ 605000: uvm_test_top.env.master_agent.drv [ahb_master_driver] Beat[2/4] addr=0x00004044 trans=AHB_TRANS_SEQ resp=AHB_RESP_OKAY rdata=0x9750064a
# UVM_INFO ../src/slv/ahb_slave_driver.sv(184) @ 605000: uvm_test_top.env.slave_agent.drv [ahb_slave_driver] Beat AHB_READ addr=0x00004044 resp=AHB_RESP_OKAY waits=1 rdata=0x9750064a
# UVM_INFO ../src/mst/ahb_master_monitor.sv(117) @ 605000: uvm_test_top.env.master_agent.mon [ahb_master_monitor] Beat[2] addr=0x00004044 rdata=0x9750064a resp=AHB_RESP_OKAY
# UVM_INFO ../src/mst/ahb_master_driver.sv(317) @ 615000: uvm_test_top.env.master_agent.drv [ahb_master_driver] Beat[3/4] addr=0x00004046 trans=AHB_TRANS_SEQ resp=AHB_RESP_OKAY rdata=0x50a3260b
# UVM_INFO ../src/mst/ahb_master_driver.sv(362) @ 615000: uvm_test_top.env.master_agent.drv [ahb_master_driver] Transaction complete: AHB_READ 0x00004040, 4 beats, burst=AHB_BURST_WRAP4
# UVM_INFO ../src/slv/ahb_slave_driver.sv(184) @ 615000: uvm_test_top.env.slave_agent.drv [ahb_slave_driver] Beat AHB_READ addr=0x00004046 resp=AHB_RESP_OKAY waits=0 rdata=0x50a3260b
# UVM_INFO ../src/slv/ahb_slave_monitor.sv(197) @ 615000: uvm_test_top.env.slave_agent.mon [ahb_slave_monitor] Observed [AHB_READ]: HADDR=0x00004040, HBURST=AHB_BURST_WRAP4, HSIZE=AHB_SIZE_16B, 4 beats
# UVM_INFO ../src/env/ahb_coverage.sv(127) @ 615000: uvm_test_top.env.slave_cov [ahb_coverage] Sampled [AHB_READ]: burst=AHB_BURST_WRAP4 size=AHB_SIZE_16B beats=4 error=0
# UVM_INFO ../src/mst/ahb_master_monitor.sv(117) @ 615000: uvm_test_top.env.master_agent.mon [ahb_master_monitor] Beat[3] addr=0x00004046 rdata=0x50a3260b resp=AHB_RESP_OKAY
# UVM_INFO ../src/mst/ahb_master_monitor.sv(222) @ 615000: uvm_test_top.env.master_agent.mon [ahb_master_monitor] Observed [AHB_READ]: HADDR=0x00004040, HBURST=AHB_BURST_WRAP4, HSIZE=AHB_SIZE_16B, 4 beats
# UVM_INFO ../src/env/ahb_coverage.sv(127) @ 615000: uvm_test_top.env.master_cov [ahb_coverage] Sampled [AHB_READ]: burst=AHB_BURST_WRAP4 size=AHB_SIZE_16B beats=4 error=0
# UVM_INFO ../src/env/ahb_scoreboard.sv(104) @ 615000: uvm_test_top.env.scb [ahb_scoreboard] MATCH #4: [AHB_READ] HADDR=0x00004040 AHB_BURST_WRAP4 4 beats
# UVM_INFO ../src/mst_seq/ahb_base_seq.sv(164) @ 615000: uvm_test_top.env.master_agent.sqr@@seq [ahb_wrap_burst_seq] AHB_BURST_WRAP4 AHB_SIZE_16B beat 0 @0x00004040 ok
# UVM_INFO ../src/mst_seq/ahb_base_seq.sv(164) @ 615000: uvm_test_top.env.master_agent.sqr@@seq [ahb_wrap_burst_seq] AHB_BURST_WRAP4 AHB_SIZE_16B beat 1 @0x00004042 ok
# UVM_INFO ../src/mst_seq/ahb_base_seq.sv(164) @ 615000: uvm_test_top.env.master_agent.sqr@@seq [ahb_wrap_burst_seq] AHB_BURST_WRAP4 AHB_SIZE_16B beat 2 @0x00004044 ok
# UVM_INFO ../src/mst_seq/ahb_base_seq.sv(164) @ 615000: uvm_test_top.env.master_agent.sqr@@seq [ahb_wrap_burst_seq] AHB_BURST_WRAP4 AHB_SIZE_16B beat 3 @0x00004046 ok
# UVM_INFO ../src/mst/ahb_master_driver.sv(82) @ 615000: uvm_test_top.env.master_agent.drv [ahb_master_driver] Queueing [AHB_WRITE]: HADDR=0x000040be, HBURST=AHB_BURST_WRAP16, HSIZE=AHB_SIZE_16B, 16 beats
# UVM_INFO ../src/mst/ahb_master_driver.sv(124) @ 615000: uvm_test_top.env.master_agent.drv [ahb_master_driver] Driving [AHB_WRITE]: HADDR=0x000040be, HBURST=AHB_BURST_WRAP16, HSIZE=AHB_SIZE_16B, 16 beats               
# UVM_INFO ../src/mst/ahb_master_driver.sv(317) @ 665000: uvm_test_top.env.master_agent.drv [ahb_master_driver] Beat[0/16] addr=0x000040be trans=AHB_TRANS_NONSEQ resp=AHB_RESP_OKAY wdata=0xe5358b78
# UVM_INFO ../src/slv/ahb_slave_driver.sv(184) @ 665000: uvm_test_top.env.slave_agent.drv [ahb_slave_driver] Beat AHB_WRITE addr=0x000040be resp=AHB_RESP_OKAY waits=2 wdata=0xe5358b78
# UVM_INFO ../src/mst/ahb_master_monitor.sv(117) @ 665000: uvm_test_top.env.master_agent.mon [ahb_master_monitor] Beat[0] addr=0x000040be wdata=0xe5358b78 resp=AHB_RESP_OKAY
# UVM_INFO ../src/mst/ahb_master_driver.sv(317) @ 685000: uvm_test_top.env.master_agent.drv [ahb_master_driver] Beat[1/16] addr=0x000040a0 trans=AHB_TRANS_SEQ resp=AHB_RESP_OKAY wdata=0x7d3635d4
# UVM_INFO ../src/slv/ahb_slave_driver.sv(184) @ 685000: uvm_test_top.env.slave_agent.drv [ahb_slave_driver] Beat AHB_WRITE addr=0x000040a0 resp=AHB_RESP_OKAY waits=1 wdata=0x7d3635d4
# UVM_INFO ../src/mst/ahb_master_monitor.sv(117) @ 685000: uvm_test_top.env.master_agent.mon [ahb_master_monitor] Beat[1] addr=0x000040a0 wdata=0x7d3635d4 resp=AHB_RESP_OKAY
# UVM_INFO ../src/mst/ahb_master_driver.sv(317) @ 705000: uvm_test_top.env.master_agent.drv [ahb_master_driver] Beat[2/16] addr=0x000040a2 trans=AHB_TRANS_SEQ resp=AHB_RESP_OKAY wdata=0x1978559c
# UVM_INFO ../src/slv/ahb_slave_driver.sv(184) @ 705000: uvm_test_top.env.slave_agent.drv [ahb_slave_driver] Beat AHB_WRITE addr=0x000040a2 resp=AHB_RESP_OKAY waits=1 wdata=0x1978559c
# UVM_INFO ../src/mst/ahb_master_monitor.sv(117) @ 705000: uvm_test_top.env.master_agent.mon [ahb_master_monitor] Beat[2] addr=0x000040a2 wdata=0x1978559c resp=AHB_RESP_OKAY
# UVM_INFO ../src/mst/ahb_master_driver.sv(317) @ 725000: uvm_test_top.env.master_agent.drv [ahb_master_driver] Beat[3/16] addr=0x000040a4 trans=AHB_TRANS_SEQ resp=AHB_RESP_OKAY wdata=0x6d3b4b7f
# UVM_INFO ../src/slv/ahb_slave_driver.sv(184) @ 725000: uvm_test_top.env.slave_agent.drv [ahb_slave_driver] Beat AHB_WRITE addr=0x000040a4 resp=AHB_RESP_OKAY waits=1 wdata=0x6d3b4b7f
# UVM_INFO ../src/mst/ahb_master_monitor.sv(117) @ 725000: uvm_test_top.env.master_agent.mon [ahb_master_monitor] Beat[3] addr=0x000040a4 wdata=0x6d3b4b7f resp=AHB_RESP_OKAY
# UVM_INFO ../src/mst/ahb_master_driver.sv(317) @ 735000: uvm_test_top.env.master_agent.drv [ahb_master_driver] Beat[4/16] addr=0x000040a6 trans=AHB_TRANS_SEQ resp=AHB_RESP_OKAY wdata=0x0c595868
# UVM_INFO ../src/slv/ahb_slave_driver.sv(184) @ 735000: uvm_test_top.env.slave_agent.drv [ahb_slave_driver] Beat AHB_WRITE addr=0x000040a6 resp=AHB_RESP_OKAY waits=0 wdata=0x0c595868
# UVM_INFO ../src/mst/ahb_master_monitor.sv(117) @ 735000: uvm_test_top.env.master_agent.mon [ahb_master_monitor] Beat[4] addr=0x000040a6 wdata=0x0c595868 resp=AHB_RESP_OKAY
# UVM_INFO ../src/mst/ahb_master_driver.sv(317) @ 765000: uvm_test_top.env.master_agent.drv [ahb_master_driver] Beat[5/16] addr=0x000040a8 trans=AHB_TRANS_SEQ resp=AHB_RESP_OKAY wdata=0x90927178
# UVM_INFO ../src/slv/ahb_slave_driver.sv(184) @ 765000: uvm_test_top.env.slave_agent.drv [ahb_slave_driver] Beat AHB_WRITE addr=0x000040a8 resp=AHB_RESP_OKAY waits=2 wdata=0x90927178
# UVM_INFO ../src/mst/ahb_master_monitor.sv(117) @ 765000: uvm_test_top.env.master_agent.mon [ahb_master_monitor] Beat[5] addr=0x000040a8 wdata=0x90927178 resp=AHB_RESP_OKAY
# UVM_INFO ../src/mst/ahb_master_driver.sv(317) @ 775000: uvm_test_top.env.master_agent.drv [ahb_master_driver] Beat[6/16] addr=0x000040aa trans=AHB_TRANS_SEQ resp=AHB_RESP_OKAY wdata=0xa7266f41
# UVM_INFO ../src/slv/ahb_slave_driver.sv(184) @ 775000: uvm_test_top.env.slave_agent.drv [ahb_slave_driver] Beat AHB_WRITE addr=0x000040aa resp=AHB_RESP_OKAY waits=0 wdata=0xa7266f41
# UVM_INFO ../src/mst/ahb_master_monitor.sv(117) @ 775000: uvm_test_top.env.master_agent.mon [ahb_master_monitor] Beat[6] addr=0x000040aa wdata=0xa7266f41 resp=AHB_RESP_OKAY
# UVM_INFO ../src/mst/ahb_master_driver.sv(317) @ 795000: uvm_test_top.env.master_agent.drv [ahb_master_driver] Beat[7/16] addr=0x000040ac trans=AHB_TRANS_SEQ resp=AHB_RESP_OKAY wdata=0x5f1a7760
# UVM_INFO ../src/slv/ahb_slave_driver.sv(184) @ 795000: uvm_test_top.env.slave_agent.drv [ahb_slave_driver] Beat AHB_WRITE addr=0x000040ac resp=AHB_RESP_OKAY waits=1 wdata=0x5f1a7760
# UVM_INFO ../src/mst/ahb_master_monitor.sv(117) @ 795000: uvm_test_top.env.master_agent.mon [ahb_master_monitor] Beat[7] addr=0x000040ac wdata=0x5f1a7760 resp=AHB_RESP_OKAY
# UVM_INFO ../src/mst/ahb_master_driver.sv(317) @ 825000: uvm_test_top.env.master_agent.drv [ahb_master_driver] Beat[8/16] addr=0x000040ae trans=AHB_TRANS_SEQ resp=AHB_RESP_OKAY wdata=0x3d7c133a
# UVM_INFO ../src/slv/ahb_slave_driver.sv(184) @ 825000: uvm_test_top.env.slave_agent.drv [ahb_slave_driver] Beat AHB_WRITE addr=0x000040ae resp=AHB_RESP_OKAY waits=2 wdata=0x3d7c133a
# UVM_INFO ../src/mst/ahb_master_monitor.sv(117) @ 825000: uvm_test_top.env.master_agent.mon [ahb_master_monitor] Beat[8] addr=0x000040ae wdata=0x3d7c133a resp=AHB_RESP_OKAY
# UVM_INFO ../src/mst/ahb_master_driver.sv(317) @ 835000: uvm_test_top.env.master_agent.drv [ahb_master_driver] Beat[9/16] addr=0x000040b0 trans=AHB_TRANS_SEQ resp=AHB_RESP_OKAY wdata=0x1f1bc134
# UVM_INFO ../src/slv/ahb_slave_driver.sv(184) @ 835000: uvm_test_top.env.slave_agent.drv [ahb_slave_driver] Beat AHB_WRITE addr=0x000040b0 resp=AHB_RESP_OKAY waits=0 wdata=0x1f1bc134
# UVM_INFO ../src/mst/ahb_master_monitor.sv(117) @ 835000: uvm_test_top.env.master_agent.mon [ahb_master_monitor] Beat[9] addr=0x000040b0 wdata=0x1f1bc134 resp=AHB_RESP_OKAY
# UVM_INFO ../src/mst/ahb_master_driver.sv(317) @ 855000: uvm_test_top.env.master_agent.drv [ahb_master_driver] Beat[10/16] addr=0x000040b2 trans=AHB_TRANS_SEQ resp=AHB_RESP_OKAY wdata=0xd33d2286
# UVM_INFO ../src/slv/ahb_slave_driver.sv(184) @ 855000: uvm_test_top.env.slave_agent.drv [ahb_slave_driver] Beat AHB_WRITE addr=0x000040b2 resp=AHB_RESP_OKAY waits=1 wdata=0xd33d2286
# UVM_INFO ../src/mst/ahb_master_monitor.sv(117) @ 855000: uvm_test_top.env.master_agent.mon [ahb_master_monitor] Beat[10] addr=0x000040b2 wdata=0xd33d2286 resp=AHB_RESP_OKAY
# UVM_INFO ../src/mst/ahb_master_driver.sv(317) @ 865000: uvm_test_top.env.master_agent.drv [ahb_master_driver] Beat[11/16] addr=0x000040b4 trans=AHB_TRANS_SEQ resp=AHB_RESP_OKAY wdata=0xcad69446
# UVM_INFO ../src/slv/ahb_slave_driver.sv(184) @ 865000: uvm_test_top.env.slave_agent.drv [ahb_slave_driver] Beat AHB_WRITE addr=0x000040b4 resp=AHB_RESP_OKAY waits=0 wdata=0xcad69446
# UVM_INFO ../src/mst/ahb_master_monitor.sv(117) @ 865000: uvm_test_top.env.master_agent.mon [ahb_master_monitor] Beat[11] addr=0x000040b4 wdata=0xcad69446 resp=AHB_RESP_OKAY
# UVM_INFO ../src/mst/ahb_master_driver.sv(317) @ 885000: uvm_test_top.env.master_agent.drv [ahb_master_driver] Beat[12/16] addr=0x000040b6 trans=AHB_TRANS_SEQ resp=AHB_RESP_OKAY wdata=0x5c4d8d78
# UVM_INFO ../src/slv/ahb_slave_driver.sv(184) @ 885000: uvm_test_top.env.slave_agent.drv [ahb_slave_driver] Beat AHB_WRITE addr=0x000040b6 resp=AHB_RESP_OKAY waits=1 wdata=0x5c4d8d78
# UVM_INFO ../src/mst/ahb_master_monitor.sv(117) @ 885000: uvm_test_top.env.master_agent.mon [ahb_master_monitor] Beat[12] addr=0x000040b6 wdata=0x5c4d8d78 resp=AHB_RESP_OKAY
# UVM_INFO ../src/mst/ahb_master_driver.sv(317) @ 905000: uvm_test_top.env.master_agent.drv [ahb_master_driver] Beat[13/16] addr=0x000040b8 trans=AHB_TRANS_SEQ resp=AHB_RESP_OKAY wdata=0x737ce0a2
# UVM_INFO ../src/slv/ahb_slave_driver.sv(184) @ 905000: uvm_test_top.env.slave_agent.drv [ahb_slave_driver] Beat AHB_WRITE addr=0x000040b8 resp=AHB_RESP_OKAY waits=1 wdata=0x737ce0a2
# UVM_INFO ../src/mst/ahb_master_monitor.sv(117) @ 905000: uvm_test_top.env.master_agent.mon [ahb_master_monitor] Beat[13] addr=0x000040b8 wdata=0x737ce0a2 resp=AHB_RESP_OKAY
# UVM_INFO ../src/mst/ahb_master_driver.sv(317) @ 925000: uvm_test_top.env.master_agent.drv [ahb_master_driver] Beat[14/16] addr=0x000040ba trans=AHB_TRANS_SEQ resp=AHB_RESP_OKAY wdata=0xaa7a8247
# UVM_INFO ../src/slv/ahb_slave_driver.sv(184) @ 925000: uvm_test_top.env.slave_agent.drv [ahb_slave_driver] Beat AHB_WRITE addr=0x000040ba resp=AHB_RESP_OKAY waits=1 wdata=0xaa7a8247
# UVM_INFO ../src/mst/ahb_master_monitor.sv(117) @ 925000: uvm_test_top.env.master_agent.mon [ahb_master_monitor] Beat[14] addr=0x000040ba wdata=0xaa7a8247 resp=AHB_RESP_OKAY
# UVM_INFO ../src/mst/ahb_master_driver.sv(317) @ 955000: uvm_test_top.env.master_agent.drv [ahb_master_driver] Beat[15/16] addr=0x000040bc trans=AHB_TRANS_SEQ resp=AHB_RESP_OKAY wdata=0x3e3115bb
# UVM_INFO ../src/mst/ahb_master_driver.sv(362) @ 955000: uvm_test_top.env.master_agent.drv [ahb_master_driver] Transaction complete: AHB_WRITE 0x000040be, 16 beats, burst=AHB_BURST_WRAP16
# UVM_INFO ../src/slv/ahb_slave_driver.sv(184) @ 955000: uvm_test_top.env.slave_agent.drv [ahb_slave_driver] Beat AHB_WRITE addr=0x000040bc resp=AHB_RESP_OKAY waits=2 wdata=0x3e3115bb
# UVM_INFO ../src/slv/ahb_slave_monitor.sv(197) @ 955000: uvm_test_top.env.slave_agent.mon [ahb_slave_monitor] Observed [AHB_WRITE]: HADDR=0x000040be, HBURST=AHB_BURST_WRAP16, HSIZE=AHB_SIZE_16B, 16 beats
# UVM_INFO ../src/env/ahb_coverage.sv(127) @ 955000: uvm_test_top.env.slave_cov [ahb_coverage] Sampled [AHB_WRITE]: burst=AHB_BURST_WRAP16 size=AHB_SIZE_16B beats=16 error=0
# UVM_INFO ../src/mst/ahb_master_monitor.sv(117) @ 955000: uvm_test_top.env.master_agent.mon [ahb_master_monitor] Beat[15] addr=0x000040bc wdata=0x3e3115bb resp=AHB_RESP_OKAY
# UVM_INFO ../src/mst/ahb_master_monitor.sv(222) @ 955000: uvm_test_top.env.master_agent.mon [ahb_master_monitor] Observed [AHB_WRITE]: HADDR=0x000040be, HBURST=AHB_BURST_WRAP16, HSIZE=AHB_SIZE_16B, 16 beats
# UVM_INFO ../src/env/ahb_coverage.sv(127) @ 955000: uvm_test_top.env.master_cov [ahb_coverage] Sampled [AHB_WRITE]: burst=AHB_BURST_WRAP16 size=AHB_SIZE_16B beats=16 error=0
# UVM_INFO ../src/env/ahb_scoreboard.sv(104) @ 955000: uvm_test_top.env.scb [ahb_scoreboard] MATCH #5: [AHB_WRITE] HADDR=0x000040be AHB_BURST_WRAP16 16 beats
# UVM_INFO ../src/mst/ahb_master_driver.sv(82) @ 955000: uvm_test_top.env.master_agent.drv [ahb_master_driver] Queueing [AHB_READ]: HADDR=0x000040be, HBURST=AHB_BURST_WRAP16, HSIZE=AHB_SIZE_16B, 16 beats
# UVM_INFO ../src/mst/ahb_master_driver.sv(124) @ 955000: uvm_test_top.env.master_agent.drv [ahb_master_driver] Driving [AHB_READ]: HADDR=0x000040be, HBURST=AHB_BURST_WRAP16, HSIZE=AHB_SIZE_16B, 16 beats               
# UVM_INFO ../src/mst/ahb_master_driver.sv(317) @ 985000: uvm_test_top.env.master_agent.drv [ahb_master_driver] Beat[0/16] addr=0x000040be trans=AHB_TRANS_NONSEQ resp=AHB_RESP_OKAY rdata=0xe5358b78
# UVM_INFO ../src/slv/ahb_slave_driver.sv(184) @ 985000: uvm_test_top.env.slave_agent.drv [ahb_slave_driver] Beat AHB_READ addr=0x000040be resp=AHB_RESP_OKAY waits=0 rdata=0xe5358b78
# UVM_INFO ../src/mst/ahb_master_monitor.sv(117) @ 985000: uvm_test_top.env.master_agent.mon [ahb_master_monitor] Beat[0] addr=0x000040be rdata=0xe5358b78 resp=AHB_RESP_OKAY
# UVM_INFO ../src/mst/ahb_master_driver.sv(317) @ 1005000: uvm_test_top.env.master_agent.drv [ahb_master_driver] Beat[1/16] addr=0x000040a0 trans=AHB_TRANS_SEQ resp=AHB_RESP_OKAY rdata=0x7d3635d4
# UVM_INFO ../src/slv/ahb_slave_driver.sv(184) @ 1005000: uvm_test_top.env.slave_agent.drv [ahb_slave_driver] Beat AHB_READ addr=0x000040a0 resp=AHB_RESP_OKAY waits=1 rdata=0x7d3635d4
# UVM_INFO ../src/mst/ahb_master_monitor.sv(117) @ 1005000: uvm_test_top.env.master_agent.mon [ahb_master_monitor] Beat[1] addr=0x000040a0 rdata=0x7d3635d4 resp=AHB_RESP_OKAY
# UVM_INFO ../src/mst/ahb_master_driver.sv(317) @ 1015000: uvm_test_top.env.master_agent.drv [ahb_master_driver] Beat[2/16] addr=0x000040a2 trans=AHB_TRANS_SEQ resp=AHB_RESP_OKAY rdata=0x1978559c
# UVM_INFO ../src/slv/ahb_slave_driver.sv(184) @ 1015000: uvm_test_top.env.slave_agent.drv [ahb_slave_driver] Beat AHB_READ addr=0x000040a2 resp=AHB_RESP_OKAY waits=0 rdata=0x1978559c
# UVM_INFO ../src/mst/ahb_master_monitor.sv(117) @ 1015000: uvm_test_top.env.master_agent.mon [ahb_master_monitor] Beat[2] addr=0x000040a2 rdata=0x1978559c resp=AHB_RESP_OKAY
# UVM_INFO ../src/mst/ahb_master_driver.sv(317) @ 1045000: uvm_test_top.env.master_agent.drv [ahb_master_driver] Beat[3/16] addr=0x000040a4 trans=AHB_TRANS_SEQ resp=AHB_RESP_OKAY rdata=0x6d3b4b7f
# UVM_INFO ../src/slv/ahb_slave_driver.sv(184) @ 1045000: uvm_test_top.env.slave_agent.drv [ahb_slave_driver] Beat AHB_READ addr=0x000040a4 resp=AHB_RESP_OKAY waits=2 rdata=0x6d3b4b7f
# UVM_INFO ../src/mst/ahb_master_monitor.sv(117) @ 1045000: uvm_test_top.env.master_agent.mon [ahb_master_monitor] Beat[3] addr=0x000040a4 rdata=0x6d3b4b7f resp=AHB_RESP_OKAY
# UVM_INFO ../src/mst/ahb_master_driver.sv(317) @ 1075000: uvm_test_top.env.master_agent.drv [ahb_master_driver] Beat[4/16] addr=0x000040a6 trans=AHB_TRANS_SEQ resp=AHB_RESP_OKAY rdata=0x0c595868
# UVM_INFO ../src/slv/ahb_slave_driver.sv(184) @ 1075000: uvm_test_top.env.slave_agent.drv [ahb_slave_driver] Beat AHB_READ addr=0x000040a6 resp=AHB_RESP_OKAY waits=2 rdata=0x0c595868
# UVM_INFO ../src/mst/ahb_master_monitor.sv(117) @ 1075000: uvm_test_top.env.master_agent.mon [ahb_master_monitor] Beat[4] addr=0x000040a6 rdata=0x0c595868 resp=AHB_RESP_OKAY
# UVM_INFO ../src/mst/ahb_master_driver.sv(317) @ 1085000: uvm_test_top.env.master_agent.drv [ahb_master_driver] Beat[5/16] addr=0x000040a8 trans=AHB_TRANS_SEQ resp=AHB_RESP_OKAY rdata=0x90927178
# UVM_INFO ../src/slv/ahb_slave_driver.sv(184) @ 1085000: uvm_test_top.env.slave_agent.drv [ahb_slave_driver] Beat AHB_READ addr=0x000040a8 resp=AHB_RESP_OKAY waits=0 rdata=0x90927178
# UVM_INFO ../src/mst/ahb_master_monitor.sv(117) @ 1085000: uvm_test_top.env.master_agent.mon [ahb_master_monitor] Beat[5] addr=0x000040a8 rdata=0x90927178 resp=AHB_RESP_OKAY
# UVM_INFO ../src/mst/ahb_master_driver.sv(317) @ 1095000: uvm_test_top.env.master_agent.drv [ahb_master_driver] Beat[6/16] addr=0x000040aa trans=AHB_TRANS_SEQ resp=AHB_RESP_OKAY rdata=0xa7266f41
# UVM_INFO ../src/slv/ahb_slave_driver.sv(184) @ 1095000: uvm_test_top.env.slave_agent.drv [ahb_slave_driver] Beat AHB_READ addr=0x000040aa resp=AHB_RESP_OKAY waits=0 rdata=0xa7266f41
# UVM_INFO ../src/mst/ahb_master_monitor.sv(117) @ 1095000: uvm_test_top.env.master_agent.mon [ahb_master_monitor] Beat[6] addr=0x000040aa rdata=0xa7266f41 resp=AHB_RESP_OKAY
# UVM_INFO ../src/mst/ahb_master_driver.sv(317) @ 1115000: uvm_test_top.env.master_agent.drv [ahb_master_driver] Beat[7/16] addr=0x000040ac trans=AHB_TRANS_SEQ resp=AHB_RESP_OKAY rdata=0x5f1a7760
# UVM_INFO ../src/slv/ahb_slave_driver.sv(184) @ 1115000: uvm_test_top.env.slave_agent.drv [ahb_slave_driver] Beat AHB_READ addr=0x000040ac resp=AHB_RESP_OKAY waits=1 rdata=0x5f1a7760
# UVM_INFO ../src/mst/ahb_master_monitor.sv(117) @ 1115000: uvm_test_top.env.master_agent.mon [ahb_master_monitor] Beat[7] addr=0x000040ac rdata=0x5f1a7760 resp=AHB_RESP_OKAY
# UVM_INFO ../src/mst/ahb_master_driver.sv(317) @ 1125000: uvm_test_top.env.master_agent.drv [ahb_master_driver] Beat[8/16] addr=0x000040ae trans=AHB_TRANS_SEQ resp=AHB_RESP_OKAY rdata=0x3d7c133a
# UVM_INFO ../src/slv/ahb_slave_driver.sv(184) @ 1125000: uvm_test_top.env.slave_agent.drv [ahb_slave_driver] Beat AHB_READ addr=0x000040ae resp=AHB_RESP_OKAY waits=0 rdata=0x3d7c133a
# UVM_INFO ../src/mst/ahb_master_monitor.sv(117) @ 1125000: uvm_test_top.env.master_agent.mon [ahb_master_monitor] Beat[8] addr=0x000040ae rdata=0x3d7c133a resp=AHB_RESP_OKAY
# UVM_INFO ../src/mst/ahb_master_driver.sv(317) @ 1155000: uvm_test_top.env.master_agent.drv [ahb_master_driver] Beat[9/16] addr=0x000040b0 trans=AHB_TRANS_SEQ resp=AHB_RESP_OKAY rdata=0x1f1bc134
# UVM_INFO ../src/slv/ahb_slave_driver.sv(184) @ 1155000: uvm_test_top.env.slave_agent.drv [ahb_slave_driver] Beat AHB_READ addr=0x000040b0 resp=AHB_RESP_OKAY waits=2 rdata=0x1f1bc134
# UVM_INFO ../src/mst/ahb_master_monitor.sv(117) @ 1155000: uvm_test_top.env.master_agent.mon [ahb_master_monitor] Beat[9] addr=0x000040b0 rdata=0x1f1bc134 resp=AHB_RESP_OKAY
# UVM_INFO ../src/mst/ahb_master_driver.sv(317) @ 1165000: uvm_test_top.env.master_agent.drv [ahb_master_driver] Beat[10/16] addr=0x000040b2 trans=AHB_TRANS_SEQ resp=AHB_RESP_OKAY rdata=0xd33d2286
# UVM_INFO ../src/slv/ahb_slave_driver.sv(184) @ 1165000: uvm_test_top.env.slave_agent.drv [ahb_slave_driver] Beat AHB_READ addr=0x000040b2 resp=AHB_RESP_OKAY waits=0 rdata=0xd33d2286
# UVM_INFO ../src/mst/ahb_master_monitor.sv(117) @ 1165000: uvm_test_top.env.master_agent.mon [ahb_master_monitor] Beat[10] addr=0x000040b2 rdata=0xd33d2286 resp=AHB_RESP_OKAY
# UVM_INFO ../src/mst/ahb_master_driver.sv(317) @ 1195000: uvm_test_top.env.master_agent.drv [ahb_master_driver] Beat[11/16] addr=0x000040b4 trans=AHB_TRANS_SEQ resp=AHB_RESP_OKAY rdata=0xcad69446
# UVM_INFO ../src/slv/ahb_slave_driver.sv(184) @ 1195000: uvm_test_top.env.slave_agent.drv [ahb_slave_driver] Beat AHB_READ addr=0x000040b4 resp=AHB_RESP_OKAY waits=2 rdata=0xcad69446
# UVM_INFO ../src/mst/ahb_master_monitor.sv(117) @ 1195000: uvm_test_top.env.master_agent.mon [ahb_master_monitor] Beat[11] addr=0x000040b4 rdata=0xcad69446 resp=AHB_RESP_OKAY
# UVM_INFO ../src/mst/ahb_master_driver.sv(317) @ 1215000: uvm_test_top.env.master_agent.drv [ahb_master_driver] Beat[12/16] addr=0x000040b6 trans=AHB_TRANS_SEQ resp=AHB_RESP_OKAY rdata=0x5c4d8d78
# UVM_INFO ../src/slv/ahb_slave_driver.sv(184) @ 1215000: uvm_test_top.env.slave_agent.drv [ahb_slave_driver] Beat AHB_READ addr=0x000040b6 resp=AHB_RESP_OKAY waits=1 rdata=0x5c4d8d78
# UVM_INFO ../src/mst/ahb_master_monitor.sv(117) @ 1215000: uvm_test_top.env.master_agent.mon [ahb_master_monitor] Beat[12] addr=0x000040b6 rdata=0x5c4d8d78 resp=AHB_RESP_OKAY
# UVM_INFO ../src/mst/ahb_master_driver.sv(317) @ 1225000: uvm_test_top.env.master_agent.drv [ahb_master_driver] Beat[13/16] addr=0x000040b8 trans=AHB_TRANS_SEQ resp=AHB_RESP_OKAY rdata=0x737ce0a2
# UVM_INFO ../src/slv/ahb_slave_driver.sv(184) @ 1225000: uvm_test_top.env.slave_agent.drv [ahb_slave_driver] Beat AHB_READ addr=0x000040b8 resp=AHB_RESP_OKAY waits=0 rdata=0x737ce0a2
# UVM_INFO ../src/mst/ahb_master_monitor.sv(117) @ 1225000: uvm_test_top.env.master_agent.mon [ahb_master_monitor] Beat[13] addr=0x000040b8 rdata=0x737ce0a2 resp=AHB_RESP_OKAY
# UVM_INFO ../src/mst/ahb_master_driver.sv(317) @ 1245000: uvm_test_top.env.master_agent.drv [ahb_master_driver] Beat[14/16] addr=0x000040ba trans=AHB_TRANS_SEQ resp=AHB_RESP_OKAY rdata=0xaa7a8247
# UVM_INFO ../src/slv/ahb_slave_driver.sv(184) @ 1245000: uvm_test_top.env.slave_agent.drv [ahb_slave_driver] Beat AHB_READ addr=0x000040ba resp=AHB_RESP_OKAY waits=1 rdata=0xaa7a8247
# UVM_INFO ../src/mst/ahb_master_monitor.sv(117) @ 1245000: uvm_test_top.env.master_agent.mon [ahb_master_monitor] Beat[14] addr=0x000040ba rdata=0xaa7a8247 resp=AHB_RESP_OKAY
# UVM_INFO ../src/mst/ahb_master_driver.sv(317) @ 1255000: uvm_test_top.env.master_agent.drv [ahb_master_driver] Beat[15/16] addr=0x000040bc trans=AHB_TRANS_SEQ resp=AHB_RESP_OKAY rdata=0x3e3115bb
# UVM_INFO ../src/mst/ahb_master_driver.sv(362) @ 1255000: uvm_test_top.env.master_agent.drv [ahb_master_driver] Transaction complete: AHB_READ 0x000040be, 16 beats, burst=AHB_BURST_WRAP16
# UVM_INFO ../src/slv/ahb_slave_driver.sv(184) @ 1255000: uvm_test_top.env.slave_agent.drv [ahb_slave_driver] Beat AHB_READ addr=0x000040bc resp=AHB_RESP_OKAY waits=0 rdata=0x3e3115bb
# UVM_INFO ../src/slv/ahb_slave_monitor.sv(197) @ 1255000: uvm_test_top.env.slave_agent.mon [ahb_slave_monitor] Observed [AHB_READ]: HADDR=0x000040be, HBURST=AHB_BURST_WRAP16, HSIZE=AHB_SIZE_16B, 16 beats
# UVM_INFO ../src/env/ahb_coverage.sv(127) @ 1255000: uvm_test_top.env.slave_cov [ahb_coverage] Sampled [AHB_READ]: burst=AHB_BURST_WRAP16 size=AHB_SIZE_16B beats=16 error=0
# UVM_INFO ../src/mst/ahb_master_monitor.sv(117) @ 1255000: uvm_test_top.env.master_agent.mon [ahb_master_monitor] Beat[15] addr=0x000040bc rdata=0x3e3115bb resp=AHB_RESP_OKAY
# UVM_INFO ../src/mst/ahb_master_monitor.sv(222) @ 1255000: uvm_test_top.env.master_agent.mon [ahb_master_monitor] Observed [AHB_READ]: HADDR=0x000040be, HBURST=AHB_BURST_WRAP16, HSIZE=AHB_SIZE_16B, 16 beats
# UVM_INFO ../src/env/ahb_coverage.sv(127) @ 1255000: uvm_test_top.env.master_cov [ahb_coverage] Sampled [AHB_READ]: burst=AHB_BURST_WRAP16 size=AHB_SIZE_16B beats=16 error=0
# UVM_INFO ../src/env/ahb_scoreboard.sv(104) @ 1255000: uvm_test_top.env.scb [ahb_scoreboard] MATCH #6: [AHB_READ] HADDR=0x000040be AHB_BURST_WRAP16 16 beats
# UVM_INFO ../src/mst_seq/ahb_base_seq.sv(164) @ 1255000: uvm_test_top.env.master_agent.sqr@@seq [ahb_wrap_burst_seq] AHB_BURST_WRAP16 AHB_SIZE_16B beat 0 @0x000040be ok
# UVM_INFO ../src/mst_seq/ahb_base_seq.sv(164) @ 1255000: uvm_test_top.env.master_agent.sqr@@seq [ahb_wrap_burst_seq] AHB_BURST_WRAP16 AHB_SIZE_16B beat 1 @0x000040a0 ok
# UVM_INFO ../src/mst_seq/ahb_base_seq.sv(164) @ 1255000: uvm_test_top.env.master_agent.sqr@@seq [ahb_wrap_burst_seq] AHB_BURST_WRAP16 AHB_SIZE_16B beat 2 @0x000040a2 ok
# UVM_INFO ../src/mst_seq/ahb_base_seq.sv(164) @ 1255000: uvm_test_top.env.master_agent.sqr@@seq [ahb_wrap_burst_seq] AHB_BURST_WRAP16 AHB_SIZE_16B beat 3 @0x000040a4 ok
# UVM_INFO ../src/mst_seq/ahb_base_seq.sv(164) @ 1255000: uvm_test_top.env.master_agent.sqr@@seq [ahb_wrap_burst_seq] AHB_BURST_WRAP16 AHB_SIZE_16B beat 4 @0x000040a6 ok
# UVM_INFO ../src/mst_seq/ahb_base_seq.sv(164) @ 1255000: uvm_test_top.env.master_agent.sqr@@seq [ahb_wrap_burst_seq] AHB_BURST_WRAP16 AHB_SIZE_16B beat 5 @0x000040a8 ok
# UVM_INFO ../src/mst_seq/ahb_base_seq.sv(164) @ 1255000: uvm_test_top.env.master_agent.sqr@@seq [ahb_wrap_burst_seq] AHB_BURST_WRAP16 AHB_SIZE_16B beat 6 @0x000040aa ok
# UVM_INFO ../src/mst_seq/ahb_base_seq.sv(164) @ 1255000: uvm_test_top.env.master_agent.sqr@@seq [ahb_wrap_burst_seq] AHB_BURST_WRAP16 AHB_SIZE_16B beat 7 @0x000040ac ok
# UVM_INFO ../src/mst_seq/ahb_base_seq.sv(164) @ 1255000: uvm_test_top.env.master_agent.sqr@@seq [ahb_wrap_burst_seq] AHB_BURST_WRAP16 AHB_SIZE_16B beat 8 @0x000040ae ok
# UVM_INFO ../src/mst_seq/ahb_base_seq.sv(164) @ 1255000: uvm_test_top.env.master_agent.sqr@@seq [ahb_wrap_burst_seq] AHB_BURST_WRAP16 AHB_SIZE_16B beat 9 @0x000040b0 ok
# UVM_INFO ../src/mst_seq/ahb_base_seq.sv(164) @ 1255000: uvm_test_top.env.master_agent.sqr@@seq [ahb_wrap_burst_seq] AHB_BURST_WRAP16 AHB_SIZE_16B beat 10 @0x000040b2 ok
# UVM_INFO ../src/mst_seq/ahb_base_seq.sv(164) @ 1255000: uvm_test_top.env.master_agent.sqr@@seq [ahb_wrap_burst_seq] AHB_BURST_WRAP16 AHB_SIZE_16B beat 11 @0x000040b4 ok
# UVM_INFO ../src/mst_seq/ahb_base_seq.sv(164) @ 1255000: uvm_test_top.env.master_agent.sqr@@seq [ahb_wrap_burst_seq] AHB_BURST_WRAP16 AHB_SIZE_16B beat 12 @0x000040b6 ok
# UVM_INFO ../src/mst_seq/ahb_base_seq.sv(164) @ 1255000: uvm_test_top.env.master_agent.sqr@@seq [ahb_wrap_burst_seq] AHB_BURST_WRAP16 AHB_SIZE_16B beat 13 @0x000040b8 ok
# UVM_INFO ../src/mst_seq/ahb_base_seq.sv(164) @ 1255000: uvm_test_top.env.master_agent.sqr@@seq [ahb_wrap_burst_seq] AHB_BURST_WRAP16 AHB_SIZE_16B beat 14 @0x000040ba ok
# UVM_INFO ../src/mst_seq/ahb_base_seq.sv(164) @ 1255000: uvm_test_top.env.master_agent.sqr@@seq [ahb_wrap_burst_seq] AHB_BURST_WRAP16 AHB_SIZE_16B beat 15 @0x000040bc ok
# UVM_INFO ../src/mst/ahb_master_driver.sv(82) @ 1255000: uvm_test_top.env.master_agent.drv [ahb_master_driver] Queueing [AHB_WRITE]: HADDR=0x000040c6, HBURST=AHB_BURST_WRAP16, HSIZE=AHB_SIZE_16B, 16 beats
# UVM_INFO ../src/mst/ahb_master_driver.sv(124) @ 1255000: uvm_test_top.env.master_agent.drv [ahb_master_driver] Driving [AHB_WRITE]: HADDR=0x000040c6, HBURST=AHB_BURST_WRAP16, HSIZE=AHB_SIZE_16B, 16 beats               
# UVM_INFO ../src/mst/ahb_master_driver.sv(317) @ 1305000: uvm_test_top.env.master_agent.drv [ahb_master_driver] Beat[0/16] addr=0x000040c6 trans=AHB_TRANS_NONSEQ resp=AHB_RESP_OKAY wdata=0x62b3c7b3
# UVM_INFO ../src/slv/ahb_slave_driver.sv(184) @ 1305000: uvm_test_top.env.slave_agent.drv [ahb_slave_driver] Beat AHB_WRITE addr=0x000040c6 resp=AHB_RESP_OKAY waits=2 wdata=0x62b3c7b3
# UVM_INFO ../src/mst/ahb_master_monitor.sv(117) @ 1305000: uvm_test_top.env.master_agent.mon [ahb_master_monitor] Beat[0] addr=0x000040c6 wdata=0x62b3c7b3 resp=AHB_RESP_OKAY
# UVM_INFO ../src/mst/ahb_master_driver.sv(317) @ 1335000: uvm_test_top.env.master_agent.drv [ahb_master_driver] Beat[1/16] addr=0x000040c8 trans=AHB_TRANS_SEQ resp=AHB_RESP_OKAY wdata=0x8f1fa66d
# UVM_INFO ../src/slv/ahb_slave_driver.sv(184) @ 1335000: uvm_test_top.env.slave_agent.drv [ahb_slave_driver] Beat AHB_WRITE addr=0x000040c8 resp=AHB_RESP_OKAY waits=2 wdata=0x8f1fa66d
# UVM_INFO ../src/mst/ahb_master_monitor.sv(117) @ 1335000: uvm_test_top.env.master_agent.mon [ahb_master_monitor] Beat[1] addr=0x000040c8 wdata=0x8f1fa66d resp=AHB_RESP_OKAY
# UVM_INFO ../src/mst/ahb_master_driver.sv(317) @ 1365000: uvm_test_top.env.master_agent.drv [ahb_master_driver] Beat[2/16] addr=0x000040ca trans=AHB_TRANS_SEQ resp=AHB_RESP_OKAY wdata=0x97f254ef
# UVM_INFO ../src/slv/ahb_slave_driver.sv(184) @ 1365000: uvm_test_top.env.slave_agent.drv [ahb_slave_driver] Beat AHB_WRITE addr=0x000040ca resp=AHB_RESP_OKAY waits=2 wdata=0x97f254ef
# UVM_INFO ../src/mst/ahb_master_monitor.sv(117) @ 1365000: uvm_test_top.env.master_agent.mon [ahb_master_monitor] Beat[2] addr=0x000040ca wdata=0x97f254ef resp=AHB_RESP_OKAY
# UVM_INFO ../src/mst/ahb_master_driver.sv(317) @ 1385000: uvm_test_top.env.master_agent.drv [ahb_master_driver] Beat[3/16] addr=0x000040cc trans=AHB_TRANS_SEQ resp=AHB_RESP_OKAY wdata=0x0e0a5d50
# UVM_INFO ../src/slv/ahb_slave_driver.sv(184) @ 1385000: uvm_test_top.env.slave_agent.drv [ahb_slave_driver] Beat AHB_WRITE addr=0x000040cc resp=AHB_RESP_OKAY waits=1 wdata=0x0e0a5d50
# UVM_INFO ../src/mst/ahb_master_monitor.sv(117) @ 1385000: uvm_test_top.env.master_agent.mon [ahb_master_monitor] Beat[3] addr=0x000040cc wdata=0x0e0a5d50 resp=AHB_RESP_OKAY
# UVM_INFO ../src/mst/ahb_master_driver.sv(317) @ 1395000: uvm_test_top.env.master_agent.drv [ahb_master_driver] Beat[4/16] addr=0x000040ce trans=AHB_TRANS_SEQ resp=AHB_RESP_OKAY wdata=0xbbc76cb2
# UVM_INFO ../src/slv/ahb_slave_driver.sv(184) @ 1395000: uvm_test_top.env.slave_agent.drv [ahb_slave_driver] Beat AHB_WRITE addr=0x000040ce resp=AHB_RESP_OKAY waits=0 wdata=0xbbc76cb2
# UVM_INFO ../src/mst/ahb_master_monitor.sv(117) @ 1395000: uvm_test_top.env.master_agent.mon [ahb_master_monitor] Beat[4] addr=0x000040ce wdata=0xbbc76cb2 resp=AHB_RESP_OKAY
# UVM_INFO ../src/mst/ahb_master_driver.sv(317) @ 1415000: uvm_test_top.env.master_agent.drv [ahb_master_driver] Beat[5/16] addr=0x000040d0 trans=AHB_TRANS_SEQ resp=AHB_RESP_OKAY wdata=0x59f277a8
# UVM_INFO ../src/slv/ahb_slave_driver.sv(184) @ 1415000: uvm_test_top.env.slave_agent.drv [ahb_slave_driver] Beat AHB_WRITE addr=0x000040d0 resp=AHB_RESP_OKAY waits=1 wdata=0x59f277a8
# UVM_INFO ../src/mst/ahb_master_monitor.sv(117) @ 1415000: uvm_test_top.env.master_agent.mon [ahb_master_monitor] Beat[5] addr=0x000040d0 wdata=0x59f277a8 resp=AHB_RESP_OKAY
# UVM_INFO ../src/mst/ahb_master_driver.sv(317) @ 1435000: uvm_test_top.env.master_agent.drv [ahb_master_driver] Beat[6/16] addr=0x000040d2 trans=AHB_TRANS_SEQ resp=AHB_RESP_OKAY wdata=0x6f0bc70e
# UVM_INFO ../src/slv/ahb_slave_driver.sv(184) @ 1435000: uvm_test_top.env.slave_agent.drv [ahb_slave_driver] Beat AHB_WRITE addr=0x000040d2 resp=AHB_RESP_OKAY waits=1 wdata=0x6f0bc70e
# UVM_INFO ../src/mst/ahb_master_monitor.sv(117) @ 1435000: uvm_test_top.env.master_agent.mon [ahb_master_monitor] Beat[6] addr=0x000040d2 wdata=0x6f0bc70e resp=AHB_RESP_OKAY
# UVM_INFO ../src/mst/ahb_master_driver.sv(317) @ 1455000: uvm_test_top.env.master_agent.drv [ahb_master_driver] Beat[7/16] addr=0x000040d4 trans=AHB_TRANS_SEQ resp=AHB_RESP_OKAY wdata=0x9ab413f2
# UVM_INFO ../src/slv/ahb_slave_driver.sv(184) @ 1455000: uvm_test_top.env.slave_agent.drv [ahb_slave_driver] Beat AHB_WRITE addr=0x000040d4 resp=AHB_RESP_OKAY waits=1 wdata=0x9ab413f2
# UVM_INFO ../src/mst/ahb_master_monitor.sv(117) @ 1455000: uvm_test_top.env.master_agent.mon [ahb_master_monitor] Beat[7] addr=0x000040d4 wdata=0x9ab413f2 resp=AHB_RESP_OKAY
# UVM_INFO ../src/mst/ahb_master_driver.sv(317) @ 1485000: uvm_test_top.env.master_agent.drv [ahb_master_driver] Beat[8/16] addr=0x000040d6 trans=AHB_TRANS_SEQ resp=AHB_RESP_OKAY wdata=0x2f83ee41
# UVM_INFO ../src/slv/ahb_slave_driver.sv(184) @ 1485000: uvm_test_top.env.slave_agent.drv [ahb_slave_driver] Beat AHB_WRITE addr=0x000040d6 resp=AHB_RESP_OKAY waits=2 wdata=0x2f83ee41
# UVM_INFO ../src/mst/ahb_master_monitor.sv(117) @ 1485000: uvm_test_top.env.master_agent.mon [ahb_master_monitor] Beat[8] addr=0x000040d6 wdata=0x2f83ee41 resp=AHB_RESP_OKAY
# UVM_INFO ../src/mst/ahb_master_driver.sv(317) @ 1495000: uvm_test_top.env.master_agent.drv [ahb_master_driver] Beat[9/16] addr=0x000040d8 trans=AHB_TRANS_SEQ resp=AHB_RESP_OKAY wdata=0xa1c74885
# UVM_INFO ../src/slv/ahb_slave_driver.sv(184) @ 1495000: uvm_test_top.env.slave_agent.drv [ahb_slave_driver] Beat AHB_WRITE addr=0x000040d8 resp=AHB_RESP_OKAY waits=0 wdata=0xa1c74885
# UVM_INFO ../src/mst/ahb_master_monitor.sv(117) @ 1495000: uvm_test_top.env.master_agent.mon [ahb_master_monitor] Beat[9] addr=0x000040d8 wdata=0xa1c74885 resp=AHB_RESP_OKAY
# UVM_INFO ../src/mst/ahb_master_driver.sv(317) @ 1515000: uvm_test_top.env.master_agent.drv [ahb_master_driver] Beat[10/16] addr=0x000040da trans=AHB_TRANS_SEQ resp=AHB_RESP_OKAY wdata=0xff214189
# UVM_INFO ../src/slv/ahb_slave_driver.sv(184) @ 1515000: uvm_test_top.env.slave_agent.drv [ahb_slave_driver] Beat AHB_WRITE addr=0x000040da resp=AHB_RESP_OKAY waits=1 wdata=0xff214189
# UVM_INFO ../src/mst/ahb_master_monitor.sv(117) @ 1515000: uvm_test_top.env.master_agent.mon [ahb_master_monitor] Beat[10] addr=0x000040da wdata=0xff214189 resp=AHB_RESP_OKAY
# UVM_INFO ../src/mst/ahb_master_driver.sv(317) @ 1525000: uvm_test_top.env.master_agent.drv [ahb_master_driver] Beat[11/16] addr=0x000040dc trans=AHB_TRANS_SEQ resp=AHB_RESP_OKAY wdata=0x9414389f
# UVM_INFO ../src/slv/ahb_slave_driver.sv(184) @ 1525000: uvm_test_top.env.slave_agent.drv [ahb_slave_driver] Beat AHB_WRITE addr=0x000040dc resp=AHB_RESP_OKAY waits=0 wdata=0x9414389f
# UVM_INFO ../src/mst/ahb_master_monitor.sv(117) @ 1525000: uvm_test_top.env.master_agent.mon [ahb_master_monitor] Beat[11] addr=0x000040dc wdata=0x9414389f resp=AHB_RESP_OKAY
# UVM_INFO ../src/mst/ahb_master_driver.sv(317) @ 1555000: uvm_test_top.env.master_agent.drv [ahb_master_driver] Beat[12/16] addr=0x000040de trans=AHB_TRANS_SEQ resp=AHB_RESP_OKAY wdata=0xe497b5d1
# UVM_INFO ../src/slv/ahb_slave_driver.sv(184) @ 1555000: uvm_test_top.env.slave_agent.drv [ahb_slave_driver] Beat AHB_WRITE addr=0x000040de resp=AHB_RESP_OKAY waits=2 wdata=0xe497b5d1
# UVM_INFO ../src/mst/ahb_master_monitor.sv(117) @ 1555000: uvm_test_top.env.master_agent.mon [ahb_master_monitor] Beat[12] addr=0x000040de wdata=0xe497b5d1 resp=AHB_RESP_OKAY
# UVM_INFO ../src/mst/ahb_master_driver.sv(317) @ 1585000: uvm_test_top.env.master_agent.drv [ahb_master_driver] Beat[13/16] addr=0x000040c0 trans=AHB_TRANS_SEQ resp=AHB_RESP_OKAY wdata=0xb1e2bd81
# UVM_INFO ../src/slv/ahb_slave_driver.sv(184) @ 1585000: uvm_test_top.env.slave_agent.drv [ahb_slave_driver] Beat AHB_WRITE addr=0x000040c0 resp=AHB_RESP_OKAY waits=2 wdata=0xb1e2bd81
# UVM_INFO ../src/mst/ahb_master_monitor.sv(117) @ 1585000: uvm_test_top.env.master_agent.mon [ahb_master_monitor] Beat[13] addr=0x000040c0 wdata=0xb1e2bd81 resp=AHB_RESP_OKAY
# UVM_INFO ../src/mst/ahb_master_driver.sv(317) @ 1595000: uvm_test_top.env.master_agent.drv [ahb_master_driver] Beat[14/16] addr=0x000040c2 trans=AHB_TRANS_SEQ resp=AHB_RESP_OKAY wdata=0x6aa0c144
# UVM_INFO ../src/slv/ahb_slave_driver.sv(184) @ 1595000: uvm_test_top.env.slave_agent.drv [ahb_slave_driver] Beat AHB_WRITE addr=0x000040c2 resp=AHB_RESP_OKAY waits=0 wdata=0x6aa0c144
# UVM_INFO ../src/mst/ahb_master_monitor.sv(117) @ 1595000: uvm_test_top.env.master_agent.mon [ahb_master_monitor] Beat[14] addr=0x000040c2 wdata=0x6aa0c144 resp=AHB_RESP_OKAY
# UVM_INFO ../src/mst/ahb_master_driver.sv(317) @ 1605000: uvm_test_top.env.master_agent.drv [ahb_master_driver] Beat[15/16] addr=0x000040c4 trans=AHB_TRANS_SEQ resp=AHB_RESP_OKAY wdata=0xfb84014d
# UVM_INFO ../src/mst/ahb_master_driver.sv(362) @ 1605000: uvm_test_top.env.master_agent.drv [ahb_master_driver] Transaction complete: AHB_WRITE 0x000040c6, 16 beats, burst=AHB_BURST_WRAP16
# UVM_INFO ../src/slv/ahb_slave_driver.sv(184) @ 1605000: uvm_test_top.env.slave_agent.drv [ahb_slave_driver] Beat AHB_WRITE addr=0x000040c4 resp=AHB_RESP_OKAY waits=0 wdata=0xfb84014d
# UVM_INFO ../src/mst/ahb_master_monitor.sv(117) @ 1605000: uvm_test_top.env.master_agent.mon [ahb_master_monitor] Beat[15] addr=0x000040c4 wdata=0xfb84014d resp=AHB_RESP_OKAY
# UVM_INFO ../src/mst/ahb_master_monitor.sv(222) @ 1605000: uvm_test_top.env.master_agent.mon [ahb_master_monitor] Observed [AHB_WRITE]: HADDR=0x000040c6, HBURST=AHB_BURST_WRAP16, HSIZE=AHB_SIZE_16B, 16 beats
# UVM_INFO ../src/env/ahb_coverage.sv(127) @ 1605000: uvm_test_top.env.master_cov [ahb_coverage] Sampled [AHB_WRITE]: burst=AHB_BURST_WRAP16 size=AHB_SIZE_16B beats=16 error=0
# UVM_INFO ../src/slv/ahb_slave_monitor.sv(197) @ 1605000: uvm_test_top.env.slave_agent.mon [ahb_slave_monitor] Observed [AHB_WRITE]: HADDR=0x000040c6, HBURST=AHB_BURST_WRAP16, HSIZE=AHB_SIZE_16B, 16 beats
# UVM_INFO ../src/env/ahb_scoreboard.sv(104) @ 1605000: uvm_test_top.env.scb [ahb_scoreboard] MATCH #7: [AHB_WRITE] HADDR=0x000040c6 AHB_BURST_WRAP16 16 beats
# UVM_INFO ../src/env/ahb_coverage.sv(127) @ 1605000: uvm_test_top.env.slave_cov [ahb_coverage] Sampled [AHB_WRITE]: burst=AHB_BURST_WRAP16 size=AHB_SIZE_16B beats=16 error=0
# UVM_INFO ../src/mst/ahb_master_driver.sv(82) @ 1605000: uvm_test_top.env.master_agent.drv [ahb_master_driver] Queueing [AHB_READ]: HADDR=0x000040c6, HBURST=AHB_BURST_WRAP16, HSIZE=AHB_SIZE_16B, 16 beats
# UVM_INFO ../src/mst/ahb_master_driver.sv(124) @ 1605000: uvm_test_top.env.master_agent.drv [ahb_master_driver] Driving [AHB_READ]: HADDR=0x000040c6, HBURST=AHB_BURST_WRAP16, HSIZE=AHB_SIZE_16B, 16 beats               
# UVM_INFO ../src/mst/ahb_master_driver.sv(317) @ 1645000: uvm_test_top.env.master_agent.drv [ahb_master_driver] Beat[0/16] addr=0x000040c6 trans=AHB_TRANS_NONSEQ resp=AHB_RESP_OKAY rdata=0x62b3c7b3
# UVM_INFO ../src/slv/ahb_slave_driver.sv(184) @ 1645000: uvm_test_top.env.slave_agent.drv [ahb_slave_driver] Beat AHB_READ addr=0x000040c6 resp=AHB_RESP_OKAY waits=1 rdata=0x62b3c7b3
# UVM_INFO ../src/mst/ahb_master_monitor.sv(117) @ 1645000: uvm_test_top.env.master_agent.mon [ahb_master_monitor] Beat[0] addr=0x000040c6 rdata=0x62b3c7b3 resp=AHB_RESP_OKAY
# UVM_INFO ../src/mst/ahb_master_driver.sv(317) @ 1665000: uvm_test_top.env.master_agent.drv [ahb_master_driver] Beat[1/16] addr=0x000040c8 trans=AHB_TRANS_SEQ resp=AHB_RESP_OKAY rdata=0x8f1fa66d
# UVM_INFO ../src/slv/ahb_slave_driver.sv(184) @ 1665000: uvm_test_top.env.slave_agent.drv [ahb_slave_driver] Beat AHB_READ addr=0x000040c8 resp=AHB_RESP_OKAY waits=1 rdata=0x8f1fa66d
# UVM_INFO ../src/mst/ahb_master_monitor.sv(117) @ 1665000: uvm_test_top.env.master_agent.mon [ahb_master_monitor] Beat[1] addr=0x000040c8 rdata=0x8f1fa66d resp=AHB_RESP_OKAY
# UVM_INFO ../src/mst/ahb_master_driver.sv(317) @ 1695000: uvm_test_top.env.master_agent.drv [ahb_master_driver] Beat[2/16] addr=0x000040ca trans=AHB_TRANS_SEQ resp=AHB_RESP_OKAY rdata=0x97f254ef
# UVM_INFO ../src/slv/ahb_slave_driver.sv(184) @ 1695000: uvm_test_top.env.slave_agent.drv [ahb_slave_driver] Beat AHB_READ addr=0x000040ca resp=AHB_RESP_OKAY waits=2 rdata=0x97f254ef
# UVM_INFO ../src/mst/ahb_master_monitor.sv(117) @ 1695000: uvm_test_top.env.master_agent.mon [ahb_master_monitor] Beat[2] addr=0x000040ca rdata=0x97f254ef resp=AHB_RESP_OKAY
# UVM_INFO ../src/mst/ahb_master_driver.sv(317) @ 1725000: uvm_test_top.env.master_agent.drv [ahb_master_driver] Beat[3/16] addr=0x000040cc trans=AHB_TRANS_SEQ resp=AHB_RESP_OKAY rdata=0x0e0a5d50
# UVM_INFO ../src/slv/ahb_slave_driver.sv(184) @ 1725000: uvm_test_top.env.slave_agent.drv [ahb_slave_driver] Beat AHB_READ addr=0x000040cc resp=AHB_RESP_OKAY waits=2 rdata=0x0e0a5d50
# UVM_INFO ../src/mst/ahb_master_monitor.sv(117) @ 1725000: uvm_test_top.env.master_agent.mon [ahb_master_monitor] Beat[3] addr=0x000040cc rdata=0x0e0a5d50 resp=AHB_RESP_OKAY
# UVM_INFO ../src/mst/ahb_master_driver.sv(317) @ 1745000: uvm_test_top.env.master_agent.drv [ahb_master_driver] Beat[4/16] addr=0x000040ce trans=AHB_TRANS_SEQ resp=AHB_RESP_OKAY rdata=0xbbc76cb2
# UVM_INFO ../src/slv/ahb_slave_driver.sv(184) @ 1745000: uvm_test_top.env.slave_agent.drv [ahb_slave_driver] Beat AHB_READ addr=0x000040ce resp=AHB_RESP_OKAY waits=1 rdata=0xbbc76cb2
# UVM_INFO ../src/mst/ahb_master_monitor.sv(117) @ 1745000: uvm_test_top.env.master_agent.mon [ahb_master_monitor] Beat[4] addr=0x000040ce rdata=0xbbc76cb2 resp=AHB_RESP_OKAY
# UVM_INFO ../src/mst/ahb_master_driver.sv(317) @ 1765000: uvm_test_top.env.master_agent.drv [ahb_master_driver] Beat[5/16] addr=0x000040d0 trans=AHB_TRANS_SEQ resp=AHB_RESP_OKAY rdata=0x59f277a8
# UVM_INFO ../src/slv/ahb_slave_driver.sv(184) @ 1765000: uvm_test_top.env.slave_agent.drv [ahb_slave_driver] Beat AHB_READ addr=0x000040d0 resp=AHB_RESP_OKAY waits=1 rdata=0x59f277a8
# UVM_INFO ../src/mst/ahb_master_monitor.sv(117) @ 1765000: uvm_test_top.env.master_agent.mon [ahb_master_monitor] Beat[5] addr=0x000040d0 rdata=0x59f277a8 resp=AHB_RESP_OKAY
# UVM_INFO ../src/mst/ahb_master_driver.sv(317) @ 1795000: uvm_test_top.env.master_agent.drv [ahb_master_driver] Beat[6/16] addr=0x000040d2 trans=AHB_TRANS_SEQ resp=AHB_RESP_OKAY rdata=0x6f0bc70e
# UVM_INFO ../src/slv/ahb_slave_driver.sv(184) @ 1795000: uvm_test_top.env.slave_agent.drv [ahb_slave_driver] Beat AHB_READ addr=0x000040d2 resp=AHB_RESP_OKAY waits=2 rdata=0x6f0bc70e
# UVM_INFO ../src/mst/ahb_master_monitor.sv(117) @ 1795000: uvm_test_top.env.master_agent.mon [ahb_master_monitor] Beat[6] addr=0x000040d2 rdata=0x6f0bc70e resp=AHB_RESP_OKAY
# UVM_INFO ../src/mst/ahb_master_driver.sv(317) @ 1825000: uvm_test_top.env.master_agent.drv [ahb_master_driver] Beat[7/16] addr=0x000040d4 trans=AHB_TRANS_SEQ resp=AHB_RESP_OKAY rdata=0x9ab413f2
# UVM_INFO ../src/slv/ahb_slave_driver.sv(184) @ 1825000: uvm_test_top.env.slave_agent.drv [ahb_slave_driver] Beat AHB_READ addr=0x000040d4 resp=AHB_RESP_OKAY waits=2 rdata=0x9ab413f2
# UVM_INFO ../src/mst/ahb_master_monitor.sv(117) @ 1825000: uvm_test_top.env.master_agent.mon [ahb_master_monitor] Beat[7] addr=0x000040d4 rdata=0x9ab413f2 resp=AHB_RESP_OKAY
# UVM_INFO ../src/mst/ahb_master_driver.sv(317) @ 1835000: uvm_test_top.env.master_agent.drv [ahb_master_driver] Beat[8/16] addr=0x000040d6 trans=AHB_TRANS_SEQ resp=AHB_RESP_OKAY rdata=0x2f83ee41
# UVM_INFO ../src/slv/ahb_slave_driver.sv(184) @ 1835000: uvm_test_top.env.slave_agent.drv [ahb_slave_driver] Beat AHB_READ addr=0x000040d6 resp=AHB_RESP_OKAY waits=0 rdata=0x2f83ee41
# UVM_INFO ../src/mst/ahb_master_monitor.sv(117) @ 1835000: uvm_test_top.env.master_agent.mon [ahb_master_monitor] Beat[8] addr=0x000040d6 rdata=0x2f83ee41 resp=AHB_RESP_OKAY
# UVM_INFO ../src/mst/ahb_master_driver.sv(317) @ 1845000: uvm_test_top.env.master_agent.drv [ahb_master_driver] Beat[9/16] addr=0x000040d8 trans=AHB_TRANS_SEQ resp=AHB_RESP_OKAY rdata=0xa1c74885
# UVM_INFO ../src/slv/ahb_slave_driver.sv(184) @ 1845000: uvm_test_top.env.slave_agent.drv [ahb_slave_driver] Beat AHB_READ addr=0x000040d8 resp=AHB_RESP_OKAY waits=0 rdata=0xa1c74885
# UVM_INFO ../src/mst/ahb_master_monitor.sv(117) @ 1845000: uvm_test_top.env.master_agent.mon [ahb_master_monitor] Beat[9] addr=0x000040d8 rdata=0xa1c74885 resp=AHB_RESP_OKAY
# UVM_INFO ../src/mst/ahb_master_driver.sv(317) @ 1875000: uvm_test_top.env.master_agent.drv [ahb_master_driver] Beat[10/16] addr=0x000040da trans=AHB_TRANS_SEQ resp=AHB_RESP_OKAY rdata=0xff214189
# UVM_INFO ../src/slv/ahb_slave_driver.sv(184) @ 1875000: uvm_test_top.env.slave_agent.drv [ahb_slave_driver] Beat AHB_READ addr=0x000040da resp=AHB_RESP_OKAY waits=2 rdata=0xff214189
# UVM_INFO ../src/mst/ahb_master_monitor.sv(117) @ 1875000: uvm_test_top.env.master_agent.mon [ahb_master_monitor] Beat[10] addr=0x000040da rdata=0xff214189 resp=AHB_RESP_OKAY
# UVM_INFO ../src/mst/ahb_master_driver.sv(317) @ 1885000: uvm_test_top.env.master_agent.drv [ahb_master_driver] Beat[11/16] addr=0x000040dc trans=AHB_TRANS_SEQ resp=AHB_RESP_OKAY rdata=0x9414389f
# UVM_INFO ../src/slv/ahb_slave_driver.sv(184) @ 1885000: uvm_test_top.env.slave_agent.drv [ahb_slave_driver] Beat AHB_READ addr=0x000040dc resp=AHB_RESP_OKAY waits=0 rdata=0x9414389f
# UVM_INFO ../src/mst/ahb_master_monitor.sv(117) @ 1885000: uvm_test_top.env.master_agent.mon [ahb_master_monitor] Beat[11] addr=0x000040dc rdata=0x9414389f resp=AHB_RESP_OKAY
# UVM_INFO ../src/mst/ahb_master_driver.sv(317) @ 1895000: uvm_test_top.env.master_agent.drv [ahb_master_driver] Beat[12/16] addr=0x000040de trans=AHB_TRANS_SEQ resp=AHB_RESP_OKAY rdata=0xe497b5d1
# UVM_INFO ../src/slv/ahb_slave_driver.sv(184) @ 1895000: uvm_test_top.env.slave_agent.drv [ahb_slave_driver] Beat AHB_READ addr=0x000040de resp=AHB_RESP_OKAY waits=0 rdata=0xe497b5d1
# UVM_INFO ../src/mst/ahb_master_monitor.sv(117) @ 1895000: uvm_test_top.env.master_agent.mon [ahb_master_monitor] Beat[12] addr=0x000040de rdata=0xe497b5d1 resp=AHB_RESP_OKAY
# UVM_INFO ../src/mst/ahb_master_driver.sv(317) @ 1905000: uvm_test_top.env.master_agent.drv [ahb_master_driver] Beat[13/16] addr=0x000040c0 trans=AHB_TRANS_SEQ resp=AHB_RESP_OKAY rdata=0xb1e2bd81
# UVM_INFO ../src/slv/ahb_slave_driver.sv(184) @ 1905000: uvm_test_top.env.slave_agent.drv [ahb_slave_driver] Beat AHB_READ addr=0x000040c0 resp=AHB_RESP_OKAY waits=0 rdata=0xb1e2bd81
# UVM_INFO ../src/mst/ahb_master_monitor.sv(117) @ 1905000: uvm_test_top.env.master_agent.mon [ahb_master_monitor] Beat[13] addr=0x000040c0 rdata=0xb1e2bd81 resp=AHB_RESP_OKAY
# UVM_INFO ../src/mst/ahb_master_driver.sv(317) @ 1925000: uvm_test_top.env.master_agent.drv [ahb_master_driver] Beat[14/16] addr=0x000040c2 trans=AHB_TRANS_SEQ resp=AHB_RESP_OKAY rdata=0x6aa0c144
# UVM_INFO ../src/slv/ahb_slave_driver.sv(184) @ 1925000: uvm_test_top.env.slave_agent.drv [ahb_slave_driver] Beat AHB_READ addr=0x000040c2 resp=AHB_RESP_OKAY waits=1 rdata=0x6aa0c144
# UVM_INFO ../src/mst/ahb_master_monitor.sv(117) @ 1925000: uvm_test_top.env.master_agent.mon [ahb_master_monitor] Beat[14] addr=0x000040c2 rdata=0x6aa0c144 resp=AHB_RESP_OKAY
# UVM_INFO ../src/mst/ahb_master_driver.sv(317) @ 1955000: uvm_test_top.env.master_agent.drv [ahb_master_driver] Beat[15/16] addr=0x000040c4 trans=AHB_TRANS_SEQ resp=AHB_RESP_OKAY rdata=0xfb84014d
# UVM_INFO ../src/mst/ahb_master_driver.sv(362) @ 1955000: uvm_test_top.env.master_agent.drv [ahb_master_driver] Transaction complete: AHB_READ 0x000040c6, 16 beats, burst=AHB_BURST_WRAP16
# UVM_INFO ../src/slv/ahb_slave_driver.sv(184) @ 1955000: uvm_test_top.env.slave_agent.drv [ahb_slave_driver] Beat AHB_READ addr=0x000040c4 resp=AHB_RESP_OKAY waits=2 rdata=0xfb84014d
# UVM_INFO ../src/slv/ahb_slave_monitor.sv(197) @ 1955000: uvm_test_top.env.slave_agent.mon [ahb_slave_monitor] Observed [AHB_READ]: HADDR=0x000040c6, HBURST=AHB_BURST_WRAP16, HSIZE=AHB_SIZE_16B, 16 beats
# UVM_INFO ../src/env/ahb_coverage.sv(127) @ 1955000: uvm_test_top.env.slave_cov [ahb_coverage] Sampled [AHB_READ]: burst=AHB_BURST_WRAP16 size=AHB_SIZE_16B beats=16 error=0
# UVM_INFO ../src/mst/ahb_master_monitor.sv(117) @ 1955000: uvm_test_top.env.master_agent.mon [ahb_master_monitor] Beat[15] addr=0x000040c4 rdata=0xfb84014d resp=AHB_RESP_OKAY
# UVM_INFO ../src/mst/ahb_master_monitor.sv(222) @ 1955000: uvm_test_top.env.master_agent.mon [ahb_master_monitor] Observed [AHB_READ]: HADDR=0x000040c6, HBURST=AHB_BURST_WRAP16, HSIZE=AHB_SIZE_16B, 16 beats
# UVM_INFO ../src/env/ahb_coverage.sv(127) @ 1955000: uvm_test_top.env.master_cov [ahb_coverage] Sampled [AHB_READ]: burst=AHB_BURST_WRAP16 size=AHB_SIZE_16B beats=16 error=0
# UVM_INFO ../src/env/ahb_scoreboard.sv(104) @ 1955000: uvm_test_top.env.scb [ahb_scoreboard] MATCH #8: [AHB_READ] HADDR=0x000040c6 AHB_BURST_WRAP16 16 beats
# UVM_INFO ../src/mst_seq/ahb_base_seq.sv(164) @ 1955000: uvm_test_top.env.master_agent.sqr@@seq [ahb_wrap_burst_seq] AHB_BURST_WRAP16 AHB_SIZE_16B beat 0 @0x000040c6 ok
# UVM_INFO ../src/mst_seq/ahb_base_seq.sv(164) @ 1955000: uvm_test_top.env.master_agent.sqr@@seq [ahb_wrap_burst_seq] AHB_BURST_WRAP16 AHB_SIZE_16B beat 1 @0x000040c8 ok
# UVM_INFO ../src/mst_seq/ahb_base_seq.sv(164) @ 1955000: uvm_test_top.env.master_agent.sqr@@seq [ahb_wrap_burst_seq] AHB_BURST_WRAP16 AHB_SIZE_16B beat 2 @0x000040ca ok
# UVM_INFO ../src/mst_seq/ahb_base_seq.sv(164) @ 1955000: uvm_test_top.env.master_agent.sqr@@seq [ahb_wrap_burst_seq] AHB_BURST_WRAP16 AHB_SIZE_16B beat 3 @0x000040cc ok
# UVM_INFO ../src/mst_seq/ahb_base_seq.sv(164) @ 1955000: uvm_test_top.env.master_agent.sqr@@seq [ahb_wrap_burst_seq] AHB_BURST_WRAP16 AHB_SIZE_16B beat 4 @0x000040ce ok
# UVM_INFO ../src/mst_seq/ahb_base_seq.sv(164) @ 1955000: uvm_test_top.env.master_agent.sqr@@seq [ahb_wrap_burst_seq] AHB_BURST_WRAP16 AHB_SIZE_16B beat 5 @0x000040d0 ok
# UVM_INFO ../src/mst_seq/ahb_base_seq.sv(164) @ 1955000: uvm_test_top.env.master_agent.sqr@@seq [ahb_wrap_burst_seq] AHB_BURST_WRAP16 AHB_SIZE_16B beat 6 @0x000040d2 ok
# UVM_INFO ../src/mst_seq/ahb_base_seq.sv(164) @ 1955000: uvm_test_top.env.master_agent.sqr@@seq [ahb_wrap_burst_seq] AHB_BURST_WRAP16 AHB_SIZE_16B beat 7 @0x000040d4 ok
# UVM_INFO ../src/mst_seq/ahb_base_seq.sv(164) @ 1955000: uvm_test_top.env.master_agent.sqr@@seq [ahb_wrap_burst_seq] AHB_BURST_WRAP16 AHB_SIZE_16B beat 8 @0x000040d6 ok
# UVM_INFO ../src/mst_seq/ahb_base_seq.sv(164) @ 1955000: uvm_test_top.env.master_agent.sqr@@seq [ahb_wrap_burst_seq] AHB_BURST_WRAP16 AHB_SIZE_16B beat 9 @0x000040d8 ok
# UVM_INFO ../src/mst_seq/ahb_base_seq.sv(164) @ 1955000: uvm_test_top.env.master_agent.sqr@@seq [ahb_wrap_burst_seq] AHB_BURST_WRAP16 AHB_SIZE_16B beat 10 @0x000040da ok
# UVM_INFO ../src/mst_seq/ahb_base_seq.sv(164) @ 1955000: uvm_test_top.env.master_agent.sqr@@seq [ahb_wrap_burst_seq] AHB_BURST_WRAP16 AHB_SIZE_16B beat 11 @0x000040dc ok
# UVM_INFO ../src/mst_seq/ahb_base_seq.sv(164) @ 1955000: uvm_test_top.env.master_agent.sqr@@seq [ahb_wrap_burst_seq] AHB_BURST_WRAP16 AHB_SIZE_16B beat 12 @0x000040de ok
# UVM_INFO ../src/mst_seq/ahb_base_seq.sv(164) @ 1955000: uvm_test_top.env.master_agent.sqr@@seq [ahb_wrap_burst_seq] AHB_BURST_WRAP16 AHB_SIZE_16B beat 13 @0x000040c0 ok
# UVM_INFO ../src/mst_seq/ahb_base_seq.sv(164) @ 1955000: uvm_test_top.env.master_agent.sqr@@seq [ahb_wrap_burst_seq] AHB_BURST_WRAP16 AHB_SIZE_16B beat 14 @0x000040c2 ok
# UVM_INFO ../src/mst_seq/ahb_base_seq.sv(164) @ 1955000: uvm_test_top.env.master_agent.sqr@@seq [ahb_wrap_burst_seq] AHB_BURST_WRAP16 AHB_SIZE_16B beat 15 @0x000040c4 ok
# UVM_INFO ../src/mst/ahb_master_driver.sv(82) @ 1955000: uvm_test_top.env.master_agent.drv [ahb_master_driver] Queueing [AHB_WRITE]: HADDR=0x00004134, HBURST=AHB_BURST_WRAP16, HSIZE=AHB_SIZE_16B, 16 beats
# UVM_INFO ../src/mst/ahb_master_driver.sv(124) @ 1955000: uvm_test_top.env.master_agent.drv [ahb_master_driver] Driving [AHB_WRITE]: HADDR=0x00004134, HBURST=AHB_BURST_WRAP16, HSIZE=AHB_SIZE_16B, 16 beats               
# UVM_INFO ../src/mst/ahb_master_driver.sv(317) @ 1985000: uvm_test_top.env.master_agent.drv [ahb_master_driver] Beat[0/16] addr=0x00004134 trans=AHB_TRANS_NONSEQ resp=AHB_RESP_OKAY wdata=0x1ace801f
# UVM_INFO ../src/slv/ahb_slave_driver.sv(184) @ 1985000: uvm_test_top.env.slave_agent.drv [ahb_slave_driver] Beat AHB_WRITE addr=0x00004134 resp=AHB_RESP_OKAY waits=0 wdata=0x1ace801f
# UVM_INFO ../src/mst/ahb_master_monitor.sv(117) @ 1985000: uvm_test_top.env.master_agent.mon [ahb_master_monitor] Beat[0] addr=0x00004134 wdata=0x1ace801f resp=AHB_RESP_OKAY
# UVM_INFO ../src/mst/ahb_master_driver.sv(317) @ 2015000: uvm_test_top.env.master_agent.drv [ahb_master_driver] Beat[1/16] addr=0x00004136 trans=AHB_TRANS_SEQ resp=AHB_RESP_OKAY wdata=0x26c7688b
# UVM_INFO ../src/slv/ahb_slave_driver.sv(184) @ 2015000: uvm_test_top.env.slave_agent.drv [ahb_slave_driver] Beat AHB_WRITE addr=0x00004136 resp=AHB_RESP_OKAY waits=2 wdata=0x26c7688b
# UVM_INFO ../src/mst/ahb_master_monitor.sv(117) @ 2015000: uvm_test_top.env.master_agent.mon [ahb_master_monitor] Beat[1] addr=0x00004136 wdata=0x26c7688b resp=AHB_RESP_OKAY
# UVM_INFO ../src/mst/ahb_master_driver.sv(317) @ 2025000: uvm_test_top.env.master_agent.drv [ahb_master_driver] Beat[2/16] addr=0x00004138 trans=AHB_TRANS_SEQ resp=AHB_RESP_OKAY wdata=0x45dadbaa
# UVM_INFO ../src/slv/ahb_slave_driver.sv(184) @ 2025000: uvm_test_top.env.slave_agent.drv [ahb_slave_driver] Beat AHB_WRITE addr=0x00004138 resp=AHB_RESP_OKAY waits=0 wdata=0x45dadbaa
# UVM_INFO ../src/mst/ahb_master_monitor.sv(117) @ 2025000: uvm_test_top.env.master_agent.mon [ahb_master_monitor] Beat[2] addr=0x00004138 wdata=0x45dadbaa resp=AHB_RESP_OKAY
# UVM_INFO ../src/mst/ahb_master_driver.sv(317) @ 2045000: uvm_test_top.env.master_agent.drv [ahb_master_driver] Beat[3/16] addr=0x0000413a trans=AHB_TRANS_SEQ resp=AHB_RESP_OKAY wdata=0xadce1cd3
# UVM_INFO ../src/slv/ahb_slave_driver.sv(184) @ 2045000: uvm_test_top.env.slave_agent.drv [ahb_slave_driver] Beat AHB_WRITE addr=0x0000413a resp=AHB_RESP_OKAY waits=1 wdata=0xadce1cd3
# UVM_INFO ../src/mst/ahb_master_monitor.sv(117) @ 2045000: uvm_test_top.env.master_agent.mon [ahb_master_monitor] Beat[3] addr=0x0000413a wdata=0xadce1cd3 resp=AHB_RESP_OKAY
# UVM_INFO ../src/mst/ahb_master_driver.sv(317) @ 2075000: uvm_test_top.env.master_agent.drv [ahb_master_driver] Beat[4/16] addr=0x0000413c trans=AHB_TRANS_SEQ resp=AHB_RESP_OKAY wdata=0xd27924a1
# UVM_INFO ../src/slv/ahb_slave_driver.sv(184) @ 2075000: uvm_test_top.env.slave_agent.drv [ahb_slave_driver] Beat AHB_WRITE addr=0x0000413c resp=AHB_RESP_OKAY waits=2 wdata=0xd27924a1
# UVM_INFO ../src/mst/ahb_master_monitor.sv(117) @ 2075000: uvm_test_top.env.master_agent.mon [ahb_master_monitor] Beat[4] addr=0x0000413c wdata=0xd27924a1 resp=AHB_RESP_OKAY
# UVM_INFO ../src/mst/ahb_master_driver.sv(317) @ 2095000: uvm_test_top.env.master_agent.drv [ahb_master_driver] Beat[5/16] addr=0x0000413e trans=AHB_TRANS_SEQ resp=AHB_RESP_OKAY wdata=0xa5530d12
# UVM_INFO ../src/slv/ahb_slave_driver.sv(184) @ 2095000: uvm_test_top.env.slave_agent.drv [ahb_slave_driver] Beat AHB_WRITE addr=0x0000413e resp=AHB_RESP_OKAY waits=1 wdata=0xa5530d12
# UVM_INFO ../src/mst/ahb_master_monitor.sv(117) @ 2095000: uvm_test_top.env.master_agent.mon [ahb_master_monitor] Beat[5] addr=0x0000413e wdata=0xa5530d12 resp=AHB_RESP_OKAY
# UVM_INFO ../src/mst/ahb_master_driver.sv(317) @ 2125000: uvm_test_top.env.master_agent.drv [ahb_master_driver] Beat[6/16] addr=0x00004120 trans=AHB_TRANS_SEQ resp=AHB_RESP_OKAY wdata=0x52105544
# UVM_INFO ../src/slv/ahb_slave_driver.sv(184) @ 2125000: uvm_test_top.env.slave_agent.drv [ahb_slave_driver] Beat AHB_WRITE addr=0x00004120 resp=AHB_RESP_OKAY waits=2 wdata=0x52105544
# UVM_INFO ../src/mst/ahb_master_monitor.sv(117) @ 2125000: uvm_test_top.env.master_agent.mon [ahb_master_monitor] Beat[6] addr=0x00004120 wdata=0x52105544 resp=AHB_RESP_OKAY
# UVM_INFO ../src/mst/ahb_master_driver.sv(317) @ 2135000: uvm_test_top.env.master_agent.drv [ahb_master_driver] Beat[7/16] addr=0x00004122 trans=AHB_TRANS_SEQ resp=AHB_RESP_OKAY wdata=0xd15fd732
# UVM_INFO ../src/slv/ahb_slave_driver.sv(184) @ 2135000: uvm_test_top.env.slave_agent.drv [ahb_slave_driver] Beat AHB_WRITE addr=0x00004122 resp=AHB_RESP_OKAY waits=0 wdata=0xd15fd732
# UVM_INFO ../src/mst/ahb_master_monitor.sv(117) @ 2135000: uvm_test_top.env.master_agent.mon [ahb_master_monitor] Beat[7] addr=0x00004122 wdata=0xd15fd732 resp=AHB_RESP_OKAY
# UVM_INFO ../src/mst/ahb_master_driver.sv(317) @ 2155000: uvm_test_top.env.master_agent.drv [ahb_master_driver] Beat[8/16] addr=0x00004124 trans=AHB_TRANS_SEQ resp=AHB_RESP_OKAY wdata=0xecfcc3ac
# UVM_INFO ../src/slv/ahb_slave_driver.sv(184) @ 2155000: uvm_test_top.env.slave_agent.drv [ahb_slave_driver] Beat AHB_WRITE addr=0x00004124 resp=AHB_RESP_OKAY waits=1 wdata=0xecfcc3ac
# UVM_INFO ../src/mst/ahb_master_monitor.sv(117) @ 2155000: uvm_test_top.env.master_agent.mon [ahb_master_monitor] Beat[8] addr=0x00004124 wdata=0xecfcc3ac resp=AHB_RESP_OKAY
# UVM_INFO ../src/mst/ahb_master_driver.sv(317) @ 2175000: uvm_test_top.env.master_agent.drv [ahb_master_driver] Beat[9/16] addr=0x00004126 trans=AHB_TRANS_SEQ resp=AHB_RESP_OKAY wdata=0x2ccf94ee
# UVM_INFO ../src/slv/ahb_slave_driver.sv(184) @ 2175000: uvm_test_top.env.slave_agent.drv [ahb_slave_driver] Beat AHB_WRITE addr=0x00004126 resp=AHB_RESP_OKAY waits=1 wdata=0x2ccf94ee
# UVM_INFO ../src/mst/ahb_master_monitor.sv(117) @ 2175000: uvm_test_top.env.master_agent.mon [ahb_master_monitor] Beat[9] addr=0x00004126 wdata=0x2ccf94ee resp=AHB_RESP_OKAY
# UVM_INFO ../src/mst/ahb_master_driver.sv(317) @ 2205000: uvm_test_top.env.master_agent.drv [ahb_master_driver] Beat[10/16] addr=0x00004128 trans=AHB_TRANS_SEQ resp=AHB_RESP_OKAY wdata=0x4e3b736e
# UVM_INFO ../src/slv/ahb_slave_driver.sv(184) @ 2205000: uvm_test_top.env.slave_agent.drv [ahb_slave_driver] Beat AHB_WRITE addr=0x00004128 resp=AHB_RESP_OKAY waits=2 wdata=0x4e3b736e
# UVM_INFO ../src/mst/ahb_master_monitor.sv(117) @ 2205000: uvm_test_top.env.master_agent.mon [ahb_master_monitor] Beat[10] addr=0x00004128 wdata=0x4e3b736e resp=AHB_RESP_OKAY
# UVM_INFO ../src/mst/ahb_master_driver.sv(317) @ 2215000: uvm_test_top.env.master_agent.drv [ahb_master_driver] Beat[11/16] addr=0x0000412a trans=AHB_TRANS_SEQ resp=AHB_RESP_OKAY wdata=0xe9e22237
# UVM_INFO ../src/slv/ahb_slave_driver.sv(184) @ 2215000: uvm_test_top.env.slave_agent.drv [ahb_slave_driver] Beat AHB_WRITE addr=0x0000412a resp=AHB_RESP_OKAY waits=0 wdata=0xe9e22237
# UVM_INFO ../src/mst/ahb_master_monitor.sv(117) @ 2215000: uvm_test_top.env.master_agent.mon [ahb_master_monitor] Beat[11] addr=0x0000412a wdata=0xe9e22237 resp=AHB_RESP_OKAY
# UVM_INFO ../src/mst/ahb_master_driver.sv(317) @ 2245000: uvm_test_top.env.master_agent.drv [ahb_master_driver] Beat[12/16] addr=0x0000412c trans=AHB_TRANS_SEQ resp=AHB_RESP_OKAY wdata=0x41c6a27f
# UVM_INFO ../src/slv/ahb_slave_driver.sv(184) @ 2245000: uvm_test_top.env.slave_agent.drv [ahb_slave_driver] Beat AHB_WRITE addr=0x0000412c resp=AHB_RESP_OKAY waits=2 wdata=0x41c6a27f
# UVM_INFO ../src/mst/ahb_master_monitor.sv(117) @ 2245000: uvm_test_top.env.master_agent.mon [ahb_master_monitor] Beat[12] addr=0x0000412c wdata=0x41c6a27f resp=AHB_RESP_OKAY
# UVM_INFO ../src/mst/ahb_master_driver.sv(317) @ 2255000: uvm_test_top.env.master_agent.drv [ahb_master_driver] Beat[13/16] addr=0x0000412e trans=AHB_TRANS_SEQ resp=AHB_RESP_OKAY wdata=0x642fca5b
# UVM_INFO ../src/slv/ahb_slave_driver.sv(184) @ 2255000: uvm_test_top.env.slave_agent.drv [ahb_slave_driver] Beat AHB_WRITE addr=0x0000412e resp=AHB_RESP_OKAY waits=0 wdata=0x642fca5b
# UVM_INFO ../src/mst/ahb_master_monitor.sv(117) @ 2255000: uvm_test_top.env.master_agent.mon [ahb_master_monitor] Beat[13] addr=0x0000412e wdata=0x642fca5b resp=AHB_RESP_OKAY
# UVM_INFO ../src/mst/ahb_master_driver.sv(317) @ 2285000: uvm_test_top.env.master_agent.drv [ahb_master_driver] Beat[14/16] addr=0x00004130 trans=AHB_TRANS_SEQ resp=AHB_RESP_OKAY wdata=0x29c462c4
# UVM_INFO ../src/slv/ahb_slave_driver.sv(184) @ 2285000: uvm_test_top.env.slave_agent.drv [ahb_slave_driver] Beat AHB_WRITE addr=0x00004130 resp=AHB_RESP_OKAY waits=2 wdata=0x29c462c4
# UVM_INFO ../src/mst/ahb_master_monitor.sv(117) @ 2285000: uvm_test_top.env.master_agent.mon [ahb_master_monitor] Beat[14] addr=0x00004130 wdata=0x29c462c4 resp=AHB_RESP_OKAY
# UVM_INFO ../src/mst/ahb_master_driver.sv(317) @ 2295000: uvm_test_top.env.master_agent.drv [ahb_master_driver] Beat[15/16] addr=0x00004132 trans=AHB_TRANS_SEQ resp=AHB_RESP_OKAY wdata=0xe3211941
# UVM_INFO ../src/mst/ahb_master_driver.sv(362) @ 2295000: uvm_test_top.env.master_agent.drv [ahb_master_driver] Transaction complete: AHB_WRITE 0x00004134, 16 beats, burst=AHB_BURST_WRAP16
# UVM_INFO ../src/slv/ahb_slave_driver.sv(184) @ 2295000: uvm_test_top.env.slave_agent.drv [ahb_slave_driver] Beat AHB_WRITE addr=0x00004132 resp=AHB_RESP_OKAY waits=0 wdata=0xe3211941
# UVM_INFO ../src/slv/ahb_slave_monitor.sv(197) @ 2295000: uvm_test_top.env.slave_agent.mon [ahb_slave_monitor] Observed [AHB_WRITE]: HADDR=0x00004134, HBURST=AHB_BURST_WRAP16, HSIZE=AHB_SIZE_16B, 16 beats
# UVM_INFO ../src/env/ahb_coverage.sv(127) @ 2295000: uvm_test_top.env.slave_cov [ahb_coverage] Sampled [AHB_WRITE]: burst=AHB_BURST_WRAP16 size=AHB_SIZE_16B beats=16 error=0
# UVM_INFO ../src/mst/ahb_master_monitor.sv(117) @ 2295000: uvm_test_top.env.master_agent.mon [ahb_master_monitor] Beat[15] addr=0x00004132 wdata=0xe3211941 resp=AHB_RESP_OKAY
# UVM_INFO ../src/mst/ahb_master_monitor.sv(222) @ 2295000: uvm_test_top.env.master_agent.mon [ahb_master_monitor] Observed [AHB_WRITE]: HADDR=0x00004134, HBURST=AHB_BURST_WRAP16, HSIZE=AHB_SIZE_16B, 16 beats
# UVM_INFO ../src/env/ahb_coverage.sv(127) @ 2295000: uvm_test_top.env.master_cov [ahb_coverage] Sampled [AHB_WRITE]: burst=AHB_BURST_WRAP16 size=AHB_SIZE_16B beats=16 error=0
# UVM_INFO ../src/env/ahb_scoreboard.sv(104) @ 2295000: uvm_test_top.env.scb [ahb_scoreboard] MATCH #9: [AHB_WRITE] HADDR=0x00004134 AHB_BURST_WRAP16 16 beats
# UVM_INFO ../src/mst/ahb_master_driver.sv(82) @ 2295000: uvm_test_top.env.master_agent.drv [ahb_master_driver] Queueing [AHB_READ]: HADDR=0x00004134, HBURST=AHB_BURST_WRAP16, HSIZE=AHB_SIZE_16B, 16 beats
# UVM_INFO ../src/mst/ahb_master_driver.sv(124) @ 2295000: uvm_test_top.env.master_agent.drv [ahb_master_driver] Driving [AHB_READ]: HADDR=0x00004134, HBURST=AHB_BURST_WRAP16, HSIZE=AHB_SIZE_16B, 16 beats               
# UVM_INFO ../src/mst/ahb_master_driver.sv(317) @ 2335000: uvm_test_top.env.master_agent.drv [ahb_master_driver] Beat[0/16] addr=0x00004134 trans=AHB_TRANS_NONSEQ resp=AHB_RESP_OKAY rdata=0x1ace801f
# UVM_INFO ../src/slv/ahb_slave_driver.sv(184) @ 2335000: uvm_test_top.env.slave_agent.drv [ahb_slave_driver] Beat AHB_READ addr=0x00004134 resp=AHB_RESP_OKAY waits=1 rdata=0x1ace801f
# UVM_INFO ../src/mst/ahb_master_monitor.sv(117) @ 2335000: uvm_test_top.env.master_agent.mon [ahb_master_monitor] Beat[0] addr=0x00004134 rdata=0x1ace801f resp=AHB_RESP_OKAY
# UVM_INFO ../src/mst/ahb_master_driver.sv(317) @ 2355000: uvm_test_top.env.master_agent.drv [ahb_master_driver] Beat[1/16] addr=0x00004136 trans=AHB_TRANS_SEQ resp=AHB_RESP_OKAY rdata=0x26c7688b
# UVM_INFO ../src/slv/ahb_slave_driver.sv(184) @ 2355000: uvm_test_top.env.slave_agent.drv [ahb_slave_driver] Beat AHB_READ addr=0x00004136 resp=AHB_RESP_OKAY waits=1 rdata=0x26c7688b
# UVM_INFO ../src/mst/ahb_master_monitor.sv(117) @ 2355000: uvm_test_top.env.master_agent.mon [ahb_master_monitor] Beat[1] addr=0x00004136 rdata=0x26c7688b resp=AHB_RESP_OKAY
# UVM_INFO ../src/mst/ahb_master_driver.sv(317) @ 2365000: uvm_test_top.env.master_agent.drv [ahb_master_driver] Beat[2/16] addr=0x00004138 trans=AHB_TRANS_SEQ resp=AHB_RESP_OKAY rdata=0x45dadbaa
# UVM_INFO ../src/slv/ahb_slave_driver.sv(184) @ 2365000: uvm_test_top.env.slave_agent.drv [ahb_slave_driver] Beat AHB_READ addr=0x00004138 resp=AHB_RESP_OKAY waits=0 rdata=0x45dadbaa
# UVM_INFO ../src/mst/ahb_master_monitor.sv(117) @ 2365000: uvm_test_top.env.master_agent.mon [ahb_master_monitor] Beat[2] addr=0x00004138 rdata=0x45dadbaa resp=AHB_RESP_OKAY
# UVM_INFO ../src/mst/ahb_master_driver.sv(317) @ 2375000: uvm_test_top.env.master_agent.drv [ahb_master_driver] Beat[3/16] addr=0x0000413a trans=AHB_TRANS_SEQ resp=AHB_RESP_OKAY rdata=0xadce1cd3
# UVM_INFO ../src/slv/ahb_slave_driver.sv(184) @ 2375000: uvm_test_top.env.slave_agent.drv [ahb_slave_driver] Beat AHB_READ addr=0x0000413a resp=AHB_RESP_OKAY waits=0 rdata=0xadce1cd3
# UVM_INFO ../src/mst/ahb_master_monitor.sv(117) @ 2375000: uvm_test_top.env.master_agent.mon [ahb_master_monitor] Beat[3] addr=0x0000413a rdata=0xadce1cd3 resp=AHB_RESP_OKAY
# UVM_INFO ../src/mst/ahb_master_driver.sv(317) @ 2385000: uvm_test_top.env.master_agent.drv [ahb_master_driver] Beat[4/16] addr=0x0000413c trans=AHB_TRANS_SEQ resp=AHB_RESP_OKAY rdata=0xd27924a1
# UVM_INFO ../src/slv/ahb_slave_driver.sv(184) @ 2385000: uvm_test_top.env.slave_agent.drv [ahb_slave_driver] Beat AHB_READ addr=0x0000413c resp=AHB_RESP_OKAY waits=0 rdata=0xd27924a1
# UVM_INFO ../src/mst/ahb_master_monitor.sv(117) @ 2385000: uvm_test_top.env.master_agent.mon [ahb_master_monitor] Beat[4] addr=0x0000413c rdata=0xd27924a1 resp=AHB_RESP_OKAY
# UVM_INFO ../src/mst/ahb_master_driver.sv(317) @ 2405000: uvm_test_top.env.master_agent.drv [ahb_master_driver] Beat[5/16] addr=0x0000413e trans=AHB_TRANS_SEQ resp=AHB_RESP_OKAY rdata=0xa5530d12
# UVM_INFO ../src/slv/ahb_slave_driver.sv(184) @ 2405000: uvm_test_top.env.slave_agent.drv [ahb_slave_driver] Beat AHB_READ addr=0x0000413e resp=AHB_RESP_OKAY waits=1 rdata=0xa5530d12
# UVM_INFO ../src/mst/ahb_master_monitor.sv(117) @ 2405000: uvm_test_top.env.master_agent.mon [ahb_master_monitor] Beat[5] addr=0x0000413e rdata=0xa5530d12 resp=AHB_RESP_OKAY
# UVM_INFO ../src/mst/ahb_master_driver.sv(317) @ 2415000: uvm_test_top.env.master_agent.drv [ahb_master_driver] Beat[6/16] addr=0x00004120 trans=AHB_TRANS_SEQ resp=AHB_RESP_OKAY rdata=0x52105544
# UVM_INFO ../src/slv/ahb_slave_driver.sv(184) @ 2415000: uvm_test_top.env.slave_agent.drv [ahb_slave_driver] Beat AHB_READ addr=0x00004120 resp=AHB_RESP_OKAY waits=0 rdata=0x52105544
# UVM_INFO ../src/mst/ahb_master_monitor.sv(117) @ 2415000: uvm_test_top.env.master_agent.mon [ahb_master_monitor] Beat[6] addr=0x00004120 rdata=0x52105544 resp=AHB_RESP_OKAY
# UVM_INFO ../src/mst/ahb_master_driver.sv(317) @ 2435000: uvm_test_top.env.master_agent.drv [ahb_master_driver] Beat[7/16] addr=0x00004122 trans=AHB_TRANS_SEQ resp=AHB_RESP_OKAY rdata=0xd15fd732
# UVM_INFO ../src/slv/ahb_slave_driver.sv(184) @ 2435000: uvm_test_top.env.slave_agent.drv [ahb_slave_driver] Beat AHB_READ addr=0x00004122 resp=AHB_RESP_OKAY waits=1 rdata=0xd15fd732
# UVM_INFO ../src/mst/ahb_master_monitor.sv(117) @ 2435000: uvm_test_top.env.master_agent.mon [ahb_master_monitor] Beat[7] addr=0x00004122 rdata=0xd15fd732 resp=AHB_RESP_OKAY
# UVM_INFO ../src/mst/ahb_master_driver.sv(317) @ 2455000: uvm_test_top.env.master_agent.drv [ahb_master_driver] Beat[8/16] addr=0x00004124 trans=AHB_TRANS_SEQ resp=AHB_RESP_OKAY rdata=0xecfcc3ac
# UVM_INFO ../src/slv/ahb_slave_driver.sv(184) @ 2455000: uvm_test_top.env.slave_agent.drv [ahb_slave_driver] Beat AHB_READ addr=0x00004124 resp=AHB_RESP_OKAY waits=1 rdata=0xecfcc3ac
# UVM_INFO ../src/mst/ahb_master_monitor.sv(117) @ 2455000: uvm_test_top.env.master_agent.mon [ahb_master_monitor] Beat[8] addr=0x00004124 rdata=0xecfcc3ac resp=AHB_RESP_OKAY
# UVM_INFO ../src/mst/ahb_master_driver.sv(317) @ 2485000: uvm_test_top.env.master_agent.drv [ahb_master_driver] Beat[9/16] addr=0x00004126 trans=AHB_TRANS_SEQ resp=AHB_RESP_OKAY rdata=0x2ccf94ee
# UVM_INFO ../src/slv/ahb_slave_driver.sv(184) @ 2485000: uvm_test_top.env.slave_agent.drv [ahb_slave_driver] Beat AHB_READ addr=0x00004126 resp=AHB_RESP_OKAY waits=2 rdata=0x2ccf94ee
# UVM_INFO ../src/mst/ahb_master_monitor.sv(117) @ 2485000: uvm_test_top.env.master_agent.mon [ahb_master_monitor] Beat[9] addr=0x00004126 rdata=0x2ccf94ee resp=AHB_RESP_OKAY
# UVM_INFO ../src/mst/ahb_master_driver.sv(317) @ 2505000: uvm_test_top.env.master_agent.drv [ahb_master_driver] Beat[10/16] addr=0x00004128 trans=AHB_TRANS_SEQ resp=AHB_RESP_OKAY rdata=0x4e3b736e
# UVM_INFO ../src/slv/ahb_slave_driver.sv(184) @ 2505000: uvm_test_top.env.slave_agent.drv [ahb_slave_driver] Beat AHB_READ addr=0x00004128 resp=AHB_RESP_OKAY waits=1 rdata=0x4e3b736e
# UVM_INFO ../src/mst/ahb_master_monitor.sv(117) @ 2505000: uvm_test_top.env.master_agent.mon [ahb_master_monitor] Beat[10] addr=0x00004128 rdata=0x4e3b736e resp=AHB_RESP_OKAY
# UVM_INFO ../src/mst/ahb_master_driver.sv(317) @ 2535000: uvm_test_top.env.master_agent.drv [ahb_master_driver] Beat[11/16] addr=0x0000412a trans=AHB_TRANS_SEQ resp=AHB_RESP_OKAY rdata=0xe9e22237
# UVM_INFO ../src/slv/ahb_slave_driver.sv(184) @ 2535000: uvm_test_top.env.slave_agent.drv [ahb_slave_driver] Beat AHB_READ addr=0x0000412a resp=AHB_RESP_OKAY waits=2 rdata=0xe9e22237
# UVM_INFO ../src/mst/ahb_master_monitor.sv(117) @ 2535000: uvm_test_top.env.master_agent.mon [ahb_master_monitor] Beat[11] addr=0x0000412a rdata=0xe9e22237 resp=AHB_RESP_OKAY
# UVM_INFO ../src/mst/ahb_master_driver.sv(317) @ 2555000: uvm_test_top.env.master_agent.drv [ahb_master_driver] Beat[12/16] addr=0x0000412c trans=AHB_TRANS_SEQ resp=AHB_RESP_OKAY rdata=0x41c6a27f
# UVM_INFO ../src/slv/ahb_slave_driver.sv(184) @ 2555000: uvm_test_top.env.slave_agent.drv [ahb_slave_driver] Beat AHB_READ addr=0x0000412c resp=AHB_RESP_OKAY waits=1 rdata=0x41c6a27f
# UVM_INFO ../src/mst/ahb_master_monitor.sv(117) @ 2555000: uvm_test_top.env.master_agent.mon [ahb_master_monitor] Beat[12] addr=0x0000412c rdata=0x41c6a27f resp=AHB_RESP_OKAY
# UVM_INFO ../src/mst/ahb_master_driver.sv(317) @ 2575000: uvm_test_top.env.master_agent.drv [ahb_master_driver] Beat[13/16] addr=0x0000412e trans=AHB_TRANS_SEQ resp=AHB_RESP_OKAY rdata=0x642fca5b
# UVM_INFO ../src/slv/ahb_slave_driver.sv(184) @ 2575000: uvm_test_top.env.slave_agent.drv [ahb_slave_driver] Beat AHB_READ addr=0x0000412e resp=AHB_RESP_OKAY waits=1 rdata=0x642fca5b
# UVM_INFO ../src/mst/ahb_master_monitor.sv(117) @ 2575000: uvm_test_top.env.master_agent.mon [ahb_master_monitor] Beat[13] addr=0x0000412e rdata=0x642fca5b resp=AHB_RESP_OKAY
# UVM_INFO ../src/mst/ahb_master_driver.sv(317) @ 2595000: uvm_test_top.env.master_agent.drv [ahb_master_driver] Beat[14/16] addr=0x00004130 trans=AHB_TRANS_SEQ resp=AHB_RESP_OKAY rdata=0x29c462c4
# UVM_INFO ../src/slv/ahb_slave_driver.sv(184) @ 2595000: uvm_test_top.env.slave_agent.drv [ahb_slave_driver] Beat AHB_READ addr=0x00004130 resp=AHB_RESP_OKAY waits=1 rdata=0x29c462c4
# UVM_INFO ../src/mst/ahb_master_monitor.sv(117) @ 2595000: uvm_test_top.env.master_agent.mon [ahb_master_monitor] Beat[14] addr=0x00004130 rdata=0x29c462c4 resp=AHB_RESP_OKAY
# UVM_INFO ../src/mst/ahb_master_driver.sv(317) @ 2615000: uvm_test_top.env.master_agent.drv [ahb_master_driver] Beat[15/16] addr=0x00004132 trans=AHB_TRANS_SEQ resp=AHB_RESP_OKAY rdata=0xe3211941
# UVM_INFO ../src/mst/ahb_master_driver.sv(362) @ 2615000: uvm_test_top.env.master_agent.drv [ahb_master_driver] Transaction complete: AHB_READ 0x00004134, 16 beats, burst=AHB_BURST_WRAP16
# UVM_INFO ../src/slv/ahb_slave_driver.sv(184) @ 2615000: uvm_test_top.env.slave_agent.drv [ahb_slave_driver] Beat AHB_READ addr=0x00004132 resp=AHB_RESP_OKAY waits=1 rdata=0xe3211941
# UVM_INFO ../src/slv/ahb_slave_monitor.sv(197) @ 2615000: uvm_test_top.env.slave_agent.mon [ahb_slave_monitor] Observed [AHB_READ]: HADDR=0x00004134, HBURST=AHB_BURST_WRAP16, HSIZE=AHB_SIZE_16B, 16 beats
# UVM_INFO ../src/env/ahb_coverage.sv(127) @ 2615000: uvm_test_top.env.slave_cov [ahb_coverage] Sampled [AHB_READ]: burst=AHB_BURST_WRAP16 size=AHB_SIZE_16B beats=16 error=0
# UVM_INFO ../src/mst/ahb_master_monitor.sv(117) @ 2615000: uvm_test_top.env.master_agent.mon [ahb_master_monitor] Beat[15] addr=0x00004132 rdata=0xe3211941 resp=AHB_RESP_OKAY
# UVM_INFO ../src/mst/ahb_master_monitor.sv(222) @ 2615000: uvm_test_top.env.master_agent.mon [ahb_master_monitor] Observed [AHB_READ]: HADDR=0x00004134, HBURST=AHB_BURST_WRAP16, HSIZE=AHB_SIZE_16B, 16 beats
# UVM_INFO ../src/env/ahb_coverage.sv(127) @ 2615000: uvm_test_top.env.master_cov [ahb_coverage] Sampled [AHB_READ]: burst=AHB_BURST_WRAP16 size=AHB_SIZE_16B beats=16 error=0
# UVM_INFO ../src/env/ahb_scoreboard.sv(104) @ 2615000: uvm_test_top.env.scb [ahb_scoreboard] MATCH #10: [AHB_READ] HADDR=0x00004134 AHB_BURST_WRAP16 16 beats
# UVM_INFO ../src/mst_seq/ahb_base_seq.sv(164) @ 2615000: uvm_test_top.env.master_agent.sqr@@seq [ahb_wrap_burst_seq] AHB_BURST_WRAP16 AHB_SIZE_16B beat 0 @0x00004134 ok
# UVM_INFO ../src/mst_seq/ahb_base_seq.sv(164) @ 2615000: uvm_test_top.env.master_agent.sqr@@seq [ahb_wrap_burst_seq] AHB_BURST_WRAP16 AHB_SIZE_16B beat 1 @0x00004136 ok
# UVM_INFO ../src/mst_seq/ahb_base_seq.sv(164) @ 2615000: uvm_test_top.env.master_agent.sqr@@seq [ahb_wrap_burst_seq] AHB_BURST_WRAP16 AHB_SIZE_16B beat 2 @0x00004138 ok
# UVM_INFO ../src/mst_seq/ahb_base_seq.sv(164) @ 2615000: uvm_test_top.env.master_agent.sqr@@seq [ahb_wrap_burst_seq] AHB_BURST_WRAP16 AHB_SIZE_16B beat 3 @0x0000413a ok
# UVM_INFO ../src/mst_seq/ahb_base_seq.sv(164) @ 2615000: uvm_test_top.env.master_agent.sqr@@seq [ahb_wrap_burst_seq] AHB_BURST_WRAP16 AHB_SIZE_16B beat 4 @0x0000413c ok
# UVM_INFO ../src/mst_seq/ahb_base_seq.sv(164) @ 2615000: uvm_test_top.env.master_agent.sqr@@seq [ahb_wrap_burst_seq] AHB_BURST_WRAP16 AHB_SIZE_16B beat 5 @0x0000413e ok
# UVM_INFO ../src/mst_seq/ahb_base_seq.sv(164) @ 2615000: uvm_test_top.env.master_agent.sqr@@seq [ahb_wrap_burst_seq] AHB_BURST_WRAP16 AHB_SIZE_16B beat 6 @0x00004120 ok
# UVM_INFO ../src/mst_seq/ahb_base_seq.sv(164) @ 2615000: uvm_test_top.env.master_agent.sqr@@seq [ahb_wrap_burst_seq] AHB_BURST_WRAP16 AHB_SIZE_16B beat 7 @0x00004122 ok
# UVM_INFO ../src/mst_seq/ahb_base_seq.sv(164) @ 2615000: uvm_test_top.env.master_agent.sqr@@seq [ahb_wrap_burst_seq] AHB_BURST_WRAP16 AHB_SIZE_16B beat 8 @0x00004124 ok
# UVM_INFO ../src/mst_seq/ahb_base_seq.sv(164) @ 2615000: uvm_test_top.env.master_agent.sqr@@seq [ahb_wrap_burst_seq] AHB_BURST_WRAP16 AHB_SIZE_16B beat 9 @0x00004126 ok
# UVM_INFO ../src/mst_seq/ahb_base_seq.sv(164) @ 2615000: uvm_test_top.env.master_agent.sqr@@seq [ahb_wrap_burst_seq] AHB_BURST_WRAP16 AHB_SIZE_16B beat 10 @0x00004128 ok
# UVM_INFO ../src/mst_seq/ahb_base_seq.sv(164) @ 2615000: uvm_test_top.env.master_agent.sqr@@seq [ahb_wrap_burst_seq] AHB_BURST_WRAP16 AHB_SIZE_16B beat 11 @0x0000412a ok
# UVM_INFO ../src/mst_seq/ahb_base_seq.sv(164) @ 2615000: uvm_test_top.env.master_agent.sqr@@seq [ahb_wrap_burst_seq] AHB_BURST_WRAP16 AHB_SIZE_16B beat 12 @0x0000412c ok
# UVM_INFO ../src/mst_seq/ahb_base_seq.sv(164) @ 2615000: uvm_test_top.env.master_agent.sqr@@seq [ahb_wrap_burst_seq] AHB_BURST_WRAP16 AHB_SIZE_16B beat 13 @0x0000412e ok
# UVM_INFO ../src/mst_seq/ahb_base_seq.sv(164) @ 2615000: uvm_test_top.env.master_agent.sqr@@seq [ahb_wrap_burst_seq] AHB_BURST_WRAP16 AHB_SIZE_16B beat 14 @0x00004130 ok
# UVM_INFO ../src/mst_seq/ahb_base_seq.sv(164) @ 2615000: uvm_test_top.env.master_agent.sqr@@seq [ahb_wrap_burst_seq] AHB_BURST_WRAP16 AHB_SIZE_16B beat 15 @0x00004132 ok
# UVM_INFO ../src/mst/ahb_master_driver.sv(82) @ 2615000: uvm_test_top.env.master_agent.drv [ahb_master_driver] Queueing [AHB_WRITE]: HADDR=0x0000414a, HBURST=AHB_BURST_WRAP16, HSIZE=AHB_SIZE_16B, 16 beats
# UVM_INFO ../src/mst/ahb_master_driver.sv(124) @ 2615000: uvm_test_top.env.master_agent.drv [ahb_master_driver] Driving [AHB_WRITE]: HADDR=0x0000414a, HBURST=AHB_BURST_WRAP16, HSIZE=AHB_SIZE_16B, 16 beats               
