# vsim -c -coverage -sv_seed 60038963 "+UVM_TESTNAME=ahb_byte_lane_test" "+UVM_VERBOSITY=UVM_HIGH" "+DUMP_VCD" -l ./report/logs/ahb_byte_lane_test_run_2_seed_60038963.log -do "coverage save -onexit ./report/coverage/ahb_byte_lane_test_run_2_seed_60038963.ucdb; run -all; quit -f" opt_tb_top 
# Start time: 12:12:15 on Aug 06,2026
# //  Questa Sim-64
# //  Version 10.6b linux_x86_64 May 25 2017
# //
# //  Copyright 1991-2017 Mentor Graphics Corporation
# //  All Rights Reserved.
# //
# //  QuestaSim and its associated documentation contain trade
# //  secrets and commercial or financial information that are the property of
# //  Mentor Graphics Corporation and are privileged, confidential,
# //  and exempt from disclosure under the Freedom of Information Act,
# //  5 U.S.C. Section 552. Furthermore, this information
# //  is prohibited from disclosure under the Trade Secrets Act,
# //  18 U.S.C. Section 1905.
# //
# Loading sv_std.std
# Loading work.ahb_if(fast)
# Loading mtiUvm.uvm_pkg
# Loading work.ahb_pkg(fast)
# Loading work.ahb_seq_pkg(fast)
# Loading work.ahb_test_pkg(fast)
# Loading work.tb_top(fast)
# Loading work.ahb_if(fast)
# Loading work.ahb_sva(fast)
# Loading mtiUvm.questa_uvm_pkg(fast)
# Loading /cadtools/mentor/Questa_10.6b/questasim/uvm-1.1d/linux_x86_64/uvm_dpi.so
# coverage save -onexit ./report/coverage/ahb_byte_lane_test_run_2_seed_60038963.ucdb
#  run -all
# ----------------------------------------------------------------
# UVM-1.1d
# (C) 2007-2013 Mentor Graphics Corporation
# (C) 2007-2013 Cadence Design Systems, Inc.
# (C) 2006-2013 Synopsys, Inc.
# (C) 2011-2013 Cypress Semiconductor Corp.
# ----------------------------------------------------------------
# 
#   ***********       IMPORTANT RELEASE NOTES         ************
# 
#   You are using a version of the UVM library that has been compiled
#   with `UVM_NO_DEPRECATED undefined.
#   See http://www.eda.org/svdb/view.php?id=3313 for more details.
# 
#   You are using a version of the UVM library that has been compiled
#   with `UVM_OBJECT_MUST_HAVE_CONSTRUCTOR undefined.
#   See http://www.eda.org/svdb/view.php?id=3770 for more details.
# 
#       (Specify +UVM_NO_RELNOTES to turn off this notice)
# 
# UVM_INFO verilog_src/questa_uvm_pkg-1.2/src/questa_uvm_pkg.sv(215) @ 0: reporter [Questa UVM] QUESTA_UVM-1.2.3
# UVM_INFO verilog_src/questa_uvm_pkg-1.2/src/questa_uvm_pkg.sv(217) @ 0: reporter [Questa UVM]  questa_uvm::init(+struct)
# UVM_INFO ../src/tb_top.sv(126) @ 0: reporter [TB_TOP] Virtual interface set in config_db
# UVM_INFO @ 0: reporter [RNTST] Running test ahb_byte_lane_test...
# UVM_INFO ../src/tb_top.sv(140) @ 0: reporter [TB_TOP] Waveform VCD dumping enabled (ahb_lite_vip.vcd)
# UVM_INFO ../src/env/ahb_vip_env.sv(64) @ 0: uvm_test_top.env [ahb_vip_env] slave_vif not set - reusing master_vif (passthrough mode)
# UVM_INFO ../src/env/ahb_vip_env.sv(72) @ 0: uvm_test_top.env [ahb_vip_env] Scoreboard created
# UVM_INFO ../src/env/ahb_vip_env.sv(78) @ 0: uvm_test_top.env [ahb_vip_env] Coverage collectors created
# UVM_INFO ../src/mst/ahb_master_agent.sv(61) @ 0: uvm_test_top.env.master_agent [ahb_master_agent] ACTIVE mode - driver + sequencer created
# UVM_INFO ../src/slv/ahb_slave_agent.sv(64) @ 0: uvm_test_top.env.slave_agent [ahb_slave_agent] ACTIVE mode - driver + sequencer created (    auto responses)
# UVM_INFO ../src/env/ahb_vip_env.sv(92) @ 0: uvm_test_top.env [ahb_vip_env] Scoreboard connected: master_mon.ap -> scb, slave_mon.ap -> scb
# UVM_INFO ../src/env/ahb_vip_env.sv(102) @ 0: uvm_test_top.env [ahb_vip_env] Coverage connected: master_mon.ap/trans_ap -> master_cov, slave_mon.ap/trans_ap -> slave_cov
# UVM_INFO @ 0: reporter [UVMTOP] UVM testbench topology:
# ---------------------------------------------------------------
# Name                       Type                     Size  Value
# ---------------------------------------------------------------
# uvm_test_top               ahb_byte_lane_test       -     @475 
#   env                      ahb_vip_env              -     @490 
#     master_agent           ahb_master_agent         -     @505 
#       drv                  ahb_master_driver        -     @570 
#         rsp_port           uvm_analysis_port        -     @585 
#         seq_item_port      uvm_seq_item_pull_port   -     @577 
#       mon                  ahb_master_monitor       -     @563 
#         ap                 uvm_analysis_port        -     @704 
#         trans_ap           uvm_analysis_port        -     @712 
#       sqr                  ahb_master_sequencer     -     @593 
#         rsp_export         uvm_analysis_export      -     @600 
#         seq_item_export    uvm_seq_item_pull_imp    -     @694 
#         arbitration_queue  array                    0     -    
#         lock_queue         array                    0     -    
#         num_last_reqs      integral                 32    'd1  
#         num_last_rsps      integral                 32    'd1  
#     master_cov             ahb_coverage             -     @526 
#       analysis_imp         uvm_analysis_imp         -     @533 
#       trans_export         uvm_analysis_imp_trans   -     @726 
#     scb                    ahb_scoreboard           -     @519 
#       master_export        uvm_analysis_imp_master  -     @734 
#       slave_export         uvm_analysis_imp_slave   -     @742 
#     slave_agent            ahb_slave_agent          -     @512 
#       drv                  ahb_slave_driver         -     @764 
#         rsp_port           uvm_analysis_port        -     @779 
#         seq_item_port      uvm_seq_item_pull_port   -     @771 
#       mon                  ahb_slave_monitor        -     @757 
#         ap                 uvm_analysis_port        -     @898 
#         trans_ap           uvm_analysis_port        -     @906 
#       sqr                  ahb_slave_sequencer      -     @787 
#         rsp_export         uvm_analysis_export      -     @794 
#         seq_item_export    uvm_seq_item_pull_imp    -     @888 
#         arbitration_queue  array                    0     -    
#         lock_queue         array                    0     -    
#         num_last_reqs      integral                 32    'd1  
#         num_last_rsps      integral                 32    'd1  
#     slave_cov              ahb_coverage             -     @541 
#       analysis_imp         uvm_analysis_imp         -     @548 
#       trans_export         uvm_analysis_imp_trans   -     @920 
# ---------------------------------------------------------------
# 
# UVM_INFO verilog_src/questa_uvm_pkg-1.2/src/questa_uvm_pkg.sv(277) @ 0: reporter [Questa UVM] End Of Elaboration
# UVM_INFO ../src/mst_seq/ahb_byte_lane_seq.sv(114) @ 0: uvm_test_top.env.master_agent.sqr@@seq [ahb_byte_lane_seq] Starting byte-lane walk: 12 iterations from 0x0000e000, 4 lanes on a 32-bit bus
# UVM_INFO ../src/mst_seq/ahb_byte_lane_seq.sv(190) @ 0: uvm_test_top.env.master_agent.sqr@@seq [ahb_byte_lane_seq] AHB_BURST_SINGLE AHB_SIZE_8B @0x0000e062: 1 beats, start lane 2, HWDATA[0]=0x39c73b3a
# UVM_INFO ../src/mst/ahb_master_driver.sv(183) @ 5000: uvm_test_top.env.master_agent.drv [ahb_master_driver] Flushed pending transactions (reset)
# UVM_INFO ../src/tb_top.sv(48) @ 95000: reporter [TB_TOP] Reset de-asserted
# UVM_INFO ../src/slv/ahb_slave_driver.sv(63) @ 95000: uvm_test_top.env.slave_agent.drv [ahb_slave_driver] Reset deasserted - slave driver active (    auto mode)
# UVM_INFO ../src/mst/ahb_master_driver.sv(72) @ 95000: uvm_test_top.env.master_agent.drv [ahb_master_driver] Reset deasserted - master driver active
# UVM_INFO ../src/mst/ahb_master_monitor.sv(81) @ 95000: uvm_test_top.env.master_agent.mon [ahb_master_monitor] Reset deasserted - master monitor active
# UVM_INFO ../src/slv/ahb_slave_monitor.sv(79) @ 95000: uvm_test_top.env.slave_agent.mon [ahb_slave_monitor] Reset deasserted - slave monitor active
# UVM_INFO ../src/mst/ahb_master_driver.sv(85) @ 95000: uvm_test_top.env.master_agent.drv [ahb_master_driver] Queueing [AHB_WRITE]: HADDR=0x0000e062, HBURST=AHB_BURST_SINGLE, HSIZE=AHB_SIZE_8B, 1 beats
# UVM_INFO ../src/mst/ahb_master_driver.sv(127) @ 95000: uvm_test_top.env.master_agent.drv [ahb_master_driver] Driving [AHB_WRITE]: HADDR=0x0000e062, HBURST=AHB_BURST_SINGLE, HSIZE=AHB_SIZE_8B, 1 beats               
# UVM_INFO ../src/mst/ahb_master_driver.sv(332) @ 125000: uvm_test_top.env.master_agent.drv [ahb_master_driver] Beat[0/1] addr=0x0000e062 trans=AHB_TRANS_NONSEQ resp=AHB_RESP_OKAY wdata=0x39c73b3a
# UVM_INFO ../src/mst/ahb_master_driver.sv(376) @ 125000: uvm_test_top.env.master_agent.drv [ahb_master_driver] Transaction complete: AHB_WRITE 0x0000e062, 1 beats, burst=AHB_BURST_SINGLE
# UVM_INFO ../src/slv/ahb_slave_driver.sv(184) @ 125000: uvm_test_top.env.slave_agent.drv [ahb_slave_driver] Beat AHB_WRITE addr=0x0000e062 resp=AHB_RESP_OKAY waits=1 wdata=0x39c73b3a
# UVM_INFO ../src/mst/ahb_master_monitor.sv(128) @ 125000: uvm_test_top.env.master_agent.mon [ahb_master_monitor] Beat[0] addr=0x0000e062 wdata=0x39c73b3a resp=AHB_RESP_OKAY
# UVM_INFO ../src/mst/ahb_master_monitor.sv(231) @ 125000: uvm_test_top.env.master_agent.mon [ahb_master_monitor] Observed [AHB_WRITE]: HADDR=0x0000e062, HBURST=AHB_BURST_SINGLE, HSIZE=AHB_SIZE_8B, 1 beats
# UVM_INFO ../src/env/ahb_coverage.sv(174) @ 125000: uvm_test_top.env.master_cov [ahb_coverage] Sampled [AHB_WRITE]: burst=AHB_BURST_SINGLE size=AHB_SIZE_8B beats=1 error=0
# UVM_INFO ../src/slv/ahb_slave_monitor.sv(212) @ 125000: uvm_test_top.env.slave_agent.mon [ahb_slave_monitor] Observed [AHB_WRITE]: HADDR=0x0000e062, HBURST=AHB_BURST_SINGLE, HSIZE=AHB_SIZE_8B, 1 beats
# UVM_INFO ../src/env/ahb_scoreboard.sv(104) @ 125000: uvm_test_top.env.scb [ahb_scoreboard] MATCH #1: [AHB_WRITE] HADDR=0x0000e062 AHB_BURST_SINGLE 1 beats
# UVM_INFO ../src/env/ahb_coverage.sv(174) @ 125000: uvm_test_top.env.slave_cov [ahb_coverage] Sampled [AHB_WRITE]: burst=AHB_BURST_SINGLE size=AHB_SIZE_8B beats=1 error=0
# UVM_INFO ../src/mst/ahb_master_driver.sv(85) @ 125000: uvm_test_top.env.master_agent.drv [ahb_master_driver] Queueing [AHB_READ]: HADDR=0x0000e062, HBURST=AHB_BURST_SINGLE, HSIZE=AHB_SIZE_8B, 1 beats
# UVM_INFO ../src/mst/ahb_master_driver.sv(127) @ 125000: uvm_test_top.env.master_agent.drv [ahb_master_driver] Driving [AHB_READ]: HADDR=0x0000e062, HBURST=AHB_BURST_SINGLE, HSIZE=AHB_SIZE_8B, 1 beats               
# UVM_INFO ../src/mst/ahb_master_driver.sv(332) @ 165000: uvm_test_top.env.master_agent.drv [ahb_master_driver] Beat[0/1] addr=0x0000e062 trans=AHB_TRANS_NONSEQ resp=AHB_RESP_OKAY rdata=0x39c73b3a
# UVM_INFO ../src/mst/ahb_master_driver.sv(376) @ 165000: uvm_test_top.env.master_agent.drv [ahb_master_driver] Transaction complete: AHB_READ 0x0000e062, 1 beats, burst=AHB_BURST_SINGLE
# UVM_INFO ../src/slv/ahb_slave_driver.sv(184) @ 165000: uvm_test_top.env.slave_agent.drv [ahb_slave_driver] Beat AHB_READ addr=0x0000e062 resp=AHB_RESP_OKAY waits=1 rdata=0x39c73b3a
# UVM_INFO ../src/mst/ahb_master_monitor.sv(128) @ 165000: uvm_test_top.env.master_agent.mon [ahb_master_monitor] Beat[0] addr=0x0000e062 rdata=0x39c73b3a resp=AHB_RESP_OKAY
# UVM_INFO ../src/mst/ahb_master_monitor.sv(231) @ 165000: uvm_test_top.env.master_agent.mon [ahb_master_monitor] Observed [AHB_READ]: HADDR=0x0000e062, HBURST=AHB_BURST_SINGLE, HSIZE=AHB_SIZE_8B, 1 beats
# UVM_INFO ../src/env/ahb_coverage.sv(174) @ 165000: uvm_test_top.env.master_cov [ahb_coverage] Sampled [AHB_READ]: burst=AHB_BURST_SINGLE size=AHB_SIZE_8B beats=1 error=0
# UVM_INFO ../src/slv/ahb_slave_monitor.sv(212) @ 165000: uvm_test_top.env.slave_agent.mon [ahb_slave_monitor] Observed [AHB_READ]: HADDR=0x0000e062, HBURST=AHB_BURST_SINGLE, HSIZE=AHB_SIZE_8B, 1 beats
# UVM_INFO ../src/env/ahb_scoreboard.sv(104) @ 165000: uvm_test_top.env.scb [ahb_scoreboard] MATCH #2: [AHB_READ] HADDR=0x0000e062 AHB_BURST_SINGLE 1 beats
# UVM_INFO ../src/env/ahb_coverage.sv(174) @ 165000: uvm_test_top.env.slave_cov [ahb_coverage] Sampled [AHB_READ]: burst=AHB_BURST_SINGLE size=AHB_SIZE_8B beats=1 error=0
# UVM_INFO ../src/mst_seq/ahb_base_seq.sv(157) @ 165000: uvm_test_top.env.master_agent.sqr@@seq [ahb_byte_lane_seq] AHB_BURST_SINGLE AHB_SIZE_8B beat 0 @0x0000e062 ok
# UVM_INFO ../src/mst_seq/ahb_byte_lane_seq.sv(190) @ 165000: uvm_test_top.env.master_agent.sqr@@seq [ahb_byte_lane_seq] AHB_BURST_SINGLE AHB_SIZE_8B @0x0000e061: 1 beats, start lane 1, HWDATA[0]=0x3938c43a
# UVM_INFO ../src/mst/ahb_master_driver.sv(85) @ 165000: uvm_test_top.env.master_agent.drv [ahb_master_driver] Queueing [AHB_WRITE]: HADDR=0x0000e061, HBURST=AHB_BURST_SINGLE, HSIZE=AHB_SIZE_8B, 1 beats
# UVM_INFO ../src/mst/ahb_master_driver.sv(127) @ 165000: uvm_test_top.env.master_agent.drv [ahb_master_driver] Driving [AHB_WRITE]: HADDR=0x0000e061, HBURST=AHB_BURST_SINGLE, HSIZE=AHB_SIZE_8B, 1 beats               
# UVM_INFO ../src/mst/ahb_master_driver.sv(332) @ 195000: uvm_test_top.env.master_agent.drv [ahb_master_driver] Beat[0/1] addr=0x0000e061 trans=AHB_TRANS_NONSEQ resp=AHB_RESP_OKAY wdata=0x3938c43a
# UVM_INFO ../src/mst/ahb_master_driver.sv(376) @ 195000: uvm_test_top.env.master_agent.drv [ahb_master_driver] Transaction complete: AHB_WRITE 0x0000e061, 1 beats, burst=AHB_BURST_SINGLE
# UVM_INFO ../src/slv/ahb_slave_driver.sv(184) @ 195000: uvm_test_top.env.slave_agent.drv [ahb_slave_driver] Beat AHB_WRITE addr=0x0000e061 resp=AHB_RESP_OKAY waits=0 wdata=0x3938c43a
# UVM_INFO ../src/slv/ahb_slave_monitor.sv(212) @ 195000: uvm_test_top.env.slave_agent.mon [ahb_slave_monitor] Observed [AHB_WRITE]: HADDR=0x0000e061, HBURST=AHB_BURST_SINGLE, HSIZE=AHB_SIZE_8B, 1 beats
# UVM_INFO ../src/env/ahb_coverage.sv(174) @ 195000: uvm_test_top.env.slave_cov [ahb_coverage] Sampled [AHB_WRITE]: burst=AHB_BURST_SINGLE size=AHB_SIZE_8B beats=1 error=0
# UVM_INFO ../src/mst/ahb_master_monitor.sv(128) @ 195000: uvm_test_top.env.master_agent.mon [ahb_master_monitor] Beat[0] addr=0x0000e061 wdata=0x3938c43a resp=AHB_RESP_OKAY
# UVM_INFO ../src/mst/ahb_master_monitor.sv(231) @ 195000: uvm_test_top.env.master_agent.mon [ahb_master_monitor] Observed [AHB_WRITE]: HADDR=0x0000e061, HBURST=AHB_BURST_SINGLE, HSIZE=AHB_SIZE_8B, 1 beats
# UVM_INFO ../src/env/ahb_coverage.sv(174) @ 195000: uvm_test_top.env.master_cov [ahb_coverage] Sampled [AHB_WRITE]: burst=AHB_BURST_SINGLE size=AHB_SIZE_8B beats=1 error=0
# UVM_INFO ../src/env/ahb_scoreboard.sv(104) @ 195000: uvm_test_top.env.scb [ahb_scoreboard] MATCH #3: [AHB_WRITE] HADDR=0x0000e061 AHB_BURST_SINGLE 1 beats
# UVM_INFO ../src/mst/ahb_master_driver.sv(85) @ 195000: uvm_test_top.env.master_agent.drv [ahb_master_driver] Queueing [AHB_READ]: HADDR=0x0000e061, HBURST=AHB_BURST_SINGLE, HSIZE=AHB_SIZE_8B, 1 beats
# UVM_INFO ../src/mst/ahb_master_driver.sv(127) @ 195000: uvm_test_top.env.master_agent.drv [ahb_master_driver] Driving [AHB_READ]: HADDR=0x0000e061, HBURST=AHB_BURST_SINGLE, HSIZE=AHB_SIZE_8B, 1 beats               
# UVM_INFO ../src/mst/ahb_master_driver.sv(332) @ 235000: uvm_test_top.env.master_agent.drv [ahb_master_driver] Beat[0/1] addr=0x0000e061 trans=AHB_TRANS_NONSEQ resp=AHB_RESP_OKAY rdata=0x3938c43a
# UVM_INFO ../src/mst/ahb_master_driver.sv(376) @ 235000: uvm_test_top.env.master_agent.drv [ahb_master_driver] Transaction complete: AHB_READ 0x0000e061, 1 beats, burst=AHB_BURST_SINGLE
# UVM_INFO ../src/slv/ahb_slave_driver.sv(184) @ 235000: uvm_test_top.env.slave_agent.drv [ahb_slave_driver] Beat AHB_READ addr=0x0000e061 resp=AHB_RESP_OKAY waits=1 rdata=0x3938c43a
# UVM_INFO ../src/slv/ahb_slave_monitor.sv(212) @ 235000: uvm_test_top.env.slave_agent.mon [ahb_slave_monitor] Observed [AHB_READ]: HADDR=0x0000e061, HBURST=AHB_BURST_SINGLE, HSIZE=AHB_SIZE_8B, 1 beats
# UVM_INFO ../src/env/ahb_coverage.sv(174) @ 235000: uvm_test_top.env.slave_cov [ahb_coverage] Sampled [AHB_READ]: burst=AHB_BURST_SINGLE size=AHB_SIZE_8B beats=1 error=0
# UVM_INFO ../src/mst/ahb_master_monitor.sv(128) @ 235000: uvm_test_top.env.master_agent.mon [ahb_master_monitor] Beat[0] addr=0x0000e061 rdata=0x3938c43a resp=AHB_RESP_OKAY
# UVM_INFO ../src/mst/ahb_master_monitor.sv(231) @ 235000: uvm_test_top.env.master_agent.mon [ahb_master_monitor] Observed [AHB_READ]: HADDR=0x0000e061, HBURST=AHB_BURST_SINGLE, HSIZE=AHB_SIZE_8B, 1 beats
# UVM_INFO ../src/env/ahb_coverage.sv(174) @ 235000: uvm_test_top.env.master_cov [ahb_coverage] Sampled [AHB_READ]: burst=AHB_BURST_SINGLE size=AHB_SIZE_8B beats=1 error=0
# UVM_INFO ../src/env/ahb_scoreboard.sv(104) @ 235000: uvm_test_top.env.scb [ahb_scoreboard] MATCH #4: [AHB_READ] HADDR=0x0000e061 AHB_BURST_SINGLE 1 beats
# UVM_INFO ../src/mst_seq/ahb_base_seq.sv(157) @ 235000: uvm_test_top.env.master_agent.sqr@@seq [ahb_byte_lane_seq] AHB_BURST_SINGLE AHB_SIZE_8B beat 0 @0x0000e061 ok
# UVM_INFO ../src/mst_seq/ahb_byte_lane_seq.sv(190) @ 235000: uvm_test_top.env.master_agent.sqr@@seq [ahb_byte_lane_seq] AHB_BURST_SINGLE AHB_SIZE_8B @0x0000e063: 1 beats, start lane 3, HWDATA[0]=0xc6383b3a
# UVM_INFO ../src/mst/ahb_master_driver.sv(85) @ 235000: uvm_test_top.env.master_agent.drv [ahb_master_driver] Queueing [AHB_WRITE]: HADDR=0x0000e063, HBURST=AHB_BURST_SINGLE, HSIZE=AHB_SIZE_8B, 1 beats
# UVM_INFO ../src/mst/ahb_master_driver.sv(127) @ 235000: uvm_test_top.env.master_agent.drv [ahb_master_driver] Driving [AHB_WRITE]: HADDR=0x0000e063, HBURST=AHB_BURST_SINGLE, HSIZE=AHB_SIZE_8B, 1 beats               
# UVM_INFO ../src/mst/ahb_master_driver.sv(332) @ 275000: uvm_test_top.env.master_agent.drv [ahb_master_driver] Beat[0/1] addr=0x0000e063 trans=AHB_TRANS_NONSEQ resp=AHB_RESP_OKAY wdata=0xc6383b3a
# UVM_INFO ../src/mst/ahb_master_driver.sv(376) @ 275000: uvm_test_top.env.master_agent.drv [ahb_master_driver] Transaction complete: AHB_WRITE 0x0000e063, 1 beats, burst=AHB_BURST_SINGLE
# UVM_INFO ../src/slv/ahb_slave_driver.sv(184) @ 275000: uvm_test_top.env.slave_agent.drv [ahb_slave_driver] Beat AHB_WRITE addr=0x0000e063 resp=AHB_RESP_OKAY waits=1 wdata=0xc6383b3a
# UVM_INFO ../src/slv/ahb_slave_monitor.sv(212) @ 275000: uvm_test_top.env.slave_agent.mon [ahb_slave_monitor] Observed [AHB_WRITE]: HADDR=0x0000e063, HBURST=AHB_BURST_SINGLE, HSIZE=AHB_SIZE_8B, 1 beats
# UVM_INFO ../src/env/ahb_coverage.sv(174) @ 275000: uvm_test_top.env.slave_cov [ahb_coverage] Sampled [AHB_WRITE]: burst=AHB_BURST_SINGLE size=AHB_SIZE_8B beats=1 error=0
# UVM_INFO ../src/mst/ahb_master_monitor.sv(128) @ 275000: uvm_test_top.env.master_agent.mon [ahb_master_monitor] Beat[0] addr=0x0000e063 wdata=0xc6383b3a resp=AHB_RESP_OKAY
# UVM_INFO ../src/mst/ahb_master_monitor.sv(231) @ 275000: uvm_test_top.env.master_agent.mon [ahb_master_monitor] Observed [AHB_WRITE]: HADDR=0x0000e063, HBURST=AHB_BURST_SINGLE, HSIZE=AHB_SIZE_8B, 1 beats
# UVM_INFO ../src/env/ahb_coverage.sv(174) @ 275000: uvm_test_top.env.master_cov [ahb_coverage] Sampled [AHB_WRITE]: burst=AHB_BURST_SINGLE size=AHB_SIZE_8B beats=1 error=0
# UVM_INFO ../src/env/ahb_scoreboard.sv(104) @ 275000: uvm_test_top.env.scb [ahb_scoreboard] MATCH #5: [AHB_WRITE] HADDR=0x0000e063 AHB_BURST_SINGLE 1 beats
# UVM_INFO ../src/mst/ahb_master_driver.sv(85) @ 275000: uvm_test_top.env.master_agent.drv [ahb_master_driver] Queueing [AHB_READ]: HADDR=0x0000e063, HBURST=AHB_BURST_SINGLE, HSIZE=AHB_SIZE_8B, 1 beats
# UVM_INFO ../src/mst/ahb_master_driver.sv(127) @ 275000: uvm_test_top.env.master_agent.drv [ahb_master_driver] Driving [AHB_READ]: HADDR=0x0000e063, HBURST=AHB_BURST_SINGLE, HSIZE=AHB_SIZE_8B, 1 beats               
# UVM_INFO ../src/mst/ahb_master_driver.sv(332) @ 315000: uvm_test_top.env.master_agent.drv [ahb_master_driver] Beat[0/1] addr=0x0000e063 trans=AHB_TRANS_NONSEQ resp=AHB_RESP_OKAY rdata=0xc6383b3a
# UVM_INFO ../src/mst/ahb_master_driver.sv(376) @ 315000: uvm_test_top.env.master_agent.drv [ahb_master_driver] Transaction complete: AHB_READ 0x0000e063, 1 beats, burst=AHB_BURST_SINGLE
# UVM_INFO ../src/slv/ahb_slave_driver.sv(184) @ 315000: uvm_test_top.env.slave_agent.drv [ahb_slave_driver] Beat AHB_READ addr=0x0000e063 resp=AHB_RESP_OKAY waits=1 rdata=0xc6383b3a
# UVM_INFO ../src/slv/ahb_slave_monitor.sv(212) @ 315000: uvm_test_top.env.slave_agent.mon [ahb_slave_monitor] Observed [AHB_READ]: HADDR=0x0000e063, HBURST=AHB_BURST_SINGLE, HSIZE=AHB_SIZE_8B, 1 beats
# UVM_INFO ../src/env/ahb_coverage.sv(174) @ 315000: uvm_test_top.env.slave_cov [ahb_coverage] Sampled [AHB_READ]: burst=AHB_BURST_SINGLE size=AHB_SIZE_8B beats=1 error=0
# UVM_INFO ../src/mst/ahb_master_monitor.sv(128) @ 315000: uvm_test_top.env.master_agent.mon [ahb_master_monitor] Beat[0] addr=0x0000e063 rdata=0xc6383b3a resp=AHB_RESP_OKAY
# UVM_INFO ../src/mst/ahb_master_monitor.sv(231) @ 315000: uvm_test_top.env.master_agent.mon [ahb_master_monitor] Observed [AHB_READ]: HADDR=0x0000e063, HBURST=AHB_BURST_SINGLE, HSIZE=AHB_SIZE_8B, 1 beats
# UVM_INFO ../src/env/ahb_coverage.sv(174) @ 315000: uvm_test_top.env.master_cov [ahb_coverage] Sampled [AHB_READ]: burst=AHB_BURST_SINGLE size=AHB_SIZE_8B beats=1 error=0
# UVM_INFO ../src/env/ahb_scoreboard.sv(104) @ 315000: uvm_test_top.env.scb [ahb_scoreboard] MATCH #6: [AHB_READ] HADDR=0x0000e063 AHB_BURST_SINGLE 1 beats
# UVM_INFO ../src/mst_seq/ahb_base_seq.sv(157) @ 315000: uvm_test_top.env.master_agent.sqr@@seq [ahb_byte_lane_seq] AHB_BURST_SINGLE AHB_SIZE_8B beat 0 @0x0000e063 ok
# UVM_INFO ../src/mst_seq/ahb_byte_lane_seq.sv(190) @ 315000: uvm_test_top.env.master_agent.sqr@@seq [ahb_byte_lane_seq] AHB_BURST_SINGLE AHB_SIZE_8B @0x0000e060: 1 beats, start lane 0, HWDATA[0]=0x39383bc5
# UVM_INFO ../src/mst/ahb_master_driver.sv(85) @ 315000: uvm_test_top.env.master_agent.drv [ahb_master_driver] Queueing [AHB_WRITE]: HADDR=0x0000e060, HBURST=AHB_BURST_SINGLE, HSIZE=AHB_SIZE_8B, 1 beats
# UVM_INFO ../src/mst/ahb_master_driver.sv(127) @ 315000: uvm_test_top.env.master_agent.drv [ahb_master_driver] Driving [AHB_WRITE]: HADDR=0x0000e060, HBURST=AHB_BURST_SINGLE, HSIZE=AHB_SIZE_8B, 1 beats               
# UVM_INFO ../src/mst/ahb_master_driver.sv(332) @ 365000: uvm_test_top.env.master_agent.drv [ahb_master_driver] Beat[0/1] addr=0x0000e060 trans=AHB_TRANS_NONSEQ resp=AHB_RESP_OKAY wdata=0x39383bc5
# UVM_INFO ../src/mst/ahb_master_driver.sv(376) @ 365000: uvm_test_top.env.master_agent.drv [ahb_master_driver] Transaction complete: AHB_WRITE 0x0000e060, 1 beats, burst=AHB_BURST_SINGLE
# UVM_INFO ../src/slv/ahb_slave_driver.sv(184) @ 365000: uvm_test_top.env.slave_agent.drv [ahb_slave_driver] Beat AHB_WRITE addr=0x0000e060 resp=AHB_RESP_OKAY waits=2 wdata=0x39383bc5
# UVM_INFO ../src/mst/ahb_master_monitor.sv(128) @ 365000: uvm_test_top.env.master_agent.mon [ahb_master_monitor] Beat[0] addr=0x0000e060 wdata=0x39383bc5 resp=AHB_RESP_OKAY
# UVM_INFO ../src/mst/ahb_master_monitor.sv(231) @ 365000: uvm_test_top.env.master_agent.mon [ahb_master_monitor] Observed [AHB_WRITE]: HADDR=0x0000e060, HBURST=AHB_BURST_SINGLE, HSIZE=AHB_SIZE_8B, 1 beats
# UVM_INFO ../src/env/ahb_coverage.sv(174) @ 365000: uvm_test_top.env.master_cov [ahb_coverage] Sampled [AHB_WRITE]: burst=AHB_BURST_SINGLE size=AHB_SIZE_8B beats=1 error=0
# UVM_INFO ../src/slv/ahb_slave_monitor.sv(212) @ 365000: uvm_test_top.env.slave_agent.mon [ahb_slave_monitor] Observed [AHB_WRITE]: HADDR=0x0000e060, HBURST=AHB_BURST_SINGLE, HSIZE=AHB_SIZE_8B, 1 beats
# UVM_INFO ../src/env/ahb_scoreboard.sv(104) @ 365000: uvm_test_top.env.scb [ahb_scoreboard] MATCH #7: [AHB_WRITE] HADDR=0x0000e060 AHB_BURST_SINGLE 1 beats
# UVM_INFO ../src/env/ahb_coverage.sv(174) @ 365000: uvm_test_top.env.slave_cov [ahb_coverage] Sampled [AHB_WRITE]: burst=AHB_BURST_SINGLE size=AHB_SIZE_8B beats=1 error=0
# UVM_INFO ../src/mst/ahb_master_driver.sv(85) @ 365000: uvm_test_top.env.master_agent.drv [ahb_master_driver] Queueing [AHB_READ]: HADDR=0x0000e060, HBURST=AHB_BURST_SINGLE, HSIZE=AHB_SIZE_8B, 1 beats
# UVM_INFO ../src/mst/ahb_master_driver.sv(127) @ 365000: uvm_test_top.env.master_agent.drv [ahb_master_driver] Driving [AHB_READ]: HADDR=0x0000e060, HBURST=AHB_BURST_SINGLE, HSIZE=AHB_SIZE_8B, 1 beats               
# UVM_INFO ../src/mst/ahb_master_driver.sv(332) @ 415000: uvm_test_top.env.master_agent.drv [ahb_master_driver] Beat[0/1] addr=0x0000e060 trans=AHB_TRANS_NONSEQ resp=AHB_RESP_OKAY rdata=0x39383bc5
# UVM_INFO ../src/mst/ahb_master_driver.sv(376) @ 415000: uvm_test_top.env.master_agent.drv [ahb_master_driver] Transaction complete: AHB_READ 0x0000e060, 1 beats, burst=AHB_BURST_SINGLE
# UVM_INFO ../src/slv/ahb_slave_driver.sv(184) @ 415000: uvm_test_top.env.slave_agent.drv [ahb_slave_driver] Beat AHB_READ addr=0x0000e060 resp=AHB_RESP_OKAY waits=2 rdata=0x39383bc5
# UVM_INFO ../src/slv/ahb_slave_monitor.sv(212) @ 415000: uvm_test_top.env.slave_agent.mon [ahb_slave_monitor] Observed [AHB_READ]: HADDR=0x0000e060, HBURST=AHB_BURST_SINGLE, HSIZE=AHB_SIZE_8B, 1 beats
# UVM_INFO ../src/env/ahb_coverage.sv(174) @ 415000: uvm_test_top.env.slave_cov [ahb_coverage] Sampled [AHB_READ]: burst=AHB_BURST_SINGLE size=AHB_SIZE_8B beats=1 error=0
# UVM_INFO ../src/mst/ahb_master_monitor.sv(128) @ 415000: uvm_test_top.env.master_agent.mon [ahb_master_monitor] Beat[0] addr=0x0000e060 rdata=0x39383bc5 resp=AHB_RESP_OKAY
# UVM_INFO ../src/mst/ahb_master_monitor.sv(231) @ 415000: uvm_test_top.env.master_agent.mon [ahb_master_monitor] Observed [AHB_READ]: HADDR=0x0000e060, HBURST=AHB_BURST_SINGLE, HSIZE=AHB_SIZE_8B, 1 beats
# UVM_INFO ../src/env/ahb_coverage.sv(174) @ 415000: uvm_test_top.env.master_cov [ahb_coverage] Sampled [AHB_READ]: burst=AHB_BURST_SINGLE size=AHB_SIZE_8B beats=1 error=0
# UVM_INFO ../src/env/ahb_scoreboard.sv(104) @ 415000: uvm_test_top.env.scb [ahb_scoreboard] MATCH #8: [AHB_READ] HADDR=0x0000e060 AHB_BURST_SINGLE 1 beats
# UVM_INFO ../src/mst_seq/ahb_base_seq.sv(157) @ 415000: uvm_test_top.env.master_agent.sqr@@seq [ahb_byte_lane_seq] AHB_BURST_SINGLE AHB_SIZE_8B beat 0 @0x0000e060 ok
# UVM_INFO ../src/mst_seq/ahb_byte_lane_seq.sv(190) @ 415000: uvm_test_top.env.master_agent.sqr@@seq [ahb_byte_lane_seq] AHB_BURST_INCR4 AHB_SIZE_8B @0x0000e073: 4 beats, start lane 3, HWDATA[0]=0xd6282b2a
# UVM_INFO ../src/mst/ahb_master_driver.sv(85) @ 415000: uvm_test_top.env.master_agent.drv [ahb_master_driver] Queueing [AHB_WRITE]: HADDR=0x0000e073, HBURST=AHB_BURST_INCR4, HSIZE=AHB_SIZE_8B, 4 beats
# UVM_INFO ../src/mst/ahb_master_driver.sv(127) @ 415000: uvm_test_top.env.master_agent.drv [ahb_master_driver] Driving [AHB_WRITE]: HADDR=0x0000e073, HBURST=AHB_BURST_INCR4, HSIZE=AHB_SIZE_8B, 4 beats               
# UVM_INFO ../src/mst/ahb_master_driver.sv(332) @ 445000: uvm_test_top.env.master_agent.drv [ahb_master_driver] Beat[0/4] addr=0x0000e073 trans=AHB_TRANS_NONSEQ resp=AHB_RESP_OKAY wdata=0xd6282b2a
# UVM_INFO ../src/slv/ahb_slave_driver.sv(184) @ 445000: uvm_test_top.env.slave_agent.drv [ahb_slave_driver] Beat AHB_WRITE addr=0x0000e073 resp=AHB_RESP_OKAY waits=0 wdata=0xd6282b2a
# UVM_INFO ../src/mst/ahb_master_monitor.sv(128) @ 445000: uvm_test_top.env.master_agent.mon [ahb_master_monitor] Beat[0] addr=0x0000e073 wdata=0xd6282b2a resp=AHB_RESP_OKAY
# UVM_INFO ../src/mst/ahb_master_driver.sv(332) @ 475000: uvm_test_top.env.master_agent.drv [ahb_master_driver] Beat[1/4] addr=0x0000e074 trans=AHB_TRANS_SEQ resp=AHB_RESP_OKAY wdata=0x2d2c2fd1
# UVM_INFO ../src/slv/ahb_slave_driver.sv(184) @ 475000: uvm_test_top.env.slave_agent.drv [ahb_slave_driver] Beat AHB_WRITE addr=0x0000e074 resp=AHB_RESP_OKAY waits=2 wdata=0x2d2c2fd1
# UVM_INFO ../src/mst/ahb_master_monitor.sv(128) @ 475000: uvm_test_top.env.master_agent.mon [ahb_master_monitor] Beat[1] addr=0x0000e074 wdata=0x2d2c2fd1 resp=AHB_RESP_OKAY
# UVM_INFO ../src/mst/ahb_master_driver.sv(332) @ 495000: uvm_test_top.env.master_agent.drv [ahb_master_driver] Beat[2/4] addr=0x0000e075 trans=AHB_TRANS_SEQ resp=AHB_RESP_OKAY wdata=0x2d2cd02e
# UVM_INFO ../src/slv/ahb_slave_driver.sv(184) @ 495000: uvm_test_top.env.slave_agent.drv [ahb_slave_driver] Beat AHB_WRITE addr=0x0000e075 resp=AHB_RESP_OKAY waits=1 wdata=0x2d2cd02e
# UVM_INFO ../src/mst/ahb_master_monitor.sv(128) @ 495000: uvm_test_top.env.master_agent.mon [ahb_master_monitor] Beat[2] addr=0x0000e075 wdata=0x2d2cd02e resp=AHB_RESP_OKAY
# UVM_INFO ../src/mst/ahb_master_driver.sv(332) @ 505000: uvm_test_top.env.master_agent.drv [ahb_master_driver] Beat[3/4] addr=0x0000e076 trans=AHB_TRANS_SEQ resp=AHB_RESP_OKAY wdata=0x2dd32f2e
# UVM_INFO ../src/mst/ahb_master_driver.sv(376) @ 505000: uvm_test_top.env.master_agent.drv [ahb_master_driver] Transaction complete: AHB_WRITE 0x0000e073, 4 beats, burst=AHB_BURST_INCR4
# UVM_INFO ../src/slv/ahb_slave_driver.sv(184) @ 505000: uvm_test_top.env.slave_agent.drv [ahb_slave_driver] Beat AHB_WRITE addr=0x0000e076 resp=AHB_RESP_OKAY waits=0 wdata=0x2dd32f2e
# UVM_INFO ../src/mst/ahb_master_monitor.sv(128) @ 505000: uvm_test_top.env.master_agent.mon [ahb_master_monitor] Beat[3] addr=0x0000e076 wdata=0x2dd32f2e resp=AHB_RESP_OKAY
# UVM_INFO ../src/mst/ahb_master_monitor.sv(231) @ 505000: uvm_test_top.env.master_agent.mon [ahb_master_monitor] Observed [AHB_WRITE]: HADDR=0x0000e073, HBURST=AHB_BURST_INCR4, HSIZE=AHB_SIZE_8B, 4 beats
# UVM_INFO ../src/env/ahb_coverage.sv(174) @ 505000: uvm_test_top.env.master_cov [ahb_coverage] Sampled [AHB_WRITE]: burst=AHB_BURST_INCR4 size=AHB_SIZE_8B beats=4 error=0
# UVM_INFO ../src/slv/ahb_slave_monitor.sv(212) @ 505000: uvm_test_top.env.slave_agent.mon [ahb_slave_monitor] Observed [AHB_WRITE]: HADDR=0x0000e073, HBURST=AHB_BURST_INCR4, HSIZE=AHB_SIZE_8B, 4 beats
# UVM_INFO ../src/env/ahb_scoreboard.sv(104) @ 505000: uvm_test_top.env.scb [ahb_scoreboard] MATCH #9: [AHB_WRITE] HADDR=0x0000e073 AHB_BURST_INCR4 4 beats
# UVM_INFO ../src/env/ahb_coverage.sv(174) @ 505000: uvm_test_top.env.slave_cov [ahb_coverage] Sampled [AHB_WRITE]: burst=AHB_BURST_INCR4 size=AHB_SIZE_8B beats=4 error=0
# UVM_INFO ../src/mst/ahb_master_driver.sv(85) @ 505000: uvm_test_top.env.master_agent.drv [ahb_master_driver] Queueing [AHB_READ]: HADDR=0x0000e073, HBURST=AHB_BURST_INCR4, HSIZE=AHB_SIZE_8B, 4 beats
# UVM_INFO ../src/mst/ahb_master_driver.sv(127) @ 505000: uvm_test_top.env.master_agent.drv [ahb_master_driver] Driving [AHB_READ]: HADDR=0x0000e073, HBURST=AHB_BURST_INCR4, HSIZE=AHB_SIZE_8B, 4 beats               
# UVM_INFO ../src/mst/ahb_master_driver.sv(332) @ 555000: uvm_test_top.env.master_agent.drv [ahb_master_driver] Beat[0/4] addr=0x0000e073 trans=AHB_TRANS_NONSEQ resp=AHB_RESP_OKAY rdata=0xd6282b2a
# UVM_INFO ../src/slv/ahb_slave_driver.sv(184) @ 555000: uvm_test_top.env.slave_agent.drv [ahb_slave_driver] Beat AHB_READ addr=0x0000e073 resp=AHB_RESP_OKAY waits=2 rdata=0xd6282b2a
# UVM_INFO ../src/mst/ahb_master_monitor.sv(128) @ 555000: uvm_test_top.env.master_agent.mon [ahb_master_monitor] Beat[0] addr=0x0000e073 rdata=0xd6282b2a resp=AHB_RESP_OKAY
# UVM_INFO ../src/mst/ahb_master_driver.sv(332) @ 565000: uvm_test_top.env.master_agent.drv [ahb_master_driver] Beat[1/4] addr=0x0000e074 trans=AHB_TRANS_SEQ resp=AHB_RESP_OKAY rdata=0x2d2c2fd1
# UVM_INFO ../src/slv/ahb_slave_driver.sv(184) @ 565000: uvm_test_top.env.slave_agent.drv [ahb_slave_driver] Beat AHB_READ addr=0x0000e074 resp=AHB_RESP_OKAY waits=0 rdata=0x2d2c2fd1
# UVM_INFO ../src/mst/ahb_master_monitor.sv(128) @ 565000: uvm_test_top.env.master_agent.mon [ahb_master_monitor] Beat[1] addr=0x0000e074 rdata=0x2d2c2fd1 resp=AHB_RESP_OKAY
# UVM_INFO ../src/mst/ahb_master_driver.sv(332) @ 595000: uvm_test_top.env.master_agent.drv [ahb_master_driver] Beat[2/4] addr=0x0000e075 trans=AHB_TRANS_SEQ resp=AHB_RESP_OKAY rdata=0x2d2cd02e
# UVM_INFO ../src/slv/ahb_slave_driver.sv(184) @ 595000: uvm_test_top.env.slave_agent.drv [ahb_slave_driver] Beat AHB_READ addr=0x0000e075 resp=AHB_RESP_OKAY waits=2 rdata=0x2d2cd02e
# UVM_INFO ../src/mst/ahb_master_monitor.sv(128) @ 595000: uvm_test_top.env.master_agent.mon [ahb_master_monitor] Beat[2] addr=0x0000e075 rdata=0x2d2cd02e resp=AHB_RESP_OKAY
# UVM_INFO ../src/mst/ahb_master_driver.sv(332) @ 625000: uvm_test_top.env.master_agent.drv [ahb_master_driver] Beat[3/4] addr=0x0000e076 trans=AHB_TRANS_SEQ resp=AHB_RESP_OKAY rdata=0x2dd32f2e
# UVM_INFO ../src/mst/ahb_master_driver.sv(376) @ 625000: uvm_test_top.env.master_agent.drv [ahb_master_driver] Transaction complete: AHB_READ 0x0000e073, 4 beats, burst=AHB_BURST_INCR4
# UVM_INFO ../src/slv/ahb_slave_driver.sv(184) @ 625000: uvm_test_top.env.slave_agent.drv [ahb_slave_driver] Beat AHB_READ addr=0x0000e076 resp=AHB_RESP_OKAY waits=2 rdata=0x2dd32f2e
# UVM_INFO ../src/mst/ahb_master_monitor.sv(128) @ 625000: uvm_test_top.env.master_agent.mon [ahb_master_monitor] Beat[3] addr=0x0000e076 rdata=0x2dd32f2e resp=AHB_RESP_OKAY
# UVM_INFO ../src/mst/ahb_master_monitor.sv(231) @ 625000: uvm_test_top.env.master_agent.mon [ahb_master_monitor] Observed [AHB_READ]: HADDR=0x0000e073, HBURST=AHB_BURST_INCR4, HSIZE=AHB_SIZE_8B, 4 beats
# UVM_INFO ../src/env/ahb_coverage.sv(174) @ 625000: uvm_test_top.env.master_cov [ahb_coverage] Sampled [AHB_READ]: burst=AHB_BURST_INCR4 size=AHB_SIZE_8B beats=4 error=0
# UVM_INFO ../src/slv/ahb_slave_monitor.sv(212) @ 625000: uvm_test_top.env.slave_agent.mon [ahb_slave_monitor] Observed [AHB_READ]: HADDR=0x0000e073, HBURST=AHB_BURST_INCR4, HSIZE=AHB_SIZE_8B, 4 beats
# UVM_INFO ../src/env/ahb_scoreboard.sv(104) @ 625000: uvm_test_top.env.scb [ahb_scoreboard] MATCH #10: [AHB_READ] HADDR=0x0000e073 AHB_BURST_INCR4 4 beats
# UVM_INFO ../src/env/ahb_coverage.sv(174) @ 625000: uvm_test_top.env.slave_cov [ahb_coverage] Sampled [AHB_READ]: burst=AHB_BURST_INCR4 size=AHB_SIZE_8B beats=4 error=0
# UVM_INFO ../src/mst_seq/ahb_base_seq.sv(157) @ 625000: uvm_test_top.env.master_agent.sqr@@seq [ahb_byte_lane_seq] AHB_BURST_INCR4 AHB_SIZE_8B beat 0 @0x0000e073 ok
# UVM_INFO ../src/mst_seq/ahb_base_seq.sv(157) @ 625000: uvm_test_top.env.master_agent.sqr@@seq [ahb_byte_lane_seq] AHB_BURST_INCR4 AHB_SIZE_8B beat 1 @0x0000e074 ok
# UVM_INFO ../src/mst_seq/ahb_base_seq.sv(157) @ 625000: uvm_test_top.env.master_agent.sqr@@seq [ahb_byte_lane_seq] AHB_BURST_INCR4 AHB_SIZE_8B beat 2 @0x0000e075 ok
# UVM_INFO ../src/mst_seq/ahb_base_seq.sv(157) @ 625000: uvm_test_top.env.master_agent.sqr@@seq [ahb_byte_lane_seq] AHB_BURST_INCR4 AHB_SIZE_8B beat 3 @0x0000e076 ok
# UVM_INFO ../src/mst_seq/ahb_byte_lane_seq.sv(190) @ 625000: uvm_test_top.env.master_agent.sqr@@seq [ahb_byte_lane_seq] AHB_BURST_SINGLE AHB_SIZE_16B @0x0000e082: 1 beats, start lane 2, HWDATA[0]=0x2627dbda
# UVM_INFO ../src/mst/ahb_master_driver.sv(85) @ 625000: uvm_test_top.env.master_agent.drv [ahb_master_driver] Queueing [AHB_WRITE]: HADDR=0x0000e082, HBURST=AHB_BURST_SINGLE, HSIZE=AHB_SIZE_16B, 1 beats
# UVM_INFO ../src/mst/ahb_master_driver.sv(127) @ 625000: uvm_test_top.env.master_agent.drv [ahb_master_driver] Driving [AHB_WRITE]: HADDR=0x0000e082, HBURST=AHB_BURST_SINGLE, HSIZE=AHB_SIZE_16B, 1 beats               
# UVM_INFO ../src/mst/ahb_master_driver.sv(332) @ 655000: uvm_test_top.env.master_agent.drv [ahb_master_driver] Beat[0/1] addr=0x0000e082 trans=AHB_TRANS_NONSEQ resp=AHB_RESP_OKAY wdata=0x2627dbda
# UVM_INFO ../src/mst/ahb_master_driver.sv(376) @ 655000: uvm_test_top.env.master_agent.drv [ahb_master_driver] Transaction complete: AHB_WRITE 0x0000e082, 1 beats, burst=AHB_BURST_SINGLE
# UVM_INFO ../src/slv/ahb_slave_driver.sv(184) @ 655000: uvm_test_top.env.slave_agent.drv [ahb_slave_driver] Beat AHB_WRITE addr=0x0000e082 resp=AHB_RESP_OKAY waits=0 wdata=0x2627dbda
# UVM_INFO ../src/slv/ahb_slave_monitor.sv(212) @ 655000: uvm_test_top.env.slave_agent.mon [ahb_slave_monitor] Observed [AHB_WRITE]: HADDR=0x0000e082, HBURST=AHB_BURST_SINGLE, HSIZE=AHB_SIZE_16B, 1 beats
# UVM_INFO ../src/env/ahb_coverage.sv(174) @ 655000: uvm_test_top.env.slave_cov [ahb_coverage] Sampled [AHB_WRITE]: burst=AHB_BURST_SINGLE size=AHB_SIZE_16B beats=1 error=0
# UVM_INFO ../src/mst/ahb_master_monitor.sv(128) @ 655000: uvm_test_top.env.master_agent.mon [ahb_master_monitor] Beat[0] addr=0x0000e082 wdata=0x2627dbda resp=AHB_RESP_OKAY
# UVM_INFO ../src/mst/ahb_master_monitor.sv(231) @ 655000: uvm_test_top.env.master_agent.mon [ahb_master_monitor] Observed [AHB_WRITE]: HADDR=0x0000e082, HBURST=AHB_BURST_SINGLE, HSIZE=AHB_SIZE_16B, 1 beats
# UVM_INFO ../src/env/ahb_coverage.sv(174) @ 655000: uvm_test_top.env.master_cov [ahb_coverage] Sampled [AHB_WRITE]: burst=AHB_BURST_SINGLE size=AHB_SIZE_16B beats=1 error=0
# UVM_INFO ../src/env/ahb_scoreboard.sv(104) @ 655000: uvm_test_top.env.scb [ahb_scoreboard] MATCH #11: [AHB_WRITE] HADDR=0x0000e082 AHB_BURST_SINGLE 1 beats
# UVM_INFO ../src/mst/ahb_master_driver.sv(85) @ 655000: uvm_test_top.env.master_agent.drv [ahb_master_driver] Queueing [AHB_READ]: HADDR=0x0000e082, HBURST=AHB_BURST_SINGLE, HSIZE=AHB_SIZE_16B, 1 beats
# UVM_INFO ../src/mst/ahb_master_driver.sv(127) @ 655000: uvm_test_top.env.master_agent.drv [ahb_master_driver] Driving [AHB_READ]: HADDR=0x0000e082, HBURST=AHB_BURST_SINGLE, HSIZE=AHB_SIZE_16B, 1 beats               
# UVM_INFO ../src/mst/ahb_master_driver.sv(332) @ 685000: uvm_test_top.env.master_agent.drv [ahb_master_driver] Beat[0/1] addr=0x0000e082 trans=AHB_TRANS_NONSEQ resp=AHB_RESP_OKAY rdata=0x2627dbda
# UVM_INFO ../src/mst/ahb_master_driver.sv(376) @ 685000: uvm_test_top.env.master_agent.drv [ahb_master_driver] Transaction complete: AHB_READ 0x0000e082, 1 beats, burst=AHB_BURST_SINGLE
# UVM_INFO ../src/slv/ahb_slave_driver.sv(184) @ 685000: uvm_test_top.env.slave_agent.drv [ahb_slave_driver] Beat AHB_READ addr=0x0000e082 resp=AHB_RESP_OKAY waits=0 rdata=0x2627dbda
# UVM_INFO ../src/mst/ahb_master_monitor.sv(128) @ 685000: uvm_test_top.env.master_agent.mon [ahb_master_monitor] Beat[0] addr=0x0000e082 rdata=0x2627dbda resp=AHB_RESP_OKAY
# UVM_INFO ../src/mst/ahb_master_monitor.sv(231) @ 685000: uvm_test_top.env.master_agent.mon [ahb_master_monitor] Observed [AHB_READ]: HADDR=0x0000e082, HBURST=AHB_BURST_SINGLE, HSIZE=AHB_SIZE_16B, 1 beats
# UVM_INFO ../src/env/ahb_coverage.sv(174) @ 685000: uvm_test_top.env.master_cov [ahb_coverage] Sampled [AHB_READ]: burst=AHB_BURST_SINGLE size=AHB_SIZE_16B beats=1 error=0
# UVM_INFO ../src/slv/ahb_slave_monitor.sv(212) @ 685000: uvm_test_top.env.slave_agent.mon [ahb_slave_monitor] Observed [AHB_READ]: HADDR=0x0000e082, HBURST=AHB_BURST_SINGLE, HSIZE=AHB_SIZE_16B, 1 beats
# UVM_INFO ../src/env/ahb_scoreboard.sv(104) @ 685000: uvm_test_top.env.scb [ahb_scoreboard] MATCH #12: [AHB_READ] HADDR=0x0000e082 AHB_BURST_SINGLE 1 beats
# UVM_INFO ../src/env/ahb_coverage.sv(174) @ 685000: uvm_test_top.env.slave_cov [ahb_coverage] Sampled [AHB_READ]: burst=AHB_BURST_SINGLE size=AHB_SIZE_16B beats=1 error=0
# UVM_INFO ../src/mst_seq/ahb_base_seq.sv(157) @ 685000: uvm_test_top.env.master_agent.sqr@@seq [ahb_byte_lane_seq] AHB_BURST_SINGLE AHB_SIZE_16B beat 0 @0x0000e082 ok
# UVM_INFO ../src/mst_seq/ahb_byte_lane_seq.sv(190) @ 685000: uvm_test_top.env.master_agent.sqr@@seq [ahb_byte_lane_seq] AHB_BURST_SINGLE AHB_SIZE_16B @0x0000e080: 1 beats, start lane 0, HWDATA[0]=0xd9d82425
# UVM_INFO ../src/mst/ahb_master_driver.sv(85) @ 685000: uvm_test_top.env.master_agent.drv [ahb_master_driver] Queueing [AHB_WRITE]: HADDR=0x0000e080, HBURST=AHB_BURST_SINGLE, HSIZE=AHB_SIZE_16B, 1 beats
# UVM_INFO ../src/mst/ahb_master_driver.sv(127) @ 685000: uvm_test_top.env.master_agent.drv [ahb_master_driver] Driving [AHB_WRITE]: HADDR=0x0000e080, HBURST=AHB_BURST_SINGLE, HSIZE=AHB_SIZE_16B, 1 beats               
# UVM_INFO ../src/mst/ahb_master_driver.sv(332) @ 725000: uvm_test_top.env.master_agent.drv [ahb_master_driver] Beat[0/1] addr=0x0000e080 trans=AHB_TRANS_NONSEQ resp=AHB_RESP_OKAY wdata=0xd9d82425
# UVM_INFO ../src/mst/ahb_master_driver.sv(376) @ 725000: uvm_test_top.env.master_agent.drv [ahb_master_driver] Transaction complete: AHB_WRITE 0x0000e080, 1 beats, burst=AHB_BURST_SINGLE
# UVM_INFO ../src/slv/ahb_slave_driver.sv(184) @ 725000: uvm_test_top.env.slave_agent.drv [ahb_slave_driver] Beat AHB_WRITE addr=0x0000e080 resp=AHB_RESP_OKAY waits=1 wdata=0xd9d82425
# UVM_INFO ../src/mst/ahb_master_monitor.sv(128) @ 725000: uvm_test_top.env.master_agent.mon [ahb_master_monitor] Beat[0] addr=0x0000e080 wdata=0xd9d82425 resp=AHB_RESP_OKAY
# UVM_INFO ../src/mst/ahb_master_monitor.sv(231) @ 725000: uvm_test_top.env.master_agent.mon [ahb_master_monitor] Observed [AHB_WRITE]: HADDR=0x0000e080, HBURST=AHB_BURST_SINGLE, HSIZE=AHB_SIZE_16B, 1 beats
# UVM_INFO ../src/env/ahb_coverage.sv(174) @ 725000: uvm_test_top.env.master_cov [ahb_coverage] Sampled [AHB_WRITE]: burst=AHB_BURST_SINGLE size=AHB_SIZE_16B beats=1 error=0
# UVM_INFO ../src/slv/ahb_slave_monitor.sv(212) @ 725000: uvm_test_top.env.slave_agent.mon [ahb_slave_monitor] Observed [AHB_WRITE]: HADDR=0x0000e080, HBURST=AHB_BURST_SINGLE, HSIZE=AHB_SIZE_16B, 1 beats
# UVM_INFO ../src/env/ahb_scoreboard.sv(104) @ 725000: uvm_test_top.env.scb [ahb_scoreboard] MATCH #13: [AHB_WRITE] HADDR=0x0000e080 AHB_BURST_SINGLE 1 beats
# UVM_INFO ../src/env/ahb_coverage.sv(174) @ 725000: uvm_test_top.env.slave_cov [ahb_coverage] Sampled [AHB_WRITE]: burst=AHB_BURST_SINGLE size=AHB_SIZE_16B beats=1 error=0
# UVM_INFO ../src/mst/ahb_master_driver.sv(85) @ 725000: uvm_test_top.env.master_agent.drv [ahb_master_driver] Queueing [AHB_READ]: HADDR=0x0000e080, HBURST=AHB_BURST_SINGLE, HSIZE=AHB_SIZE_16B, 1 beats
# UVM_INFO ../src/mst/ahb_master_driver.sv(127) @ 725000: uvm_test_top.env.master_agent.drv [ahb_master_driver] Driving [AHB_READ]: HADDR=0x0000e080, HBURST=AHB_BURST_SINGLE, HSIZE=AHB_SIZE_16B, 1 beats               
# UVM_INFO ../src/mst/ahb_master_driver.sv(332) @ 765000: uvm_test_top.env.master_agent.drv [ahb_master_driver] Beat[0/1] addr=0x0000e080 trans=AHB_TRANS_NONSEQ resp=AHB_RESP_OKAY rdata=0xd9d82425
# UVM_INFO ../src/mst/ahb_master_driver.sv(376) @ 765000: uvm_test_top.env.master_agent.drv [ahb_master_driver] Transaction complete: AHB_READ 0x0000e080, 1 beats, burst=AHB_BURST_SINGLE
# UVM_INFO ../src/slv/ahb_slave_driver.sv(184) @ 765000: uvm_test_top.env.slave_agent.drv [ahb_slave_driver] Beat AHB_READ addr=0x0000e080 resp=AHB_RESP_OKAY waits=1 rdata=0xd9d82425
# UVM_INFO ../src/mst/ahb_master_monitor.sv(128) @ 765000: uvm_test_top.env.master_agent.mon [ahb_master_monitor] Beat[0] addr=0x0000e080 rdata=0xd9d82425 resp=AHB_RESP_OKAY
# UVM_INFO ../src/mst/ahb_master_monitor.sv(231) @ 765000: uvm_test_top.env.master_agent.mon [ahb_master_monitor] Observed [AHB_READ]: HADDR=0x0000e080, HBURST=AHB_BURST_SINGLE, HSIZE=AHB_SIZE_16B, 1 beats
# UVM_INFO ../src/env/ahb_coverage.sv(174) @ 765000: uvm_test_top.env.master_cov [ahb_coverage] Sampled [AHB_READ]: burst=AHB_BURST_SINGLE size=AHB_SIZE_16B beats=1 error=0
# UVM_INFO ../src/slv/ahb_slave_monitor.sv(212) @ 765000: uvm_test_top.env.slave_agent.mon [ahb_slave_monitor] Observed [AHB_READ]: HADDR=0x0000e080, HBURST=AHB_BURST_SINGLE, HSIZE=AHB_SIZE_16B, 1 beats
# UVM_INFO ../src/env/ahb_scoreboard.sv(104) @ 765000: uvm_test_top.env.scb [ahb_scoreboard] MATCH #14: [AHB_READ] HADDR=0x0000e080 AHB_BURST_SINGLE 1 beats
# UVM_INFO ../src/env/ahb_coverage.sv(174) @ 765000: uvm_test_top.env.slave_cov [ahb_coverage] Sampled [AHB_READ]: burst=AHB_BURST_SINGLE size=AHB_SIZE_16B beats=1 error=0
# UVM_INFO ../src/mst_seq/ahb_base_seq.sv(157) @ 765000: uvm_test_top.env.master_agent.sqr@@seq [ahb_byte_lane_seq] AHB_BURST_SINGLE AHB_SIZE_16B beat 0 @0x0000e080 ok
# UVM_INFO ../src/mst_seq/ahb_byte_lane_seq.sv(190) @ 765000: uvm_test_top.env.master_agent.sqr@@seq [ahb_byte_lane_seq] AHB_BURST_INCR4 AHB_SIZE_16B @0x0000e090: 4 beats, start lane 0, HWDATA[0]=0xc9c83435
# UVM_INFO ../src/mst/ahb_master_driver.sv(85) @ 765000: uvm_test_top.env.master_agent.drv [ahb_master_driver] Queueing [AHB_WRITE]: HADDR=0x0000e090, HBURST=AHB_BURST_INCR4, HSIZE=AHB_SIZE_16B, 4 beats
# UVM_INFO ../src/mst/ahb_master_driver.sv(127) @ 765000: uvm_test_top.env.master_agent.drv [ahb_master_driver] Driving [AHB_WRITE]: HADDR=0x0000e090, HBURST=AHB_BURST_INCR4, HSIZE=AHB_SIZE_16B, 4 beats               
# UVM_INFO ../src/mst/ahb_master_driver.sv(332) @ 815000: uvm_test_top.env.master_agent.drv [ahb_master_driver] Beat[0/4] addr=0x0000e090 trans=AHB_TRANS_NONSEQ resp=AHB_RESP_OKAY wdata=0xc9c83435
# UVM_INFO ../src/slv/ahb_slave_driver.sv(184) @ 815000: uvm_test_top.env.slave_agent.drv [ahb_slave_driver] Beat AHB_WRITE addr=0x0000e090 resp=AHB_RESP_OKAY waits=2 wdata=0xc9c83435
# UVM_INFO ../src/mst/ahb_master_monitor.sv(128) @ 815000: uvm_test_top.env.master_agent.mon [ahb_master_monitor] Beat[0] addr=0x0000e090 wdata=0xc9c83435 resp=AHB_RESP_OKAY
# UVM_INFO ../src/mst/ahb_master_driver.sv(332) @ 825000: uvm_test_top.env.master_agent.drv [ahb_master_driver] Beat[1/4] addr=0x0000e092 trans=AHB_TRANS_SEQ resp=AHB_RESP_OKAY wdata=0x3637cbca
# UVM_INFO ../src/slv/ahb_slave_driver.sv(184) @ 825000: uvm_test_top.env.slave_agent.drv [ahb_slave_driver] Beat AHB_WRITE addr=0x0000e092 resp=AHB_RESP_OKAY waits=0 wdata=0x3637cbca
# UVM_INFO ../src/mst/ahb_master_monitor.sv(128) @ 825000: uvm_test_top.env.master_agent.mon [ahb_master_monitor] Beat[1] addr=0x0000e092 wdata=0x3637cbca resp=AHB_RESP_OKAY
# UVM_INFO ../src/mst/ahb_master_driver.sv(332) @ 855000: uvm_test_top.env.master_agent.drv [ahb_master_driver] Beat[2/4] addr=0x0000e094 trans=AHB_TRANS_SEQ resp=AHB_RESP_OKAY wdata=0xcdcc3031
# UVM_INFO ../src/slv/ahb_slave_driver.sv(184) @ 855000: uvm_test_top.env.slave_agent.drv [ahb_slave_driver] Beat AHB_WRITE addr=0x0000e094 resp=AHB_RESP_OKAY waits=2 wdata=0xcdcc3031
# UVM_INFO ../src/mst/ahb_master_monitor.sv(128) @ 855000: uvm_test_top.env.master_agent.mon [ahb_master_monitor] Beat[2] addr=0x0000e094 wdata=0xcdcc3031 resp=AHB_RESP_OKAY
# UVM_INFO ../src/mst/ahb_master_driver.sv(332) @ 865000: uvm_test_top.env.master_agent.drv [ahb_master_driver] Beat[3/4] addr=0x0000e096 trans=AHB_TRANS_SEQ resp=AHB_RESP_OKAY wdata=0x3233cfce
# UVM_INFO ../src/mst/ahb_master_driver.sv(376) @ 865000: uvm_test_top.env.master_agent.drv [ahb_master_driver] Transaction complete: AHB_WRITE 0x0000e090, 4 beats, burst=AHB_BURST_INCR4
# UVM_INFO ../src/slv/ahb_slave_driver.sv(184) @ 865000: uvm_test_top.env.slave_agent.drv [ahb_slave_driver] Beat AHB_WRITE addr=0x0000e096 resp=AHB_RESP_OKAY waits=0 wdata=0x3233cfce
# UVM_INFO ../src/mst/ahb_master_monitor.sv(128) @ 865000: uvm_test_top.env.master_agent.mon [ahb_master_monitor] Beat[3] addr=0x0000e096 wdata=0x3233cfce resp=AHB_RESP_OKAY
# UVM_INFO ../src/mst/ahb_master_monitor.sv(231) @ 865000: uvm_test_top.env.master_agent.mon [ahb_master_monitor] Observed [AHB_WRITE]: HADDR=0x0000e090, HBURST=AHB_BURST_INCR4, HSIZE=AHB_SIZE_16B, 4 beats
# UVM_INFO ../src/env/ahb_coverage.sv(174) @ 865000: uvm_test_top.env.master_cov [ahb_coverage] Sampled [AHB_WRITE]: burst=AHB_BURST_INCR4 size=AHB_SIZE_16B beats=4 error=0
# UVM_INFO ../src/slv/ahb_slave_monitor.sv(212) @ 865000: uvm_test_top.env.slave_agent.mon [ahb_slave_monitor] Observed [AHB_WRITE]: HADDR=0x0000e090, HBURST=AHB_BURST_INCR4, HSIZE=AHB_SIZE_16B, 4 beats
# UVM_INFO ../src/env/ahb_scoreboard.sv(104) @ 865000: uvm_test_top.env.scb [ahb_scoreboard] MATCH #15: [AHB_WRITE] HADDR=0x0000e090 AHB_BURST_INCR4 4 beats
# UVM_INFO ../src/env/ahb_coverage.sv(174) @ 865000: uvm_test_top.env.slave_cov [ahb_coverage] Sampled [AHB_WRITE]: burst=AHB_BURST_INCR4 size=AHB_SIZE_16B beats=4 error=0
# UVM_INFO ../src/mst/ahb_master_driver.sv(85) @ 865000: uvm_test_top.env.master_agent.drv [ahb_master_driver] Queueing [AHB_READ]: HADDR=0x0000e090, HBURST=AHB_BURST_INCR4, HSIZE=AHB_SIZE_16B, 4 beats
# UVM_INFO ../src/mst/ahb_master_driver.sv(127) @ 865000: uvm_test_top.env.master_agent.drv [ahb_master_driver] Driving [AHB_READ]: HADDR=0x0000e090, HBURST=AHB_BURST_INCR4, HSIZE=AHB_SIZE_16B, 4 beats               
# UVM_INFO ../src/mst/ahb_master_driver.sv(332) @ 915000: uvm_test_top.env.master_agent.drv [ahb_master_driver] Beat[0/4] addr=0x0000e090 trans=AHB_TRANS_NONSEQ resp=AHB_RESP_OKAY rdata=0xc9c83435
# UVM_INFO ../src/slv/ahb_slave_driver.sv(184) @ 915000: uvm_test_top.env.slave_agent.drv [ahb_slave_driver] Beat AHB_READ addr=0x0000e090 resp=AHB_RESP_OKAY waits=2 rdata=0xc9c83435
# UVM_INFO ../src/mst/ahb_master_monitor.sv(128) @ 915000: uvm_test_top.env.master_agent.mon [ahb_master_monitor] Beat[0] addr=0x0000e090 rdata=0xc9c83435 resp=AHB_RESP_OKAY
# UVM_INFO ../src/mst/ahb_master_driver.sv(332) @ 935000: uvm_test_top.env.master_agent.drv [ahb_master_driver] Beat[1/4] addr=0x0000e092 trans=AHB_TRANS_SEQ resp=AHB_RESP_OKAY rdata=0x3637cbca
# UVM_INFO ../src/slv/ahb_slave_driver.sv(184) @ 935000: uvm_test_top.env.slave_agent.drv [ahb_slave_driver] Beat AHB_READ addr=0x0000e092 resp=AHB_RESP_OKAY waits=1 rdata=0x3637cbca
# UVM_INFO ../src/mst/ahb_master_monitor.sv(128) @ 935000: uvm_test_top.env.master_agent.mon [ahb_master_monitor] Beat[1] addr=0x0000e092 rdata=0x3637cbca resp=AHB_RESP_OKAY
# UVM_INFO ../src/mst/ahb_master_driver.sv(332) @ 945000: uvm_test_top.env.master_agent.drv [ahb_master_driver] Beat[2/4] addr=0x0000e094 trans=AHB_TRANS_SEQ resp=AHB_RESP_OKAY rdata=0xcdcc3031
# UVM_INFO ../src/slv/ahb_slave_driver.sv(184) @ 945000: uvm_test_top.env.slave_agent.drv [ahb_slave_driver] Beat AHB_READ addr=0x0000e094 resp=AHB_RESP_OKAY waits=0 rdata=0xcdcc3031
# UVM_INFO ../src/mst/ahb_master_monitor.sv(128) @ 945000: uvm_test_top.env.master_agent.mon [ahb_master_monitor] Beat[2] addr=0x0000e094 rdata=0xcdcc3031 resp=AHB_RESP_OKAY
# UVM_INFO ../src/mst/ahb_master_driver.sv(332) @ 975000: uvm_test_top.env.master_agent.drv [ahb_master_driver] Beat[3/4] addr=0x0000e096 trans=AHB_TRANS_SEQ resp=AHB_RESP_OKAY rdata=0x3233cfce
# UVM_INFO ../src/mst/ahb_master_driver.sv(376) @ 975000: uvm_test_top.env.master_agent.drv [ahb_master_driver] Transaction complete: AHB_READ 0x0000e090, 4 beats, burst=AHB_BURST_INCR4
# UVM_INFO ../src/slv/ahb_slave_driver.sv(184) @ 975000: uvm_test_top.env.slave_agent.drv [ahb_slave_driver] Beat AHB_READ addr=0x0000e096 resp=AHB_RESP_OKAY waits=2 rdata=0x3233cfce
# UVM_INFO ../src/slv/ahb_slave_monitor.sv(212) @ 975000: uvm_test_top.env.slave_agent.mon [ahb_slave_monitor] Observed [AHB_READ]: HADDR=0x0000e090, HBURST=AHB_BURST_INCR4, HSIZE=AHB_SIZE_16B, 4 beats
# UVM_INFO ../src/env/ahb_coverage.sv(174) @ 975000: uvm_test_top.env.slave_cov [ahb_coverage] Sampled [AHB_READ]: burst=AHB_BURST_INCR4 size=AHB_SIZE_16B beats=4 error=0
# UVM_INFO ../src/mst/ahb_master_monitor.sv(128) @ 975000: uvm_test_top.env.master_agent.mon [ahb_master_monitor] Beat[3] addr=0x0000e096 rdata=0x3233cfce resp=AHB_RESP_OKAY
# UVM_INFO ../src/mst/ahb_master_monitor.sv(231) @ 975000: uvm_test_top.env.master_agent.mon [ahb_master_monitor] Observed [AHB_READ]: HADDR=0x0000e090, HBURST=AHB_BURST_INCR4, HSIZE=AHB_SIZE_16B, 4 beats
# UVM_INFO ../src/env/ahb_coverage.sv(174) @ 975000: uvm_test_top.env.master_cov [ahb_coverage] Sampled [AHB_READ]: burst=AHB_BURST_INCR4 size=AHB_SIZE_16B beats=4 error=0
# UVM_INFO ../src/env/ahb_scoreboard.sv(104) @ 975000: uvm_test_top.env.scb [ahb_scoreboard] MATCH #16: [AHB_READ] HADDR=0x0000e090 AHB_BURST_INCR4 4 beats
# UVM_INFO ../src/mst_seq/ahb_base_seq.sv(157) @ 975000: uvm_test_top.env.master_agent.sqr@@seq [ahb_byte_lane_seq] AHB_BURST_INCR4 AHB_SIZE_16B beat 0 @0x0000e090 ok
# UVM_INFO ../src/mst_seq/ahb_base_seq.sv(157) @ 975000: uvm_test_top.env.master_agent.sqr@@seq [ahb_byte_lane_seq] AHB_BURST_INCR4 AHB_SIZE_16B beat 1 @0x0000e092 ok
# UVM_INFO ../src/mst_seq/ahb_base_seq.sv(157) @ 975000: uvm_test_top.env.master_agent.sqr@@seq [ahb_byte_lane_seq] AHB_BURST_INCR4 AHB_SIZE_16B beat 2 @0x0000e094 ok
# UVM_INFO ../src/mst_seq/ahb_base_seq.sv(157) @ 975000: uvm_test_top.env.master_agent.sqr@@seq [ahb_byte_lane_seq] AHB_BURST_INCR4 AHB_SIZE_16B beat 3 @0x0000e096 ok
# UVM_INFO ../src/mst_seq/ahb_byte_lane_seq.sv(190) @ 975000: uvm_test_top.env.master_agent.sqr@@seq [ahb_byte_lane_seq] AHB_BURST_SINGLE AHB_SIZE_16B @0x0000e020: 1 beats, start lane 0, HWDATA[0]=0x79788485
# UVM_INFO ../src/mst/ahb_master_driver.sv(85) @ 975000: uvm_test_top.env.master_agent.drv [ahb_master_driver] Queueing [AHB_WRITE]: HADDR=0x0000e020, HBURST=AHB_BURST_SINGLE, HSIZE=AHB_SIZE_16B, 1 beats
# UVM_INFO ../src/mst/ahb_master_driver.sv(127) @ 975000: uvm_test_top.env.master_agent.drv [ahb_master_driver] Driving [AHB_WRITE]: HADDR=0x0000e020, HBURST=AHB_BURST_SINGLE, HSIZE=AHB_SIZE_16B, 1 beats               
# UVM_INFO ../src/mst/ahb_master_driver.sv(332) @ 1015000: uvm_test_top.env.master_agent.drv [ahb_master_driver] Beat[0/1] addr=0x0000e020 trans=AHB_TRANS_NONSEQ resp=AHB_RESP_OKAY wdata=0x79788485
# UVM_INFO ../src/mst/ahb_master_driver.sv(376) @ 1015000: uvm_test_top.env.master_agent.drv [ahb_master_driver] Transaction complete: AHB_WRITE 0x0000e020, 1 beats, burst=AHB_BURST_SINGLE
# UVM_INFO ../src/slv/ahb_slave_driver.sv(184) @ 1015000: uvm_test_top.env.slave_agent.drv [ahb_slave_driver] Beat AHB_WRITE addr=0x0000e020 resp=AHB_RESP_OKAY waits=1 wdata=0x79788485
# UVM_INFO ../src/slv/ahb_slave_monitor.sv(212) @ 1015000: uvm_test_top.env.slave_agent.mon [ahb_slave_monitor] Observed [AHB_WRITE]: HADDR=0x0000e020, HBURST=AHB_BURST_SINGLE, HSIZE=AHB_SIZE_16B, 1 beats
# UVM_INFO ../src/env/ahb_coverage.sv(174) @ 1015000: uvm_test_top.env.slave_cov [ahb_coverage] Sampled [AHB_WRITE]: burst=AHB_BURST_SINGLE size=AHB_SIZE_16B beats=1 error=0
# UVM_INFO ../src/mst/ahb_master_monitor.sv(128) @ 1015000: uvm_test_top.env.master_agent.mon [ahb_master_monitor] Beat[0] addr=0x0000e020 wdata=0x79788485 resp=AHB_RESP_OKAY
# UVM_INFO ../src/mst/ahb_master_monitor.sv(231) @ 1015000: uvm_test_top.env.master_agent.mon [ahb_master_monitor] Observed [AHB_WRITE]: HADDR=0x0000e020, HBURST=AHB_BURST_SINGLE, HSIZE=AHB_SIZE_16B, 1 beats
# UVM_INFO ../src/env/ahb_coverage.sv(174) @ 1015000: uvm_test_top.env.master_cov [ahb_coverage] Sampled [AHB_WRITE]: burst=AHB_BURST_SINGLE size=AHB_SIZE_16B beats=1 error=0
# UVM_INFO ../src/env/ahb_scoreboard.sv(104) @ 1015000: uvm_test_top.env.scb [ahb_scoreboard] MATCH #17: [AHB_WRITE] HADDR=0x0000e020 AHB_BURST_SINGLE 1 beats
# UVM_INFO ../src/mst/ahb_master_driver.sv(85) @ 1015000: uvm_test_top.env.master_agent.drv [ahb_master_driver] Queueing [AHB_READ]: HADDR=0x0000e020, HBURST=AHB_BURST_SINGLE, HSIZE=AHB_SIZE_16B, 1 beats
# UVM_INFO ../src/mst/ahb_master_driver.sv(127) @ 1015000: uvm_test_top.env.master_agent.drv [ahb_master_driver] Driving [AHB_READ]: HADDR=0x0000e020, HBURST=AHB_BURST_SINGLE, HSIZE=AHB_SIZE_16B, 1 beats               
# UVM_INFO ../src/mst/ahb_master_driver.sv(332) @ 1055000: uvm_test_top.env.master_agent.drv [ahb_master_driver] Beat[0/1] addr=0x0000e020 trans=AHB_TRANS_NONSEQ resp=AHB_RESP_OKAY rdata=0x79788485
# UVM_INFO ../src/mst/ahb_master_driver.sv(376) @ 1055000: uvm_test_top.env.master_agent.drv [ahb_master_driver] Transaction complete: AHB_READ 0x0000e020, 1 beats, burst=AHB_BURST_SINGLE
# UVM_INFO ../src/slv/ahb_slave_driver.sv(184) @ 1055000: uvm_test_top.env.slave_agent.drv [ahb_slave_driver] Beat AHB_READ addr=0x0000e020 resp=AHB_RESP_OKAY waits=1 rdata=0x79788485
# UVM_INFO ../src/slv/ahb_slave_monitor.sv(212) @ 1055000: uvm_test_top.env.slave_agent.mon [ahb_slave_monitor] Observed [AHB_READ]: HADDR=0x0000e020, HBURST=AHB_BURST_SINGLE, HSIZE=AHB_SIZE_16B, 1 beats
# UVM_INFO ../src/env/ahb_coverage.sv(174) @ 1055000: uvm_test_top.env.slave_cov [ahb_coverage] Sampled [AHB_READ]: burst=AHB_BURST_SINGLE size=AHB_SIZE_16B beats=1 error=0
# UVM_INFO ../src/mst/ahb_master_monitor.sv(128) @ 1055000: uvm_test_top.env.master_agent.mon [ahb_master_monitor] Beat[0] addr=0x0000e020 rdata=0x79788485 resp=AHB_RESP_OKAY
# UVM_INFO ../src/mst/ahb_master_monitor.sv(231) @ 1055000: uvm_test_top.env.master_agent.mon [ahb_master_monitor] Observed [AHB_READ]: HADDR=0x0000e020, HBURST=AHB_BURST_SINGLE, HSIZE=AHB_SIZE_16B, 1 beats
# UVM_INFO ../src/env/ahb_coverage.sv(174) @ 1055000: uvm_test_top.env.master_cov [ahb_coverage] Sampled [AHB_READ]: burst=AHB_BURST_SINGLE size=AHB_SIZE_16B beats=1 error=0
# UVM_INFO ../src/env/ahb_scoreboard.sv(104) @ 1055000: uvm_test_top.env.scb [ahb_scoreboard] MATCH #18: [AHB_READ] HADDR=0x0000e020 AHB_BURST_SINGLE 1 beats
# UVM_INFO ../src/mst_seq/ahb_base_seq.sv(157) @ 1055000: uvm_test_top.env.master_agent.sqr@@seq [ahb_byte_lane_seq] AHB_BURST_SINGLE AHB_SIZE_16B beat 0 @0x0000e020 ok
# UVM_INFO ../src/mst_seq/ahb_byte_lane_seq.sv(190) @ 1055000: uvm_test_top.env.master_agent.sqr@@seq [ahb_byte_lane_seq] AHB_BURST_SINGLE AHB_SIZE_16B @0x0000e022: 1 beats, start lane 2, HWDATA[0]=0x86877b7a
# UVM_INFO ../src/mst/ahb_master_driver.sv(85) @ 1055000: uvm_test_top.env.master_agent.drv [ahb_master_driver] Queueing [AHB_WRITE]: HADDR=0x0000e022, HBURST=AHB_BURST_SINGLE, HSIZE=AHB_SIZE_16B, 1 beats
# UVM_INFO ../src/mst/ahb_master_driver.sv(127) @ 1055000: uvm_test_top.env.master_agent.drv [ahb_master_driver] Driving [AHB_WRITE]: HADDR=0x0000e022, HBURST=AHB_BURST_SINGLE, HSIZE=AHB_SIZE_16B, 1 beats               
# UVM_INFO ../src/mst/ahb_master_driver.sv(332) @ 1085000: uvm_test_top.env.master_agent.drv [ahb_master_driver] Beat[0/1] addr=0x0000e022 trans=AHB_TRANS_NONSEQ resp=AHB_RESP_OKAY wdata=0x86877b7a
# UVM_INFO ../src/mst/ahb_master_driver.sv(376) @ 1085000: uvm_test_top.env.master_agent.drv [ahb_master_driver] Transaction complete: AHB_WRITE 0x0000e022, 1 beats, burst=AHB_BURST_SINGLE
# UVM_INFO ../src/slv/ahb_slave_driver.sv(184) @ 1085000: uvm_test_top.env.slave_agent.drv [ahb_slave_driver] Beat AHB_WRITE addr=0x0000e022 resp=AHB_RESP_OKAY waits=0 wdata=0x86877b7a
# UVM_INFO ../src/mst/ahb_master_monitor.sv(128) @ 1085000: uvm_test_top.env.master_agent.mon [ahb_master_monitor] Beat[0] addr=0x0000e022 wdata=0x86877b7a resp=AHB_RESP_OKAY
# UVM_INFO ../src/mst/ahb_master_monitor.sv(231) @ 1085000: uvm_test_top.env.master_agent.mon [ahb_master_monitor] Observed [AHB_WRITE]: HADDR=0x0000e022, HBURST=AHB_BURST_SINGLE, HSIZE=AHB_SIZE_16B, 1 beats
# UVM_INFO ../src/env/ahb_coverage.sv(174) @ 1085000: uvm_test_top.env.master_cov [ahb_coverage] Sampled [AHB_WRITE]: burst=AHB_BURST_SINGLE size=AHB_SIZE_16B beats=1 error=0
# UVM_INFO ../src/slv/ahb_slave_monitor.sv(212) @ 1085000: uvm_test_top.env.slave_agent.mon [ahb_slave_monitor] Observed [AHB_WRITE]: HADDR=0x0000e022, HBURST=AHB_BURST_SINGLE, HSIZE=AHB_SIZE_16B, 1 beats
# UVM_INFO ../src/env/ahb_scoreboard.sv(104) @ 1085000: uvm_test_top.env.scb [ahb_scoreboard] MATCH #19: [AHB_WRITE] HADDR=0x0000e022 AHB_BURST_SINGLE 1 beats
# UVM_INFO ../src/env/ahb_coverage.sv(174) @ 1085000: uvm_test_top.env.slave_cov [ahb_coverage] Sampled [AHB_WRITE]: burst=AHB_BURST_SINGLE size=AHB_SIZE_16B beats=1 error=0
# UVM_INFO ../src/mst/ahb_master_driver.sv(85) @ 1085000: uvm_test_top.env.master_agent.drv [ahb_master_driver] Queueing [AHB_READ]: HADDR=0x0000e022, HBURST=AHB_BURST_SINGLE, HSIZE=AHB_SIZE_16B, 1 beats
# UVM_INFO ../src/mst/ahb_master_driver.sv(127) @ 1085000: uvm_test_top.env.master_agent.drv [ahb_master_driver] Driving [AHB_READ]: HADDR=0x0000e022, HBURST=AHB_BURST_SINGLE, HSIZE=AHB_SIZE_16B, 1 beats               
# UVM_INFO ../src/mst/ahb_master_driver.sv(332) @ 1125000: uvm_test_top.env.master_agent.drv [ahb_master_driver] Beat[0/1] addr=0x0000e022 trans=AHB_TRANS_NONSEQ resp=AHB_RESP_OKAY rdata=0x86877b7a
# UVM_INFO ../src/mst/ahb_master_driver.sv(376) @ 1125000: uvm_test_top.env.master_agent.drv [ahb_master_driver] Transaction complete: AHB_READ 0x0000e022, 1 beats, burst=AHB_BURST_SINGLE
# UVM_INFO ../src/slv/ahb_slave_driver.sv(184) @ 1125000: uvm_test_top.env.slave_agent.drv [ahb_slave_driver] Beat AHB_READ addr=0x0000e022 resp=AHB_RESP_OKAY waits=1 rdata=0x86877b7a
# UVM_INFO ../src/mst/ahb_master_monitor.sv(128) @ 1125000: uvm_test_top.env.master_agent.mon [ahb_master_monitor] Beat[0] addr=0x0000e022 rdata=0x86877b7a resp=AHB_RESP_OKAY
# UVM_INFO ../src/mst/ahb_master_monitor.sv(231) @ 1125000: uvm_test_top.env.master_agent.mon [ahb_master_monitor] Observed [AHB_READ]: HADDR=0x0000e022, HBURST=AHB_BURST_SINGLE, HSIZE=AHB_SIZE_16B, 1 beats
# UVM_INFO ../src/env/ahb_coverage.sv(174) @ 1125000: uvm_test_top.env.master_cov [ahb_coverage] Sampled [AHB_READ]: burst=AHB_BURST_SINGLE size=AHB_SIZE_16B beats=1 error=0
# UVM_INFO ../src/slv/ahb_slave_monitor.sv(212) @ 1125000: uvm_test_top.env.slave_agent.mon [ahb_slave_monitor] Observed [AHB_READ]: HADDR=0x0000e022, HBURST=AHB_BURST_SINGLE, HSIZE=AHB_SIZE_16B, 1 beats
# UVM_INFO ../src/env/ahb_scoreboard.sv(104) @ 1125000: uvm_test_top.env.scb [ahb_scoreboard] MATCH #20: [AHB_READ] HADDR=0x0000e022 AHB_BURST_SINGLE 1 beats
# UVM_INFO ../src/env/ahb_coverage.sv(174) @ 1125000: uvm_test_top.env.slave_cov [ahb_coverage] Sampled [AHB_READ]: burst=AHB_BURST_SINGLE size=AHB_SIZE_16B beats=1 error=0
# UVM_INFO ../src/mst_seq/ahb_base_seq.sv(157) @ 1125000: uvm_test_top.env.master_agent.sqr@@seq [ahb_byte_lane_seq] AHB_BURST_SINGLE AHB_SIZE_16B beat 0 @0x0000e022 ok
# UVM_INFO ../src/mst_seq/ahb_byte_lane_seq.sv(190) @ 1125000: uvm_test_top.env.master_agent.sqr@@seq [ahb_byte_lane_seq] AHB_BURST_INCR4 AHB_SIZE_16B @0x0000e030: 4 beats, start lane 0, HWDATA[0]=0x69689495
# UVM_INFO ../src/mst/ahb_master_driver.sv(85) @ 1125000: uvm_test_top.env.master_agent.drv [ahb_master_driver] Queueing [AHB_WRITE]: HADDR=0x0000e030, HBURST=AHB_BURST_INCR4, HSIZE=AHB_SIZE_16B, 4 beats
# UVM_INFO ../src/mst/ahb_master_driver.sv(127) @ 1125000: uvm_test_top.env.master_agent.drv [ahb_master_driver] Driving [AHB_WRITE]: HADDR=0x0000e030, HBURST=AHB_BURST_INCR4, HSIZE=AHB_SIZE_16B, 4 beats               
# UVM_INFO ../src/mst/ahb_master_driver.sv(332) @ 1155000: uvm_test_top.env.master_agent.drv [ahb_master_driver] Beat[0/4] addr=0x0000e030 trans=AHB_TRANS_NONSEQ resp=AHB_RESP_OKAY wdata=0x69689495
# UVM_INFO ../src/slv/ahb_slave_driver.sv(184) @ 1155000: uvm_test_top.env.slave_agent.drv [ahb_slave_driver] Beat AHB_WRITE addr=0x0000e030 resp=AHB_RESP_OKAY waits=0 wdata=0x69689495
# UVM_INFO ../src/mst/ahb_master_monitor.sv(128) @ 1155000: uvm_test_top.env.master_agent.mon [ahb_master_monitor] Beat[0] addr=0x0000e030 wdata=0x69689495 resp=AHB_RESP_OKAY
# UVM_INFO ../src/mst/ahb_master_driver.sv(332) @ 1185000: uvm_test_top.env.master_agent.drv [ahb_master_driver] Beat[1/4] addr=0x0000e032 trans=AHB_TRANS_SEQ resp=AHB_RESP_OKAY wdata=0x96976b6a
# UVM_INFO ../src/slv/ahb_slave_driver.sv(184) @ 1185000: uvm_test_top.env.slave_agent.drv [ahb_slave_driver] Beat AHB_WRITE addr=0x0000e032 resp=AHB_RESP_OKAY waits=2 wdata=0x96976b6a
# UVM_INFO ../src/mst/ahb_master_monitor.sv(128) @ 1185000: uvm_test_top.env.master_agent.mon [ahb_master_monitor] Beat[1] addr=0x0000e032 wdata=0x96976b6a resp=AHB_RESP_OKAY
# UVM_INFO ../src/mst/ahb_master_driver.sv(332) @ 1215000: uvm_test_top.env.master_agent.drv [ahb_master_driver] Beat[2/4] addr=0x0000e034 trans=AHB_TRANS_SEQ resp=AHB_RESP_OKAY wdata=0x6d6c9091
# UVM_INFO ../src/slv/ahb_slave_driver.sv(184) @ 1215000: uvm_test_top.env.slave_agent.drv [ahb_slave_driver] Beat AHB_WRITE addr=0x0000e034 resp=AHB_RESP_OKAY waits=2 wdata=0x6d6c9091
# UVM_INFO ../src/mst/ahb_master_monitor.sv(128) @ 1215000: uvm_test_top.env.master_agent.mon [ahb_master_monitor] Beat[2] addr=0x0000e034 wdata=0x6d6c9091 resp=AHB_RESP_OKAY
# UVM_INFO ../src/mst/ahb_master_driver.sv(332) @ 1245000: uvm_test_top.env.master_agent.drv [ahb_master_driver] Beat[3/4] addr=0x0000e036 trans=AHB_TRANS_SEQ resp=AHB_RESP_OKAY wdata=0x92936f6e
# UVM_INFO ../src/mst/ahb_master_driver.sv(376) @ 1245000: uvm_test_top.env.master_agent.drv [ahb_master_driver] Transaction complete: AHB_WRITE 0x0000e030, 4 beats, burst=AHB_BURST_INCR4
# UVM_INFO ../src/slv/ahb_slave_driver.sv(184) @ 1245000: uvm_test_top.env.slave_agent.drv [ahb_slave_driver] Beat AHB_WRITE addr=0x0000e036 resp=AHB_RESP_OKAY waits=2 wdata=0x92936f6e
# UVM_INFO ../src/mst/ahb_master_monitor.sv(128) @ 1245000: uvm_test_top.env.master_agent.mon [ahb_master_monitor] Beat[3] addr=0x0000e036 wdata=0x92936f6e resp=AHB_RESP_OKAY
# UVM_INFO ../src/mst/ahb_master_monitor.sv(231) @ 1245000: uvm_test_top.env.master_agent.mon [ahb_master_monitor] Observed [AHB_WRITE]: HADDR=0x0000e030, HBURST=AHB_BURST_INCR4, HSIZE=AHB_SIZE_16B, 4 beats
# UVM_INFO ../src/env/ahb_coverage.sv(174) @ 1245000: uvm_test_top.env.master_cov [ahb_coverage] Sampled [AHB_WRITE]: burst=AHB_BURST_INCR4 size=AHB_SIZE_16B beats=4 error=0
# UVM_INFO ../src/slv/ahb_slave_monitor.sv(212) @ 1245000: uvm_test_top.env.slave_agent.mon [ahb_slave_monitor] Observed [AHB_WRITE]: HADDR=0x0000e030, HBURST=AHB_BURST_INCR4, HSIZE=AHB_SIZE_16B, 4 beats
# UVM_INFO ../src/env/ahb_scoreboard.sv(104) @ 1245000: uvm_test_top.env.scb [ahb_scoreboard] MATCH #21: [AHB_WRITE] HADDR=0x0000e030 AHB_BURST_INCR4 4 beats
# UVM_INFO ../src/env/ahb_coverage.sv(174) @ 1245000: uvm_test_top.env.slave_cov [ahb_coverage] Sampled [AHB_WRITE]: burst=AHB_BURST_INCR4 size=AHB_SIZE_16B beats=4 error=0
# UVM_INFO ../src/mst/ahb_master_driver.sv(85) @ 1245000: uvm_test_top.env.master_agent.drv [ahb_master_driver] Queueing [AHB_READ]: HADDR=0x0000e030, HBURST=AHB_BURST_INCR4, HSIZE=AHB_SIZE_16B, 4 beats
# UVM_INFO ../src/mst/ahb_master_driver.sv(127) @ 1245000: uvm_test_top.env.master_agent.drv [ahb_master_driver] Driving [AHB_READ]: HADDR=0x0000e030, HBURST=AHB_BURST_INCR4, HSIZE=AHB_SIZE_16B, 4 beats               
# UVM_INFO ../src/mst/ahb_master_driver.sv(332) @ 1295000: uvm_test_top.env.master_agent.drv [ahb_master_driver] Beat[0/4] addr=0x0000e030 trans=AHB_TRANS_NONSEQ resp=AHB_RESP_OKAY rdata=0x69689495
# UVM_INFO ../src/slv/ahb_slave_driver.sv(184) @ 1295000: uvm_test_top.env.slave_agent.drv [ahb_slave_driver] Beat AHB_READ addr=0x0000e030 resp=AHB_RESP_OKAY waits=2 rdata=0x69689495
# UVM_INFO ../src/mst/ahb_master_monitor.sv(128) @ 1295000: uvm_test_top.env.master_agent.mon [ahb_master_monitor] Beat[0] addr=0x0000e030 rdata=0x69689495 resp=AHB_RESP_OKAY
# UVM_INFO ../src/mst/ahb_master_driver.sv(332) @ 1305000: uvm_test_top.env.master_agent.drv [ahb_master_driver] Beat[1/4] addr=0x0000e032 trans=AHB_TRANS_SEQ resp=AHB_RESP_OKAY rdata=0x96976b6a
# UVM_INFO ../src/slv/ahb_slave_driver.sv(184) @ 1305000: uvm_test_top.env.slave_agent.drv [ahb_slave_driver] Beat AHB_READ addr=0x0000e032 resp=AHB_RESP_OKAY waits=0 rdata=0x96976b6a
# UVM_INFO ../src/mst/ahb_master_monitor.sv(128) @ 1305000: uvm_test_top.env.master_agent.mon [ahb_master_monitor] Beat[1] addr=0x0000e032 rdata=0x96976b6a resp=AHB_RESP_OKAY
# UVM_INFO ../src/mst/ahb_master_driver.sv(332) @ 1315000: uvm_test_top.env.master_agent.drv [ahb_master_driver] Beat[2/4] addr=0x0000e034 trans=AHB_TRANS_SEQ resp=AHB_RESP_OKAY rdata=0x6d6c9091
# UVM_INFO ../src/slv/ahb_slave_driver.sv(184) @ 1315000: uvm_test_top.env.slave_agent.drv [ahb_slave_driver] Beat AHB_READ addr=0x0000e034 resp=AHB_RESP_OKAY waits=0 rdata=0x6d6c9091
# UVM_INFO ../src/mst/ahb_master_monitor.sv(128) @ 1315000: uvm_test_top.env.master_agent.mon [ahb_master_monitor] Beat[2] addr=0x0000e034 rdata=0x6d6c9091 resp=AHB_RESP_OKAY
# UVM_INFO ../src/mst/ahb_master_driver.sv(332) @ 1325000: uvm_test_top.env.master_agent.drv [ahb_master_driver] Beat[3/4] addr=0x0000e036 trans=AHB_TRANS_SEQ resp=AHB_RESP_OKAY rdata=0x92936f6e
# UVM_INFO ../src/mst/ahb_master_driver.sv(376) @ 1325000: uvm_test_top.env.master_agent.drv [ahb_master_driver] Transaction complete: AHB_READ 0x0000e030, 4 beats, burst=AHB_BURST_INCR4
# UVM_INFO ../src/slv/ahb_slave_driver.sv(184) @ 1325000: uvm_test_top.env.slave_agent.drv [ahb_slave_driver] Beat AHB_READ addr=0x0000e036 resp=AHB_RESP_OKAY waits=0 rdata=0x92936f6e
# UVM_INFO ../src/mst/ahb_master_monitor.sv(128) @ 1325000: uvm_test_top.env.master_agent.mon [ahb_master_monitor] Beat[3] addr=0x0000e036 rdata=0x92936f6e resp=AHB_RESP_OKAY
# UVM_INFO ../src/mst/ahb_master_monitor.sv(231) @ 1325000: uvm_test_top.env.master_agent.mon [ahb_master_monitor] Observed [AHB_READ]: HADDR=0x0000e030, HBURST=AHB_BURST_INCR4, HSIZE=AHB_SIZE_16B, 4 beats
# UVM_INFO ../src/env/ahb_coverage.sv(174) @ 1325000: uvm_test_top.env.master_cov [ahb_coverage] Sampled [AHB_READ]: burst=AHB_BURST_INCR4 size=AHB_SIZE_16B beats=4 error=0
# UVM_INFO ../src/slv/ahb_slave_monitor.sv(212) @ 1325000: uvm_test_top.env.slave_agent.mon [ahb_slave_monitor] Observed [AHB_READ]: HADDR=0x0000e030, HBURST=AHB_BURST_INCR4, HSIZE=AHB_SIZE_16B, 4 beats
# UVM_INFO ../src/env/ahb_scoreboard.sv(104) @ 1325000: uvm_test_top.env.scb [ahb_scoreboard] MATCH #22: [AHB_READ] HADDR=0x0000e030 AHB_BURST_INCR4 4 beats
# UVM_INFO ../src/env/ahb_coverage.sv(174) @ 1325000: uvm_test_top.env.slave_cov [ahb_coverage] Sampled [AHB_READ]: burst=AHB_BURST_INCR4 size=AHB_SIZE_16B beats=4 error=0
# UVM_INFO ../src/mst_seq/ahb_base_seq.sv(157) @ 1325000: uvm_test_top.env.master_agent.sqr@@seq [ahb_byte_lane_seq] AHB_BURST_INCR4 AHB_SIZE_16B beat 0 @0x0000e030 ok
# UVM_INFO ../src/mst_seq/ahb_base_seq.sv(157) @ 1325000: uvm_test_top.env.master_agent.sqr@@seq [ahb_byte_lane_seq] AHB_BURST_INCR4 AHB_SIZE_16B beat 1 @0x0000e032 ok
# UVM_INFO ../src/mst_seq/ahb_base_seq.sv(157) @ 1325000: uvm_test_top.env.master_agent.sqr@@seq [ahb_byte_lane_seq] AHB_BURST_INCR4 AHB_SIZE_16B beat 2 @0x0000e034 ok
# UVM_INFO ../src/mst_seq/ahb_base_seq.sv(157) @ 1325000: uvm_test_top.env.master_agent.sqr@@seq [ahb_byte_lane_seq] AHB_BURST_INCR4 AHB_SIZE_16B beat 3 @0x0000e036 ok
# UVM_INFO ../src/mst_seq/ahb_byte_lane_seq.sv(190) @ 1325000: uvm_test_top.env.master_agent.sqr@@seq [ahb_byte_lane_seq] AHB_BURST_SINGLE AHB_SIZE_16B @0x0000e0e2: 1 beats, start lane 2, HWDATA[0]=0x4647bbba
# UVM_INFO ../src/mst/ahb_master_driver.sv(85) @ 1325000: uvm_test_top.env.master_agent.drv [ahb_master_driver] Queueing [AHB_WRITE]: HADDR=0x0000e0e2, HBURST=AHB_BURST_SINGLE, HSIZE=AHB_SIZE_16B, 1 beats
# UVM_INFO ../src/mst/ahb_master_driver.sv(127) @ 1325000: uvm_test_top.env.master_agent.drv [ahb_master_driver] Driving [AHB_WRITE]: HADDR=0x0000e0e2, HBURST=AHB_BURST_SINGLE, HSIZE=AHB_SIZE_16B, 1 beats               
# UVM_INFO ../src/mst/ahb_master_driver.sv(332) @ 1365000: uvm_test_top.env.master_agent.drv [ahb_master_driver] Beat[0/1] addr=0x0000e0e2 trans=AHB_TRANS_NONSEQ resp=AHB_RESP_OKAY wdata=0x4647bbba
# UVM_INFO ../src/mst/ahb_master_driver.sv(376) @ 1365000: uvm_test_top.env.master_agent.drv [ahb_master_driver] Transaction complete: AHB_WRITE 0x0000e0e2, 1 beats, burst=AHB_BURST_SINGLE
# UVM_INFO ../src/slv/ahb_slave_driver.sv(184) @ 1365000: uvm_test_top.env.slave_agent.drv [ahb_slave_driver] Beat AHB_WRITE addr=0x0000e0e2 resp=AHB_RESP_OKAY waits=1 wdata=0x4647bbba
# UVM_INFO ../src/mst/ahb_master_monitor.sv(128) @ 1365000: uvm_test_top.env.master_agent.mon [ahb_master_monitor] Beat[0] addr=0x0000e0e2 wdata=0x4647bbba resp=AHB_RESP_OKAY
# UVM_INFO ../src/mst/ahb_master_monitor.sv(231) @ 1365000: uvm_test_top.env.master_agent.mon [ahb_master_monitor] Observed [AHB_WRITE]: HADDR=0x0000e0e2, HBURST=AHB_BURST_SINGLE, HSIZE=AHB_SIZE_16B, 1 beats
# UVM_INFO ../src/env/ahb_coverage.sv(174) @ 1365000: uvm_test_top.env.master_cov [ahb_coverage] Sampled [AHB_WRITE]: burst=AHB_BURST_SINGLE size=AHB_SIZE_16B beats=1 error=0
# UVM_INFO ../src/slv/ahb_slave_monitor.sv(212) @ 1365000: uvm_test_top.env.slave_agent.mon [ahb_slave_monitor] Observed [AHB_WRITE]: HADDR=0x0000e0e2, HBURST=AHB_BURST_SINGLE, HSIZE=AHB_SIZE_16B, 1 beats
# UVM_INFO ../src/env/ahb_scoreboard.sv(104) @ 1365000: uvm_test_top.env.scb [ahb_scoreboard] MATCH #23: [AHB_WRITE] HADDR=0x0000e0e2 AHB_BURST_SINGLE 1 beats
# UVM_INFO ../src/env/ahb_coverage.sv(174) @ 1365000: uvm_test_top.env.slave_cov [ahb_coverage] Sampled [AHB_WRITE]: burst=AHB_BURST_SINGLE size=AHB_SIZE_16B beats=1 error=0
# UVM_INFO ../src/mst/ahb_master_driver.sv(85) @ 1365000: uvm_test_top.env.master_agent.drv [ahb_master_driver] Queueing [AHB_READ]: HADDR=0x0000e0e2, HBURST=AHB_BURST_SINGLE, HSIZE=AHB_SIZE_16B, 1 beats
# UVM_INFO ../src/mst/ahb_master_driver.sv(127) @ 1365000: uvm_test_top.env.master_agent.drv [ahb_master_driver] Driving [AHB_READ]: HADDR=0x0000e0e2, HBURST=AHB_BURST_SINGLE, HSIZE=AHB_SIZE_16B, 1 beats               
# UVM_INFO ../src/mst/ahb_master_driver.sv(332) @ 1405000: uvm_test_top.env.master_agent.drv [ahb_master_driver] Beat[0/1] addr=0x0000e0e2 trans=AHB_TRANS_NONSEQ resp=AHB_RESP_OKAY rdata=0x4647bbba
# UVM_INFO ../src/mst/ahb_master_driver.sv(376) @ 1405000: uvm_test_top.env.master_agent.drv [ahb_master_driver] Transaction complete: AHB_READ 0x0000e0e2, 1 beats, burst=AHB_BURST_SINGLE
# UVM_INFO ../src/slv/ahb_slave_driver.sv(184) @ 1405000: uvm_test_top.env.slave_agent.drv [ahb_slave_driver] Beat AHB_READ addr=0x0000e0e2 resp=AHB_RESP_OKAY waits=1 rdata=0x4647bbba
# UVM_INFO ../src/mst/ahb_master_monitor.sv(128) @ 1405000: uvm_test_top.env.master_agent.mon [ahb_master_monitor] Beat[0] addr=0x0000e0e2 rdata=0x4647bbba resp=AHB_RESP_OKAY
# UVM_INFO ../src/mst/ahb_master_monitor.sv(231) @ 1405000: uvm_test_top.env.master_agent.mon [ahb_master_monitor] Observed [AHB_READ]: HADDR=0x0000e0e2, HBURST=AHB_BURST_SINGLE, HSIZE=AHB_SIZE_16B, 1 beats
# UVM_INFO ../src/env/ahb_coverage.sv(174) @ 1405000: uvm_test_top.env.master_cov [ahb_coverage] Sampled [AHB_READ]: burst=AHB_BURST_SINGLE size=AHB_SIZE_16B beats=1 error=0
# UVM_INFO ../src/slv/ahb_slave_monitor.sv(212) @ 1405000: uvm_test_top.env.slave_agent.mon [ahb_slave_monitor] Observed [AHB_READ]: HADDR=0x0000e0e2, HBURST=AHB_BURST_SINGLE, HSIZE=AHB_SIZE_16B, 1 beats
# UVM_INFO ../src/env/ahb_scoreboard.sv(104) @ 1405000: uvm_test_top.env.scb [ahb_scoreboard] MATCH #24: [AHB_READ] HADDR=0x0000e0e2 AHB_BURST_SINGLE 1 beats
# UVM_INFO ../src/env/ahb_coverage.sv(174) @ 1405000: uvm_test_top.env.slave_cov [ahb_coverage] Sampled [AHB_READ]: burst=AHB_BURST_SINGLE size=AHB_SIZE_16B beats=1 error=0
# UVM_INFO ../src/mst_seq/ahb_base_seq.sv(157) @ 1405000: uvm_test_top.env.master_agent.sqr@@seq [ahb_byte_lane_seq] AHB_BURST_SINGLE AHB_SIZE_16B beat 0 @0x0000e0e2 ok
# UVM_INFO ../src/mst_seq/ahb_byte_lane_seq.sv(190) @ 1405000: uvm_test_top.env.master_agent.sqr@@seq [ahb_byte_lane_seq] AHB_BURST_SINGLE AHB_SIZE_16B @0x0000e0e0: 1 beats, start lane 0, HWDATA[0]=0xb9b84445
# UVM_INFO ../src/mst/ahb_master_driver.sv(85) @ 1405000: uvm_test_top.env.master_agent.drv [ahb_master_driver] Queueing [AHB_WRITE]: HADDR=0x0000e0e0, HBURST=AHB_BURST_SINGLE, HSIZE=AHB_SIZE_16B, 1 beats
# UVM_INFO ../src/mst/ahb_master_driver.sv(127) @ 1405000: uvm_test_top.env.master_agent.drv [ahb_master_driver] Driving [AHB_WRITE]: HADDR=0x0000e0e0, HBURST=AHB_BURST_SINGLE, HSIZE=AHB_SIZE_16B, 1 beats               
# UVM_INFO ../src/mst/ahb_master_driver.sv(332) @ 1435000: uvm_test_top.env.master_agent.drv [ahb_master_driver] Beat[0/1] addr=0x0000e0e0 trans=AHB_TRANS_NONSEQ resp=AHB_RESP_OKAY wdata=0xb9b84445
# UVM_INFO ../src/mst/ahb_master_driver.sv(376) @ 1435000: uvm_test_top.env.master_agent.drv [ahb_master_driver] Transaction complete: AHB_WRITE 0x0000e0e0, 1 beats, burst=AHB_BURST_SINGLE
# UVM_INFO ../src/slv/ahb_slave_driver.sv(184) @ 1435000: uvm_test_top.env.slave_agent.drv [ahb_slave_driver] Beat AHB_WRITE addr=0x0000e0e0 resp=AHB_RESP_OKAY waits=0 wdata=0xb9b84445
# UVM_INFO ../src/slv/ahb_slave_monitor.sv(212) @ 1435000: uvm_test_top.env.slave_agent.mon [ahb_slave_monitor] Observed [AHB_WRITE]: HADDR=0x0000e0e0, HBURST=AHB_BURST_SINGLE, HSIZE=AHB_SIZE_16B, 1 beats
# UVM_INFO ../src/env/ahb_coverage.sv(174) @ 1435000: uvm_test_top.env.slave_cov [ahb_coverage] Sampled [AHB_WRITE]: burst=AHB_BURST_SINGLE size=AHB_SIZE_16B beats=1 error=0
# UVM_INFO ../src/mst/ahb_master_monitor.sv(128) @ 1435000: uvm_test_top.env.master_agent.mon [ahb_master_monitor] Beat[0] addr=0x0000e0e0 wdata=0xb9b84445 resp=AHB_RESP_OKAY
# UVM_INFO ../src/mst/ahb_master_monitor.sv(231) @ 1435000: uvm_test_top.env.master_agent.mon [ahb_master_monitor] Observed [AHB_WRITE]: HADDR=0x0000e0e0, HBURST=AHB_BURST_SINGLE, HSIZE=AHB_SIZE_16B, 1 beats
# UVM_INFO ../src/env/ahb_coverage.sv(174) @ 1435000: uvm_test_top.env.master_cov [ahb_coverage] Sampled [AHB_WRITE]: burst=AHB_BURST_SINGLE size=AHB_SIZE_16B beats=1 error=0
# UVM_INFO ../src/env/ahb_scoreboard.sv(104) @ 1435000: uvm_test_top.env.scb [ahb_scoreboard] MATCH #25: [AHB_WRITE] HADDR=0x0000e0e0 AHB_BURST_SINGLE 1 beats
# UVM_INFO ../src/mst/ahb_master_driver.sv(85) @ 1435000: uvm_test_top.env.master_agent.drv [ahb_master_driver] Queueing [AHB_READ]: HADDR=0x0000e0e0, HBURST=AHB_BURST_SINGLE, HSIZE=AHB_SIZE_16B, 1 beats
# UVM_INFO ../src/mst/ahb_master_driver.sv(127) @ 1435000: uvm_test_top.env.master_agent.drv [ahb_master_driver] Driving [AHB_READ]: HADDR=0x0000e0e0, HBURST=AHB_BURST_SINGLE, HSIZE=AHB_SIZE_16B, 1 beats               
# UVM_INFO ../src/mst/ahb_master_driver.sv(332) @ 1465000: uvm_test_top.env.master_agent.drv [ahb_master_driver] Beat[0/1] addr=0x0000e0e0 trans=AHB_TRANS_NONSEQ resp=AHB_RESP_OKAY rdata=0xb9b84445
# UVM_INFO ../src/mst/ahb_master_driver.sv(376) @ 1465000: uvm_test_top.env.master_agent.drv [ahb_master_driver] Transaction complete: AHB_READ 0x0000e0e0, 1 beats, burst=AHB_BURST_SINGLE
# UVM_INFO ../src/slv/ahb_slave_driver.sv(184) @ 1465000: uvm_test_top.env.slave_agent.drv [ahb_slave_driver] Beat AHB_READ addr=0x0000e0e0 resp=AHB_RESP_OKAY waits=0 rdata=0xb9b84445
# UVM_INFO ../src/mst/ahb_master_monitor.sv(128) @ 1465000: uvm_test_top.env.master_agent.mon [ahb_master_monitor] Beat[0] addr=0x0000e0e0 rdata=0xb9b84445 resp=AHB_RESP_OKAY
# UVM_INFO ../src/mst/ahb_master_monitor.sv(231) @ 1465000: uvm_test_top.env.master_agent.mon [ahb_master_monitor] Observed [AHB_READ]: HADDR=0x0000e0e0, HBURST=AHB_BURST_SINGLE, HSIZE=AHB_SIZE_16B, 1 beats
# UVM_INFO ../src/env/ahb_coverage.sv(174) @ 1465000: uvm_test_top.env.master_cov [ahb_coverage] Sampled [AHB_READ]: burst=AHB_BURST_SINGLE size=AHB_SIZE_16B beats=1 error=0
# UVM_INFO ../src/slv/ahb_slave_monitor.sv(212) @ 1465000: uvm_test_top.env.slave_agent.mon [ahb_slave_monitor] Observed [AHB_READ]: HADDR=0x0000e0e0, HBURST=AHB_BURST_SINGLE, HSIZE=AHB_SIZE_16B, 1 beats
# UVM_INFO ../src/env/ahb_scoreboard.sv(104) @ 1465000: uvm_test_top.env.scb [ahb_scoreboard] MATCH #26: [AHB_READ] HADDR=0x0000e0e0 AHB_BURST_SINGLE 1 beats
# UVM_INFO ../src/env/ahb_coverage.sv(174) @ 1465000: uvm_test_top.env.slave_cov [ahb_coverage] Sampled [AHB_READ]: burst=AHB_BURST_SINGLE size=AHB_SIZE_16B beats=1 error=0
# UVM_INFO ../src/mst_seq/ahb_base_seq.sv(157) @ 1465000: uvm_test_top.env.master_agent.sqr@@seq [ahb_byte_lane_seq] AHB_BURST_SINGLE AHB_SIZE_16B beat 0 @0x0000e0e0 ok
# UVM_INFO ../src/mst_seq/ahb_byte_lane_seq.sv(190) @ 1465000: uvm_test_top.env.master_agent.sqr@@seq [ahb_byte_lane_seq] AHB_BURST_INCR4 AHB_SIZE_16B @0x0000e0f2: 4 beats, start lane 2, HWDATA[0]=0x5657abaa
# UVM_INFO ../src/mst/ahb_master_driver.sv(85) @ 1465000: uvm_test_top.env.master_agent.drv [ahb_master_driver] Queueing [AHB_WRITE]: HADDR=0x0000e0f2, HBURST=AHB_BURST_INCR4, HSIZE=AHB_SIZE_16B, 4 beats
# UVM_INFO ../src/mst/ahb_master_driver.sv(127) @ 1465000: uvm_test_top.env.master_agent.drv [ahb_master_driver] Driving [AHB_WRITE]: HADDR=0x0000e0f2, HBURST=AHB_BURST_INCR4, HSIZE=AHB_SIZE_16B, 4 beats               
# UVM_INFO ../src/mst/ahb_master_driver.sv(332) @ 1515000: uvm_test_top.env.master_agent.drv [ahb_master_driver] Beat[0/4] addr=0x0000e0f2 trans=AHB_TRANS_NONSEQ resp=AHB_RESP_OKAY wdata=0x5657abaa
# UVM_INFO ../src/slv/ahb_slave_driver.sv(184) @ 1515000: uvm_test_top.env.slave_agent.drv [ahb_slave_driver] Beat AHB_WRITE addr=0x0000e0f2 resp=AHB_RESP_OKAY waits=2 wdata=0x5657abaa
# UVM_INFO ../src/mst/ahb_master_monitor.sv(128) @ 1515000: uvm_test_top.env.master_agent.mon [ahb_master_monitor] Beat[0] addr=0x0000e0f2 wdata=0x5657abaa resp=AHB_RESP_OKAY
# UVM_INFO ../src/mst/ahb_master_driver.sv(332) @ 1525000: uvm_test_top.env.master_agent.drv [ahb_master_driver] Beat[1/4] addr=0x0000e0f4 trans=AHB_TRANS_SEQ resp=AHB_RESP_OKAY wdata=0xadac5051
# UVM_INFO ../src/slv/ahb_slave_driver.sv(184) @ 1525000: uvm_test_top.env.slave_agent.drv [ahb_slave_driver] Beat AHB_WRITE addr=0x0000e0f4 resp=AHB_RESP_OKAY waits=0 wdata=0xadac5051
# UVM_INFO ../src/mst/ahb_master_monitor.sv(128) @ 1525000: uvm_test_top.env.master_agent.mon [ahb_master_monitor] Beat[1] addr=0x0000e0f4 wdata=0xadac5051 resp=AHB_RESP_OKAY
# UVM_INFO ../src/mst/ahb_master_driver.sv(332) @ 1555000: uvm_test_top.env.master_agent.drv [ahb_master_driver] Beat[2/4] addr=0x0000e0f6 trans=AHB_TRANS_SEQ resp=AHB_RESP_OKAY wdata=0x5253afae
# UVM_INFO ../src/slv/ahb_slave_driver.sv(184) @ 1555000: uvm_test_top.env.slave_agent.drv [ahb_slave_driver] Beat AHB_WRITE addr=0x0000e0f6 resp=AHB_RESP_OKAY waits=2 wdata=0x5253afae
# UVM_INFO ../src/mst/ahb_master_monitor.sv(128) @ 1555000: uvm_test_top.env.master_agent.mon [ahb_master_monitor] Beat[2] addr=0x0000e0f6 wdata=0x5253afae resp=AHB_RESP_OKAY
# UVM_INFO ../src/mst/ahb_master_driver.sv(332) @ 1585000: uvm_test_top.env.master_agent.drv [ahb_master_driver] Beat[3/4] addr=0x0000e0f8 trans=AHB_TRANS_SEQ resp=AHB_RESP_OKAY wdata=0xa1a05c5d
# UVM_INFO ../src/mst/ahb_master_driver.sv(376) @ 1585000: uvm_test_top.env.master_agent.drv [ahb_master_driver] Transaction complete: AHB_WRITE 0x0000e0f2, 4 beats, burst=AHB_BURST_INCR4
# UVM_INFO ../src/slv/ahb_slave_driver.sv(184) @ 1585000: uvm_test_top.env.slave_agent.drv [ahb_slave_driver] Beat AHB_WRITE addr=0x0000e0f8 resp=AHB_RESP_OKAY waits=2 wdata=0xa1a05c5d
# UVM_INFO ../src/mst/ahb_master_monitor.sv(128) @ 1585000: uvm_test_top.env.master_agent.mon [ahb_master_monitor] Beat[3] addr=0x0000e0f8 wdata=0xa1a05c5d resp=AHB_RESP_OKAY
# UVM_INFO ../src/mst/ahb_master_monitor.sv(231) @ 1585000: uvm_test_top.env.master_agent.mon [ahb_master_monitor] Observed [AHB_WRITE]: HADDR=0x0000e0f2, HBURST=AHB_BURST_INCR4, HSIZE=AHB_SIZE_16B, 4 beats
# UVM_INFO ../src/env/ahb_coverage.sv(174) @ 1585000: uvm_test_top.env.master_cov [ahb_coverage] Sampled [AHB_WRITE]: burst=AHB_BURST_INCR4 size=AHB_SIZE_16B beats=4 error=0
# UVM_INFO ../src/slv/ahb_slave_monitor.sv(212) @ 1585000: uvm_test_top.env.slave_agent.mon [ahb_slave_monitor] Observed [AHB_WRITE]: HADDR=0x0000e0f2, HBURST=AHB_BURST_INCR4, HSIZE=AHB_SIZE_16B, 4 beats
# UVM_INFO ../src/env/ahb_scoreboard.sv(104) @ 1585000: uvm_test_top.env.scb [ahb_scoreboard] MATCH #27: [AHB_WRITE] HADDR=0x0000e0f2 AHB_BURST_INCR4 4 beats
# UVM_INFO ../src/env/ahb_coverage.sv(174) @ 1585000: uvm_test_top.env.slave_cov [ahb_coverage] Sampled [AHB_WRITE]: burst=AHB_BURST_INCR4 size=AHB_SIZE_16B beats=4 error=0
# UVM_INFO ../src/mst/ahb_master_driver.sv(85) @ 1585000: uvm_test_top.env.master_agent.drv [ahb_master_driver] Queueing [AHB_READ]: HADDR=0x0000e0f2, HBURST=AHB_BURST_INCR4, HSIZE=AHB_SIZE_16B, 4 beats
# UVM_INFO ../src/mst/ahb_master_driver.sv(127) @ 1585000: uvm_test_top.env.master_agent.drv [ahb_master_driver] Driving [AHB_READ]: HADDR=0x0000e0f2, HBURST=AHB_BURST_INCR4, HSIZE=AHB_SIZE_16B, 4 beats               
# UVM_INFO ../src/mst/ahb_master_driver.sv(332) @ 1635000: uvm_test_top.env.master_agent.drv [ahb_master_driver] Beat[0/4] addr=0x0000e0f2 trans=AHB_TRANS_NONSEQ resp=AHB_RESP_OKAY rdata=0x5657abaa
# UVM_INFO ../src/slv/ahb_slave_driver.sv(184) @ 1635000: uvm_test_top.env.slave_agent.drv [ahb_slave_driver] Beat AHB_READ addr=0x0000e0f2 resp=AHB_RESP_OKAY waits=2 rdata=0x5657abaa
# UVM_INFO ../src/mst/ahb_master_monitor.sv(128) @ 1635000: uvm_test_top.env.master_agent.mon [ahb_master_monitor] Beat[0] addr=0x0000e0f2 rdata=0x5657abaa resp=AHB_RESP_OKAY
# UVM_INFO ../src/mst/ahb_master_driver.sv(332) @ 1645000: uvm_test_top.env.master_agent.drv [ahb_master_driver] Beat[1/4] addr=0x0000e0f4 trans=AHB_TRANS_SEQ resp=AHB_RESP_OKAY rdata=0xadac5051
# UVM_INFO ../src/slv/ahb_slave_driver.sv(184) @ 1645000: uvm_test_top.env.slave_agent.drv [ahb_slave_driver] Beat AHB_READ addr=0x0000e0f4 resp=AHB_RESP_OKAY waits=0 rdata=0xadac5051
# UVM_INFO ../src/mst/ahb_master_monitor.sv(128) @ 1645000: uvm_test_top.env.master_agent.mon [ahb_master_monitor] Beat[1] addr=0x0000e0f4 rdata=0xadac5051 resp=AHB_RESP_OKAY
# UVM_INFO ../src/mst/ahb_master_driver.sv(332) @ 1665000: uvm_test_top.env.master_agent.drv [ahb_master_driver] Beat[2/4] addr=0x0000e0f6 trans=AHB_TRANS_SEQ resp=AHB_RESP_OKAY rdata=0x5253afae
# UVM_INFO ../src/slv/ahb_slave_driver.sv(184) @ 1665000: uvm_test_top.env.slave_agent.drv [ahb_slave_driver] Beat AHB_READ addr=0x0000e0f6 resp=AHB_RESP_OKAY waits=1 rdata=0x5253afae
# UVM_INFO ../src/mst/ahb_master_monitor.sv(128) @ 1665000: uvm_test_top.env.master_agent.mon [ahb_master_monitor] Beat[2] addr=0x0000e0f6 rdata=0x5253afae resp=AHB_RESP_OKAY
# UVM_INFO ../src/mst/ahb_master_driver.sv(332) @ 1695000: uvm_test_top.env.master_agent.drv [ahb_master_driver] Beat[3/4] addr=0x0000e0f8 trans=AHB_TRANS_SEQ resp=AHB_RESP_OKAY rdata=0xa1a05c5d
# UVM_INFO ../src/mst/ahb_master_driver.sv(376) @ 1695000: uvm_test_top.env.master_agent.drv [ahb_master_driver] Transaction complete: AHB_READ 0x0000e0f2, 4 beats, burst=AHB_BURST_INCR4
# UVM_INFO ../src/slv/ahb_slave_driver.sv(184) @ 1695000: uvm_test_top.env.slave_agent.drv [ahb_slave_driver] Beat AHB_READ addr=0x0000e0f8 resp=AHB_RESP_OKAY waits=2 rdata=0xa1a05c5d
# UVM_INFO ../src/slv/ahb_slave_monitor.sv(212) @ 1695000: uvm_test_top.env.slave_agent.mon [ahb_slave_monitor] Observed [AHB_READ]: HADDR=0x0000e0f2, HBURST=AHB_BURST_INCR4, HSIZE=AHB_SIZE_16B, 4 beats
# UVM_INFO ../src/env/ahb_coverage.sv(174) @ 1695000: uvm_test_top.env.slave_cov [ahb_coverage] Sampled [AHB_READ]: burst=AHB_BURST_INCR4 size=AHB_SIZE_16B beats=4 error=0
# UVM_INFO ../src/mst/ahb_master_monitor.sv(128) @ 1695000: uvm_test_top.env.master_agent.mon [ahb_master_monitor] Beat[3] addr=0x0000e0f8 rdata=0xa1a05c5d resp=AHB_RESP_OKAY
# UVM_INFO ../src/mst/ahb_master_monitor.sv(231) @ 1695000: uvm_test_top.env.master_agent.mon [ahb_master_monitor] Observed [AHB_READ]: HADDR=0x0000e0f2, HBURST=AHB_BURST_INCR4, HSIZE=AHB_SIZE_16B, 4 beats
# UVM_INFO ../src/env/ahb_coverage.sv(174) @ 1695000: uvm_test_top.env.master_cov [ahb_coverage] Sampled [AHB_READ]: burst=AHB_BURST_INCR4 size=AHB_SIZE_16B beats=4 error=0
# UVM_INFO ../src/env/ahb_scoreboard.sv(104) @ 1695000: uvm_test_top.env.scb [ahb_scoreboard] MATCH #28: [AHB_READ] HADDR=0x0000e0f2 AHB_BURST_INCR4 4 beats
# UVM_INFO ../src/mst_seq/ahb_base_seq.sv(157) @ 1695000: uvm_test_top.env.master_agent.sqr@@seq [ahb_byte_lane_seq] AHB_BURST_INCR4 AHB_SIZE_16B beat 0 @0x0000e0f2 ok
# UVM_INFO ../src/mst_seq/ahb_base_seq.sv(157) @ 1695000: uvm_test_top.env.master_agent.sqr@@seq [ahb_byte_lane_seq] AHB_BURST_INCR4 AHB_SIZE_16B beat 1 @0x0000e0f4 ok
# UVM_INFO ../src/mst_seq/ahb_base_seq.sv(157) @ 1695000: uvm_test_top.env.master_agent.sqr@@seq [ahb_byte_lane_seq] AHB_BURST_INCR4 AHB_SIZE_16B beat 2 @0x0000e0f6 ok
# UVM_INFO ../src/mst_seq/ahb_base_seq.sv(157) @ 1695000: uvm_test_top.env.master_agent.sqr@@seq [ahb_byte_lane_seq] AHB_BURST_INCR4 AHB_SIZE_16B beat 3 @0x0000e0f8 ok
# UVM_INFO ../src/mst_seq/ahb_byte_lane_seq.sv(190) @ 1695000: uvm_test_top.env.master_agent.sqr@@seq [ahb_byte_lane_seq] AHB_BURST_SINGLE AHB_SIZE_8B @0x0000e000: 1 beats, start lane 0, HWDATA[0]=0x59585ba5
# UVM_INFO ../src/mst/ahb_master_driver.sv(85) @ 1695000: uvm_test_top.env.master_agent.drv [ahb_master_driver] Queueing [AHB_WRITE]: HADDR=0x0000e000, HBURST=AHB_BURST_SINGLE, HSIZE=AHB_SIZE_8B, 1 beats
# UVM_INFO ../src/mst/ahb_master_driver.sv(127) @ 1695000: uvm_test_top.env.master_agent.drv [ahb_master_driver] Driving [AHB_WRITE]: HADDR=0x0000e000, HBURST=AHB_BURST_SINGLE, HSIZE=AHB_SIZE_8B, 1 beats               
# UVM_INFO ../src/mst/ahb_master_driver.sv(332) @ 1745000: uvm_test_top.env.master_agent.drv [ahb_master_driver] Beat[0/1] addr=0x0000e000 trans=AHB_TRANS_NONSEQ resp=AHB_RESP_OKAY wdata=0x59585ba5
# UVM_INFO ../src/mst/ahb_master_driver.sv(376) @ 1745000: uvm_test_top.env.master_agent.drv [ahb_master_driver] Transaction complete: AHB_WRITE 0x0000e000, 1 beats, burst=AHB_BURST_SINGLE
# UVM_INFO ../src/slv/ahb_slave_driver.sv(184) @ 1745000: uvm_test_top.env.slave_agent.drv [ahb_slave_driver] Beat AHB_WRITE addr=0x0000e000 resp=AHB_RESP_OKAY waits=2 wdata=0x59585ba5
# UVM_INFO ../src/mst/ahb_master_monitor.sv(128) @ 1745000: uvm_test_top.env.master_agent.mon [ahb_master_monitor] Beat[0] addr=0x0000e000 wdata=0x59585ba5 resp=AHB_RESP_OKAY
# UVM_INFO ../src/mst/ahb_master_monitor.sv(231) @ 1745000: uvm_test_top.env.master_agent.mon [ahb_master_monitor] Observed [AHB_WRITE]: HADDR=0x0000e000, HBURST=AHB_BURST_SINGLE, HSIZE=AHB_SIZE_8B, 1 beats
# UVM_INFO ../src/env/ahb_coverage.sv(174) @ 1745000: uvm_test_top.env.master_cov [ahb_coverage] Sampled [AHB_WRITE]: burst=AHB_BURST_SINGLE size=AHB_SIZE_8B beats=1 error=0
# UVM_INFO ../src/slv/ahb_slave_monitor.sv(212) @ 1745000: uvm_test_top.env.slave_agent.mon [ahb_slave_monitor] Observed [AHB_WRITE]: HADDR=0x0000e000, HBURST=AHB_BURST_SINGLE, HSIZE=AHB_SIZE_8B, 1 beats
# UVM_INFO ../src/env/ahb_scoreboard.sv(104) @ 1745000: uvm_test_top.env.scb [ahb_scoreboard] MATCH #29: [AHB_WRITE] HADDR=0x0000e000 AHB_BURST_SINGLE 1 beats
# UVM_INFO ../src/env/ahb_coverage.sv(174) @ 1745000: uvm_test_top.env.slave_cov [ahb_coverage] Sampled [AHB_WRITE]: burst=AHB_BURST_SINGLE size=AHB_SIZE_8B beats=1 error=0
# UVM_INFO ../src/mst/ahb_master_driver.sv(85) @ 1745000: uvm_test_top.env.master_agent.drv [ahb_master_driver] Queueing [AHB_READ]: HADDR=0x0000e000, HBURST=AHB_BURST_SINGLE, HSIZE=AHB_SIZE_8B, 1 beats
# UVM_INFO ../src/mst/ahb_master_driver.sv(127) @ 1745000: uvm_test_top.env.master_agent.drv [ahb_master_driver] Driving [AHB_READ]: HADDR=0x0000e000, HBURST=AHB_BURST_SINGLE, HSIZE=AHB_SIZE_8B, 1 beats               
# UVM_INFO ../src/mst/ahb_master_driver.sv(332) @ 1775000: uvm_test_top.env.master_agent.drv [ahb_master_driver] Beat[0/1] addr=0x0000e000 trans=AHB_TRANS_NONSEQ resp=AHB_RESP_OKAY rdata=0x59585ba5
# UVM_INFO ../src/mst/ahb_master_driver.sv(376) @ 1775000: uvm_test_top.env.master_agent.drv [ahb_master_driver] Transaction complete: AHB_READ 0x0000e000, 1 beats, burst=AHB_BURST_SINGLE
# UVM_INFO ../src/slv/ahb_slave_driver.sv(184) @ 1775000: uvm_test_top.env.slave_agent.drv [ahb_slave_driver] Beat AHB_READ addr=0x0000e000 resp=AHB_RESP_OKAY waits=0 rdata=0x59585ba5
# UVM_INFO ../src/slv/ahb_slave_monitor.sv(212) @ 1775000: uvm_test_top.env.slave_agent.mon [ahb_slave_monitor] Observed [AHB_READ]: HADDR=0x0000e000, HBURST=AHB_BURST_SINGLE, HSIZE=AHB_SIZE_8B, 1 beats
# UVM_INFO ../src/env/ahb_coverage.sv(174) @ 1775000: uvm_test_top.env.slave_cov [ahb_coverage] Sampled [AHB_READ]: burst=AHB_BURST_SINGLE size=AHB_SIZE_8B beats=1 error=0
# UVM_INFO ../src/mst/ahb_master_monitor.sv(128) @ 1775000: uvm_test_top.env.master_agent.mon [ahb_master_monitor] Beat[0] addr=0x0000e000 rdata=0x59585ba5 resp=AHB_RESP_OKAY
# UVM_INFO ../src/mst/ahb_master_monitor.sv(231) @ 1775000: uvm_test_top.env.master_agent.mon [ahb_master_monitor] Observed [AHB_READ]: HADDR=0x0000e000, HBURST=AHB_BURST_SINGLE, HSIZE=AHB_SIZE_8B, 1 beats
# UVM_INFO ../src/env/ahb_coverage.sv(174) @ 1775000: uvm_test_top.env.master_cov [ahb_coverage] Sampled [AHB_READ]: burst=AHB_BURST_SINGLE size=AHB_SIZE_8B beats=1 error=0
# UVM_INFO ../src/env/ahb_scoreboard.sv(104) @ 1775000: uvm_test_top.env.scb [ahb_scoreboard] MATCH #30: [AHB_READ] HADDR=0x0000e000 AHB_BURST_SINGLE 1 beats
# UVM_INFO ../src/mst_seq/ahb_base_seq.sv(157) @ 1775000: uvm_test_top.env.master_agent.sqr@@seq [ahb_byte_lane_seq] AHB_BURST_SINGLE AHB_SIZE_8B beat 0 @0x0000e000 ok
# UVM_INFO ../src/mst_seq/ahb_byte_lane_seq.sv(190) @ 1775000: uvm_test_top.env.master_agent.sqr@@seq [ahb_byte_lane_seq] AHB_BURST_SINGLE AHB_SIZE_8B @0x0000e001: 1 beats, start lane 1, HWDATA[0]=0x5958a45a
# UVM_INFO ../src/mst/ahb_master_driver.sv(85) @ 1775000: uvm_test_top.env.master_agent.drv [ahb_master_driver] Queueing [AHB_WRITE]: HADDR=0x0000e001, HBURST=AHB_BURST_SINGLE, HSIZE=AHB_SIZE_8B, 1 beats
# UVM_INFO ../src/mst/ahb_master_driver.sv(127) @ 1775000: uvm_test_top.env.master_agent.drv [ahb_master_driver] Driving [AHB_WRITE]: HADDR=0x0000e001, HBURST=AHB_BURST_SINGLE, HSIZE=AHB_SIZE_8B, 1 beats               
# UVM_INFO ../src/mst/ahb_master_driver.sv(332) @ 1815000: uvm_test_top.env.master_agent.drv [ahb_master_driver] Beat[0/1] addr=0x0000e001 trans=AHB_TRANS_NONSEQ resp=AHB_RESP_OKAY wdata=0x5958a45a
# UVM_INFO ../src/mst/ahb_master_driver.sv(376) @ 1815000: uvm_test_top.env.master_agent.drv [ahb_master_driver] Transaction complete: AHB_WRITE 0x0000e001, 1 beats, burst=AHB_BURST_SINGLE
# UVM_INFO ../src/slv/ahb_slave_driver.sv(184) @ 1815000: uvm_test_top.env.slave_agent.drv [ahb_slave_driver] Beat AHB_WRITE addr=0x0000e001 resp=AHB_RESP_OKAY waits=1 wdata=0x5958a45a
# UVM_INFO ../src/slv/ahb_slave_monitor.sv(212) @ 1815000: uvm_test_top.env.slave_agent.mon [ahb_slave_monitor] Observed [AHB_WRITE]: HADDR=0x0000e001, HBURST=AHB_BURST_SINGLE, HSIZE=AHB_SIZE_8B, 1 beats
# UVM_INFO ../src/env/ahb_coverage.sv(174) @ 1815000: uvm_test_top.env.slave_cov [ahb_coverage] Sampled [AHB_WRITE]: burst=AHB_BURST_SINGLE size=AHB_SIZE_8B beats=1 error=0
# UVM_INFO ../src/mst/ahb_master_monitor.sv(128) @ 1815000: uvm_test_top.env.master_agent.mon [ahb_master_monitor] Beat[0] addr=0x0000e001 wdata=0x5958a45a resp=AHB_RESP_OKAY
# UVM_INFO ../src/mst/ahb_master_monitor.sv(231) @ 1815000: uvm_test_top.env.master_agent.mon [ahb_master_monitor] Observed [AHB_WRITE]: HADDR=0x0000e001, HBURST=AHB_BURST_SINGLE, HSIZE=AHB_SIZE_8B, 1 beats
# UVM_INFO ../src/env/ahb_coverage.sv(174) @ 1815000: uvm_test_top.env.master_cov [ahb_coverage] Sampled [AHB_WRITE]: burst=AHB_BURST_SINGLE size=AHB_SIZE_8B beats=1 error=0
# UVM_INFO ../src/env/ahb_scoreboard.sv(104) @ 1815000: uvm_test_top.env.scb [ahb_scoreboard] MATCH #31: [AHB_WRITE] HADDR=0x0000e001 AHB_BURST_SINGLE 1 beats
# UVM_INFO ../src/mst/ahb_master_driver.sv(85) @ 1815000: uvm_test_top.env.master_agent.drv [ahb_master_driver] Queueing [AHB_READ]: HADDR=0x0000e001, HBURST=AHB_BURST_SINGLE, HSIZE=AHB_SIZE_8B, 1 beats
# UVM_INFO ../src/mst/ahb_master_driver.sv(127) @ 1815000: uvm_test_top.env.master_agent.drv [ahb_master_driver] Driving [AHB_READ]: HADDR=0x0000e001, HBURST=AHB_BURST_SINGLE, HSIZE=AHB_SIZE_8B, 1 beats               
# UVM_INFO ../src/mst/ahb_master_driver.sv(332) @ 1865000: uvm_test_top.env.master_agent.drv [ahb_master_driver] Beat[0/1] addr=0x0000e001 trans=AHB_TRANS_NONSEQ resp=AHB_RESP_OKAY rdata=0x5958a45a
# UVM_INFO ../src/mst/ahb_master_driver.sv(376) @ 1865000: uvm_test_top.env.master_agent.drv [ahb_master_driver] Transaction complete: AHB_READ 0x0000e001, 1 beats, burst=AHB_BURST_SINGLE
# UVM_INFO ../src/slv/ahb_slave_driver.sv(184) @ 1865000: uvm_test_top.env.slave_agent.drv [ahb_slave_driver] Beat AHB_READ addr=0x0000e001 resp=AHB_RESP_OKAY waits=2 rdata=0x5958a45a
# UVM_INFO ../src/mst/ahb_master_monitor.sv(128) @ 1865000: uvm_test_top.env.master_agent.mon [ahb_master_monitor] Beat[0] addr=0x0000e001 rdata=0x5958a45a resp=AHB_RESP_OKAY
# UVM_INFO ../src/mst/ahb_master_monitor.sv(231) @ 1865000: uvm_test_top.env.master_agent.mon [ahb_master_monitor] Observed [AHB_READ]: HADDR=0x0000e001, HBURST=AHB_BURST_SINGLE, HSIZE=AHB_SIZE_8B, 1 beats
# UVM_INFO ../src/env/ahb_coverage.sv(174) @ 1865000: uvm_test_top.env.master_cov [ahb_coverage] Sampled [AHB_READ]: burst=AHB_BURST_SINGLE size=AHB_SIZE_8B beats=1 error=0
# UVM_INFO ../src/slv/ahb_slave_monitor.sv(212) @ 1865000: uvm_test_top.env.slave_agent.mon [ahb_slave_monitor] Observed [AHB_READ]: HADDR=0x0000e001, HBURST=AHB_BURST_SINGLE, HSIZE=AHB_SIZE_8B, 1 beats
# UVM_INFO ../src/env/ahb_scoreboard.sv(104) @ 1865000: uvm_test_top.env.scb [ahb_scoreboard] MATCH #32: [AHB_READ] HADDR=0x0000e001 AHB_BURST_SINGLE 1 beats
# UVM_INFO ../src/env/ahb_coverage.sv(174) @ 1865000: uvm_test_top.env.slave_cov [ahb_coverage] Sampled [AHB_READ]: burst=AHB_BURST_SINGLE size=AHB_SIZE_8B beats=1 error=0
# UVM_INFO ../src/mst_seq/ahb_base_seq.sv(157) @ 1865000: uvm_test_top.env.master_agent.sqr@@seq [ahb_byte_lane_seq] AHB_BURST_SINGLE AHB_SIZE_8B beat 0 @0x0000e001 ok
# UVM_INFO ../src/mst_seq/ahb_byte_lane_seq.sv(190) @ 1865000: uvm_test_top.env.master_agent.sqr@@seq [ahb_byte_lane_seq] AHB_BURST_SINGLE AHB_SIZE_8B @0x0000e003: 1 beats, start lane 3, HWDATA[0]=0xa6585b5a
# UVM_INFO ../src/mst/ahb_master_driver.sv(85) @ 1865000: uvm_test_top.env.master_agent.drv [ahb_master_driver] Queueing [AHB_WRITE]: HADDR=0x0000e003, HBURST=AHB_BURST_SINGLE, HSIZE=AHB_SIZE_8B, 1 beats
# UVM_INFO ../src/mst/ahb_master_driver.sv(127) @ 1865000: uvm_test_top.env.master_agent.drv [ahb_master_driver] Driving [AHB_WRITE]: HADDR=0x0000e003, HBURST=AHB_BURST_SINGLE, HSIZE=AHB_SIZE_8B, 1 beats               
# UVM_INFO ../src/mst/ahb_master_driver.sv(332) @ 1915000: uvm_test_top.env.master_agent.drv [ahb_master_driver] Beat[0/1] addr=0x0000e003 trans=AHB_TRANS_NONSEQ resp=AHB_RESP_OKAY wdata=0xa6585b5a
# UVM_INFO ../src/mst/ahb_master_driver.sv(376) @ 1915000: uvm_test_top.env.master_agent.drv [ahb_master_driver] Transaction complete: AHB_WRITE 0x0000e003, 1 beats, burst=AHB_BURST_SINGLE
# UVM_INFO ../src/slv/ahb_slave_driver.sv(184) @ 1915000: uvm_test_top.env.slave_agent.drv [ahb_slave_driver] Beat AHB_WRITE addr=0x0000e003 resp=AHB_RESP_OKAY waits=2 wdata=0xa6585b5a
# UVM_INFO ../src/slv/ahb_slave_monitor.sv(212) @ 1915000: uvm_test_top.env.slave_agent.mon [ahb_slave_monitor] Observed [AHB_WRITE]: HADDR=0x0000e003, HBURST=AHB_BURST_SINGLE, HSIZE=AHB_SIZE_8B, 1 beats
# UVM_INFO ../src/env/ahb_coverage.sv(174) @ 1915000: uvm_test_top.env.slave_cov [ahb_coverage] Sampled [AHB_WRITE]: burst=AHB_BURST_SINGLE size=AHB_SIZE_8B beats=1 error=0
# UVM_INFO ../src/mst/ahb_master_monitor.sv(128) @ 1915000: uvm_test_top.env.master_agent.mon [ahb_master_monitor] Beat[0] addr=0x0000e003 wdata=0xa6585b5a resp=AHB_RESP_OKAY
# UVM_INFO ../src/mst/ahb_master_monitor.sv(231) @ 1915000: uvm_test_top.env.master_agent.mon [ahb_master_monitor] Observed [AHB_WRITE]: HADDR=0x0000e003, HBURST=AHB_BURST_SINGLE, HSIZE=AHB_SIZE_8B, 1 beats
# UVM_INFO ../src/env/ahb_coverage.sv(174) @ 1915000: uvm_test_top.env.master_cov [ahb_coverage] Sampled [AHB_WRITE]: burst=AHB_BURST_SINGLE size=AHB_SIZE_8B beats=1 error=0
# UVM_INFO ../src/env/ahb_scoreboard.sv(104) @ 1915000: uvm_test_top.env.scb [ahb_scoreboard] MATCH #33: [AHB_WRITE] HADDR=0x0000e003 AHB_BURST_SINGLE 1 beats
# UVM_INFO ../src/mst/ahb_master_driver.sv(85) @ 1915000: uvm_test_top.env.master_agent.drv [ahb_master_driver] Queueing [AHB_READ]: HADDR=0x0000e003, HBURST=AHB_BURST_SINGLE, HSIZE=AHB_SIZE_8B, 1 beats
# UVM_INFO ../src/mst/ahb_master_driver.sv(127) @ 1915000: uvm_test_top.env.master_agent.drv [ahb_master_driver] Driving [AHB_READ]: HADDR=0x0000e003, HBURST=AHB_BURST_SINGLE, HSIZE=AHB_SIZE_8B, 1 beats               
# UVM_INFO ../src/mst/ahb_master_driver.sv(332) @ 1955000: uvm_test_top.env.master_agent.drv [ahb_master_driver] Beat[0/1] addr=0x0000e003 trans=AHB_TRANS_NONSEQ resp=AHB_RESP_OKAY rdata=0xa6585b5a
# UVM_INFO ../src/mst/ahb_master_driver.sv(376) @ 1955000: uvm_test_top.env.master_agent.drv [ahb_master_driver] Transaction complete: AHB_READ 0x0000e003, 1 beats, burst=AHB_BURST_SINGLE
# UVM_INFO ../src/slv/ahb_slave_driver.sv(184) @ 1955000: uvm_test_top.env.slave_agent.drv [ahb_slave_driver] Beat AHB_READ addr=0x0000e003 resp=AHB_RESP_OKAY waits=1 rdata=0xa6585b5a
# UVM_INFO ../src/slv/ahb_slave_monitor.sv(212) @ 1955000: uvm_test_top.env.slave_agent.mon [ahb_slave_monitor] Observed [AHB_READ]: HADDR=0x0000e003, HBURST=AHB_BURST_SINGLE, HSIZE=AHB_SIZE_8B, 1 beats
# UVM_INFO ../src/env/ahb_coverage.sv(174) @ 1955000: uvm_test_top.env.slave_cov [ahb_coverage] Sampled [AHB_READ]: burst=AHB_BURST_SINGLE size=AHB_SIZE_8B beats=1 error=0
# UVM_INFO ../src/mst/ahb_master_monitor.sv(128) @ 1955000: uvm_test_top.env.master_agent.mon [ahb_master_monitor] Beat[0] addr=0x0000e003 rdata=0xa6585b5a resp=AHB_RESP_OKAY
# UVM_INFO ../src/mst/ahb_master_monitor.sv(231) @ 1955000: uvm_test_top.env.master_agent.mon [ahb_master_monitor] Observed [AHB_READ]: HADDR=0x0000e003, HBURST=AHB_BURST_SINGLE, HSIZE=AHB_SIZE_8B, 1 beats
# UVM_INFO ../src/env/ahb_coverage.sv(174) @ 1955000: uvm_test_top.env.master_cov [ahb_coverage] Sampled [AHB_READ]: burst=AHB_BURST_SINGLE size=AHB_SIZE_8B beats=1 error=0
# UVM_INFO ../src/env/ahb_scoreboard.sv(104) @ 1955000: uvm_test_top.env.scb [ahb_scoreboard] MATCH #34: [AHB_READ] HADDR=0x0000e003 AHB_BURST_SINGLE 1 beats
