# vsim -c -coverage -sv_seed 86176619 "+UVM_TESTNAME=ahb_incr_burst_test" "+UVM_VERBOSITY=UVM_HIGH" "+DUMP_VCD" -l ./report/logs/ahb_incr_burst_test_run_2_seed_86176619.log -do "coverage save -onexit ./report/coverage/ahb_incr_burst_test_run_2_seed_86176619.ucdb; run -all; quit -f" opt_tb_top 
# Start time: 13:13:03 on Aug 03,2026
# //  Questa Sim-64
# //  Version 10.6b linux_x86_64 May 25 2017
# //
# //  Copyright 1991-2017 Mentor Graphics Corporation
# //  All Rights Reserved.
# //
# //  QuestaSim and its associated documentation contain trade
# //  secrets and commercial or financial information that are the property of
# //  Mentor Graphics Corporation and are privileged, confidential,
# //  and exempt from disclosure under the Freedom of Information Act,
# //  5 U.S.C. Section 552. Furthermore, this information
# //  is prohibited from disclosure under the Trade Secrets Act,
# //  18 U.S.C. Section 1905.
# //
# Loading sv_std.std
# Loading work.ahb_if(fast)
# Loading mtiUvm.uvm_pkg
# Loading work.ahb_pkg(fast)
# Loading work.ahb_seq_pkg(fast)
# Loading work.ahb_test_pkg(fast)
# Loading work.tb_top(fast)
# Loading work.ahb_if(fast)
# Loading work.ahb_sva(fast)
# Loading mtiUvm.questa_uvm_pkg(fast)
# Loading /cadtools/mentor/Questa_10.6b/questasim/uvm-1.1d/linux_x86_64/uvm_dpi.so
# coverage save -onexit ./report/coverage/ahb_incr_burst_test_run_2_seed_86176619.ucdb
#  run -all
# ----------------------------------------------------------------
# UVM-1.1d
# (C) 2007-2013 Mentor Graphics Corporation
# (C) 2007-2013 Cadence Design Systems, Inc.
# (C) 2006-2013 Synopsys, Inc.
# (C) 2011-2013 Cypress Semiconductor Corp.
# ----------------------------------------------------------------
# 
#   ***********       IMPORTANT RELEASE NOTES         ************
# 
#   You are using a version of the UVM library that has been compiled
#   with `UVM_NO_DEPRECATED undefined.
#   See http://www.eda.org/svdb/view.php?id=3313 for more details.
# 
#   You are using a version of the UVM library that has been compiled
#   with `UVM_OBJECT_MUST_HAVE_CONSTRUCTOR undefined.
#   See http://www.eda.org/svdb/view.php?id=3770 for more details.
# 
#       (Specify +UVM_NO_RELNOTES to turn off this notice)
# 
# UVM_INFO verilog_src/questa_uvm_pkg-1.2/src/questa_uvm_pkg.sv(215) @ 0: reporter [Questa UVM] QUESTA_UVM-1.2.3
# UVM_INFO verilog_src/questa_uvm_pkg-1.2/src/questa_uvm_pkg.sv(217) @ 0: reporter [Questa UVM]  questa_uvm::init(+struct)
# UVM_INFO ../src/tb_top.sv(126) @ 0: reporter [TB_TOP] Virtual interface set in config_db
# UVM_INFO @ 0: reporter [RNTST] Running test ahb_incr_burst_test...
# UVM_INFO ../src/tb_top.sv(140) @ 0: reporter [TB_TOP] Waveform VCD dumping enabled (ahb_lite_vip.vcd)
# UVM_INFO ../src/env/ahb_vip_env.sv(64) @ 0: uvm_test_top.env [ahb_vip_env] slave_vif not set - reusing master_vif (passthrough mode)
# UVM_INFO ../src/env/ahb_vip_env.sv(72) @ 0: uvm_test_top.env [ahb_vip_env] Scoreboard created
# UVM_INFO ../src/env/ahb_vip_env.sv(78) @ 0: uvm_test_top.env [ahb_vip_env] Coverage collectors created
# UVM_INFO ../src/mst/ahb_master_agent.sv(61) @ 0: uvm_test_top.env.master_agent [ahb_master_agent] ACTIVE mode - driver + sequencer created
# UVM_INFO ../src/slv/ahb_slave_agent.sv(64) @ 0: uvm_test_top.env.slave_agent [ahb_slave_agent] ACTIVE mode - driver + sequencer created (    auto responses)
# UVM_INFO ../src/env/ahb_vip_env.sv(92) @ 0: uvm_test_top.env [ahb_vip_env] Scoreboard connected: master_mon.ap -> scb, slave_mon.ap -> scb
# UVM_INFO ../src/env/ahb_vip_env.sv(99) @ 0: uvm_test_top.env [ahb_vip_env] Coverage connected: master_mon.ap -> master_cov, slave_mon.ap -> slave_cov
# UVM_INFO @ 0: reporter [UVMTOP] UVM testbench topology:
# ---------------------------------------------------------------
# Name                       Type                     Size  Value
# ---------------------------------------------------------------
# uvm_test_top               ahb_incr_burst_test      -     @475 
#   env                      ahb_vip_env              -     @490 
#     master_agent           ahb_master_agent         -     @505 
#       drv                  ahb_master_driver        -     @570 
#         rsp_port           uvm_analysis_port        -     @585 
#         seq_item_port      uvm_seq_item_pull_port   -     @577 
#       mon                  ahb_master_monitor       -     @563 
#         ap                 uvm_analysis_port        -     @704 
#       sqr                  ahb_master_sequencer     -     @593 
#         rsp_export         uvm_analysis_export      -     @600 
#         seq_item_export    uvm_seq_item_pull_imp    -     @694 
#         arbitration_queue  array                    0     -    
#         lock_queue         array                    0     -    
#         num_last_reqs      integral                 32    'd1  
#         num_last_rsps      integral                 32    'd1  
#     master_cov             ahb_coverage             -     @526 
#       analysis_imp         uvm_analysis_imp         -     @533 
#     scb                    ahb_scoreboard           -     @519 
#       master_export        uvm_analysis_imp_master  -     @718 
#       slave_export         uvm_analysis_imp_slave   -     @726 
#     slave_agent            ahb_slave_agent          -     @512 
#       drv                  ahb_slave_driver         -     @748 
#         rsp_port           uvm_analysis_port        -     @763 
#         seq_item_port      uvm_seq_item_pull_port   -     @755 
#       mon                  ahb_slave_monitor        -     @741 
#         ap                 uvm_analysis_port        -     @882 
#       sqr                  ahb_slave_sequencer      -     @771 
#         rsp_export         uvm_analysis_export      -     @778 
#         seq_item_export    uvm_seq_item_pull_imp    -     @872 
#         arbitration_queue  array                    0     -    
#         lock_queue         array                    0     -    
#         num_last_reqs      integral                 32    'd1  
#         num_last_rsps      integral                 32    'd1  
#     slave_cov              ahb_coverage             -     @541 
#       analysis_imp         uvm_analysis_imp         -     @548 
# ---------------------------------------------------------------
# 
# UVM_INFO verilog_src/questa_uvm_pkg-1.2/src/questa_uvm_pkg.sv(277) @ 0: reporter [Questa UVM] End Of Elaboration
# UVM_INFO ../src/mst_seq/ahb_incr_burst_seq.sv(51) @ 0: uvm_test_top.env.master_agent.sqr@@seq [ahb_incr_burst_seq] Starting INCR bursts: 16 iterations from 0x00003000
# UVM_INFO ../src/mst/ahb_master_driver.sv(181) @ 5000: uvm_test_top.env.master_agent.drv [ahb_master_driver] Flushed pending transactions (reset)
# UVM_INFO ../src/tb_top.sv(48) @ 95000: reporter [TB_TOP] Reset de-asserted
# UVM_INFO ../src/slv/ahb_slave_driver.sv(63) @ 95000: uvm_test_top.env.slave_agent.drv [ahb_slave_driver] Reset deasserted - slave driver active (    auto mode)
# UVM_INFO ../src/mst/ahb_master_driver.sv(68) @ 95000: uvm_test_top.env.master_agent.drv [ahb_master_driver] Reset deasserted - master driver active
# UVM_INFO ../src/mst/ahb_master_monitor.sv(75) @ 95000: uvm_test_top.env.master_agent.mon [ahb_master_monitor] Reset deasserted - master monitor active
# UVM_INFO ../src/slv/ahb_slave_monitor.sv(69) @ 95000: uvm_test_top.env.slave_agent.mon [ahb_slave_monitor] Reset deasserted - slave monitor active
# UVM_INFO ../src/mst/ahb_master_driver.sv(82) @ 95000: uvm_test_top.env.master_agent.drv [ahb_master_driver] Queueing [AHB_WRITE]: HADDR=0x00003023, HBURST=AHB_BURST_INCR4, HSIZE=AHB_SIZE_8B, 4 beats
# UVM_INFO ../src/mst/ahb_master_driver.sv(124) @ 95000: uvm_test_top.env.master_agent.drv [ahb_master_driver] Driving [AHB_WRITE]: HADDR=0x00003023, HBURST=AHB_BURST_INCR4, HSIZE=AHB_SIZE_8B, 4 beats               
# UVM_INFO ../src/mst/ahb_master_driver.sv(317) @ 135000: uvm_test_top.env.master_agent.drv [ahb_master_driver] Beat[0/4] addr=0x00003023 trans=AHB_TRANS_NONSEQ resp=AHB_RESP_OKAY wdata=0x787afb42
# UVM_INFO ../src/slv/ahb_slave_driver.sv(184) @ 135000: uvm_test_top.env.slave_agent.drv [ahb_slave_driver] Beat AHB_WRITE addr=0x00003023 resp=AHB_RESP_OKAY waits=2 wdata=0x787afb42
# UVM_INFO ../src/mst/ahb_master_monitor.sv(117) @ 135000: uvm_test_top.env.master_agent.mon [ahb_master_monitor] Beat[0] addr=0x00003023 wdata=0x787afb42 resp=AHB_RESP_OKAY
# UVM_INFO ../src/mst/ahb_master_driver.sv(317) @ 165000: uvm_test_top.env.master_agent.drv [ahb_master_driver] Beat[1/4] addr=0x00003024 trans=AHB_TRANS_SEQ resp=AHB_RESP_OKAY wdata=0x26b9b9ce
# UVM_INFO ../src/slv/ahb_slave_driver.sv(184) @ 165000: uvm_test_top.env.slave_agent.drv [ahb_slave_driver] Beat AHB_WRITE addr=0x00003024 resp=AHB_RESP_OKAY waits=2 wdata=0x26b9b9ce
# UVM_INFO ../src/mst/ahb_master_monitor.sv(117) @ 165000: uvm_test_top.env.master_agent.mon [ahb_master_monitor] Beat[1] addr=0x00003024 wdata=0x26b9b9ce resp=AHB_RESP_OKAY
# UVM_INFO ../src/mst/ahb_master_driver.sv(317) @ 195000: uvm_test_top.env.master_agent.drv [ahb_master_driver] Beat[2/4] addr=0x00003025 trans=AHB_TRANS_SEQ resp=AHB_RESP_OKAY wdata=0x50ccd873
# UVM_INFO ../src/slv/ahb_slave_driver.sv(184) @ 195000: uvm_test_top.env.slave_agent.drv [ahb_slave_driver] Beat AHB_WRITE addr=0x00003025 resp=AHB_RESP_OKAY waits=2 wdata=0x50ccd873
# UVM_INFO ../src/mst/ahb_master_monitor.sv(117) @ 195000: uvm_test_top.env.master_agent.mon [ahb_master_monitor] Beat[2] addr=0x00003025 wdata=0x50ccd873 resp=AHB_RESP_OKAY
# UVM_INFO ../src/mst/ahb_master_driver.sv(317) @ 205000: uvm_test_top.env.master_agent.drv [ahb_master_driver] Beat[3/4] addr=0x00003026 trans=AHB_TRANS_SEQ resp=AHB_RESP_OKAY wdata=0x935244af
# UVM_INFO ../src/mst/ahb_master_driver.sv(362) @ 205000: uvm_test_top.env.master_agent.drv [ahb_master_driver] Transaction complete: AHB_WRITE 0x00003023, 4 beats, burst=AHB_BURST_INCR4
# UVM_INFO ../src/slv/ahb_slave_driver.sv(184) @ 205000: uvm_test_top.env.slave_agent.drv [ahb_slave_driver] Beat AHB_WRITE addr=0x00003026 resp=AHB_RESP_OKAY waits=0 wdata=0x935244af
# UVM_INFO ../src/mst/ahb_master_monitor.sv(117) @ 205000: uvm_test_top.env.master_agent.mon [ahb_master_monitor] Beat[3] addr=0x00003026 wdata=0x935244af resp=AHB_RESP_OKAY
# UVM_INFO ../src/mst/ahb_master_monitor.sv(222) @ 205000: uvm_test_top.env.master_agent.mon [ahb_master_monitor] Observed [AHB_WRITE]: HADDR=0x00003023, HBURST=AHB_BURST_INCR4, HSIZE=AHB_SIZE_8B, 4 beats
# UVM_INFO ../src/env/ahb_coverage.sv(127) @ 205000: uvm_test_top.env.master_cov [ahb_coverage] Sampled [AHB_WRITE]: burst=AHB_BURST_INCR4 size=AHB_SIZE_8B beats=4 error=0
# UVM_INFO ../src/slv/ahb_slave_monitor.sv(197) @ 205000: uvm_test_top.env.slave_agent.mon [ahb_slave_monitor] Observed [AHB_WRITE]: HADDR=0x00003023, HBURST=AHB_BURST_INCR4, HSIZE=AHB_SIZE_8B, 4 beats
# UVM_INFO ../src/env/ahb_scoreboard.sv(104) @ 205000: uvm_test_top.env.scb [ahb_scoreboard] MATCH #1: [AHB_WRITE] HADDR=0x00003023 AHB_BURST_INCR4 4 beats
# UVM_INFO ../src/env/ahb_coverage.sv(127) @ 205000: uvm_test_top.env.slave_cov [ahb_coverage] Sampled [AHB_WRITE]: burst=AHB_BURST_INCR4 size=AHB_SIZE_8B beats=4 error=0
# UVM_INFO ../src/mst/ahb_master_driver.sv(82) @ 205000: uvm_test_top.env.master_agent.drv [ahb_master_driver] Queueing [AHB_READ]: HADDR=0x00003023, HBURST=AHB_BURST_INCR4, HSIZE=AHB_SIZE_8B, 4 beats
# UVM_INFO ../src/mst/ahb_master_driver.sv(124) @ 205000: uvm_test_top.env.master_agent.drv [ahb_master_driver] Driving [AHB_READ]: HADDR=0x00003023, HBURST=AHB_BURST_INCR4, HSIZE=AHB_SIZE_8B, 4 beats               
# UVM_INFO ../src/mst/ahb_master_driver.sv(317) @ 235000: uvm_test_top.env.master_agent.drv [ahb_master_driver] Beat[0/4] addr=0x00003023 trans=AHB_TRANS_NONSEQ resp=AHB_RESP_OKAY rdata=0x787afb42
# UVM_INFO ../src/slv/ahb_slave_driver.sv(184) @ 235000: uvm_test_top.env.slave_agent.drv [ahb_slave_driver] Beat AHB_READ addr=0x00003023 resp=AHB_RESP_OKAY waits=0 rdata=0x787afb42
# UVM_INFO ../src/mst/ahb_master_monitor.sv(117) @ 235000: uvm_test_top.env.master_agent.mon [ahb_master_monitor] Beat[0] addr=0x00003023 rdata=0x787afb42 resp=AHB_RESP_OKAY
# UVM_INFO ../src/mst/ahb_master_driver.sv(317) @ 265000: uvm_test_top.env.master_agent.drv [ahb_master_driver] Beat[1/4] addr=0x00003024 trans=AHB_TRANS_SEQ resp=AHB_RESP_OKAY rdata=0x26b9b9ce
# UVM_INFO ../src/slv/ahb_slave_driver.sv(184) @ 265000: uvm_test_top.env.slave_agent.drv [ahb_slave_driver] Beat AHB_READ addr=0x00003024 resp=AHB_RESP_OKAY waits=2 rdata=0x26b9b9ce
# UVM_INFO ../src/mst/ahb_master_monitor.sv(117) @ 265000: uvm_test_top.env.master_agent.mon [ahb_master_monitor] Beat[1] addr=0x00003024 rdata=0x26b9b9ce resp=AHB_RESP_OKAY
# UVM_INFO ../src/mst/ahb_master_driver.sv(317) @ 295000: uvm_test_top.env.master_agent.drv [ahb_master_driver] Beat[2/4] addr=0x00003025 trans=AHB_TRANS_SEQ resp=AHB_RESP_OKAY rdata=0x50ccd873
# UVM_INFO ../src/slv/ahb_slave_driver.sv(184) @ 295000: uvm_test_top.env.slave_agent.drv [ahb_slave_driver] Beat AHB_READ addr=0x00003025 resp=AHB_RESP_OKAY waits=2 rdata=0x50ccd873
# UVM_INFO ../src/mst/ahb_master_monitor.sv(117) @ 295000: uvm_test_top.env.master_agent.mon [ahb_master_monitor] Beat[2] addr=0x00003025 rdata=0x50ccd873 resp=AHB_RESP_OKAY
# UVM_INFO ../src/mst/ahb_master_driver.sv(317) @ 325000: uvm_test_top.env.master_agent.drv [ahb_master_driver] Beat[3/4] addr=0x00003026 trans=AHB_TRANS_SEQ resp=AHB_RESP_OKAY rdata=0x935244af
# UVM_INFO ../src/mst/ahb_master_driver.sv(362) @ 325000: uvm_test_top.env.master_agent.drv [ahb_master_driver] Transaction complete: AHB_READ 0x00003023, 4 beats, burst=AHB_BURST_INCR4
# UVM_INFO ../src/slv/ahb_slave_driver.sv(184) @ 325000: uvm_test_top.env.slave_agent.drv [ahb_slave_driver] Beat AHB_READ addr=0x00003026 resp=AHB_RESP_OKAY waits=2 rdata=0x935244af
# UVM_INFO ../src/mst/ahb_master_monitor.sv(117) @ 325000: uvm_test_top.env.master_agent.mon [ahb_master_monitor] Beat[3] addr=0x00003026 rdata=0x935244af resp=AHB_RESP_OKAY
# UVM_INFO ../src/mst/ahb_master_monitor.sv(222) @ 325000: uvm_test_top.env.master_agent.mon [ahb_master_monitor] Observed [AHB_READ]: HADDR=0x00003023, HBURST=AHB_BURST_INCR4, HSIZE=AHB_SIZE_8B, 4 beats
# UVM_INFO ../src/env/ahb_coverage.sv(127) @ 325000: uvm_test_top.env.master_cov [ahb_coverage] Sampled [AHB_READ]: burst=AHB_BURST_INCR4 size=AHB_SIZE_8B beats=4 error=0
# UVM_INFO ../src/slv/ahb_slave_monitor.sv(197) @ 325000: uvm_test_top.env.slave_agent.mon [ahb_slave_monitor] Observed [AHB_READ]: HADDR=0x00003023, HBURST=AHB_BURST_INCR4, HSIZE=AHB_SIZE_8B, 4 beats
# UVM_INFO ../src/env/ahb_scoreboard.sv(104) @ 325000: uvm_test_top.env.scb [ahb_scoreboard] MATCH #2: [AHB_READ] HADDR=0x00003023 AHB_BURST_INCR4 4 beats
# UVM_INFO ../src/env/ahb_coverage.sv(127) @ 325000: uvm_test_top.env.slave_cov [ahb_coverage] Sampled [AHB_READ]: burst=AHB_BURST_INCR4 size=AHB_SIZE_8B beats=4 error=0
# UVM_INFO ../src/mst_seq/ahb_base_seq.sv(182) @ 325000: uvm_test_top.env.master_agent.sqr@@seq [ahb_incr_burst_seq] AHB_BURST_INCR4 AHB_SIZE_8B beat 0 @0x00003023 ok
# UVM_INFO ../src/mst_seq/ahb_base_seq.sv(182) @ 325000: uvm_test_top.env.master_agent.sqr@@seq [ahb_incr_burst_seq] AHB_BURST_INCR4 AHB_SIZE_8B beat 1 @0x00003024 ok
# UVM_INFO ../src/mst_seq/ahb_base_seq.sv(182) @ 325000: uvm_test_top.env.master_agent.sqr@@seq [ahb_incr_burst_seq] AHB_BURST_INCR4 AHB_SIZE_8B beat 2 @0x00003025 ok
# UVM_INFO ../src/mst_seq/ahb_base_seq.sv(182) @ 325000: uvm_test_top.env.master_agent.sqr@@seq [ahb_incr_burst_seq] AHB_BURST_INCR4 AHB_SIZE_8B beat 3 @0x00003026 ok
# UVM_INFO ../src/mst/ahb_master_driver.sv(82) @ 325000: uvm_test_top.env.master_agent.drv [ahb_master_driver] Queueing [AHB_WRITE]: HADDR=0x00003056, HBURST=AHB_BURST_INCR4, HSIZE=AHB_SIZE_8B, 4 beats
# UVM_INFO ../src/mst/ahb_master_driver.sv(124) @ 325000: uvm_test_top.env.master_agent.drv [ahb_master_driver] Driving [AHB_WRITE]: HADDR=0x00003056, HBURST=AHB_BURST_INCR4, HSIZE=AHB_SIZE_8B, 4 beats               
# UVM_INFO ../src/mst/ahb_master_driver.sv(317) @ 375000: uvm_test_top.env.master_agent.drv [ahb_master_driver] Beat[0/4] addr=0x00003056 trans=AHB_TRANS_NONSEQ resp=AHB_RESP_OKAY wdata=0x3a3943ca
# UVM_INFO ../src/slv/ahb_slave_driver.sv(184) @ 375000: uvm_test_top.env.slave_agent.drv [ahb_slave_driver] Beat AHB_WRITE addr=0x00003056 resp=AHB_RESP_OKAY waits=2 wdata=0x3a3943ca
# UVM_INFO ../src/mst/ahb_master_monitor.sv(117) @ 375000: uvm_test_top.env.master_agent.mon [ahb_master_monitor] Beat[0] addr=0x00003056 wdata=0x3a3943ca resp=AHB_RESP_OKAY
# UVM_INFO ../src/mst/ahb_master_driver.sv(317) @ 405000: uvm_test_top.env.master_agent.drv [ahb_master_driver] Beat[1/4] addr=0x00003057 trans=AHB_TRANS_SEQ resp=AHB_RESP_OKAY wdata=0x9882dbed
# UVM_INFO ../src/slv/ahb_slave_driver.sv(184) @ 405000: uvm_test_top.env.slave_agent.drv [ahb_slave_driver] Beat AHB_WRITE addr=0x00003057 resp=AHB_RESP_OKAY waits=2 wdata=0x9882dbed
# UVM_INFO ../src/mst/ahb_master_monitor.sv(117) @ 405000: uvm_test_top.env.master_agent.mon [ahb_master_monitor] Beat[1] addr=0x00003057 wdata=0x9882dbed resp=AHB_RESP_OKAY
# UVM_INFO ../src/mst/ahb_master_driver.sv(317) @ 435000: uvm_test_top.env.master_agent.drv [ahb_master_driver] Beat[2/4] addr=0x00003058 trans=AHB_TRANS_SEQ resp=AHB_RESP_OKAY wdata=0x564ca5f2
# UVM_INFO ../src/slv/ahb_slave_driver.sv(184) @ 435000: uvm_test_top.env.slave_agent.drv [ahb_slave_driver] Beat AHB_WRITE addr=0x00003058 resp=AHB_RESP_OKAY waits=2 wdata=0x564ca5f2
# UVM_INFO ../src/mst/ahb_master_monitor.sv(117) @ 435000: uvm_test_top.env.master_agent.mon [ahb_master_monitor] Beat[2] addr=0x00003058 wdata=0x564ca5f2 resp=AHB_RESP_OKAY
# UVM_INFO ../src/mst/ahb_master_driver.sv(317) @ 455000: uvm_test_top.env.master_agent.drv [ahb_master_driver] Beat[3/4] addr=0x00003059 trans=AHB_TRANS_SEQ resp=AHB_RESP_OKAY wdata=0xfc597aab
# UVM_INFO ../src/mst/ahb_master_driver.sv(362) @ 455000: uvm_test_top.env.master_agent.drv [ahb_master_driver] Transaction complete: AHB_WRITE 0x00003056, 4 beats, burst=AHB_BURST_INCR4
# UVM_INFO ../src/slv/ahb_slave_driver.sv(184) @ 455000: uvm_test_top.env.slave_agent.drv [ahb_slave_driver] Beat AHB_WRITE addr=0x00003059 resp=AHB_RESP_OKAY waits=1 wdata=0xfc597aab
# UVM_INFO ../src/slv/ahb_slave_monitor.sv(197) @ 455000: uvm_test_top.env.slave_agent.mon [ahb_slave_monitor] Observed [AHB_WRITE]: HADDR=0x00003056, HBURST=AHB_BURST_INCR4, HSIZE=AHB_SIZE_8B, 4 beats
# UVM_INFO ../src/env/ahb_coverage.sv(127) @ 455000: uvm_test_top.env.slave_cov [ahb_coverage] Sampled [AHB_WRITE]: burst=AHB_BURST_INCR4 size=AHB_SIZE_8B beats=4 error=0
# UVM_INFO ../src/mst/ahb_master_monitor.sv(117) @ 455000: uvm_test_top.env.master_agent.mon [ahb_master_monitor] Beat[3] addr=0x00003059 wdata=0xfc597aab resp=AHB_RESP_OKAY
# UVM_INFO ../src/mst/ahb_master_monitor.sv(222) @ 455000: uvm_test_top.env.master_agent.mon [ahb_master_monitor] Observed [AHB_WRITE]: HADDR=0x00003056, HBURST=AHB_BURST_INCR4, HSIZE=AHB_SIZE_8B, 4 beats
# UVM_INFO ../src/env/ahb_coverage.sv(127) @ 455000: uvm_test_top.env.master_cov [ahb_coverage] Sampled [AHB_WRITE]: burst=AHB_BURST_INCR4 size=AHB_SIZE_8B beats=4 error=0
# UVM_INFO ../src/env/ahb_scoreboard.sv(104) @ 455000: uvm_test_top.env.scb [ahb_scoreboard] MATCH #3: [AHB_WRITE] HADDR=0x00003056 AHB_BURST_INCR4 4 beats
# UVM_INFO ../src/mst/ahb_master_driver.sv(82) @ 455000: uvm_test_top.env.master_agent.drv [ahb_master_driver] Queueing [AHB_READ]: HADDR=0x00003056, HBURST=AHB_BURST_INCR4, HSIZE=AHB_SIZE_8B, 4 beats
# UVM_INFO ../src/mst/ahb_master_driver.sv(124) @ 455000: uvm_test_top.env.master_agent.drv [ahb_master_driver] Driving [AHB_READ]: HADDR=0x00003056, HBURST=AHB_BURST_INCR4, HSIZE=AHB_SIZE_8B, 4 beats               
# UVM_INFO ../src/mst/ahb_master_driver.sv(317) @ 495000: uvm_test_top.env.master_agent.drv [ahb_master_driver] Beat[0/4] addr=0x00003056 trans=AHB_TRANS_NONSEQ resp=AHB_RESP_OKAY rdata=0x3a3943ca
# UVM_INFO ../src/slv/ahb_slave_driver.sv(184) @ 495000: uvm_test_top.env.slave_agent.drv [ahb_slave_driver] Beat AHB_READ addr=0x00003056 resp=AHB_RESP_OKAY waits=1 rdata=0x3a3943ca
# UVM_INFO ../src/mst/ahb_master_monitor.sv(117) @ 495000: uvm_test_top.env.master_agent.mon [ahb_master_monitor] Beat[0] addr=0x00003056 rdata=0x3a3943ca resp=AHB_RESP_OKAY
# UVM_INFO ../src/mst/ahb_master_driver.sv(317) @ 515000: uvm_test_top.env.master_agent.drv [ahb_master_driver] Beat[1/4] addr=0x00003057 trans=AHB_TRANS_SEQ resp=AHB_RESP_OKAY rdata=0x9882dbed
# UVM_INFO ../src/slv/ahb_slave_driver.sv(184) @ 515000: uvm_test_top.env.slave_agent.drv [ahb_slave_driver] Beat AHB_READ addr=0x00003057 resp=AHB_RESP_OKAY waits=1 rdata=0x9882dbed
# UVM_INFO ../src/mst/ahb_master_monitor.sv(117) @ 515000: uvm_test_top.env.master_agent.mon [ahb_master_monitor] Beat[1] addr=0x00003057 rdata=0x9882dbed resp=AHB_RESP_OKAY
# UVM_INFO ../src/mst/ahb_master_driver.sv(317) @ 525000: uvm_test_top.env.master_agent.drv [ahb_master_driver] Beat[2/4] addr=0x00003058 trans=AHB_TRANS_SEQ resp=AHB_RESP_OKAY rdata=0x564ca5f2
# UVM_INFO ../src/slv/ahb_slave_driver.sv(184) @ 525000: uvm_test_top.env.slave_agent.drv [ahb_slave_driver] Beat AHB_READ addr=0x00003058 resp=AHB_RESP_OKAY waits=0 rdata=0x564ca5f2
# UVM_INFO ../src/mst/ahb_master_monitor.sv(117) @ 525000: uvm_test_top.env.master_agent.mon [ahb_master_monitor] Beat[2] addr=0x00003058 rdata=0x564ca5f2 resp=AHB_RESP_OKAY
# UVM_INFO ../src/mst/ahb_master_driver.sv(317) @ 535000: uvm_test_top.env.master_agent.drv [ahb_master_driver] Beat[3/4] addr=0x00003059 trans=AHB_TRANS_SEQ resp=AHB_RESP_OKAY rdata=0xfc597aab
# UVM_INFO ../src/mst/ahb_master_driver.sv(362) @ 535000: uvm_test_top.env.master_agent.drv [ahb_master_driver] Transaction complete: AHB_READ 0x00003056, 4 beats, burst=AHB_BURST_INCR4
# UVM_INFO ../src/slv/ahb_slave_driver.sv(184) @ 535000: uvm_test_top.env.slave_agent.drv [ahb_slave_driver] Beat AHB_READ addr=0x00003059 resp=AHB_RESP_OKAY waits=0 rdata=0xfc597aab
# UVM_INFO ../src/slv/ahb_slave_monitor.sv(197) @ 535000: uvm_test_top.env.slave_agent.mon [ahb_slave_monitor] Observed [AHB_READ]: HADDR=0x00003056, HBURST=AHB_BURST_INCR4, HSIZE=AHB_SIZE_8B, 4 beats
# UVM_INFO ../src/env/ahb_coverage.sv(127) @ 535000: uvm_test_top.env.slave_cov [ahb_coverage] Sampled [AHB_READ]: burst=AHB_BURST_INCR4 size=AHB_SIZE_8B beats=4 error=0
# UVM_INFO ../src/mst/ahb_master_monitor.sv(117) @ 535000: uvm_test_top.env.master_agent.mon [ahb_master_monitor] Beat[3] addr=0x00003059 rdata=0xfc597aab resp=AHB_RESP_OKAY
# UVM_INFO ../src/mst/ahb_master_monitor.sv(222) @ 535000: uvm_test_top.env.master_agent.mon [ahb_master_monitor] Observed [AHB_READ]: HADDR=0x00003056, HBURST=AHB_BURST_INCR4, HSIZE=AHB_SIZE_8B, 4 beats
# UVM_INFO ../src/env/ahb_coverage.sv(127) @ 535000: uvm_test_top.env.master_cov [ahb_coverage] Sampled [AHB_READ]: burst=AHB_BURST_INCR4 size=AHB_SIZE_8B beats=4 error=0
# UVM_INFO ../src/env/ahb_scoreboard.sv(104) @ 535000: uvm_test_top.env.scb [ahb_scoreboard] MATCH #4: [AHB_READ] HADDR=0x00003056 AHB_BURST_INCR4 4 beats
# UVM_INFO ../src/mst_seq/ahb_base_seq.sv(182) @ 535000: uvm_test_top.env.master_agent.sqr@@seq [ahb_incr_burst_seq] AHB_BURST_INCR4 AHB_SIZE_8B beat 0 @0x00003056 ok
# UVM_INFO ../src/mst_seq/ahb_base_seq.sv(182) @ 535000: uvm_test_top.env.master_agent.sqr@@seq [ahb_incr_burst_seq] AHB_BURST_INCR4 AHB_SIZE_8B beat 1 @0x00003057 ok
# UVM_INFO ../src/mst_seq/ahb_base_seq.sv(182) @ 535000: uvm_test_top.env.master_agent.sqr@@seq [ahb_incr_burst_seq] AHB_BURST_INCR4 AHB_SIZE_8B beat 2 @0x00003058 ok
# UVM_INFO ../src/mst_seq/ahb_base_seq.sv(182) @ 535000: uvm_test_top.env.master_agent.sqr@@seq [ahb_incr_burst_seq] AHB_BURST_INCR4 AHB_SIZE_8B beat 3 @0x00003059 ok
# UVM_INFO ../src/mst/ahb_master_driver.sv(82) @ 535000: uvm_test_top.env.master_agent.drv [ahb_master_driver] Queueing [AHB_WRITE]: HADDR=0x00003086, HBURST=AHB_BURST_INCR8, HSIZE=AHB_SIZE_8B, 8 beats
# UVM_INFO ../src/mst/ahb_master_driver.sv(124) @ 535000: uvm_test_top.env.master_agent.drv [ahb_master_driver] Driving [AHB_WRITE]: HADDR=0x00003086, HBURST=AHB_BURST_INCR8, HSIZE=AHB_SIZE_8B, 8 beats               
# UVM_INFO ../src/mst/ahb_master_driver.sv(317) @ 565000: uvm_test_top.env.master_agent.drv [ahb_master_driver] Beat[0/8] addr=0x00003086 trans=AHB_TRANS_NONSEQ resp=AHB_RESP_OKAY wdata=0xc92a5c57
# UVM_INFO ../src/slv/ahb_slave_driver.sv(184) @ 565000: uvm_test_top.env.slave_agent.drv [ahb_slave_driver] Beat AHB_WRITE addr=0x00003086 resp=AHB_RESP_OKAY waits=0 wdata=0xc92a5c57
# UVM_INFO ../src/mst/ahb_master_monitor.sv(117) @ 565000: uvm_test_top.env.master_agent.mon [ahb_master_monitor] Beat[0] addr=0x00003086 wdata=0xc92a5c57 resp=AHB_RESP_OKAY
# UVM_INFO ../src/mst/ahb_master_driver.sv(317) @ 575000: uvm_test_top.env.master_agent.drv [ahb_master_driver] Beat[1/8] addr=0x00003087 trans=AHB_TRANS_SEQ resp=AHB_RESP_OKAY wdata=0x3daff148
# UVM_INFO ../src/slv/ahb_slave_driver.sv(184) @ 575000: uvm_test_top.env.slave_agent.drv [ahb_slave_driver] Beat AHB_WRITE addr=0x00003087 resp=AHB_RESP_OKAY waits=0 wdata=0x3daff148
# UVM_INFO ../src/mst/ahb_master_monitor.sv(117) @ 575000: uvm_test_top.env.master_agent.mon [ahb_master_monitor] Beat[1] addr=0x00003087 wdata=0x3daff148 resp=AHB_RESP_OKAY
# UVM_INFO ../src/mst/ahb_master_driver.sv(317) @ 585000: uvm_test_top.env.master_agent.drv [ahb_master_driver] Beat[2/8] addr=0x00003088 trans=AHB_TRANS_SEQ resp=AHB_RESP_OKAY wdata=0x3f21a2ce
# UVM_INFO ../src/slv/ahb_slave_driver.sv(184) @ 585000: uvm_test_top.env.slave_agent.drv [ahb_slave_driver] Beat AHB_WRITE addr=0x00003088 resp=AHB_RESP_OKAY waits=0 wdata=0x3f21a2ce
# UVM_INFO ../src/mst/ahb_master_monitor.sv(117) @ 585000: uvm_test_top.env.master_agent.mon [ahb_master_monitor] Beat[2] addr=0x00003088 wdata=0x3f21a2ce resp=AHB_RESP_OKAY
# UVM_INFO ../src/mst/ahb_master_driver.sv(317) @ 615000: uvm_test_top.env.master_agent.drv [ahb_master_driver] Beat[3/8] addr=0x00003089 trans=AHB_TRANS_SEQ resp=AHB_RESP_OKAY wdata=0x9b85ba22
# UVM_INFO ../src/slv/ahb_slave_driver.sv(184) @ 615000: uvm_test_top.env.slave_agent.drv [ahb_slave_driver] Beat AHB_WRITE addr=0x00003089 resp=AHB_RESP_OKAY waits=2 wdata=0x9b85ba22
# UVM_INFO ../src/mst/ahb_master_monitor.sv(117) @ 615000: uvm_test_top.env.master_agent.mon [ahb_master_monitor] Beat[3] addr=0x00003089 wdata=0x9b85ba22 resp=AHB_RESP_OKAY
# UVM_INFO ../src/mst/ahb_master_driver.sv(317) @ 625000: uvm_test_top.env.master_agent.drv [ahb_master_driver] Beat[4/8] addr=0x0000308a trans=AHB_TRANS_SEQ resp=AHB_RESP_OKAY wdata=0xbcaad960
# UVM_INFO ../src/slv/ahb_slave_driver.sv(184) @ 625000: uvm_test_top.env.slave_agent.drv [ahb_slave_driver] Beat AHB_WRITE addr=0x0000308a resp=AHB_RESP_OKAY waits=0 wdata=0xbcaad960
# UVM_INFO ../src/mst/ahb_master_monitor.sv(117) @ 625000: uvm_test_top.env.master_agent.mon [ahb_master_monitor] Beat[4] addr=0x0000308a wdata=0xbcaad960 resp=AHB_RESP_OKAY
# UVM_INFO ../src/mst/ahb_master_driver.sv(317) @ 645000: uvm_test_top.env.master_agent.drv [ahb_master_driver] Beat[5/8] addr=0x0000308b trans=AHB_TRANS_SEQ resp=AHB_RESP_OKAY wdata=0x706ef360
# UVM_INFO ../src/slv/ahb_slave_driver.sv(184) @ 645000: uvm_test_top.env.slave_agent.drv [ahb_slave_driver] Beat AHB_WRITE addr=0x0000308b resp=AHB_RESP_OKAY waits=1 wdata=0x706ef360
# UVM_INFO ../src/mst/ahb_master_monitor.sv(117) @ 645000: uvm_test_top.env.master_agent.mon [ahb_master_monitor] Beat[5] addr=0x0000308b wdata=0x706ef360 resp=AHB_RESP_OKAY
# UVM_INFO ../src/mst/ahb_master_driver.sv(317) @ 665000: uvm_test_top.env.master_agent.drv [ahb_master_driver] Beat[6/8] addr=0x0000308c trans=AHB_TRANS_SEQ resp=AHB_RESP_OKAY wdata=0xfacfc7ff
# UVM_INFO ../src/slv/ahb_slave_driver.sv(184) @ 665000: uvm_test_top.env.slave_agent.drv [ahb_slave_driver] Beat AHB_WRITE addr=0x0000308c resp=AHB_RESP_OKAY waits=1 wdata=0xfacfc7ff
# UVM_INFO ../src/mst/ahb_master_monitor.sv(117) @ 665000: uvm_test_top.env.master_agent.mon [ahb_master_monitor] Beat[6] addr=0x0000308c wdata=0xfacfc7ff resp=AHB_RESP_OKAY
# UVM_INFO ../src/mst/ahb_master_driver.sv(317) @ 685000: uvm_test_top.env.master_agent.drv [ahb_master_driver] Beat[7/8] addr=0x0000308d trans=AHB_TRANS_SEQ resp=AHB_RESP_OKAY wdata=0x84b1147a
# UVM_INFO ../src/mst/ahb_master_driver.sv(362) @ 685000: uvm_test_top.env.master_agent.drv [ahb_master_driver] Transaction complete: AHB_WRITE 0x00003086, 8 beats, burst=AHB_BURST_INCR8
# UVM_INFO ../src/slv/ahb_slave_driver.sv(184) @ 685000: uvm_test_top.env.slave_agent.drv [ahb_slave_driver] Beat AHB_WRITE addr=0x0000308d resp=AHB_RESP_OKAY waits=1 wdata=0x84b1147a
# UVM_INFO ../src/mst/ahb_master_monitor.sv(117) @ 685000: uvm_test_top.env.master_agent.mon [ahb_master_monitor] Beat[7] addr=0x0000308d wdata=0x84b1147a resp=AHB_RESP_OKAY
# UVM_INFO ../src/mst/ahb_master_monitor.sv(222) @ 685000: uvm_test_top.env.master_agent.mon [ahb_master_monitor] Observed [AHB_WRITE]: HADDR=0x00003086, HBURST=AHB_BURST_INCR8, HSIZE=AHB_SIZE_8B, 8 beats
# UVM_INFO ../src/env/ahb_coverage.sv(127) @ 685000: uvm_test_top.env.master_cov [ahb_coverage] Sampled [AHB_WRITE]: burst=AHB_BURST_INCR8 size=AHB_SIZE_8B beats=8 error=0
# UVM_INFO ../src/slv/ahb_slave_monitor.sv(197) @ 685000: uvm_test_top.env.slave_agent.mon [ahb_slave_monitor] Observed [AHB_WRITE]: HADDR=0x00003086, HBURST=AHB_BURST_INCR8, HSIZE=AHB_SIZE_8B, 8 beats
# UVM_INFO ../src/env/ahb_scoreboard.sv(104) @ 685000: uvm_test_top.env.scb [ahb_scoreboard] MATCH #5: [AHB_WRITE] HADDR=0x00003086 AHB_BURST_INCR8 8 beats
# UVM_INFO ../src/env/ahb_coverage.sv(127) @ 685000: uvm_test_top.env.slave_cov [ahb_coverage] Sampled [AHB_WRITE]: burst=AHB_BURST_INCR8 size=AHB_SIZE_8B beats=8 error=0
# UVM_INFO ../src/mst/ahb_master_driver.sv(82) @ 685000: uvm_test_top.env.master_agent.drv [ahb_master_driver] Queueing [AHB_READ]: HADDR=0x00003086, HBURST=AHB_BURST_INCR8, HSIZE=AHB_SIZE_8B, 8 beats
# UVM_INFO ../src/mst/ahb_master_driver.sv(124) @ 685000: uvm_test_top.env.master_agent.drv [ahb_master_driver] Driving [AHB_READ]: HADDR=0x00003086, HBURST=AHB_BURST_INCR8, HSIZE=AHB_SIZE_8B, 8 beats               
# UVM_INFO ../src/mst/ahb_master_driver.sv(317) @ 735000: uvm_test_top.env.master_agent.drv [ahb_master_driver] Beat[0/8] addr=0x00003086 trans=AHB_TRANS_NONSEQ resp=AHB_RESP_OKAY rdata=0xc92a5c57
# UVM_INFO ../src/slv/ahb_slave_driver.sv(184) @ 735000: uvm_test_top.env.slave_agent.drv [ahb_slave_driver] Beat AHB_READ addr=0x00003086 resp=AHB_RESP_OKAY waits=2 rdata=0xc92a5c57
# UVM_INFO ../src/mst/ahb_master_monitor.sv(117) @ 735000: uvm_test_top.env.master_agent.mon [ahb_master_monitor] Beat[0] addr=0x00003086 rdata=0xc92a5c57 resp=AHB_RESP_OKAY
# UVM_INFO ../src/mst/ahb_master_driver.sv(317) @ 745000: uvm_test_top.env.master_agent.drv [ahb_master_driver] Beat[1/8] addr=0x00003087 trans=AHB_TRANS_SEQ resp=AHB_RESP_OKAY rdata=0x3daff148
# UVM_INFO ../src/slv/ahb_slave_driver.sv(184) @ 745000: uvm_test_top.env.slave_agent.drv [ahb_slave_driver] Beat AHB_READ addr=0x00003087 resp=AHB_RESP_OKAY waits=0 rdata=0x3daff148
# UVM_INFO ../src/mst/ahb_master_monitor.sv(117) @ 745000: uvm_test_top.env.master_agent.mon [ahb_master_monitor] Beat[1] addr=0x00003087 rdata=0x3daff148 resp=AHB_RESP_OKAY
# UVM_INFO ../src/mst/ahb_master_driver.sv(317) @ 755000: uvm_test_top.env.master_agent.drv [ahb_master_driver] Beat[2/8] addr=0x00003088 trans=AHB_TRANS_SEQ resp=AHB_RESP_OKAY rdata=0x3f21a2ce
# UVM_INFO ../src/slv/ahb_slave_driver.sv(184) @ 755000: uvm_test_top.env.slave_agent.drv [ahb_slave_driver] Beat AHB_READ addr=0x00003088 resp=AHB_RESP_OKAY waits=0 rdata=0x3f21a2ce
# UVM_INFO ../src/mst/ahb_master_monitor.sv(117) @ 755000: uvm_test_top.env.master_agent.mon [ahb_master_monitor] Beat[2] addr=0x00003088 rdata=0x3f21a2ce resp=AHB_RESP_OKAY
# UVM_INFO ../src/mst/ahb_master_driver.sv(317) @ 775000: uvm_test_top.env.master_agent.drv [ahb_master_driver] Beat[3/8] addr=0x00003089 trans=AHB_TRANS_SEQ resp=AHB_RESP_OKAY rdata=0x9b85ba22
# UVM_INFO ../src/slv/ahb_slave_driver.sv(184) @ 775000: uvm_test_top.env.slave_agent.drv [ahb_slave_driver] Beat AHB_READ addr=0x00003089 resp=AHB_RESP_OKAY waits=1 rdata=0x9b85ba22
# UVM_INFO ../src/mst/ahb_master_monitor.sv(117) @ 775000: uvm_test_top.env.master_agent.mon [ahb_master_monitor] Beat[3] addr=0x00003089 rdata=0x9b85ba22 resp=AHB_RESP_OKAY
# UVM_INFO ../src/mst/ahb_master_driver.sv(317) @ 805000: uvm_test_top.env.master_agent.drv [ahb_master_driver] Beat[4/8] addr=0x0000308a trans=AHB_TRANS_SEQ resp=AHB_RESP_OKAY rdata=0xbcaad960
# UVM_INFO ../src/slv/ahb_slave_driver.sv(184) @ 805000: uvm_test_top.env.slave_agent.drv [ahb_slave_driver] Beat AHB_READ addr=0x0000308a resp=AHB_RESP_OKAY waits=2 rdata=0xbcaad960
# UVM_INFO ../src/mst/ahb_master_monitor.sv(117) @ 805000: uvm_test_top.env.master_agent.mon [ahb_master_monitor] Beat[4] addr=0x0000308a rdata=0xbcaad960 resp=AHB_RESP_OKAY
# UVM_INFO ../src/mst/ahb_master_driver.sv(317) @ 825000: uvm_test_top.env.master_agent.drv [ahb_master_driver] Beat[5/8] addr=0x0000308b trans=AHB_TRANS_SEQ resp=AHB_RESP_OKAY rdata=0x706ef360
# UVM_INFO ../src/slv/ahb_slave_driver.sv(184) @ 825000: uvm_test_top.env.slave_agent.drv [ahb_slave_driver] Beat AHB_READ addr=0x0000308b resp=AHB_RESP_OKAY waits=1 rdata=0x706ef360
# UVM_INFO ../src/mst/ahb_master_monitor.sv(117) @ 825000: uvm_test_top.env.master_agent.mon [ahb_master_monitor] Beat[5] addr=0x0000308b rdata=0x706ef360 resp=AHB_RESP_OKAY
# UVM_INFO ../src/mst/ahb_master_driver.sv(317) @ 845000: uvm_test_top.env.master_agent.drv [ahb_master_driver] Beat[6/8] addr=0x0000308c trans=AHB_TRANS_SEQ resp=AHB_RESP_OKAY rdata=0xfacfc7ff
# UVM_INFO ../src/slv/ahb_slave_driver.sv(184) @ 845000: uvm_test_top.env.slave_agent.drv [ahb_slave_driver] Beat AHB_READ addr=0x0000308c resp=AHB_RESP_OKAY waits=1 rdata=0xfacfc7ff
# UVM_INFO ../src/mst/ahb_master_monitor.sv(117) @ 845000: uvm_test_top.env.master_agent.mon [ahb_master_monitor] Beat[6] addr=0x0000308c rdata=0xfacfc7ff resp=AHB_RESP_OKAY
# UVM_INFO ../src/mst/ahb_master_driver.sv(317) @ 855000: uvm_test_top.env.master_agent.drv [ahb_master_driver] Beat[7/8] addr=0x0000308d trans=AHB_TRANS_SEQ resp=AHB_RESP_OKAY rdata=0x84b1147a
# UVM_INFO ../src/mst/ahb_master_driver.sv(362) @ 855000: uvm_test_top.env.master_agent.drv [ahb_master_driver] Transaction complete: AHB_READ 0x00003086, 8 beats, burst=AHB_BURST_INCR8
# UVM_INFO ../src/slv/ahb_slave_driver.sv(184) @ 855000: uvm_test_top.env.slave_agent.drv [ahb_slave_driver] Beat AHB_READ addr=0x0000308d resp=AHB_RESP_OKAY waits=0 rdata=0x84b1147a
# UVM_INFO ../src/slv/ahb_slave_monitor.sv(197) @ 855000: uvm_test_top.env.slave_agent.mon [ahb_slave_monitor] Observed [AHB_READ]: HADDR=0x00003086, HBURST=AHB_BURST_INCR8, HSIZE=AHB_SIZE_8B, 8 beats
# UVM_INFO ../src/env/ahb_coverage.sv(127) @ 855000: uvm_test_top.env.slave_cov [ahb_coverage] Sampled [AHB_READ]: burst=AHB_BURST_INCR8 size=AHB_SIZE_8B beats=8 error=0
# UVM_INFO ../src/mst/ahb_master_monitor.sv(117) @ 855000: uvm_test_top.env.master_agent.mon [ahb_master_monitor] Beat[7] addr=0x0000308d rdata=0x84b1147a resp=AHB_RESP_OKAY
# UVM_INFO ../src/mst/ahb_master_monitor.sv(222) @ 855000: uvm_test_top.env.master_agent.mon [ahb_master_monitor] Observed [AHB_READ]: HADDR=0x00003086, HBURST=AHB_BURST_INCR8, HSIZE=AHB_SIZE_8B, 8 beats
# UVM_INFO ../src/env/ahb_coverage.sv(127) @ 855000: uvm_test_top.env.master_cov [ahb_coverage] Sampled [AHB_READ]: burst=AHB_BURST_INCR8 size=AHB_SIZE_8B beats=8 error=0
# UVM_INFO ../src/env/ahb_scoreboard.sv(104) @ 855000: uvm_test_top.env.scb [ahb_scoreboard] MATCH #6: [AHB_READ] HADDR=0x00003086 AHB_BURST_INCR8 8 beats
# UVM_INFO ../src/mst_seq/ahb_base_seq.sv(182) @ 855000: uvm_test_top.env.master_agent.sqr@@seq [ahb_incr_burst_seq] AHB_BURST_INCR8 AHB_SIZE_8B beat 0 @0x00003086 ok
# UVM_INFO ../src/mst_seq/ahb_base_seq.sv(182) @ 855000: uvm_test_top.env.master_agent.sqr@@seq [ahb_incr_burst_seq] AHB_BURST_INCR8 AHB_SIZE_8B beat 1 @0x00003087 ok
# UVM_INFO ../src/mst_seq/ahb_base_seq.sv(182) @ 855000: uvm_test_top.env.master_agent.sqr@@seq [ahb_incr_burst_seq] AHB_BURST_INCR8 AHB_SIZE_8B beat 2 @0x00003088 ok
# UVM_INFO ../src/mst_seq/ahb_base_seq.sv(182) @ 855000: uvm_test_top.env.master_agent.sqr@@seq [ahb_incr_burst_seq] AHB_BURST_INCR8 AHB_SIZE_8B beat 3 @0x00003089 ok
# UVM_INFO ../src/mst_seq/ahb_base_seq.sv(182) @ 855000: uvm_test_top.env.master_agent.sqr@@seq [ahb_incr_burst_seq] AHB_BURST_INCR8 AHB_SIZE_8B beat 4 @0x0000308a ok
# UVM_INFO ../src/mst_seq/ahb_base_seq.sv(182) @ 855000: uvm_test_top.env.master_agent.sqr@@seq [ahb_incr_burst_seq] AHB_BURST_INCR8 AHB_SIZE_8B beat 5 @0x0000308b ok
# UVM_INFO ../src/mst_seq/ahb_base_seq.sv(182) @ 855000: uvm_test_top.env.master_agent.sqr@@seq [ahb_incr_burst_seq] AHB_BURST_INCR8 AHB_SIZE_8B beat 6 @0x0000308c ok
# UVM_INFO ../src/mst_seq/ahb_base_seq.sv(182) @ 855000: uvm_test_top.env.master_agent.sqr@@seq [ahb_incr_burst_seq] AHB_BURST_INCR8 AHB_SIZE_8B beat 7 @0x0000308d ok
# UVM_INFO ../src/mst/ahb_master_driver.sv(82) @ 855000: uvm_test_top.env.master_agent.drv [ahb_master_driver] Queueing [AHB_WRITE]: HADDR=0x000030f8, HBURST=AHB_BURST_INCR4, HSIZE=AHB_SIZE_16B, 4 beats
# UVM_INFO ../src/mst/ahb_master_driver.sv(124) @ 855000: uvm_test_top.env.master_agent.drv [ahb_master_driver] Driving [AHB_WRITE]: HADDR=0x000030f8, HBURST=AHB_BURST_INCR4, HSIZE=AHB_SIZE_16B, 4 beats               
# UVM_INFO ../src/mst/ahb_master_driver.sv(317) @ 905000: uvm_test_top.env.master_agent.drv [ahb_master_driver] Beat[0/4] addr=0x000030f8 trans=AHB_TRANS_NONSEQ resp=AHB_RESP_OKAY wdata=0x5dab40b6
# UVM_INFO ../src/slv/ahb_slave_driver.sv(184) @ 905000: uvm_test_top.env.slave_agent.drv [ahb_slave_driver] Beat AHB_WRITE addr=0x000030f8 resp=AHB_RESP_OKAY waits=2 wdata=0x5dab40b6
# UVM_INFO ../src/mst/ahb_master_monitor.sv(117) @ 905000: uvm_test_top.env.master_agent.mon [ahb_master_monitor] Beat[0] addr=0x000030f8 wdata=0x5dab40b6 resp=AHB_RESP_OKAY
# UVM_INFO ../src/mst/ahb_master_driver.sv(317) @ 915000: uvm_test_top.env.master_agent.drv [ahb_master_driver] Beat[1/4] addr=0x000030fa trans=AHB_TRANS_SEQ resp=AHB_RESP_OKAY wdata=0xe44d990a
# UVM_INFO ../src/slv/ahb_slave_driver.sv(184) @ 915000: uvm_test_top.env.slave_agent.drv [ahb_slave_driver] Beat AHB_WRITE addr=0x000030fa resp=AHB_RESP_OKAY waits=0 wdata=0xe44d990a
# UVM_INFO ../src/mst/ahb_master_monitor.sv(117) @ 915000: uvm_test_top.env.master_agent.mon [ahb_master_monitor] Beat[1] addr=0x000030fa wdata=0xe44d990a resp=AHB_RESP_OKAY
# UVM_INFO ../src/mst/ahb_master_driver.sv(317) @ 925000: uvm_test_top.env.master_agent.drv [ahb_master_driver] Beat[2/4] addr=0x000030fc trans=AHB_TRANS_SEQ resp=AHB_RESP_OKAY wdata=0x080b7d87
# UVM_INFO ../src/slv/ahb_slave_driver.sv(184) @ 925000: uvm_test_top.env.slave_agent.drv [ahb_slave_driver] Beat AHB_WRITE addr=0x000030fc resp=AHB_RESP_OKAY waits=0 wdata=0x080b7d87
# UVM_INFO ../src/mst/ahb_master_monitor.sv(117) @ 925000: uvm_test_top.env.master_agent.mon [ahb_master_monitor] Beat[2] addr=0x000030fc wdata=0x080b7d87 resp=AHB_RESP_OKAY
# UVM_INFO ../src/mst/ahb_master_driver.sv(317) @ 945000: uvm_test_top.env.master_agent.drv [ahb_master_driver] Beat[3/4] addr=0x000030fe trans=AHB_TRANS_SEQ resp=AHB_RESP_OKAY wdata=0x3811f02d
# UVM_INFO ../src/mst/ahb_master_driver.sv(362) @ 945000: uvm_test_top.env.master_agent.drv [ahb_master_driver] Transaction complete: AHB_WRITE 0x000030f8, 4 beats, burst=AHB_BURST_INCR4
# UVM_INFO ../src/slv/ahb_slave_driver.sv(184) @ 945000: uvm_test_top.env.slave_agent.drv [ahb_slave_driver] Beat AHB_WRITE addr=0x000030fe resp=AHB_RESP_OKAY waits=1 wdata=0x3811f02d
# UVM_INFO ../src/mst/ahb_master_monitor.sv(117) @ 945000: uvm_test_top.env.master_agent.mon [ahb_master_monitor] Beat[3] addr=0x000030fe wdata=0x3811f02d resp=AHB_RESP_OKAY
# UVM_INFO ../src/mst/ahb_master_monitor.sv(222) @ 945000: uvm_test_top.env.master_agent.mon [ahb_master_monitor] Observed [AHB_WRITE]: HADDR=0x000030f8, HBURST=AHB_BURST_INCR4, HSIZE=AHB_SIZE_16B, 4 beats
# UVM_INFO ../src/env/ahb_coverage.sv(127) @ 945000: uvm_test_top.env.master_cov [ahb_coverage] Sampled [AHB_WRITE]: burst=AHB_BURST_INCR4 size=AHB_SIZE_16B beats=4 error=0
# UVM_INFO ../src/slv/ahb_slave_monitor.sv(197) @ 945000: uvm_test_top.env.slave_agent.mon [ahb_slave_monitor] Observed [AHB_WRITE]: HADDR=0x000030f8, HBURST=AHB_BURST_INCR4, HSIZE=AHB_SIZE_16B, 4 beats
# UVM_INFO ../src/env/ahb_scoreboard.sv(104) @ 945000: uvm_test_top.env.scb [ahb_scoreboard] MATCH #7: [AHB_WRITE] HADDR=0x000030f8 AHB_BURST_INCR4 4 beats
# UVM_INFO ../src/env/ahb_coverage.sv(127) @ 945000: uvm_test_top.env.slave_cov [ahb_coverage] Sampled [AHB_WRITE]: burst=AHB_BURST_INCR4 size=AHB_SIZE_16B beats=4 error=0
# UVM_INFO ../src/mst/ahb_master_driver.sv(82) @ 945000: uvm_test_top.env.master_agent.drv [ahb_master_driver] Queueing [AHB_READ]: HADDR=0x000030f8, HBURST=AHB_BURST_INCR4, HSIZE=AHB_SIZE_16B, 4 beats
# UVM_INFO ../src/mst/ahb_master_driver.sv(124) @ 945000: uvm_test_top.env.master_agent.drv [ahb_master_driver] Driving [AHB_READ]: HADDR=0x000030f8, HBURST=AHB_BURST_INCR4, HSIZE=AHB_SIZE_16B, 4 beats               
# UVM_INFO ../src/mst/ahb_master_driver.sv(317) @ 985000: uvm_test_top.env.master_agent.drv [ahb_master_driver] Beat[0/4] addr=0x000030f8 trans=AHB_TRANS_NONSEQ resp=AHB_RESP_OKAY rdata=0x5dab40b6
# UVM_INFO ../src/slv/ahb_slave_driver.sv(184) @ 985000: uvm_test_top.env.slave_agent.drv [ahb_slave_driver] Beat AHB_READ addr=0x000030f8 resp=AHB_RESP_OKAY waits=1 rdata=0x5dab40b6
# UVM_INFO ../src/mst/ahb_master_monitor.sv(117) @ 985000: uvm_test_top.env.master_agent.mon [ahb_master_monitor] Beat[0] addr=0x000030f8 rdata=0x5dab40b6 resp=AHB_RESP_OKAY
# UVM_INFO ../src/mst/ahb_master_driver.sv(317) @ 1005000: uvm_test_top.env.master_agent.drv [ahb_master_driver] Beat[1/4] addr=0x000030fa trans=AHB_TRANS_SEQ resp=AHB_RESP_OKAY rdata=0xe44d990a
# UVM_INFO ../src/slv/ahb_slave_driver.sv(184) @ 1005000: uvm_test_top.env.slave_agent.drv [ahb_slave_driver] Beat AHB_READ addr=0x000030fa resp=AHB_RESP_OKAY waits=1 rdata=0xe44d990a
# UVM_INFO ../src/mst/ahb_master_monitor.sv(117) @ 1005000: uvm_test_top.env.master_agent.mon [ahb_master_monitor] Beat[1] addr=0x000030fa rdata=0xe44d990a resp=AHB_RESP_OKAY
# UVM_INFO ../src/mst/ahb_master_driver.sv(317) @ 1035000: uvm_test_top.env.master_agent.drv [ahb_master_driver] Beat[2/4] addr=0x000030fc trans=AHB_TRANS_SEQ resp=AHB_RESP_OKAY rdata=0x080b7d87
# UVM_INFO ../src/slv/ahb_slave_driver.sv(184) @ 1035000: uvm_test_top.env.slave_agent.drv [ahb_slave_driver] Beat AHB_READ addr=0x000030fc resp=AHB_RESP_OKAY waits=2 rdata=0x080b7d87
# UVM_INFO ../src/mst/ahb_master_monitor.sv(117) @ 1035000: uvm_test_top.env.master_agent.mon [ahb_master_monitor] Beat[2] addr=0x000030fc rdata=0x080b7d87 resp=AHB_RESP_OKAY
# UVM_INFO ../src/mst/ahb_master_driver.sv(317) @ 1065000: uvm_test_top.env.master_agent.drv [ahb_master_driver] Beat[3/4] addr=0x000030fe trans=AHB_TRANS_SEQ resp=AHB_RESP_OKAY rdata=0x3811f02d
# UVM_INFO ../src/mst/ahb_master_driver.sv(362) @ 1065000: uvm_test_top.env.master_agent.drv [ahb_master_driver] Transaction complete: AHB_READ 0x000030f8, 4 beats, burst=AHB_BURST_INCR4
# UVM_INFO ../src/slv/ahb_slave_driver.sv(184) @ 1065000: uvm_test_top.env.slave_agent.drv [ahb_slave_driver] Beat AHB_READ addr=0x000030fe resp=AHB_RESP_OKAY waits=2 rdata=0x3811f02d
# UVM_INFO ../src/mst/ahb_master_monitor.sv(117) @ 1065000: uvm_test_top.env.master_agent.mon [ahb_master_monitor] Beat[3] addr=0x000030fe rdata=0x3811f02d resp=AHB_RESP_OKAY
# UVM_INFO ../src/mst/ahb_master_monitor.sv(222) @ 1065000: uvm_test_top.env.master_agent.mon [ahb_master_monitor] Observed [AHB_READ]: HADDR=0x000030f8, HBURST=AHB_BURST_INCR4, HSIZE=AHB_SIZE_16B, 4 beats
# UVM_INFO ../src/env/ahb_coverage.sv(127) @ 1065000: uvm_test_top.env.master_cov [ahb_coverage] Sampled [AHB_READ]: burst=AHB_BURST_INCR4 size=AHB_SIZE_16B beats=4 error=0
# UVM_INFO ../src/slv/ahb_slave_monitor.sv(197) @ 1065000: uvm_test_top.env.slave_agent.mon [ahb_slave_monitor] Observed [AHB_READ]: HADDR=0x000030f8, HBURST=AHB_BURST_INCR4, HSIZE=AHB_SIZE_16B, 4 beats
# UVM_INFO ../src/env/ahb_scoreboard.sv(104) @ 1065000: uvm_test_top.env.scb [ahb_scoreboard] MATCH #8: [AHB_READ] HADDR=0x000030f8 AHB_BURST_INCR4 4 beats
# UVM_INFO ../src/env/ahb_coverage.sv(127) @ 1065000: uvm_test_top.env.slave_cov [ahb_coverage] Sampled [AHB_READ]: burst=AHB_BURST_INCR4 size=AHB_SIZE_16B beats=4 error=0
# UVM_INFO ../src/mst_seq/ahb_base_seq.sv(182) @ 1065000: uvm_test_top.env.master_agent.sqr@@seq [ahb_incr_burst_seq] AHB_BURST_INCR4 AHB_SIZE_16B beat 0 @0x000030f8 ok
# UVM_INFO ../src/mst_seq/ahb_base_seq.sv(182) @ 1065000: uvm_test_top.env.master_agent.sqr@@seq [ahb_incr_burst_seq] AHB_BURST_INCR4 AHB_SIZE_16B beat 1 @0x000030fa ok
# UVM_INFO ../src/mst_seq/ahb_base_seq.sv(182) @ 1065000: uvm_test_top.env.master_agent.sqr@@seq [ahb_incr_burst_seq] AHB_BURST_INCR4 AHB_SIZE_16B beat 2 @0x000030fc ok
# UVM_INFO ../src/mst_seq/ahb_base_seq.sv(182) @ 1065000: uvm_test_top.env.master_agent.sqr@@seq [ahb_incr_burst_seq] AHB_BURST_INCR4 AHB_SIZE_16B beat 3 @0x000030fe ok
# UVM_INFO ../src/mst/ahb_master_driver.sv(82) @ 1065000: uvm_test_top.env.master_agent.drv [ahb_master_driver] Queueing [AHB_WRITE]: HADDR=0x00003120, HBURST=AHB_BURST_INCR16, HSIZE=AHB_SIZE_16B, 16 beats
# UVM_INFO ../src/mst/ahb_master_driver.sv(124) @ 1065000: uvm_test_top.env.master_agent.drv [ahb_master_driver] Driving [AHB_WRITE]: HADDR=0x00003120, HBURST=AHB_BURST_INCR16, HSIZE=AHB_SIZE_16B, 16 beats               
# UVM_INFO ../src/mst/ahb_master_driver.sv(317) @ 1115000: uvm_test_top.env.master_agent.drv [ahb_master_driver] Beat[0/16] addr=0x00003120 trans=AHB_TRANS_NONSEQ resp=AHB_RESP_OKAY wdata=0x67be0e64
# UVM_INFO ../src/slv/ahb_slave_driver.sv(184) @ 1115000: uvm_test_top.env.slave_agent.drv [ahb_slave_driver] Beat AHB_WRITE addr=0x00003120 resp=AHB_RESP_OKAY waits=2 wdata=0x67be0e64
# UVM_INFO ../src/mst/ahb_master_monitor.sv(117) @ 1115000: uvm_test_top.env.master_agent.mon [ahb_master_monitor] Beat[0] addr=0x00003120 wdata=0x67be0e64 resp=AHB_RESP_OKAY
# UVM_INFO ../src/mst/ahb_master_driver.sv(317) @ 1145000: uvm_test_top.env.master_agent.drv [ahb_master_driver] Beat[1/16] addr=0x00003122 trans=AHB_TRANS_SEQ resp=AHB_RESP_OKAY wdata=0x6d49e9d6
# UVM_INFO ../src/slv/ahb_slave_driver.sv(184) @ 1145000: uvm_test_top.env.slave_agent.drv [ahb_slave_driver] Beat AHB_WRITE addr=0x00003122 resp=AHB_RESP_OKAY waits=2 wdata=0x6d49e9d6
# UVM_INFO ../src/mst/ahb_master_monitor.sv(117) @ 1145000: uvm_test_top.env.master_agent.mon [ahb_master_monitor] Beat[1] addr=0x00003122 wdata=0x6d49e9d6 resp=AHB_RESP_OKAY
# UVM_INFO ../src/mst/ahb_master_driver.sv(317) @ 1155000: uvm_test_top.env.master_agent.drv [ahb_master_driver] Beat[2/16] addr=0x00003124 trans=AHB_TRANS_SEQ resp=AHB_RESP_OKAY wdata=0x5bc5fa3d
# UVM_INFO ../src/slv/ahb_slave_driver.sv(184) @ 1155000: uvm_test_top.env.slave_agent.drv [ahb_slave_driver] Beat AHB_WRITE addr=0x00003124 resp=AHB_RESP_OKAY waits=0 wdata=0x5bc5fa3d
# UVM_INFO ../src/mst/ahb_master_monitor.sv(117) @ 1155000: uvm_test_top.env.master_agent.mon [ahb_master_monitor] Beat[2] addr=0x00003124 wdata=0x5bc5fa3d resp=AHB_RESP_OKAY
# UVM_INFO ../src/mst/ahb_master_driver.sv(317) @ 1165000: uvm_test_top.env.master_agent.drv [ahb_master_driver] Beat[3/16] addr=0x00003126 trans=AHB_TRANS_SEQ resp=AHB_RESP_OKAY wdata=0x3596ce6f
# UVM_INFO ../src/slv/ahb_slave_driver.sv(184) @ 1165000: uvm_test_top.env.slave_agent.drv [ahb_slave_driver] Beat AHB_WRITE addr=0x00003126 resp=AHB_RESP_OKAY waits=0 wdata=0x3596ce6f
# UVM_INFO ../src/mst/ahb_master_monitor.sv(117) @ 1165000: uvm_test_top.env.master_agent.mon [ahb_master_monitor] Beat[3] addr=0x00003126 wdata=0x3596ce6f resp=AHB_RESP_OKAY
# UVM_INFO ../src/mst/ahb_master_driver.sv(317) @ 1185000: uvm_test_top.env.master_agent.drv [ahb_master_driver] Beat[4/16] addr=0x00003128 trans=AHB_TRANS_SEQ resp=AHB_RESP_OKAY wdata=0xc2d475a4
# UVM_INFO ../src/slv/ahb_slave_driver.sv(184) @ 1185000: uvm_test_top.env.slave_agent.drv [ahb_slave_driver] Beat AHB_WRITE addr=0x00003128 resp=AHB_RESP_OKAY waits=1 wdata=0xc2d475a4
# UVM_INFO ../src/mst/ahb_master_monitor.sv(117) @ 1185000: uvm_test_top.env.master_agent.mon [ahb_master_monitor] Beat[4] addr=0x00003128 wdata=0xc2d475a4 resp=AHB_RESP_OKAY
# UVM_INFO ../src/mst/ahb_master_driver.sv(317) @ 1215000: uvm_test_top.env.master_agent.drv [ahb_master_driver] Beat[5/16] addr=0x0000312a trans=AHB_TRANS_SEQ resp=AHB_RESP_OKAY wdata=0xaa2c153a
# UVM_INFO ../src/slv/ahb_slave_driver.sv(184) @ 1215000: uvm_test_top.env.slave_agent.drv [ahb_slave_driver] Beat AHB_WRITE addr=0x0000312a resp=AHB_RESP_OKAY waits=2 wdata=0xaa2c153a
# UVM_INFO ../src/mst/ahb_master_monitor.sv(117) @ 1215000: uvm_test_top.env.master_agent.mon [ahb_master_monitor] Beat[5] addr=0x0000312a wdata=0xaa2c153a resp=AHB_RESP_OKAY
# UVM_INFO ../src/mst/ahb_master_driver.sv(317) @ 1245000: uvm_test_top.env.master_agent.drv [ahb_master_driver] Beat[6/16] addr=0x0000312c trans=AHB_TRANS_SEQ resp=AHB_RESP_OKAY wdata=0xd5859771
# UVM_INFO ../src/slv/ahb_slave_driver.sv(184) @ 1245000: uvm_test_top.env.slave_agent.drv [ahb_slave_driver] Beat AHB_WRITE addr=0x0000312c resp=AHB_RESP_OKAY waits=2 wdata=0xd5859771
# UVM_INFO ../src/mst/ahb_master_monitor.sv(117) @ 1245000: uvm_test_top.env.master_agent.mon [ahb_master_monitor] Beat[6] addr=0x0000312c wdata=0xd5859771 resp=AHB_RESP_OKAY
# UVM_INFO ../src/mst/ahb_master_driver.sv(317) @ 1255000: uvm_test_top.env.master_agent.drv [ahb_master_driver] Beat[7/16] addr=0x0000312e trans=AHB_TRANS_SEQ resp=AHB_RESP_OKAY wdata=0xe58d6ae5
# UVM_INFO ../src/slv/ahb_slave_driver.sv(184) @ 1255000: uvm_test_top.env.slave_agent.drv [ahb_slave_driver] Beat AHB_WRITE addr=0x0000312e resp=AHB_RESP_OKAY waits=0 wdata=0xe58d6ae5
# UVM_INFO ../src/mst/ahb_master_monitor.sv(117) @ 1255000: uvm_test_top.env.master_agent.mon [ahb_master_monitor] Beat[7] addr=0x0000312e wdata=0xe58d6ae5 resp=AHB_RESP_OKAY
# UVM_INFO ../src/mst/ahb_master_driver.sv(317) @ 1265000: uvm_test_top.env.master_agent.drv [ahb_master_driver] Beat[8/16] addr=0x00003130 trans=AHB_TRANS_SEQ resp=AHB_RESP_OKAY wdata=0xa68f893a
# UVM_INFO ../src/slv/ahb_slave_driver.sv(184) @ 1265000: uvm_test_top.env.slave_agent.drv [ahb_slave_driver] Beat AHB_WRITE addr=0x00003130 resp=AHB_RESP_OKAY waits=0 wdata=0xa68f893a
# UVM_INFO ../src/mst/ahb_master_monitor.sv(117) @ 1265000: uvm_test_top.env.master_agent.mon [ahb_master_monitor] Beat[8] addr=0x00003130 wdata=0xa68f893a resp=AHB_RESP_OKAY
# UVM_INFO ../src/mst/ahb_master_driver.sv(317) @ 1285000: uvm_test_top.env.master_agent.drv [ahb_master_driver] Beat[9/16] addr=0x00003132 trans=AHB_TRANS_SEQ resp=AHB_RESP_OKAY wdata=0xf3c8e2f8
# UVM_INFO ../src/slv/ahb_slave_driver.sv(184) @ 1285000: uvm_test_top.env.slave_agent.drv [ahb_slave_driver] Beat AHB_WRITE addr=0x00003132 resp=AHB_RESP_OKAY waits=1 wdata=0xf3c8e2f8
# UVM_INFO ../src/mst/ahb_master_monitor.sv(117) @ 1285000: uvm_test_top.env.master_agent.mon [ahb_master_monitor] Beat[9] addr=0x00003132 wdata=0xf3c8e2f8 resp=AHB_RESP_OKAY
# UVM_INFO ../src/mst/ahb_master_driver.sv(317) @ 1305000: uvm_test_top.env.master_agent.drv [ahb_master_driver] Beat[10/16] addr=0x00003134 trans=AHB_TRANS_SEQ resp=AHB_RESP_OKAY wdata=0x71b59cc8
# UVM_INFO ../src/slv/ahb_slave_driver.sv(184) @ 1305000: uvm_test_top.env.slave_agent.drv [ahb_slave_driver] Beat AHB_WRITE addr=0x00003134 resp=AHB_RESP_OKAY waits=1 wdata=0x71b59cc8
# UVM_INFO ../src/mst/ahb_master_monitor.sv(117) @ 1305000: uvm_test_top.env.master_agent.mon [ahb_master_monitor] Beat[10] addr=0x00003134 wdata=0x71b59cc8 resp=AHB_RESP_OKAY
# UVM_INFO ../src/mst/ahb_master_driver.sv(317) @ 1325000: uvm_test_top.env.master_agent.drv [ahb_master_driver] Beat[11/16] addr=0x00003136 trans=AHB_TRANS_SEQ resp=AHB_RESP_OKAY wdata=0x687709a9
# UVM_INFO ../src/slv/ahb_slave_driver.sv(184) @ 1325000: uvm_test_top.env.slave_agent.drv [ahb_slave_driver] Beat AHB_WRITE addr=0x00003136 resp=AHB_RESP_OKAY waits=1 wdata=0x687709a9
# UVM_INFO ../src/mst/ahb_master_monitor.sv(117) @ 1325000: uvm_test_top.env.master_agent.mon [ahb_master_monitor] Beat[11] addr=0x00003136 wdata=0x687709a9 resp=AHB_RESP_OKAY
# UVM_INFO ../src/mst/ahb_master_driver.sv(317) @ 1335000: uvm_test_top.env.master_agent.drv [ahb_master_driver] Beat[12/16] addr=0x00003138 trans=AHB_TRANS_SEQ resp=AHB_RESP_OKAY wdata=0xa9625634
# UVM_INFO ../src/slv/ahb_slave_driver.sv(184) @ 1335000: uvm_test_top.env.slave_agent.drv [ahb_slave_driver] Beat AHB_WRITE addr=0x00003138 resp=AHB_RESP_OKAY waits=0 wdata=0xa9625634
# UVM_INFO ../src/mst/ahb_master_monitor.sv(117) @ 1335000: uvm_test_top.env.master_agent.mon [ahb_master_monitor] Beat[12] addr=0x00003138 wdata=0xa9625634 resp=AHB_RESP_OKAY
# UVM_INFO ../src/mst/ahb_master_driver.sv(317) @ 1355000: uvm_test_top.env.master_agent.drv [ahb_master_driver] Beat[13/16] addr=0x0000313a trans=AHB_TRANS_SEQ resp=AHB_RESP_OKAY wdata=0x3f608959
# UVM_INFO ../src/slv/ahb_slave_driver.sv(184) @ 1355000: uvm_test_top.env.slave_agent.drv [ahb_slave_driver] Beat AHB_WRITE addr=0x0000313a resp=AHB_RESP_OKAY waits=1 wdata=0x3f608959
# UVM_INFO ../src/mst/ahb_master_monitor.sv(117) @ 1355000: uvm_test_top.env.master_agent.mon [ahb_master_monitor] Beat[13] addr=0x0000313a wdata=0x3f608959 resp=AHB_RESP_OKAY
# UVM_INFO ../src/mst/ahb_master_driver.sv(317) @ 1375000: uvm_test_top.env.master_agent.drv [ahb_master_driver] Beat[14/16] addr=0x0000313c trans=AHB_TRANS_SEQ resp=AHB_RESP_OKAY wdata=0x1a38434b
# UVM_INFO ../src/slv/ahb_slave_driver.sv(184) @ 1375000: uvm_test_top.env.slave_agent.drv [ahb_slave_driver] Beat AHB_WRITE addr=0x0000313c resp=AHB_RESP_OKAY waits=1 wdata=0x1a38434b
# UVM_INFO ../src/mst/ahb_master_monitor.sv(117) @ 1375000: uvm_test_top.env.master_agent.mon [ahb_master_monitor] Beat[14] addr=0x0000313c wdata=0x1a38434b resp=AHB_RESP_OKAY
# UVM_INFO ../src/mst/ahb_master_driver.sv(317) @ 1405000: uvm_test_top.env.master_agent.drv [ahb_master_driver] Beat[15/16] addr=0x0000313e trans=AHB_TRANS_SEQ resp=AHB_RESP_OKAY wdata=0x3e78228c
# UVM_INFO ../src/mst/ahb_master_driver.sv(362) @ 1405000: uvm_test_top.env.master_agent.drv [ahb_master_driver] Transaction complete: AHB_WRITE 0x00003120, 16 beats, burst=AHB_BURST_INCR16
# UVM_INFO ../src/slv/ahb_slave_driver.sv(184) @ 1405000: uvm_test_top.env.slave_agent.drv [ahb_slave_driver] Beat AHB_WRITE addr=0x0000313e resp=AHB_RESP_OKAY waits=2 wdata=0x3e78228c
# UVM_INFO ../src/mst/ahb_master_monitor.sv(117) @ 1405000: uvm_test_top.env.master_agent.mon [ahb_master_monitor] Beat[15] addr=0x0000313e wdata=0x3e78228c resp=AHB_RESP_OKAY
# UVM_INFO ../src/mst/ahb_master_monitor.sv(222) @ 1405000: uvm_test_top.env.master_agent.mon [ahb_master_monitor] Observed [AHB_WRITE]: HADDR=0x00003120, HBURST=AHB_BURST_INCR16, HSIZE=AHB_SIZE_16B, 16 beats
# UVM_INFO ../src/env/ahb_coverage.sv(127) @ 1405000: uvm_test_top.env.master_cov [ahb_coverage] Sampled [AHB_WRITE]: burst=AHB_BURST_INCR16 size=AHB_SIZE_16B beats=16 error=0
# UVM_INFO ../src/slv/ahb_slave_monitor.sv(197) @ 1405000: uvm_test_top.env.slave_agent.mon [ahb_slave_monitor] Observed [AHB_WRITE]: HADDR=0x00003120, HBURST=AHB_BURST_INCR16, HSIZE=AHB_SIZE_16B, 16 beats
# UVM_INFO ../src/env/ahb_scoreboard.sv(104) @ 1405000: uvm_test_top.env.scb [ahb_scoreboard] MATCH #9: [AHB_WRITE] HADDR=0x00003120 AHB_BURST_INCR16 16 beats
# UVM_INFO ../src/env/ahb_coverage.sv(127) @ 1405000: uvm_test_top.env.slave_cov [ahb_coverage] Sampled [AHB_WRITE]: burst=AHB_BURST_INCR16 size=AHB_SIZE_16B beats=16 error=0
# UVM_INFO ../src/mst/ahb_master_driver.sv(82) @ 1405000: uvm_test_top.env.master_agent.drv [ahb_master_driver] Queueing [AHB_READ]: HADDR=0x00003120, HBURST=AHB_BURST_INCR16, HSIZE=AHB_SIZE_16B, 16 beats
# UVM_INFO ../src/mst/ahb_master_driver.sv(124) @ 1405000: uvm_test_top.env.master_agent.drv [ahb_master_driver] Driving [AHB_READ]: HADDR=0x00003120, HBURST=AHB_BURST_INCR16, HSIZE=AHB_SIZE_16B, 16 beats               
# UVM_INFO ../src/mst/ahb_master_driver.sv(317) @ 1435000: uvm_test_top.env.master_agent.drv [ahb_master_driver] Beat[0/16] addr=0x00003120 trans=AHB_TRANS_NONSEQ resp=AHB_RESP_OKAY rdata=0x67be0e64
# UVM_INFO ../src/slv/ahb_slave_driver.sv(184) @ 1435000: uvm_test_top.env.slave_agent.drv [ahb_slave_driver] Beat AHB_READ addr=0x00003120 resp=AHB_RESP_OKAY waits=0 rdata=0x67be0e64
# UVM_INFO ../src/mst/ahb_master_monitor.sv(117) @ 1435000: uvm_test_top.env.master_agent.mon [ahb_master_monitor] Beat[0] addr=0x00003120 rdata=0x67be0e64 resp=AHB_RESP_OKAY
# UVM_INFO ../src/mst/ahb_master_driver.sv(317) @ 1445000: uvm_test_top.env.master_agent.drv [ahb_master_driver] Beat[1/16] addr=0x00003122 trans=AHB_TRANS_SEQ resp=AHB_RESP_OKAY rdata=0x6d49e9d6
# UVM_INFO ../src/slv/ahb_slave_driver.sv(184) @ 1445000: uvm_test_top.env.slave_agent.drv [ahb_slave_driver] Beat AHB_READ addr=0x00003122 resp=AHB_RESP_OKAY waits=0 rdata=0x6d49e9d6
# UVM_INFO ../src/mst/ahb_master_monitor.sv(117) @ 1445000: uvm_test_top.env.master_agent.mon [ahb_master_monitor] Beat[1] addr=0x00003122 rdata=0x6d49e9d6 resp=AHB_RESP_OKAY
# UVM_INFO ../src/mst/ahb_master_driver.sv(317) @ 1475000: uvm_test_top.env.master_agent.drv [ahb_master_driver] Beat[2/16] addr=0x00003124 trans=AHB_TRANS_SEQ resp=AHB_RESP_OKAY rdata=0x5bc5fa3d
# UVM_INFO ../src/slv/ahb_slave_driver.sv(184) @ 1475000: uvm_test_top.env.slave_agent.drv [ahb_slave_driver] Beat AHB_READ addr=0x00003124 resp=AHB_RESP_OKAY waits=2 rdata=0x5bc5fa3d
# UVM_INFO ../src/mst/ahb_master_monitor.sv(117) @ 1475000: uvm_test_top.env.master_agent.mon [ahb_master_monitor] Beat[2] addr=0x00003124 rdata=0x5bc5fa3d resp=AHB_RESP_OKAY
# UVM_INFO ../src/mst/ahb_master_driver.sv(317) @ 1505000: uvm_test_top.env.master_agent.drv [ahb_master_driver] Beat[3/16] addr=0x00003126 trans=AHB_TRANS_SEQ resp=AHB_RESP_OKAY rdata=0x3596ce6f
# UVM_INFO ../src/slv/ahb_slave_driver.sv(184) @ 1505000: uvm_test_top.env.slave_agent.drv [ahb_slave_driver] Beat AHB_READ addr=0x00003126 resp=AHB_RESP_OKAY waits=2 rdata=0x3596ce6f
# UVM_INFO ../src/mst/ahb_master_monitor.sv(117) @ 1505000: uvm_test_top.env.master_agent.mon [ahb_master_monitor] Beat[3] addr=0x00003126 rdata=0x3596ce6f resp=AHB_RESP_OKAY
# UVM_INFO ../src/mst/ahb_master_driver.sv(317) @ 1525000: uvm_test_top.env.master_agent.drv [ahb_master_driver] Beat[4/16] addr=0x00003128 trans=AHB_TRANS_SEQ resp=AHB_RESP_OKAY rdata=0xc2d475a4
# UVM_INFO ../src/slv/ahb_slave_driver.sv(184) @ 1525000: uvm_test_top.env.slave_agent.drv [ahb_slave_driver] Beat AHB_READ addr=0x00003128 resp=AHB_RESP_OKAY waits=1 rdata=0xc2d475a4
# UVM_INFO ../src/mst/ahb_master_monitor.sv(117) @ 1525000: uvm_test_top.env.master_agent.mon [ahb_master_monitor] Beat[4] addr=0x00003128 rdata=0xc2d475a4 resp=AHB_RESP_OKAY
# UVM_INFO ../src/mst/ahb_master_driver.sv(317) @ 1535000: uvm_test_top.env.master_agent.drv [ahb_master_driver] Beat[5/16] addr=0x0000312a trans=AHB_TRANS_SEQ resp=AHB_RESP_OKAY rdata=0xaa2c153a
# UVM_INFO ../src/slv/ahb_slave_driver.sv(184) @ 1535000: uvm_test_top.env.slave_agent.drv [ahb_slave_driver] Beat AHB_READ addr=0x0000312a resp=AHB_RESP_OKAY waits=0 rdata=0xaa2c153a
# UVM_INFO ../src/mst/ahb_master_monitor.sv(117) @ 1535000: uvm_test_top.env.master_agent.mon [ahb_master_monitor] Beat[5] addr=0x0000312a rdata=0xaa2c153a resp=AHB_RESP_OKAY
# UVM_INFO ../src/mst/ahb_master_driver.sv(317) @ 1555000: uvm_test_top.env.master_agent.drv [ahb_master_driver] Beat[6/16] addr=0x0000312c trans=AHB_TRANS_SEQ resp=AHB_RESP_OKAY rdata=0xd5859771
# UVM_INFO ../src/slv/ahb_slave_driver.sv(184) @ 1555000: uvm_test_top.env.slave_agent.drv [ahb_slave_driver] Beat AHB_READ addr=0x0000312c resp=AHB_RESP_OKAY waits=1 rdata=0xd5859771
# UVM_INFO ../src/mst/ahb_master_monitor.sv(117) @ 1555000: uvm_test_top.env.master_agent.mon [ahb_master_monitor] Beat[6] addr=0x0000312c rdata=0xd5859771 resp=AHB_RESP_OKAY
# UVM_INFO ../src/mst/ahb_master_driver.sv(317) @ 1585000: uvm_test_top.env.master_agent.drv [ahb_master_driver] Beat[7/16] addr=0x0000312e trans=AHB_TRANS_SEQ resp=AHB_RESP_OKAY rdata=0xe58d6ae5
# UVM_INFO ../src/slv/ahb_slave_driver.sv(184) @ 1585000: uvm_test_top.env.slave_agent.drv [ahb_slave_driver] Beat AHB_READ addr=0x0000312e resp=AHB_RESP_OKAY waits=2 rdata=0xe58d6ae5
# UVM_INFO ../src/mst/ahb_master_monitor.sv(117) @ 1585000: uvm_test_top.env.master_agent.mon [ahb_master_monitor] Beat[7] addr=0x0000312e rdata=0xe58d6ae5 resp=AHB_RESP_OKAY
# UVM_INFO ../src/mst/ahb_master_driver.sv(317) @ 1615000: uvm_test_top.env.master_agent.drv [ahb_master_driver] Beat[8/16] addr=0x00003130 trans=AHB_TRANS_SEQ resp=AHB_RESP_OKAY rdata=0xa68f893a
# UVM_INFO ../src/slv/ahb_slave_driver.sv(184) @ 1615000: uvm_test_top.env.slave_agent.drv [ahb_slave_driver] Beat AHB_READ addr=0x00003130 resp=AHB_RESP_OKAY waits=2 rdata=0xa68f893a
# UVM_INFO ../src/mst/ahb_master_monitor.sv(117) @ 1615000: uvm_test_top.env.master_agent.mon [ahb_master_monitor] Beat[8] addr=0x00003130 rdata=0xa68f893a resp=AHB_RESP_OKAY
# UVM_INFO ../src/mst/ahb_master_driver.sv(317) @ 1635000: uvm_test_top.env.master_agent.drv [ahb_master_driver] Beat[9/16] addr=0x00003132 trans=AHB_TRANS_SEQ resp=AHB_RESP_OKAY rdata=0xf3c8e2f8
# UVM_INFO ../src/slv/ahb_slave_driver.sv(184) @ 1635000: uvm_test_top.env.slave_agent.drv [ahb_slave_driver] Beat AHB_READ addr=0x00003132 resp=AHB_RESP_OKAY waits=1 rdata=0xf3c8e2f8
# UVM_INFO ../src/mst/ahb_master_monitor.sv(117) @ 1635000: uvm_test_top.env.master_agent.mon [ahb_master_monitor] Beat[9] addr=0x00003132 rdata=0xf3c8e2f8 resp=AHB_RESP_OKAY
# UVM_INFO ../src/mst/ahb_master_driver.sv(317) @ 1665000: uvm_test_top.env.master_agent.drv [ahb_master_driver] Beat[10/16] addr=0x00003134 trans=AHB_TRANS_SEQ resp=AHB_RESP_OKAY rdata=0x71b59cc8
# UVM_INFO ../src/slv/ahb_slave_driver.sv(184) @ 1665000: uvm_test_top.env.slave_agent.drv [ahb_slave_driver] Beat AHB_READ addr=0x00003134 resp=AHB_RESP_OKAY waits=2 rdata=0x71b59cc8
# UVM_INFO ../src/mst/ahb_master_monitor.sv(117) @ 1665000: uvm_test_top.env.master_agent.mon [ahb_master_monitor] Beat[10] addr=0x00003134 rdata=0x71b59cc8 resp=AHB_RESP_OKAY
# UVM_INFO ../src/mst/ahb_master_driver.sv(317) @ 1685000: uvm_test_top.env.master_agent.drv [ahb_master_driver] Beat[11/16] addr=0x00003136 trans=AHB_TRANS_SEQ resp=AHB_RESP_OKAY rdata=0x687709a9
# UVM_INFO ../src/slv/ahb_slave_driver.sv(184) @ 1685000: uvm_test_top.env.slave_agent.drv [ahb_slave_driver] Beat AHB_READ addr=0x00003136 resp=AHB_RESP_OKAY waits=1 rdata=0x687709a9
# UVM_INFO ../src/mst/ahb_master_monitor.sv(117) @ 1685000: uvm_test_top.env.master_agent.mon [ahb_master_monitor] Beat[11] addr=0x00003136 rdata=0x687709a9 resp=AHB_RESP_OKAY
# UVM_INFO ../src/mst/ahb_master_driver.sv(317) @ 1695000: uvm_test_top.env.master_agent.drv [ahb_master_driver] Beat[12/16] addr=0x00003138 trans=AHB_TRANS_SEQ resp=AHB_RESP_OKAY rdata=0xa9625634
# UVM_INFO ../src/slv/ahb_slave_driver.sv(184) @ 1695000: uvm_test_top.env.slave_agent.drv [ahb_slave_driver] Beat AHB_READ addr=0x00003138 resp=AHB_RESP_OKAY waits=0 rdata=0xa9625634
# UVM_INFO ../src/mst/ahb_master_monitor.sv(117) @ 1695000: uvm_test_top.env.master_agent.mon [ahb_master_monitor] Beat[12] addr=0x00003138 rdata=0xa9625634 resp=AHB_RESP_OKAY
# UVM_INFO ../src/mst/ahb_master_driver.sv(317) @ 1725000: uvm_test_top.env.master_agent.drv [ahb_master_driver] Beat[13/16] addr=0x0000313a trans=AHB_TRANS_SEQ resp=AHB_RESP_OKAY rdata=0x3f608959
# UVM_INFO ../src/slv/ahb_slave_driver.sv(184) @ 1725000: uvm_test_top.env.slave_agent.drv [ahb_slave_driver] Beat AHB_READ addr=0x0000313a resp=AHB_RESP_OKAY waits=2 rdata=0x3f608959
# UVM_INFO ../src/mst/ahb_master_monitor.sv(117) @ 1725000: uvm_test_top.env.master_agent.mon [ahb_master_monitor] Beat[13] addr=0x0000313a rdata=0x3f608959 resp=AHB_RESP_OKAY
# UVM_INFO ../src/mst/ahb_master_driver.sv(317) @ 1735000: uvm_test_top.env.master_agent.drv [ahb_master_driver] Beat[14/16] addr=0x0000313c trans=AHB_TRANS_SEQ resp=AHB_RESP_OKAY rdata=0x1a38434b
# UVM_INFO ../src/slv/ahb_slave_driver.sv(184) @ 1735000: uvm_test_top.env.slave_agent.drv [ahb_slave_driver] Beat AHB_READ addr=0x0000313c resp=AHB_RESP_OKAY waits=0 rdata=0x1a38434b
# UVM_INFO ../src/mst/ahb_master_monitor.sv(117) @ 1735000: uvm_test_top.env.master_agent.mon [ahb_master_monitor] Beat[14] addr=0x0000313c rdata=0x1a38434b resp=AHB_RESP_OKAY
# UVM_INFO ../src/mst/ahb_master_driver.sv(317) @ 1755000: uvm_test_top.env.master_agent.drv [ahb_master_driver] Beat[15/16] addr=0x0000313e trans=AHB_TRANS_SEQ resp=AHB_RESP_OKAY rdata=0x3e78228c
# UVM_INFO ../src/mst/ahb_master_driver.sv(362) @ 1755000: uvm_test_top.env.master_agent.drv [ahb_master_driver] Transaction complete: AHB_READ 0x00003120, 16 beats, burst=AHB_BURST_INCR16
# UVM_INFO ../src/slv/ahb_slave_driver.sv(184) @ 1755000: uvm_test_top.env.slave_agent.drv [ahb_slave_driver] Beat AHB_READ addr=0x0000313e resp=AHB_RESP_OKAY waits=1 rdata=0x3e78228c
# UVM_INFO ../src/slv/ahb_slave_monitor.sv(197) @ 1755000: uvm_test_top.env.slave_agent.mon [ahb_slave_monitor] Observed [AHB_READ]: HADDR=0x00003120, HBURST=AHB_BURST_INCR16, HSIZE=AHB_SIZE_16B, 16 beats
# UVM_INFO ../src/env/ahb_coverage.sv(127) @ 1755000: uvm_test_top.env.slave_cov [ahb_coverage] Sampled [AHB_READ]: burst=AHB_BURST_INCR16 size=AHB_SIZE_16B beats=16 error=0
# UVM_INFO ../src/mst/ahb_master_monitor.sv(117) @ 1755000: uvm_test_top.env.master_agent.mon [ahb_master_monitor] Beat[15] addr=0x0000313e rdata=0x3e78228c resp=AHB_RESP_OKAY
# UVM_INFO ../src/mst/ahb_master_monitor.sv(222) @ 1755000: uvm_test_top.env.master_agent.mon [ahb_master_monitor] Observed [AHB_READ]: HADDR=0x00003120, HBURST=AHB_BURST_INCR16, HSIZE=AHB_SIZE_16B, 16 beats
# UVM_INFO ../src/env/ahb_coverage.sv(127) @ 1755000: uvm_test_top.env.master_cov [ahb_coverage] Sampled [AHB_READ]: burst=AHB_BURST_INCR16 size=AHB_SIZE_16B beats=16 error=0
# UVM_INFO ../src/env/ahb_scoreboard.sv(104) @ 1755000: uvm_test_top.env.scb [ahb_scoreboard] MATCH #10: [AHB_READ] HADDR=0x00003120 AHB_BURST_INCR16 16 beats
# UVM_INFO ../src/mst_seq/ahb_base_seq.sv(182) @ 1755000: uvm_test_top.env.master_agent.sqr@@seq [ahb_incr_burst_seq] AHB_BURST_INCR16 AHB_SIZE_16B beat 0 @0x00003120 ok
# UVM_INFO ../src/mst_seq/ahb_base_seq.sv(182) @ 1755000: uvm_test_top.env.master_agent.sqr@@seq [ahb_incr_burst_seq] AHB_BURST_INCR16 AHB_SIZE_16B beat 1 @0x00003122 ok
# UVM_INFO ../src/mst_seq/ahb_base_seq.sv(182) @ 1755000: uvm_test_top.env.master_agent.sqr@@seq [ahb_incr_burst_seq] AHB_BURST_INCR16 AHB_SIZE_16B beat 2 @0x00003124 ok
# UVM_INFO ../src/mst_seq/ahb_base_seq.sv(182) @ 1755000: uvm_test_top.env.master_agent.sqr@@seq [ahb_incr_burst_seq] AHB_BURST_INCR16 AHB_SIZE_16B beat 3 @0x00003126 ok
# UVM_INFO ../src/mst_seq/ahb_base_seq.sv(182) @ 1755000: uvm_test_top.env.master_agent.sqr@@seq [ahb_incr_burst_seq] AHB_BURST_INCR16 AHB_SIZE_16B beat 4 @0x00003128 ok
# UVM_INFO ../src/mst_seq/ahb_base_seq.sv(182) @ 1755000: uvm_test_top.env.master_agent.sqr@@seq [ahb_incr_burst_seq] AHB_BURST_INCR16 AHB_SIZE_16B beat 5 @0x0000312a ok
# UVM_INFO ../src/mst_seq/ahb_base_seq.sv(182) @ 1755000: uvm_test_top.env.master_agent.sqr@@seq [ahb_incr_burst_seq] AHB_BURST_INCR16 AHB_SIZE_16B beat 6 @0x0000312c ok
# UVM_INFO ../src/mst_seq/ahb_base_seq.sv(182) @ 1755000: uvm_test_top.env.master_agent.sqr@@seq [ahb_incr_burst_seq] AHB_BURST_INCR16 AHB_SIZE_16B beat 7 @0x0000312e ok
# UVM_INFO ../src/mst_seq/ahb_base_seq.sv(182) @ 1755000: uvm_test_top.env.master_agent.sqr@@seq [ahb_incr_burst_seq] AHB_BURST_INCR16 AHB_SIZE_16B beat 8 @0x00003130 ok
# UVM_INFO ../src/mst_seq/ahb_base_seq.sv(182) @ 1755000: uvm_test_top.env.master_agent.sqr@@seq [ahb_incr_burst_seq] AHB_BURST_INCR16 AHB_SIZE_16B beat 9 @0x00003132 ok
# UVM_INFO ../src/mst_seq/ahb_base_seq.sv(182) @ 1755000: uvm_test_top.env.master_agent.sqr@@seq [ahb_incr_burst_seq] AHB_BURST_INCR16 AHB_SIZE_16B beat 10 @0x00003134 ok
# UVM_INFO ../src/mst_seq/ahb_base_seq.sv(182) @ 1755000: uvm_test_top.env.master_agent.sqr@@seq [ahb_incr_burst_seq] AHB_BURST_INCR16 AHB_SIZE_16B beat 11 @0x00003136 ok
# UVM_INFO ../src/mst_seq/ahb_base_seq.sv(182) @ 1755000: uvm_test_top.env.master_agent.sqr@@seq [ahb_incr_burst_seq] AHB_BURST_INCR16 AHB_SIZE_16B beat 12 @0x00003138 ok
# UVM_INFO ../src/mst_seq/ahb_base_seq.sv(182) @ 1755000: uvm_test_top.env.master_agent.sqr@@seq [ahb_incr_burst_seq] AHB_BURST_INCR16 AHB_SIZE_16B beat 13 @0x0000313a ok
# UVM_INFO ../src/mst_seq/ahb_base_seq.sv(182) @ 1755000: uvm_test_top.env.master_agent.sqr@@seq [ahb_incr_burst_seq] AHB_BURST_INCR16 AHB_SIZE_16B beat 14 @0x0000313c ok
# UVM_INFO ../src/mst_seq/ahb_base_seq.sv(182) @ 1755000: uvm_test_top.env.master_agent.sqr@@seq [ahb_incr_burst_seq] AHB_BURST_INCR16 AHB_SIZE_16B beat 15 @0x0000313e ok
# UVM_INFO ../src/mst/ahb_master_driver.sv(82) @ 1755000: uvm_test_top.env.master_agent.drv [ahb_master_driver] Queueing [AHB_WRITE]: HADDR=0x00003160, HBURST=AHB_BURST_INCR8, HSIZE=AHB_SIZE_32B, 8 beats
# UVM_INFO ../src/mst/ahb_master_driver.sv(124) @ 1755000: uvm_test_top.env.master_agent.drv [ahb_master_driver] Driving [AHB_WRITE]: HADDR=0x00003160, HBURST=AHB_BURST_INCR8, HSIZE=AHB_SIZE_32B, 8 beats               
# UVM_INFO ../src/mst/ahb_master_driver.sv(317) @ 1805000: uvm_test_top.env.master_agent.drv [ahb_master_driver] Beat[0/8] addr=0x00003160 trans=AHB_TRANS_NONSEQ resp=AHB_RESP_OKAY wdata=0x44dd1b97
# UVM_INFO ../src/slv/ahb_slave_driver.sv(184) @ 1805000: uvm_test_top.env.slave_agent.drv [ahb_slave_driver] Beat AHB_WRITE addr=0x00003160 resp=AHB_RESP_OKAY waits=2 wdata=0x44dd1b97
# UVM_INFO ../src/mst/ahb_master_monitor.sv(117) @ 1805000: uvm_test_top.env.master_agent.mon [ahb_master_monitor] Beat[0] addr=0x00003160 wdata=0x44dd1b97 resp=AHB_RESP_OKAY
# UVM_INFO ../src/mst/ahb_master_driver.sv(317) @ 1815000: uvm_test_top.env.master_agent.drv [ahb_master_driver] Beat[1/8] addr=0x00003164 trans=AHB_TRANS_SEQ resp=AHB_RESP_OKAY wdata=0xc3af4905
# UVM_INFO ../src/slv/ahb_slave_driver.sv(184) @ 1815000: uvm_test_top.env.slave_agent.drv [ahb_slave_driver] Beat AHB_WRITE addr=0x00003164 resp=AHB_RESP_OKAY waits=0 wdata=0xc3af4905
# UVM_INFO ../src/mst/ahb_master_monitor.sv(117) @ 1815000: uvm_test_top.env.master_agent.mon [ahb_master_monitor] Beat[1] addr=0x00003164 wdata=0xc3af4905 resp=AHB_RESP_OKAY
# UVM_INFO ../src/mst/ahb_master_driver.sv(317) @ 1825000: uvm_test_top.env.master_agent.drv [ahb_master_driver] Beat[2/8] addr=0x00003168 trans=AHB_TRANS_SEQ resp=AHB_RESP_OKAY wdata=0xdb1b1fa6
# UVM_INFO ../src/slv/ahb_slave_driver.sv(184) @ 1825000: uvm_test_top.env.slave_agent.drv [ahb_slave_driver] Beat AHB_WRITE addr=0x00003168 resp=AHB_RESP_OKAY waits=0 wdata=0xdb1b1fa6
# UVM_INFO ../src/mst/ahb_master_monitor.sv(117) @ 1825000: uvm_test_top.env.master_agent.mon [ahb_master_monitor] Beat[2] addr=0x00003168 wdata=0xdb1b1fa6 resp=AHB_RESP_OKAY
# UVM_INFO ../src/mst/ahb_master_driver.sv(317) @ 1855000: uvm_test_top.env.master_agent.drv [ahb_master_driver] Beat[3/8] addr=0x0000316c trans=AHB_TRANS_SEQ resp=AHB_RESP_OKAY wdata=0x7895c095
# UVM_INFO ../src/slv/ahb_slave_driver.sv(184) @ 1855000: uvm_test_top.env.slave_agent.drv [ahb_slave_driver] Beat AHB_WRITE addr=0x0000316c resp=AHB_RESP_OKAY waits=2 wdata=0x7895c095
# UVM_INFO ../src/mst/ahb_master_monitor.sv(117) @ 1855000: uvm_test_top.env.master_agent.mon [ahb_master_monitor] Beat[3] addr=0x0000316c wdata=0x7895c095 resp=AHB_RESP_OKAY
# UVM_INFO ../src/mst/ahb_master_driver.sv(317) @ 1865000: uvm_test_top.env.master_agent.drv [ahb_master_driver] Beat[4/8] addr=0x00003170 trans=AHB_TRANS_SEQ resp=AHB_RESP_OKAY wdata=0x44d05bb2
# UVM_INFO ../src/slv/ahb_slave_driver.sv(184) @ 1865000: uvm_test_top.env.slave_agent.drv [ahb_slave_driver] Beat AHB_WRITE addr=0x00003170 resp=AHB_RESP_OKAY waits=0 wdata=0x44d05bb2
# UVM_INFO ../src/mst/ahb_master_monitor.sv(117) @ 1865000: uvm_test_top.env.master_agent.mon [ahb_master_monitor] Beat[4] addr=0x00003170 wdata=0x44d05bb2 resp=AHB_RESP_OKAY
# UVM_INFO ../src/mst/ahb_master_driver.sv(317) @ 1875000: uvm_test_top.env.master_agent.drv [ahb_master_driver] Beat[5/8] addr=0x00003174 trans=AHB_TRANS_SEQ resp=AHB_RESP_OKAY wdata=0x1390d9ce
# UVM_INFO ../src/slv/ahb_slave_driver.sv(184) @ 1875000: uvm_test_top.env.slave_agent.drv [ahb_slave_driver] Beat AHB_WRITE addr=0x00003174 resp=AHB_RESP_OKAY waits=0 wdata=0x1390d9ce
# UVM_INFO ../src/mst/ahb_master_monitor.sv(117) @ 1875000: uvm_test_top.env.master_agent.mon [ahb_master_monitor] Beat[5] addr=0x00003174 wdata=0x1390d9ce resp=AHB_RESP_OKAY
# UVM_INFO ../src/mst/ahb_master_driver.sv(317) @ 1885000: uvm_test_top.env.master_agent.drv [ahb_master_driver] Beat[6/8] addr=0x00003178 trans=AHB_TRANS_SEQ resp=AHB_RESP_OKAY wdata=0xc719ae9b
# UVM_INFO ../src/slv/ahb_slave_driver.sv(184) @ 1885000: uvm_test_top.env.slave_agent.drv [ahb_slave_driver] Beat AHB_WRITE addr=0x00003178 resp=AHB_RESP_OKAY waits=0 wdata=0xc719ae9b
# UVM_INFO ../src/mst/ahb_master_monitor.sv(117) @ 1885000: uvm_test_top.env.master_agent.mon [ahb_master_monitor] Beat[6] addr=0x00003178 wdata=0xc719ae9b resp=AHB_RESP_OKAY
# UVM_INFO ../src/mst/ahb_master_driver.sv(317) @ 1895000: uvm_test_top.env.master_agent.drv [ahb_master_driver] Beat[7/8] addr=0x0000317c trans=AHB_TRANS_SEQ resp=AHB_RESP_OKAY wdata=0x5ba9b193
# UVM_INFO ../src/mst/ahb_master_driver.sv(362) @ 1895000: uvm_test_top.env.master_agent.drv [ahb_master_driver] Transaction complete: AHB_WRITE 0x00003160, 8 beats, burst=AHB_BURST_INCR8
# UVM_INFO ../src/slv/ahb_slave_driver.sv(184) @ 1895000: uvm_test_top.env.slave_agent.drv [ahb_slave_driver] Beat AHB_WRITE addr=0x0000317c resp=AHB_RESP_OKAY waits=0 wdata=0x5ba9b193
# UVM_INFO ../src/slv/ahb_slave_monitor.sv(197) @ 1895000: uvm_test_top.env.slave_agent.mon [ahb_slave_monitor] Observed [AHB_WRITE]: HADDR=0x00003160, HBURST=AHB_BURST_INCR8, HSIZE=AHB_SIZE_32B, 8 beats
# UVM_INFO ../src/env/ahb_coverage.sv(127) @ 1895000: uvm_test_top.env.slave_cov [ahb_coverage] Sampled [AHB_WRITE]: burst=AHB_BURST_INCR8 size=AHB_SIZE_32B beats=8 error=0
# UVM_INFO ../src/mst/ahb_master_monitor.sv(117) @ 1895000: uvm_test_top.env.master_agent.mon [ahb_master_monitor] Beat[7] addr=0x0000317c wdata=0x5ba9b193 resp=AHB_RESP_OKAY
# UVM_INFO ../src/mst/ahb_master_monitor.sv(222) @ 1895000: uvm_test_top.env.master_agent.mon [ahb_master_monitor] Observed [AHB_WRITE]: HADDR=0x00003160, HBURST=AHB_BURST_INCR8, HSIZE=AHB_SIZE_32B, 8 beats
# UVM_INFO ../src/env/ahb_coverage.sv(127) @ 1895000: uvm_test_top.env.master_cov [ahb_coverage] Sampled [AHB_WRITE]: burst=AHB_BURST_INCR8 size=AHB_SIZE_32B beats=8 error=0
# UVM_INFO ../src/env/ahb_scoreboard.sv(104) @ 1895000: uvm_test_top.env.scb [ahb_scoreboard] MATCH #11: [AHB_WRITE] HADDR=0x00003160 AHB_BURST_INCR8 8 beats
# UVM_INFO ../src/mst/ahb_master_driver.sv(82) @ 1895000: uvm_test_top.env.master_agent.drv [ahb_master_driver] Queueing [AHB_READ]: HADDR=0x00003160, HBURST=AHB_BURST_INCR8, HSIZE=AHB_SIZE_32B, 8 beats
# UVM_INFO ../src/mst/ahb_master_driver.sv(124) @ 1895000: uvm_test_top.env.master_agent.drv [ahb_master_driver] Driving [AHB_READ]: HADDR=0x00003160, HBURST=AHB_BURST_INCR8, HSIZE=AHB_SIZE_32B, 8 beats               
# UVM_INFO ../src/mst/ahb_master_driver.sv(317) @ 1935000: uvm_test_top.env.master_agent.drv [ahb_master_driver] Beat[0/8] addr=0x00003160 trans=AHB_TRANS_NONSEQ resp=AHB_RESP_OKAY rdata=0x44dd1b97
# UVM_INFO ../src/slv/ahb_slave_driver.sv(184) @ 1935000: uvm_test_top.env.slave_agent.drv [ahb_slave_driver] Beat AHB_READ addr=0x00003160 resp=AHB_RESP_OKAY waits=1 rdata=0x44dd1b97
# UVM_INFO ../src/mst/ahb_master_monitor.sv(117) @ 1935000: uvm_test_top.env.master_agent.mon [ahb_master_monitor] Beat[0] addr=0x00003160 rdata=0x44dd1b97 resp=AHB_RESP_OKAY
# UVM_INFO ../src/mst/ahb_master_driver.sv(317) @ 1965000: uvm_test_top.env.master_agent.drv [ahb_master_driver] Beat[1/8] addr=0x00003164 trans=AHB_TRANS_SEQ resp=AHB_RESP_OKAY rdata=0xc3af4905
# UVM_INFO ../src/slv/ahb_slave_driver.sv(184) @ 1965000: uvm_test_top.env.slave_agent.drv [ahb_slave_driver] Beat AHB_READ addr=0x00003164 resp=AHB_RESP_OKAY waits=2 rdata=0xc3af4905
# UVM_INFO ../src/mst/ahb_master_monitor.sv(117) @ 1965000: uvm_test_top.env.master_agent.mon [ahb_master_monitor] Beat[1] addr=0x00003164 rdata=0xc3af4905 resp=AHB_RESP_OKAY
# UVM_INFO ../src/mst/ahb_master_driver.sv(317) @ 1975000: uvm_test_top.env.master_agent.drv [ahb_master_driver] Beat[2/8] addr=0x00003168 trans=AHB_TRANS_SEQ resp=AHB_RESP_OKAY rdata=0xdb1b1fa6
# UVM_INFO ../src/slv/ahb_slave_driver.sv(184) @ 1975000: uvm_test_top.env.slave_agent.drv [ahb_slave_driver] Beat AHB_READ addr=0x00003168 resp=AHB_RESP_OKAY waits=0 rdata=0xdb1b1fa6
# UVM_INFO ../src/mst/ahb_master_monitor.sv(117) @ 1975000: uvm_test_top.env.master_agent.mon [ahb_master_monitor] Beat[2] addr=0x00003168 rdata=0xdb1b1fa6 resp=AHB_RESP_OKAY
# UVM_INFO ../src/mst/ahb_master_driver.sv(317) @ 2005000: uvm_test_top.env.master_agent.drv [ahb_master_driver] Beat[3/8] addr=0x0000316c trans=AHB_TRANS_SEQ resp=AHB_RESP_OKAY rdata=0x7895c095
# UVM_INFO ../src/slv/ahb_slave_driver.sv(184) @ 2005000: uvm_test_top.env.slave_agent.drv [ahb_slave_driver] Beat AHB_READ addr=0x0000316c resp=AHB_RESP_OKAY waits=2 rdata=0x7895c095
# UVM_INFO ../src/mst/ahb_master_monitor.sv(117) @ 2005000: uvm_test_top.env.master_agent.mon [ahb_master_monitor] Beat[3] addr=0x0000316c rdata=0x7895c095 resp=AHB_RESP_OKAY
# UVM_INFO ../src/mst/ahb_master_driver.sv(317) @ 2025000: uvm_test_top.env.master_agent.drv [ahb_master_driver] Beat[4/8] addr=0x00003170 trans=AHB_TRANS_SEQ resp=AHB_RESP_OKAY rdata=0x44d05bb2
# UVM_INFO ../src/slv/ahb_slave_driver.sv(184) @ 2025000: uvm_test_top.env.slave_agent.drv [ahb_slave_driver] Beat AHB_READ addr=0x00003170 resp=AHB_RESP_OKAY waits=1 rdata=0x44d05bb2
# UVM_INFO ../src/mst/ahb_master_monitor.sv(117) @ 2025000: uvm_test_top.env.master_agent.mon [ahb_master_monitor] Beat[4] addr=0x00003170 rdata=0x44d05bb2 resp=AHB_RESP_OKAY
# UVM_INFO ../src/mst/ahb_master_driver.sv(317) @ 2055000: uvm_test_top.env.master_agent.drv [ahb_master_driver] Beat[5/8] addr=0x00003174 trans=AHB_TRANS_SEQ resp=AHB_RESP_OKAY rdata=0x1390d9ce
# UVM_INFO ../src/slv/ahb_slave_driver.sv(184) @ 2055000: uvm_test_top.env.slave_agent.drv [ahb_slave_driver] Beat AHB_READ addr=0x00003174 resp=AHB_RESP_OKAY waits=2 rdata=0x1390d9ce
# UVM_INFO ../src/mst/ahb_master_monitor.sv(117) @ 2055000: uvm_test_top.env.master_agent.mon [ahb_master_monitor] Beat[5] addr=0x00003174 rdata=0x1390d9ce resp=AHB_RESP_OKAY
# UVM_INFO ../src/mst/ahb_master_driver.sv(317) @ 2085000: uvm_test_top.env.master_agent.drv [ahb_master_driver] Beat[6/8] addr=0x00003178 trans=AHB_TRANS_SEQ resp=AHB_RESP_OKAY rdata=0xc719ae9b
# UVM_INFO ../src/slv/ahb_slave_driver.sv(184) @ 2085000: uvm_test_top.env.slave_agent.drv [ahb_slave_driver] Beat AHB_READ addr=0x00003178 resp=AHB_RESP_OKAY waits=2 rdata=0xc719ae9b
# UVM_INFO ../src/mst/ahb_master_monitor.sv(117) @ 2085000: uvm_test_top.env.master_agent.mon [ahb_master_monitor] Beat[6] addr=0x00003178 rdata=0xc719ae9b resp=AHB_RESP_OKAY
# UVM_INFO ../src/mst/ahb_master_driver.sv(317) @ 2105000: uvm_test_top.env.master_agent.drv [ahb_master_driver] Beat[7/8] addr=0x0000317c trans=AHB_TRANS_SEQ resp=AHB_RESP_OKAY rdata=0x5ba9b193
# UVM_INFO ../src/mst/ahb_master_driver.sv(362) @ 2105000: uvm_test_top.env.master_agent.drv [ahb_master_driver] Transaction complete: AHB_READ 0x00003160, 8 beats, burst=AHB_BURST_INCR8
# UVM_INFO ../src/slv/ahb_slave_driver.sv(184) @ 2105000: uvm_test_top.env.slave_agent.drv [ahb_slave_driver] Beat AHB_READ addr=0x0000317c resp=AHB_RESP_OKAY waits=1 rdata=0x5ba9b193
# UVM_INFO ../src/mst/ahb_master_monitor.sv(117) @ 2105000: uvm_test_top.env.master_agent.mon [ahb_master_monitor] Beat[7] addr=0x0000317c rdata=0x5ba9b193 resp=AHB_RESP_OKAY
# UVM_INFO ../src/mst/ahb_master_monitor.sv(222) @ 2105000: uvm_test_top.env.master_agent.mon [ahb_master_monitor] Observed [AHB_READ]: HADDR=0x00003160, HBURST=AHB_BURST_INCR8, HSIZE=AHB_SIZE_32B, 8 beats
# UVM_INFO ../src/env/ahb_coverage.sv(127) @ 2105000: uvm_test_top.env.master_cov [ahb_coverage] Sampled [AHB_READ]: burst=AHB_BURST_INCR8 size=AHB_SIZE_32B beats=8 error=0
# UVM_INFO ../src/slv/ahb_slave_monitor.sv(197) @ 2105000: uvm_test_top.env.slave_agent.mon [ahb_slave_monitor] Observed [AHB_READ]: HADDR=0x00003160, HBURST=AHB_BURST_INCR8, HSIZE=AHB_SIZE_32B, 8 beats
# UVM_INFO ../src/env/ahb_scoreboard.sv(104) @ 2105000: uvm_test_top.env.scb [ahb_scoreboard] MATCH #12: [AHB_READ] HADDR=0x00003160 AHB_BURST_INCR8 8 beats
# UVM_INFO ../src/env/ahb_coverage.sv(127) @ 2105000: uvm_test_top.env.slave_cov [ahb_coverage] Sampled [AHB_READ]: burst=AHB_BURST_INCR8 size=AHB_SIZE_32B beats=8 error=0
# UVM_INFO ../src/mst_seq/ahb_base_seq.sv(182) @ 2105000: uvm_test_top.env.master_agent.sqr@@seq [ahb_incr_burst_seq] AHB_BURST_INCR8 AHB_SIZE_32B beat 0 @0x00003160 ok
# UVM_INFO ../src/mst_seq/ahb_base_seq.sv(182) @ 2105000: uvm_test_top.env.master_agent.sqr@@seq [ahb_incr_burst_seq] AHB_BURST_INCR8 AHB_SIZE_32B beat 1 @0x00003164 ok
# UVM_INFO ../src/mst_seq/ahb_base_seq.sv(182) @ 2105000: uvm_test_top.env.master_agent.sqr@@seq [ahb_incr_burst_seq] AHB_BURST_INCR8 AHB_SIZE_32B beat 2 @0x00003168 ok
# UVM_INFO ../src/mst_seq/ahb_base_seq.sv(182) @ 2105000: uvm_test_top.env.master_agent.sqr@@seq [ahb_incr_burst_seq] AHB_BURST_INCR8 AHB_SIZE_32B beat 3 @0x0000316c ok
# UVM_INFO ../src/mst_seq/ahb_base_seq.sv(182) @ 2105000: uvm_test_top.env.master_agent.sqr@@seq [ahb_incr_burst_seq] AHB_BURST_INCR8 AHB_SIZE_32B beat 4 @0x00003170 ok
# UVM_INFO ../src/mst_seq/ahb_base_seq.sv(182) @ 2105000: uvm_test_top.env.master_agent.sqr@@seq [ahb_incr_burst_seq] AHB_BURST_INCR8 AHB_SIZE_32B beat 5 @0x00003174 ok
# UVM_INFO ../src/mst_seq/ahb_base_seq.sv(182) @ 2105000: uvm_test_top.env.master_agent.sqr@@seq [ahb_incr_burst_seq] AHB_BURST_INCR8 AHB_SIZE_32B beat 6 @0x00003178 ok
# UVM_INFO ../src/mst_seq/ahb_base_seq.sv(182) @ 2105000: uvm_test_top.env.master_agent.sqr@@seq [ahb_incr_burst_seq] AHB_BURST_INCR8 AHB_SIZE_32B beat 7 @0x0000317c ok
# UVM_INFO ../src/mst/ahb_master_driver.sv(82) @ 2105000: uvm_test_top.env.master_agent.drv [ahb_master_driver] Queueing [AHB_WRITE]: HADDR=0x00003180, HBURST=AHB_BURST_INCR16, HSIZE=AHB_SIZE_32B, 16 beats
# UVM_INFO ../src/mst/ahb_master_driver.sv(124) @ 2105000: uvm_test_top.env.master_agent.drv [ahb_master_driver] Driving [AHB_WRITE]: HADDR=0x00003180, HBURST=AHB_BURST_INCR16, HSIZE=AHB_SIZE_32B, 16 beats               
# UVM_INFO ../src/mst/ahb_master_driver.sv(317) @ 2135000: uvm_test_top.env.master_agent.drv [ahb_master_driver] Beat[0/16] addr=0x00003180 trans=AHB_TRANS_NONSEQ resp=AHB_RESP_OKAY wdata=0x60f046b5
# UVM_INFO ../src/slv/ahb_slave_driver.sv(184) @ 2135000: uvm_test_top.env.slave_agent.drv [ahb_slave_driver] Beat AHB_WRITE addr=0x00003180 resp=AHB_RESP_OKAY waits=0 wdata=0x60f046b5
# UVM_INFO ../src/mst/ahb_master_monitor.sv(117) @ 2135000: uvm_test_top.env.master_agent.mon [ahb_master_monitor] Beat[0] addr=0x00003180 wdata=0x60f046b5 resp=AHB_RESP_OKAY
# UVM_INFO ../src/mst/ahb_master_driver.sv(317) @ 2155000: uvm_test_top.env.master_agent.drv [ahb_master_driver] Beat[1/16] addr=0x00003184 trans=AHB_TRANS_SEQ resp=AHB_RESP_OKAY wdata=0xa841b8a2
# UVM_INFO ../src/slv/ahb_slave_driver.sv(184) @ 2155000: uvm_test_top.env.slave_agent.drv [ahb_slave_driver] Beat AHB_WRITE addr=0x00003184 resp=AHB_RESP_OKAY waits=1 wdata=0xa841b8a2
# UVM_INFO ../src/mst/ahb_master_monitor.sv(117) @ 2155000: uvm_test_top.env.master_agent.mon [ahb_master_monitor] Beat[1] addr=0x00003184 wdata=0xa841b8a2 resp=AHB_RESP_OKAY
# UVM_INFO ../src/mst/ahb_master_driver.sv(317) @ 2175000: uvm_test_top.env.master_agent.drv [ahb_master_driver] Beat[2/16] addr=0x00003188 trans=AHB_TRANS_SEQ resp=AHB_RESP_OKAY wdata=0xa78d5bec
# UVM_INFO ../src/slv/ahb_slave_driver.sv(184) @ 2175000: uvm_test_top.env.slave_agent.drv [ahb_slave_driver] Beat AHB_WRITE addr=0x00003188 resp=AHB_RESP_OKAY waits=1 wdata=0xa78d5bec
# UVM_INFO ../src/mst/ahb_master_monitor.sv(117) @ 2175000: uvm_test_top.env.master_agent.mon [ahb_master_monitor] Beat[2] addr=0x00003188 wdata=0xa78d5bec resp=AHB_RESP_OKAY
# UVM_INFO ../src/mst/ahb_master_driver.sv(317) @ 2195000: uvm_test_top.env.master_agent.drv [ahb_master_driver] Beat[3/16] addr=0x0000318c trans=AHB_TRANS_SEQ resp=AHB_RESP_OKAY wdata=0xbe05d0c3
# UVM_INFO ../src/slv/ahb_slave_driver.sv(184) @ 2195000: uvm_test_top.env.slave_agent.drv [ahb_slave_driver] Beat AHB_WRITE addr=0x0000318c resp=AHB_RESP_OKAY waits=1 wdata=0xbe05d0c3
# UVM_INFO ../src/mst/ahb_master_monitor.sv(117) @ 2195000: uvm_test_top.env.master_agent.mon [ahb_master_monitor] Beat[3] addr=0x0000318c wdata=0xbe05d0c3 resp=AHB_RESP_OKAY
# UVM_INFO ../src/mst/ahb_master_driver.sv(317) @ 2205000: uvm_test_top.env.master_agent.drv [ahb_master_driver] Beat[4/16] addr=0x00003190 trans=AHB_TRANS_SEQ resp=AHB_RESP_OKAY wdata=0xb87d1ce2
# UVM_INFO ../src/slv/ahb_slave_driver.sv(184) @ 2205000: uvm_test_top.env.slave_agent.drv [ahb_slave_driver] Beat AHB_WRITE addr=0x00003190 resp=AHB_RESP_OKAY waits=0 wdata=0xb87d1ce2
# UVM_INFO ../src/mst/ahb_master_monitor.sv(117) @ 2205000: uvm_test_top.env.master_agent.mon [ahb_master_monitor] Beat[4] addr=0x00003190 wdata=0xb87d1ce2 resp=AHB_RESP_OKAY
# UVM_INFO ../src/mst/ahb_master_driver.sv(317) @ 2225000: uvm_test_top.env.master_agent.drv [ahb_master_driver] Beat[5/16] addr=0x00003194 trans=AHB_TRANS_SEQ resp=AHB_RESP_OKAY wdata=0x951e7825
# UVM_INFO ../src/slv/ahb_slave_driver.sv(184) @ 2225000: uvm_test_top.env.slave_agent.drv [ahb_slave_driver] Beat AHB_WRITE addr=0x00003194 resp=AHB_RESP_OKAY waits=1 wdata=0x951e7825
# UVM_INFO ../src/mst/ahb_master_monitor.sv(117) @ 2225000: uvm_test_top.env.master_agent.mon [ahb_master_monitor] Beat[5] addr=0x00003194 wdata=0x951e7825 resp=AHB_RESP_OKAY
# UVM_INFO ../src/mst/ahb_master_driver.sv(317) @ 2235000: uvm_test_top.env.master_agent.drv [ahb_master_driver] Beat[6/16] addr=0x00003198 trans=AHB_TRANS_SEQ resp=AHB_RESP_OKAY wdata=0x82d84bee
# UVM_INFO ../src/slv/ahb_slave_driver.sv(184) @ 2235000: uvm_test_top.env.slave_agent.drv [ahb_slave_driver] Beat AHB_WRITE addr=0x00003198 resp=AHB_RESP_OKAY waits=0 wdata=0x82d84bee
# UVM_INFO ../src/mst/ahb_master_monitor.sv(117) @ 2235000: uvm_test_top.env.master_agent.mon [ahb_master_monitor] Beat[6] addr=0x00003198 wdata=0x82d84bee resp=AHB_RESP_OKAY
# UVM_INFO ../src/mst/ahb_master_driver.sv(317) @ 2245000: uvm_test_top.env.master_agent.drv [ahb_master_driver] Beat[7/16] addr=0x0000319c trans=AHB_TRANS_SEQ resp=AHB_RESP_OKAY wdata=0xfb43daa3
# UVM_INFO ../src/slv/ahb_slave_driver.sv(184) @ 2245000: uvm_test_top.env.slave_agent.drv [ahb_slave_driver] Beat AHB_WRITE addr=0x0000319c resp=AHB_RESP_OKAY waits=0 wdata=0xfb43daa3
# UVM_INFO ../src/mst/ahb_master_monitor.sv(117) @ 2245000: uvm_test_top.env.master_agent.mon [ahb_master_monitor] Beat[7] addr=0x0000319c wdata=0xfb43daa3 resp=AHB_RESP_OKAY
# UVM_INFO ../src/mst/ahb_master_driver.sv(317) @ 2275000: uvm_test_top.env.master_agent.drv [ahb_master_driver] Beat[8/16] addr=0x000031a0 trans=AHB_TRANS_SEQ resp=AHB_RESP_OKAY wdata=0x092a811b
# UVM_INFO ../src/slv/ahb_slave_driver.sv(184) @ 2275000: uvm_test_top.env.slave_agent.drv [ahb_slave_driver] Beat AHB_WRITE addr=0x000031a0 resp=AHB_RESP_OKAY waits=2 wdata=0x092a811b
# UVM_INFO ../src/mst/ahb_master_monitor.sv(117) @ 2275000: uvm_test_top.env.master_agent.mon [ahb_master_monitor] Beat[8] addr=0x000031a0 wdata=0x092a811b resp=AHB_RESP_OKAY
# UVM_INFO ../src/mst/ahb_master_driver.sv(317) @ 2295000: uvm_test_top.env.master_agent.drv [ahb_master_driver] Beat[9/16] addr=0x000031a4 trans=AHB_TRANS_SEQ resp=AHB_RESP_OKAY wdata=0xcd57a788
# UVM_INFO ../src/slv/ahb_slave_driver.sv(184) @ 2295000: uvm_test_top.env.slave_agent.drv [ahb_slave_driver] Beat AHB_WRITE addr=0x000031a4 resp=AHB_RESP_OKAY waits=1 wdata=0xcd57a788
# UVM_INFO ../src/mst/ahb_master_monitor.sv(117) @ 2295000: uvm_test_top.env.master_agent.mon [ahb_master_monitor] Beat[9] addr=0x000031a4 wdata=0xcd57a788 resp=AHB_RESP_OKAY
# UVM_INFO ../src/mst/ahb_master_driver.sv(317) @ 2325000: uvm_test_top.env.master_agent.drv [ahb_master_driver] Beat[10/16] addr=0x000031a8 trans=AHB_TRANS_SEQ resp=AHB_RESP_OKAY wdata=0x75af2780
# UVM_INFO ../src/slv/ahb_slave_driver.sv(184) @ 2325000: uvm_test_top.env.slave_agent.drv [ahb_slave_driver] Beat AHB_WRITE addr=0x000031a8 resp=AHB_RESP_OKAY waits=2 wdata=0x75af2780
# UVM_INFO ../src/mst/ahb_master_monitor.sv(117) @ 2325000: uvm_test_top.env.master_agent.mon [ahb_master_monitor] Beat[10] addr=0x000031a8 wdata=0x75af2780 resp=AHB_RESP_OKAY
# UVM_INFO ../src/mst/ahb_master_driver.sv(317) @ 2355000: uvm_test_top.env.master_agent.drv [ahb_master_driver] Beat[11/16] addr=0x000031ac trans=AHB_TRANS_SEQ resp=AHB_RESP_OKAY wdata=0xf42f6055
# UVM_INFO ../src/slv/ahb_slave_driver.sv(184) @ 2355000: uvm_test_top.env.slave_agent.drv [ahb_slave_driver] Beat AHB_WRITE addr=0x000031ac resp=AHB_RESP_OKAY waits=2 wdata=0xf42f6055
# UVM_INFO ../src/mst/ahb_master_monitor.sv(117) @ 2355000: uvm_test_top.env.master_agent.mon [ahb_master_monitor] Beat[11] addr=0x000031ac wdata=0xf42f6055 resp=AHB_RESP_OKAY
# UVM_INFO ../src/mst/ahb_master_driver.sv(317) @ 2365000: uvm_test_top.env.master_agent.drv [ahb_master_driver] Beat[12/16] addr=0x000031b0 trans=AHB_TRANS_SEQ resp=AHB_RESP_OKAY wdata=0x7620f83b
# UVM_INFO ../src/slv/ahb_slave_driver.sv(184) @ 2365000: uvm_test_top.env.slave_agent.drv [ahb_slave_driver] Beat AHB_WRITE addr=0x000031b0 resp=AHB_RESP_OKAY waits=0 wdata=0x7620f83b
# UVM_INFO ../src/mst/ahb_master_monitor.sv(117) @ 2365000: uvm_test_top.env.master_agent.mon [ahb_master_monitor] Beat[12] addr=0x000031b0 wdata=0x7620f83b resp=AHB_RESP_OKAY
# UVM_INFO ../src/mst/ahb_master_driver.sv(317) @ 2395000: uvm_test_top.env.master_agent.drv [ahb_master_driver] Beat[13/16] addr=0x000031b4 trans=AHB_TRANS_SEQ resp=AHB_RESP_OKAY wdata=0x46c1d4a7
# UVM_INFO ../src/slv/ahb_slave_driver.sv(184) @ 2395000: uvm_test_top.env.slave_agent.drv [ahb_slave_driver] Beat AHB_WRITE addr=0x000031b4 resp=AHB_RESP_OKAY waits=2 wdata=0x46c1d4a7
# UVM_INFO ../src/mst/ahb_master_monitor.sv(117) @ 2395000: uvm_test_top.env.master_agent.mon [ahb_master_monitor] Beat[13] addr=0x000031b4 wdata=0x46c1d4a7 resp=AHB_RESP_OKAY
# UVM_INFO ../src/mst/ahb_master_driver.sv(317) @ 2405000: uvm_test_top.env.master_agent.drv [ahb_master_driver] Beat[14/16] addr=0x000031b8 trans=AHB_TRANS_SEQ resp=AHB_RESP_OKAY wdata=0x733130e5
# UVM_INFO ../src/slv/ahb_slave_driver.sv(184) @ 2405000: uvm_test_top.env.slave_agent.drv [ahb_slave_driver] Beat AHB_WRITE addr=0x000031b8 resp=AHB_RESP_OKAY waits=0 wdata=0x733130e5
# UVM_INFO ../src/mst/ahb_master_monitor.sv(117) @ 2405000: uvm_test_top.env.master_agent.mon [ahb_master_monitor] Beat[14] addr=0x000031b8 wdata=0x733130e5 resp=AHB_RESP_OKAY
# UVM_INFO ../src/mst/ahb_master_driver.sv(317) @ 2415000: uvm_test_top.env.master_agent.drv [ahb_master_driver] Beat[15/16] addr=0x000031bc trans=AHB_TRANS_SEQ resp=AHB_RESP_OKAY wdata=0xbb0565ab
# UVM_INFO ../src/mst/ahb_master_driver.sv(362) @ 2415000: uvm_test_top.env.master_agent.drv [ahb_master_driver] Transaction complete: AHB_WRITE 0x00003180, 16 beats, burst=AHB_BURST_INCR16
# UVM_INFO ../src/slv/ahb_slave_driver.sv(184) @ 2415000: uvm_test_top.env.slave_agent.drv [ahb_slave_driver] Beat AHB_WRITE addr=0x000031bc resp=AHB_RESP_OKAY waits=0 wdata=0xbb0565ab
# UVM_INFO ../src/slv/ahb_slave_monitor.sv(197) @ 2415000: uvm_test_top.env.slave_agent.mon [ahb_slave_monitor] Observed [AHB_WRITE]: HADDR=0x00003180, HBURST=AHB_BURST_INCR16, HSIZE=AHB_SIZE_32B, 16 beats
# UVM_INFO ../src/env/ahb_coverage.sv(127) @ 2415000: uvm_test_top.env.slave_cov [ahb_coverage] Sampled [AHB_WRITE]: burst=AHB_BURST_INCR16 size=AHB_SIZE_32B beats=16 error=0
# UVM_INFO ../src/mst/ahb_master_monitor.sv(117) @ 2415000: uvm_test_top.env.master_agent.mon [ahb_master_monitor] Beat[15] addr=0x000031bc wdata=0xbb0565ab resp=AHB_RESP_OKAY
# UVM_INFO ../src/mst/ahb_master_monitor.sv(222) @ 2415000: uvm_test_top.env.master_agent.mon [ahb_master_monitor] Observed [AHB_WRITE]: HADDR=0x00003180, HBURST=AHB_BURST_INCR16, HSIZE=AHB_SIZE_32B, 16 beats
# UVM_INFO ../src/env/ahb_coverage.sv(127) @ 2415000: uvm_test_top.env.master_cov [ahb_coverage] Sampled [AHB_WRITE]: burst=AHB_BURST_INCR16 size=AHB_SIZE_32B beats=16 error=0
# UVM_INFO ../src/env/ahb_scoreboard.sv(104) @ 2415000: uvm_test_top.env.scb [ahb_scoreboard] MATCH #13: [AHB_WRITE] HADDR=0x00003180 AHB_BURST_INCR16 16 beats
# UVM_INFO ../src/mst/ahb_master_driver.sv(82) @ 2415000: uvm_test_top.env.master_agent.drv [ahb_master_driver] Queueing [AHB_READ]: HADDR=0x00003180, HBURST=AHB_BURST_INCR16, HSIZE=AHB_SIZE_32B, 16 beats
# UVM_INFO ../src/mst/ahb_master_driver.sv(124) @ 2415000: uvm_test_top.env.master_agent.drv [ahb_master_driver] Driving [AHB_READ]: HADDR=0x00003180, HBURST=AHB_BURST_INCR16, HSIZE=AHB_SIZE_32B, 16 beats               
# UVM_INFO ../src/mst/ahb_master_driver.sv(317) @ 2465000: uvm_test_top.env.master_agent.drv [ahb_master_driver] Beat[0/16] addr=0x00003180 trans=AHB_TRANS_NONSEQ resp=AHB_RESP_OKAY rdata=0x60f046b5
# UVM_INFO ../src/slv/ahb_slave_driver.sv(184) @ 2465000: uvm_test_top.env.slave_agent.drv [ahb_slave_driver] Beat AHB_READ addr=0x00003180 resp=AHB_RESP_OKAY waits=2 rdata=0x60f046b5
# UVM_INFO ../src/mst/ahb_master_monitor.sv(117) @ 2465000: uvm_test_top.env.master_agent.mon [ahb_master_monitor] Beat[0] addr=0x00003180 rdata=0x60f046b5 resp=AHB_RESP_OKAY
# UVM_INFO ../src/mst/ahb_master_driver.sv(317) @ 2485000: uvm_test_top.env.master_agent.drv [ahb_master_driver] Beat[1/16] addr=0x00003184 trans=AHB_TRANS_SEQ resp=AHB_RESP_OKAY rdata=0xa841b8a2
# UVM_INFO ../src/slv/ahb_slave_driver.sv(184) @ 2485000: uvm_test_top.env.slave_agent.drv [ahb_slave_driver] Beat AHB_READ addr=0x00003184 resp=AHB_RESP_OKAY waits=1 rdata=0xa841b8a2
# UVM_INFO ../src/mst/ahb_master_monitor.sv(117) @ 2485000: uvm_test_top.env.master_agent.mon [ahb_master_monitor] Beat[1] addr=0x00003184 rdata=0xa841b8a2 resp=AHB_RESP_OKAY
# UVM_INFO ../src/mst/ahb_master_driver.sv(317) @ 2515000: uvm_test_top.env.master_agent.drv [ahb_master_driver] Beat[2/16] addr=0x00003188 trans=AHB_TRANS_SEQ resp=AHB_RESP_OKAY rdata=0xa78d5bec
# UVM_INFO ../src/slv/ahb_slave_driver.sv(184) @ 2515000: uvm_test_top.env.slave_agent.drv [ahb_slave_driver] Beat AHB_READ addr=0x00003188 resp=AHB_RESP_OKAY waits=2 rdata=0xa78d5bec
# UVM_INFO ../src/mst/ahb_master_monitor.sv(117) @ 2515000: uvm_test_top.env.master_agent.mon [ahb_master_monitor] Beat[2] addr=0x00003188 rdata=0xa78d5bec resp=AHB_RESP_OKAY
# UVM_INFO ../src/mst/ahb_master_driver.sv(317) @ 2525000: uvm_test_top.env.master_agent.drv [ahb_master_driver] Beat[3/16] addr=0x0000318c trans=AHB_TRANS_SEQ resp=AHB_RESP_OKAY rdata=0xbe05d0c3
# UVM_INFO ../src/slv/ahb_slave_driver.sv(184) @ 2525000: uvm_test_top.env.slave_agent.drv [ahb_slave_driver] Beat AHB_READ addr=0x0000318c resp=AHB_RESP_OKAY waits=0 rdata=0xbe05d0c3
# UVM_INFO ../src/mst/ahb_master_monitor.sv(117) @ 2525000: uvm_test_top.env.master_agent.mon [ahb_master_monitor] Beat[3] addr=0x0000318c rdata=0xbe05d0c3 resp=AHB_RESP_OKAY
# UVM_INFO ../src/mst/ahb_master_driver.sv(317) @ 2545000: uvm_test_top.env.master_agent.drv [ahb_master_driver] Beat[4/16] addr=0x00003190 trans=AHB_TRANS_SEQ resp=AHB_RESP_OKAY rdata=0xb87d1ce2
# UVM_INFO ../src/slv/ahb_slave_driver.sv(184) @ 2545000: uvm_test_top.env.slave_agent.drv [ahb_slave_driver] Beat AHB_READ addr=0x00003190 resp=AHB_RESP_OKAY waits=1 rdata=0xb87d1ce2
# UVM_INFO ../src/mst/ahb_master_monitor.sv(117) @ 2545000: uvm_test_top.env.master_agent.mon [ahb_master_monitor] Beat[4] addr=0x00003190 rdata=0xb87d1ce2 resp=AHB_RESP_OKAY
# UVM_INFO ../src/mst/ahb_master_driver.sv(317) @ 2565000: uvm_test_top.env.master_agent.drv [ahb_master_driver] Beat[5/16] addr=0x00003194 trans=AHB_TRANS_SEQ resp=AHB_RESP_OKAY rdata=0x951e7825
# UVM_INFO ../src/slv/ahb_slave_driver.sv(184) @ 2565000: uvm_test_top.env.slave_agent.drv [ahb_slave_driver] Beat AHB_READ addr=0x00003194 resp=AHB_RESP_OKAY waits=1 rdata=0x951e7825
# UVM_INFO ../src/mst/ahb_master_monitor.sv(117) @ 2565000: uvm_test_top.env.master_agent.mon [ahb_master_monitor] Beat[5] addr=0x00003194 rdata=0x951e7825 resp=AHB_RESP_OKAY
# UVM_INFO ../src/mst/ahb_master_driver.sv(317) @ 2585000: uvm_test_top.env.master_agent.drv [ahb_master_driver] Beat[6/16] addr=0x00003198 trans=AHB_TRANS_SEQ resp=AHB_RESP_OKAY rdata=0x82d84bee
# UVM_INFO ../src/slv/ahb_slave_driver.sv(184) @ 2585000: uvm_test_top.env.slave_agent.drv [ahb_slave_driver] Beat AHB_READ addr=0x00003198 resp=AHB_RESP_OKAY waits=1 rdata=0x82d84bee
# UVM_INFO ../src/mst/ahb_master_monitor.sv(117) @ 2585000: uvm_test_top.env.master_agent.mon [ahb_master_monitor] Beat[6] addr=0x00003198 rdata=0x82d84bee resp=AHB_RESP_OKAY
# UVM_INFO ../src/mst/ahb_master_driver.sv(317) @ 2605000: uvm_test_top.env.master_agent.drv [ahb_master_driver] Beat[7/16] addr=0x0000319c trans=AHB_TRANS_SEQ resp=AHB_RESP_OKAY rdata=0xfb43daa3
# UVM_INFO ../src/slv/ahb_slave_driver.sv(184) @ 2605000: uvm_test_top.env.slave_agent.drv [ahb_slave_driver] Beat AHB_READ addr=0x0000319c resp=AHB_RESP_OKAY waits=1 rdata=0xfb43daa3
# UVM_INFO ../src/mst/ahb_master_monitor.sv(117) @ 2605000: uvm_test_top.env.master_agent.mon [ahb_master_monitor] Beat[7] addr=0x0000319c rdata=0xfb43daa3 resp=AHB_RESP_OKAY
# UVM_INFO ../src/mst/ahb_master_driver.sv(317) @ 2615000: uvm_test_top.env.master_agent.drv [ahb_master_driver] Beat[8/16] addr=0x000031a0 trans=AHB_TRANS_SEQ resp=AHB_RESP_OKAY rdata=0x092a811b
# UVM_INFO ../src/slv/ahb_slave_driver.sv(184) @ 2615000: uvm_test_top.env.slave_agent.drv [ahb_slave_driver] Beat AHB_READ addr=0x000031a0 resp=AHB_RESP_OKAY waits=0 rdata=0x092a811b
# UVM_INFO ../src/mst/ahb_master_monitor.sv(117) @ 2615000: uvm_test_top.env.master_agent.mon [ahb_master_monitor] Beat[8] addr=0x000031a0 rdata=0x092a811b resp=AHB_RESP_OKAY
# UVM_INFO ../src/mst/ahb_master_driver.sv(317) @ 2635000: uvm_test_top.env.master_agent.drv [ahb_master_driver] Beat[9/16] addr=0x000031a4 trans=AHB_TRANS_SEQ resp=AHB_RESP_OKAY rdata=0xcd57a788
# UVM_INFO ../src/slv/ahb_slave_driver.sv(184) @ 2635000: uvm_test_top.env.slave_agent.drv [ahb_slave_driver] Beat AHB_READ addr=0x000031a4 resp=AHB_RESP_OKAY waits=1 rdata=0xcd57a788
# UVM_INFO ../src/mst/ahb_master_monitor.sv(117) @ 2635000: uvm_test_top.env.master_agent.mon [ahb_master_monitor] Beat[9] addr=0x000031a4 rdata=0xcd57a788 resp=AHB_RESP_OKAY
# UVM_INFO ../src/mst/ahb_master_driver.sv(317) @ 2655000: uvm_test_top.env.master_agent.drv [ahb_master_driver] Beat[10/16] addr=0x000031a8 trans=AHB_TRANS_SEQ resp=AHB_RESP_OKAY rdata=0x75af2780
# UVM_INFO ../src/slv/ahb_slave_driver.sv(184) @ 2655000: uvm_test_top.env.slave_agent.drv [ahb_slave_driver] Beat AHB_READ addr=0x000031a8 resp=AHB_RESP_OKAY waits=1 rdata=0x75af2780
# UVM_INFO ../src/mst/ahb_master_monitor.sv(117) @ 2655000: uvm_test_top.env.master_agent.mon [ahb_master_monitor] Beat[10] addr=0x000031a8 rdata=0x75af2780 resp=AHB_RESP_OKAY
# UVM_INFO ../src/mst/ahb_master_driver.sv(317) @ 2665000: uvm_test_top.env.master_agent.drv [ahb_master_driver] Beat[11/16] addr=0x000031ac trans=AHB_TRANS_SEQ resp=AHB_RESP_OKAY rdata=0xf42f6055
# UVM_INFO ../src/slv/ahb_slave_driver.sv(184) @ 2665000: uvm_test_top.env.slave_agent.drv [ahb_slave_driver] Beat AHB_READ addr=0x000031ac resp=AHB_RESP_OKAY waits=0 rdata=0xf42f6055
# UVM_INFO ../src/mst/ahb_master_monitor.sv(117) @ 2665000: uvm_test_top.env.master_agent.mon [ahb_master_monitor] Beat[11] addr=0x000031ac rdata=0xf42f6055 resp=AHB_RESP_OKAY
# UVM_INFO ../src/mst/ahb_master_driver.sv(317) @ 2695000: uvm_test_top.env.master_agent.drv [ahb_master_driver] Beat[12/16] addr=0x000031b0 trans=AHB_TRANS_SEQ resp=AHB_RESP_OKAY rdata=0x7620f83b
# UVM_INFO ../src/slv/ahb_slave_driver.sv(184) @ 2695000: uvm_test_top.env.slave_agent.drv [ahb_slave_driver] Beat AHB_READ addr=0x000031b0 resp=AHB_RESP_OKAY waits=2 rdata=0x7620f83b
# UVM_INFO ../src/mst/ahb_master_monitor.sv(117) @ 2695000: uvm_test_top.env.master_agent.mon [ahb_master_monitor] Beat[12] addr=0x000031b0 rdata=0x7620f83b resp=AHB_RESP_OKAY
