# vsim -c -coverage -sv_seed 75913635 "+UVM_TESTNAME=ahb_read_after_write_test" "+UVM_VERBOSITY=UVM_HIGH" "+DUMP_VCD" -l ./report/logs/ahb_read_after_write_test_run_2_seed_75913635.log -do "coverage save -onexit ./report/coverage/ahb_read_after_write_test_run_2_seed_75913635.ucdb; run -all; quit -f" opt_tb_top 
# Start time: 08:41:43 on Aug 03,2026
# //  Questa Sim-64
# //  Version 10.6b linux_x86_64 May 25 2017
# //
# //  Copyright 1991-2017 Mentor Graphics Corporation
# //  All Rights Reserved.
# //
# //  QuestaSim and its associated documentation contain trade
# //  secrets and commercial or financial information that are the property of
# //  Mentor Graphics Corporation and are privileged, confidential,
# //  and exempt from disclosure under the Freedom of Information Act,
# //  5 U.S.C. Section 552. Furthermore, this information
# //  is prohibited from disclosure under the Trade Secrets Act,
# //  18 U.S.C. Section 1905.
# //
# Loading sv_std.std
# Loading work.ahb_if(fast)
# Loading mtiUvm.uvm_pkg
# Loading work.ahb_pkg(fast)
# Loading work.ahb_seq_pkg(fast)
# Loading work.ahb_test_pkg(fast)
# Loading work.tb_top(fast)
# Loading work.ahb_if(fast)
# Loading work.ahb_sva(fast)
# Loading mtiUvm.questa_uvm_pkg(fast)
# Loading /cadtools/mentor/Questa_10.6b/questasim/uvm-1.1d/linux_x86_64/uvm_dpi.so
# coverage save -onexit ./report/coverage/ahb_read_after_write_test_run_2_seed_75913635.ucdb
#  run -all
# ----------------------------------------------------------------
# UVM-1.1d
# (C) 2007-2013 Mentor Graphics Corporation
# (C) 2007-2013 Cadence Design Systems, Inc.
# (C) 2006-2013 Synopsys, Inc.
# (C) 2011-2013 Cypress Semiconductor Corp.
# ----------------------------------------------------------------
# 
#   ***********       IMPORTANT RELEASE NOTES         ************
# 
#   You are using a version of the UVM library that has been compiled
#   with `UVM_NO_DEPRECATED undefined.
#   See http://www.eda.org/svdb/view.php?id=3313 for more details.
# 
#   You are using a version of the UVM library that has been compiled
#   with `UVM_OBJECT_MUST_HAVE_CONSTRUCTOR undefined.
#   See http://www.eda.org/svdb/view.php?id=3770 for more details.
# 
#       (Specify +UVM_NO_RELNOTES to turn off this notice)
# 
# UVM_INFO verilog_src/questa_uvm_pkg-1.2/src/questa_uvm_pkg.sv(215) @ 0: reporter [Questa UVM] QUESTA_UVM-1.2.3
# UVM_INFO verilog_src/questa_uvm_pkg-1.2/src/questa_uvm_pkg.sv(217) @ 0: reporter [Questa UVM]  questa_uvm::init(+struct)
# UVM_INFO ../src/tb_top.sv(126) @ 0: reporter [TB_TOP] Virtual interface set in config_db
# UVM_INFO @ 0: reporter [RNTST] Running test ahb_read_after_write_test...
# UVM_INFO ../src/tb_top.sv(140) @ 0: reporter [TB_TOP] Waveform VCD dumping enabled (ahb_lite_vip.vcd)
# UVM_INFO ../src/env/ahb_vip_env.sv(64) @ 0: uvm_test_top.env [ahb_vip_env] slave_vif not set - reusing master_vif (passthrough mode)
# UVM_INFO ../src/env/ahb_vip_env.sv(72) @ 0: uvm_test_top.env [ahb_vip_env] Scoreboard created
# UVM_INFO ../src/env/ahb_vip_env.sv(78) @ 0: uvm_test_top.env [ahb_vip_env] Coverage collectors created
# UVM_INFO ../src/mst/ahb_master_agent.sv(61) @ 0: uvm_test_top.env.master_agent [ahb_master_agent] ACTIVE mode - driver + sequencer created
# UVM_INFO ../src/slv/ahb_slave_agent.sv(64) @ 0: uvm_test_top.env.slave_agent [ahb_slave_agent] ACTIVE mode - driver + sequencer created (    auto responses)
# UVM_INFO ../src/env/ahb_vip_env.sv(92) @ 0: uvm_test_top.env [ahb_vip_env] Scoreboard connected: master_mon.ap -> scb, slave_mon.ap -> scb
# UVM_INFO ../src/env/ahb_vip_env.sv(99) @ 0: uvm_test_top.env [ahb_vip_env] Coverage connected: master_mon.ap -> master_cov, slave_mon.ap -> slave_cov
# UVM_INFO @ 0: reporter [UVMTOP] UVM testbench topology:
# -----------------------------------------------------------------
# Name                       Type                       Size  Value
# -----------------------------------------------------------------
# uvm_test_top               ahb_read_after_write_test  -     @475 
#   env                      ahb_vip_env                -     @490 
#     master_agent           ahb_master_agent           -     @505 
#       drv                  ahb_master_driver          -     @570 
#         rsp_port           uvm_analysis_port          -     @585 
#         seq_item_port      uvm_seq_item_pull_port     -     @577 
#       mon                  ahb_master_monitor         -     @563 
#         ap                 uvm_analysis_port          -     @704 
#       sqr                  ahb_master_sequencer       -     @593 
#         rsp_export         uvm_analysis_export        -     @600 
#         seq_item_export    uvm_seq_item_pull_imp      -     @694 
#         arbitration_queue  array                      0     -    
#         lock_queue         array                      0     -    
#         num_last_reqs      integral                   32    'd1  
#         num_last_rsps      integral                   32    'd1  
#     master_cov             ahb_coverage               -     @526 
#       analysis_imp         uvm_analysis_imp           -     @533 
#     scb                    ahb_scoreboard             -     @519 
#       master_export        uvm_analysis_imp_master    -     @718 
#       slave_export         uvm_analysis_imp_slave     -     @726 
#     slave_agent            ahb_slave_agent            -     @512 
#       drv                  ahb_slave_driver           -     @748 
#         rsp_port           uvm_analysis_port          -     @763 
#         seq_item_port      uvm_seq_item_pull_port     -     @755 
#       mon                  ahb_slave_monitor          -     @741 
#         ap                 uvm_analysis_port          -     @882 
#       sqr                  ahb_slave_sequencer        -     @771 
#         rsp_export         uvm_analysis_export        -     @778 
#         seq_item_export    uvm_seq_item_pull_imp      -     @872 
#         arbitration_queue  array                      0     -    
#         lock_queue         array                      0     -    
#         num_last_reqs      integral                   32    'd1  
#         num_last_rsps      integral                   32    'd1  
#     slave_cov              ahb_coverage               -     @541 
#       analysis_imp         uvm_analysis_imp           -     @548 
# -----------------------------------------------------------------
# 
# UVM_INFO verilog_src/questa_uvm_pkg-1.2/src/questa_uvm_pkg.sv(277) @ 0: reporter [Questa UVM] End Of Elaboration
# UVM_INFO ../src/mst_seq/ahb_read_after_write_seq.sv(51) @ 0: uvm_test_top.env.master_agent.sqr@@seq [ahb_read_after_write_seq] Starting read-after-write: 20 iterations over [0x00000000 : 0x000003ff]
# UVM_INFO ../src/mst/ahb_master_driver.sv(181) @ 5000: uvm_test_top.env.master_agent.drv [ahb_master_driver] Flushed pending transactions (reset)
# UVM_INFO ../src/tb_top.sv(48) @ 95000: reporter [TB_TOP] Reset de-asserted
# UVM_INFO ../src/slv/ahb_slave_driver.sv(59) @ 95000: uvm_test_top.env.slave_agent.drv [ahb_slave_driver] Reset deasserted - slave driver active (    auto mode)
# UVM_INFO ../src/mst/ahb_master_driver.sv(68) @ 95000: uvm_test_top.env.master_agent.drv [ahb_master_driver] Reset deasserted - master driver active
# UVM_INFO ../src/mst/ahb_master_monitor.sv(75) @ 95000: uvm_test_top.env.master_agent.mon [ahb_master_monitor] Reset deasserted - master monitor active
# UVM_INFO ../src/slv/ahb_slave_monitor.sv(69) @ 95000: uvm_test_top.env.slave_agent.mon [ahb_slave_monitor] Reset deasserted - slave monitor active
# UVM_INFO ../src/mst/ahb_master_driver.sv(82) @ 95000: uvm_test_top.env.master_agent.drv [ahb_master_driver] Queueing [AHB_WRITE]: HADDR=0x00000194, HBURST=AHB_BURST_SINGLE, HSIZE=AHB_SIZE_32B, 1 beats
# UVM_INFO ../src/mst/ahb_master_driver.sv(124) @ 95000: uvm_test_top.env.master_agent.drv [ahb_master_driver] Driving [AHB_WRITE]: HADDR=0x00000194, HBURST=AHB_BURST_SINGLE, HSIZE=AHB_SIZE_32B, 1 beats               
# UVM_INFO ../src/mst/ahb_master_driver.sv(309) @ 125000: uvm_test_top.env.master_agent.drv [ahb_master_driver] Beat[0/1] addr=0x00000194 trans=AHB_TRANS_NONSEQ resp=AHB_RESP_OKAY wdata=0x45bf615d
# UVM_INFO ../src/mst/ahb_master_driver.sv(353) @ 125000: uvm_test_top.env.master_agent.drv [ahb_master_driver] Transaction complete: AHB_WRITE 0x00000194, 1 beats, burst=AHB_BURST_SINGLE
# UVM_INFO ../src/slv/ahb_slave_driver.sv(174) @ 125000: uvm_test_top.env.slave_agent.drv [ahb_slave_driver] Beat AHB_WRITE addr=0x00000194 resp=AHB_RESP_OKAY waits=1 wdata=0x45bf615d
# UVM_INFO ../src/mst/ahb_master_monitor.sv(117) @ 125000: uvm_test_top.env.master_agent.mon [ahb_master_monitor] Beat[0] addr=0x00000194 wdata=0x45bf615d resp=AHB_RESP_OKAY
# UVM_INFO ../src/mst/ahb_master_monitor.sv(222) @ 125000: uvm_test_top.env.master_agent.mon [ahb_master_monitor] Observed [AHB_WRITE]: HADDR=0x00000194, HBURST=AHB_BURST_SINGLE, HSIZE=AHB_SIZE_32B, 1 beats
# UVM_INFO ../src/env/ahb_coverage.sv(127) @ 125000: uvm_test_top.env.master_cov [ahb_coverage] Sampled [AHB_WRITE]: burst=AHB_BURST_SINGLE size=AHB_SIZE_32B beats=1 error=0
# UVM_INFO ../src/slv/ahb_slave_monitor.sv(197) @ 125000: uvm_test_top.env.slave_agent.mon [ahb_slave_monitor] Observed [AHB_WRITE]: HADDR=0x00000194, HBURST=AHB_BURST_SINGLE, HSIZE=AHB_SIZE_32B, 1 beats
# UVM_INFO ../src/env/ahb_scoreboard.sv(104) @ 125000: uvm_test_top.env.scb [ahb_scoreboard] MATCH #1: [AHB_WRITE] HADDR=0x00000194 AHB_BURST_SINGLE 1 beats
# UVM_INFO ../src/env/ahb_coverage.sv(127) @ 125000: uvm_test_top.env.slave_cov [ahb_coverage] Sampled [AHB_WRITE]: burst=AHB_BURST_SINGLE size=AHB_SIZE_32B beats=1 error=0
# UVM_INFO ../src/mst/ahb_master_driver.sv(82) @ 125000: uvm_test_top.env.master_agent.drv [ahb_master_driver] Queueing [AHB_READ]: HADDR=0x00000194, HBURST=AHB_BURST_SINGLE, HSIZE=AHB_SIZE_32B, 1 beats
# UVM_INFO ../src/mst/ahb_master_driver.sv(124) @ 125000: uvm_test_top.env.master_agent.drv [ahb_master_driver] Driving [AHB_READ]: HADDR=0x00000194, HBURST=AHB_BURST_SINGLE, HSIZE=AHB_SIZE_32B, 1 beats               
# UVM_INFO ../src/mst/ahb_master_driver.sv(309) @ 155000: uvm_test_top.env.master_agent.drv [ahb_master_driver] Beat[0/1] addr=0x00000194 trans=AHB_TRANS_NONSEQ resp=AHB_RESP_OKAY rdata=0x45bf615d
# UVM_INFO ../src/mst/ahb_master_driver.sv(353) @ 155000: uvm_test_top.env.master_agent.drv [ahb_master_driver] Transaction complete: AHB_READ 0x00000194, 1 beats, burst=AHB_BURST_SINGLE
# UVM_INFO ../src/slv/ahb_slave_driver.sv(174) @ 155000: uvm_test_top.env.slave_agent.drv [ahb_slave_driver] Beat AHB_READ addr=0x00000194 resp=AHB_RESP_OKAY waits=0 rdata=0x45bf615d
# UVM_INFO ../src/slv/ahb_slave_monitor.sv(197) @ 155000: uvm_test_top.env.slave_agent.mon [ahb_slave_monitor] Observed [AHB_READ]: HADDR=0x00000194, HBURST=AHB_BURST_SINGLE, HSIZE=AHB_SIZE_32B, 1 beats
# UVM_INFO ../src/env/ahb_coverage.sv(127) @ 155000: uvm_test_top.env.slave_cov [ahb_coverage] Sampled [AHB_READ]: burst=AHB_BURST_SINGLE size=AHB_SIZE_32B beats=1 error=0
# UVM_INFO ../src/mst/ahb_master_monitor.sv(117) @ 155000: uvm_test_top.env.master_agent.mon [ahb_master_monitor] Beat[0] addr=0x00000194 rdata=0x45bf615d resp=AHB_RESP_OKAY
# UVM_INFO ../src/mst/ahb_master_monitor.sv(222) @ 155000: uvm_test_top.env.master_agent.mon [ahb_master_monitor] Observed [AHB_READ]: HADDR=0x00000194, HBURST=AHB_BURST_SINGLE, HSIZE=AHB_SIZE_32B, 1 beats
# UVM_INFO ../src/env/ahb_coverage.sv(127) @ 155000: uvm_test_top.env.master_cov [ahb_coverage] Sampled [AHB_READ]: burst=AHB_BURST_SINGLE size=AHB_SIZE_32B beats=1 error=0
# UVM_INFO ../src/env/ahb_scoreboard.sv(104) @ 155000: uvm_test_top.env.scb [ahb_scoreboard] MATCH #2: [AHB_READ] HADDR=0x00000194 AHB_BURST_SINGLE 1 beats
# UVM_INFO ../src/mst_seq/ahb_read_after_write_seq.sv(99) @ 155000: uvm_test_top.env.master_agent.sqr@@seq [ahb_read_after_write_seq] RAW ok @0x00000194: 0x45bf615d
# UVM_INFO ../src/mst/ahb_master_driver.sv(82) @ 155000: uvm_test_top.env.master_agent.drv [ahb_master_driver] Queueing [AHB_WRITE]: HADDR=0x0000009c, HBURST=AHB_BURST_SINGLE, HSIZE=AHB_SIZE_32B, 1 beats
# UVM_INFO ../src/mst/ahb_master_driver.sv(124) @ 155000: uvm_test_top.env.master_agent.drv [ahb_master_driver] Driving [AHB_WRITE]: HADDR=0x0000009c, HBURST=AHB_BURST_SINGLE, HSIZE=AHB_SIZE_32B, 1 beats               
# UVM_INFO ../src/mst/ahb_master_driver.sv(309) @ 195000: uvm_test_top.env.master_agent.drv [ahb_master_driver] Beat[0/1] addr=0x0000009c trans=AHB_TRANS_NONSEQ resp=AHB_RESP_OKAY wdata=0xb13a6e51
# UVM_INFO ../src/mst/ahb_master_driver.sv(353) @ 195000: uvm_test_top.env.master_agent.drv [ahb_master_driver] Transaction complete: AHB_WRITE 0x0000009c, 1 beats, burst=AHB_BURST_SINGLE
# UVM_INFO ../src/slv/ahb_slave_driver.sv(174) @ 195000: uvm_test_top.env.slave_agent.drv [ahb_slave_driver] Beat AHB_WRITE addr=0x0000009c resp=AHB_RESP_OKAY waits=1 wdata=0xb13a6e51
# UVM_INFO ../src/slv/ahb_slave_monitor.sv(197) @ 195000: uvm_test_top.env.slave_agent.mon [ahb_slave_monitor] Observed [AHB_WRITE]: HADDR=0x0000009c, HBURST=AHB_BURST_SINGLE, HSIZE=AHB_SIZE_32B, 1 beats
# UVM_INFO ../src/env/ahb_coverage.sv(127) @ 195000: uvm_test_top.env.slave_cov [ahb_coverage] Sampled [AHB_WRITE]: burst=AHB_BURST_SINGLE size=AHB_SIZE_32B beats=1 error=0
# UVM_INFO ../src/mst/ahb_master_monitor.sv(117) @ 195000: uvm_test_top.env.master_agent.mon [ahb_master_monitor] Beat[0] addr=0x0000009c wdata=0xb13a6e51 resp=AHB_RESP_OKAY
# UVM_INFO ../src/mst/ahb_master_monitor.sv(222) @ 195000: uvm_test_top.env.master_agent.mon [ahb_master_monitor] Observed [AHB_WRITE]: HADDR=0x0000009c, HBURST=AHB_BURST_SINGLE, HSIZE=AHB_SIZE_32B, 1 beats
# UVM_INFO ../src/env/ahb_coverage.sv(127) @ 195000: uvm_test_top.env.master_cov [ahb_coverage] Sampled [AHB_WRITE]: burst=AHB_BURST_SINGLE size=AHB_SIZE_32B beats=1 error=0
# UVM_INFO ../src/env/ahb_scoreboard.sv(104) @ 195000: uvm_test_top.env.scb [ahb_scoreboard] MATCH #3: [AHB_WRITE] HADDR=0x0000009c AHB_BURST_SINGLE 1 beats
# UVM_INFO ../src/mst/ahb_master_driver.sv(82) @ 195000: uvm_test_top.env.master_agent.drv [ahb_master_driver] Queueing [AHB_READ]: HADDR=0x0000009c, HBURST=AHB_BURST_SINGLE, HSIZE=AHB_SIZE_32B, 1 beats
# UVM_INFO ../src/mst/ahb_master_driver.sv(124) @ 195000: uvm_test_top.env.master_agent.drv [ahb_master_driver] Driving [AHB_READ]: HADDR=0x0000009c, HBURST=AHB_BURST_SINGLE, HSIZE=AHB_SIZE_32B, 1 beats               
# UVM_INFO ../src/mst/ahb_master_driver.sv(309) @ 235000: uvm_test_top.env.master_agent.drv [ahb_master_driver] Beat[0/1] addr=0x0000009c trans=AHB_TRANS_NONSEQ resp=AHB_RESP_OKAY rdata=0xb13a6e51
# UVM_INFO ../src/mst/ahb_master_driver.sv(353) @ 235000: uvm_test_top.env.master_agent.drv [ahb_master_driver] Transaction complete: AHB_READ 0x0000009c, 1 beats, burst=AHB_BURST_SINGLE
# UVM_INFO ../src/slv/ahb_slave_driver.sv(174) @ 235000: uvm_test_top.env.slave_agent.drv [ahb_slave_driver] Beat AHB_READ addr=0x0000009c resp=AHB_RESP_OKAY waits=1 rdata=0xb13a6e51
# UVM_INFO ../src/slv/ahb_slave_monitor.sv(197) @ 235000: uvm_test_top.env.slave_agent.mon [ahb_slave_monitor] Observed [AHB_READ]: HADDR=0x0000009c, HBURST=AHB_BURST_SINGLE, HSIZE=AHB_SIZE_32B, 1 beats
# UVM_INFO ../src/env/ahb_coverage.sv(127) @ 235000: uvm_test_top.env.slave_cov [ahb_coverage] Sampled [AHB_READ]: burst=AHB_BURST_SINGLE size=AHB_SIZE_32B beats=1 error=0
# UVM_INFO ../src/mst/ahb_master_monitor.sv(117) @ 235000: uvm_test_top.env.master_agent.mon [ahb_master_monitor] Beat[0] addr=0x0000009c rdata=0xb13a6e51 resp=AHB_RESP_OKAY
# UVM_INFO ../src/mst/ahb_master_monitor.sv(222) @ 235000: uvm_test_top.env.master_agent.mon [ahb_master_monitor] Observed [AHB_READ]: HADDR=0x0000009c, HBURST=AHB_BURST_SINGLE, HSIZE=AHB_SIZE_32B, 1 beats
# UVM_INFO ../src/env/ahb_coverage.sv(127) @ 235000: uvm_test_top.env.master_cov [ahb_coverage] Sampled [AHB_READ]: burst=AHB_BURST_SINGLE size=AHB_SIZE_32B beats=1 error=0
# UVM_INFO ../src/env/ahb_scoreboard.sv(104) @ 235000: uvm_test_top.env.scb [ahb_scoreboard] MATCH #4: [AHB_READ] HADDR=0x0000009c AHB_BURST_SINGLE 1 beats
# UVM_INFO ../src/mst_seq/ahb_read_after_write_seq.sv(99) @ 235000: uvm_test_top.env.master_agent.sqr@@seq [ahb_read_after_write_seq] RAW ok @0x0000009c: 0xb13a6e51
# UVM_INFO ../src/mst/ahb_master_driver.sv(82) @ 235000: uvm_test_top.env.master_agent.drv [ahb_master_driver] Queueing [AHB_WRITE]: HADDR=0x0000027c, HBURST=AHB_BURST_SINGLE, HSIZE=AHB_SIZE_32B, 1 beats
# UVM_INFO ../src/mst/ahb_master_driver.sv(124) @ 235000: uvm_test_top.env.master_agent.drv [ahb_master_driver] Driving [AHB_WRITE]: HADDR=0x0000027c, HBURST=AHB_BURST_SINGLE, HSIZE=AHB_SIZE_32B, 1 beats               
# UVM_INFO ../src/mst/ahb_master_driver.sv(309) @ 265000: uvm_test_top.env.master_agent.drv [ahb_master_driver] Beat[0/1] addr=0x0000027c trans=AHB_TRANS_NONSEQ resp=AHB_RESP_OKAY wdata=0x1f2b09c2
# UVM_INFO ../src/mst/ahb_master_driver.sv(353) @ 265000: uvm_test_top.env.master_agent.drv [ahb_master_driver] Transaction complete: AHB_WRITE 0x0000027c, 1 beats, burst=AHB_BURST_SINGLE
# UVM_INFO ../src/slv/ahb_slave_driver.sv(174) @ 265000: uvm_test_top.env.slave_agent.drv [ahb_slave_driver] Beat AHB_WRITE addr=0x0000027c resp=AHB_RESP_OKAY waits=0 wdata=0x1f2b09c2
# UVM_INFO ../src/mst/ahb_master_monitor.sv(117) @ 265000: uvm_test_top.env.master_agent.mon [ahb_master_monitor] Beat[0] addr=0x0000027c wdata=0x1f2b09c2 resp=AHB_RESP_OKAY
# UVM_INFO ../src/mst/ahb_master_monitor.sv(222) @ 265000: uvm_test_top.env.master_agent.mon [ahb_master_monitor] Observed [AHB_WRITE]: HADDR=0x0000027c, HBURST=AHB_BURST_SINGLE, HSIZE=AHB_SIZE_32B, 1 beats
# UVM_INFO ../src/env/ahb_coverage.sv(127) @ 265000: uvm_test_top.env.master_cov [ahb_coverage] Sampled [AHB_WRITE]: burst=AHB_BURST_SINGLE size=AHB_SIZE_32B beats=1 error=0
# UVM_INFO ../src/slv/ahb_slave_monitor.sv(197) @ 265000: uvm_test_top.env.slave_agent.mon [ahb_slave_monitor] Observed [AHB_WRITE]: HADDR=0x0000027c, HBURST=AHB_BURST_SINGLE, HSIZE=AHB_SIZE_32B, 1 beats
# UVM_INFO ../src/env/ahb_scoreboard.sv(104) @ 265000: uvm_test_top.env.scb [ahb_scoreboard] MATCH #5: [AHB_WRITE] HADDR=0x0000027c AHB_BURST_SINGLE 1 beats
# UVM_INFO ../src/env/ahb_coverage.sv(127) @ 265000: uvm_test_top.env.slave_cov [ahb_coverage] Sampled [AHB_WRITE]: burst=AHB_BURST_SINGLE size=AHB_SIZE_32B beats=1 error=0
# UVM_INFO ../src/mst/ahb_master_driver.sv(82) @ 265000: uvm_test_top.env.master_agent.drv [ahb_master_driver] Queueing [AHB_READ]: HADDR=0x0000027c, HBURST=AHB_BURST_SINGLE, HSIZE=AHB_SIZE_32B, 1 beats
# UVM_INFO ../src/mst/ahb_master_driver.sv(124) @ 265000: uvm_test_top.env.master_agent.drv [ahb_master_driver] Driving [AHB_READ]: HADDR=0x0000027c, HBURST=AHB_BURST_SINGLE, HSIZE=AHB_SIZE_32B, 1 beats               
# UVM_INFO ../src/mst/ahb_master_driver.sv(309) @ 305000: uvm_test_top.env.master_agent.drv [ahb_master_driver] Beat[0/1] addr=0x0000027c trans=AHB_TRANS_NONSEQ resp=AHB_RESP_OKAY rdata=0x1f2b09c2
# UVM_INFO ../src/mst/ahb_master_driver.sv(353) @ 305000: uvm_test_top.env.master_agent.drv [ahb_master_driver] Transaction complete: AHB_READ 0x0000027c, 1 beats, burst=AHB_BURST_SINGLE
# UVM_INFO ../src/slv/ahb_slave_driver.sv(174) @ 305000: uvm_test_top.env.slave_agent.drv [ahb_slave_driver] Beat AHB_READ addr=0x0000027c resp=AHB_RESP_OKAY waits=1 rdata=0x1f2b09c2
# UVM_INFO ../src/mst/ahb_master_monitor.sv(117) @ 305000: uvm_test_top.env.master_agent.mon [ahb_master_monitor] Beat[0] addr=0x0000027c rdata=0x1f2b09c2 resp=AHB_RESP_OKAY
# UVM_INFO ../src/mst/ahb_master_monitor.sv(222) @ 305000: uvm_test_top.env.master_agent.mon [ahb_master_monitor] Observed [AHB_READ]: HADDR=0x0000027c, HBURST=AHB_BURST_SINGLE, HSIZE=AHB_SIZE_32B, 1 beats
# UVM_INFO ../src/env/ahb_coverage.sv(127) @ 305000: uvm_test_top.env.master_cov [ahb_coverage] Sampled [AHB_READ]: burst=AHB_BURST_SINGLE size=AHB_SIZE_32B beats=1 error=0
# UVM_INFO ../src/slv/ahb_slave_monitor.sv(197) @ 305000: uvm_test_top.env.slave_agent.mon [ahb_slave_monitor] Observed [AHB_READ]: HADDR=0x0000027c, HBURST=AHB_BURST_SINGLE, HSIZE=AHB_SIZE_32B, 1 beats
# UVM_INFO ../src/env/ahb_scoreboard.sv(104) @ 305000: uvm_test_top.env.scb [ahb_scoreboard] MATCH #6: [AHB_READ] HADDR=0x0000027c AHB_BURST_SINGLE 1 beats
# UVM_INFO ../src/env/ahb_coverage.sv(127) @ 305000: uvm_test_top.env.slave_cov [ahb_coverage] Sampled [AHB_READ]: burst=AHB_BURST_SINGLE size=AHB_SIZE_32B beats=1 error=0
# UVM_INFO ../src/mst_seq/ahb_read_after_write_seq.sv(99) @ 305000: uvm_test_top.env.master_agent.sqr@@seq [ahb_read_after_write_seq] RAW ok @0x0000027c: 0x1f2b09c2
# UVM_INFO ../src/mst/ahb_master_driver.sv(82) @ 305000: uvm_test_top.env.master_agent.drv [ahb_master_driver] Queueing [AHB_WRITE]: HADDR=0x000001e4, HBURST=AHB_BURST_SINGLE, HSIZE=AHB_SIZE_32B, 1 beats
# UVM_INFO ../src/mst/ahb_master_driver.sv(124) @ 305000: uvm_test_top.env.master_agent.drv [ahb_master_driver] Driving [AHB_WRITE]: HADDR=0x000001e4, HBURST=AHB_BURST_SINGLE, HSIZE=AHB_SIZE_32B, 1 beats               
# UVM_INFO ../src/mst/ahb_master_driver.sv(309) @ 345000: uvm_test_top.env.master_agent.drv [ahb_master_driver] Beat[0/1] addr=0x000001e4 trans=AHB_TRANS_NONSEQ resp=AHB_RESP_OKAY wdata=0x521024d2
# UVM_INFO ../src/mst/ahb_master_driver.sv(353) @ 345000: uvm_test_top.env.master_agent.drv [ahb_master_driver] Transaction complete: AHB_WRITE 0x000001e4, 1 beats, burst=AHB_BURST_SINGLE
# UVM_INFO ../src/slv/ahb_slave_driver.sv(174) @ 345000: uvm_test_top.env.slave_agent.drv [ahb_slave_driver] Beat AHB_WRITE addr=0x000001e4 resp=AHB_RESP_OKAY waits=1 wdata=0x521024d2
# UVM_INFO ../src/mst/ahb_master_monitor.sv(117) @ 345000: uvm_test_top.env.master_agent.mon [ahb_master_monitor] Beat[0] addr=0x000001e4 wdata=0x521024d2 resp=AHB_RESP_OKAY
# UVM_INFO ../src/mst/ahb_master_monitor.sv(222) @ 345000: uvm_test_top.env.master_agent.mon [ahb_master_monitor] Observed [AHB_WRITE]: HADDR=0x000001e4, HBURST=AHB_BURST_SINGLE, HSIZE=AHB_SIZE_32B, 1 beats
# UVM_INFO ../src/env/ahb_coverage.sv(127) @ 345000: uvm_test_top.env.master_cov [ahb_coverage] Sampled [AHB_WRITE]: burst=AHB_BURST_SINGLE size=AHB_SIZE_32B beats=1 error=0
# UVM_INFO ../src/slv/ahb_slave_monitor.sv(197) @ 345000: uvm_test_top.env.slave_agent.mon [ahb_slave_monitor] Observed [AHB_WRITE]: HADDR=0x000001e4, HBURST=AHB_BURST_SINGLE, HSIZE=AHB_SIZE_32B, 1 beats
# UVM_INFO ../src/env/ahb_scoreboard.sv(104) @ 345000: uvm_test_top.env.scb [ahb_scoreboard] MATCH #7: [AHB_WRITE] HADDR=0x000001e4 AHB_BURST_SINGLE 1 beats
# UVM_INFO ../src/env/ahb_coverage.sv(127) @ 345000: uvm_test_top.env.slave_cov [ahb_coverage] Sampled [AHB_WRITE]: burst=AHB_BURST_SINGLE size=AHB_SIZE_32B beats=1 error=0
# UVM_INFO ../src/mst/ahb_master_driver.sv(82) @ 345000: uvm_test_top.env.master_agent.drv [ahb_master_driver] Queueing [AHB_READ]: HADDR=0x000001e4, HBURST=AHB_BURST_SINGLE, HSIZE=AHB_SIZE_32B, 1 beats
# UVM_INFO ../src/mst/ahb_master_driver.sv(124) @ 345000: uvm_test_top.env.master_agent.drv [ahb_master_driver] Driving [AHB_READ]: HADDR=0x000001e4, HBURST=AHB_BURST_SINGLE, HSIZE=AHB_SIZE_32B, 1 beats               
# UVM_INFO ../src/mst/ahb_master_driver.sv(309) @ 375000: uvm_test_top.env.master_agent.drv [ahb_master_driver] Beat[0/1] addr=0x000001e4 trans=AHB_TRANS_NONSEQ resp=AHB_RESP_OKAY rdata=0x521024d2
# UVM_INFO ../src/mst/ahb_master_driver.sv(353) @ 375000: uvm_test_top.env.master_agent.drv [ahb_master_driver] Transaction complete: AHB_READ 0x000001e4, 1 beats, burst=AHB_BURST_SINGLE
# UVM_INFO ../src/slv/ahb_slave_driver.sv(174) @ 375000: uvm_test_top.env.slave_agent.drv [ahb_slave_driver] Beat AHB_READ addr=0x000001e4 resp=AHB_RESP_OKAY waits=0 rdata=0x521024d2
# UVM_INFO ../src/slv/ahb_slave_monitor.sv(197) @ 375000: uvm_test_top.env.slave_agent.mon [ahb_slave_monitor] Observed [AHB_READ]: HADDR=0x000001e4, HBURST=AHB_BURST_SINGLE, HSIZE=AHB_SIZE_32B, 1 beats
# UVM_INFO ../src/env/ahb_coverage.sv(127) @ 375000: uvm_test_top.env.slave_cov [ahb_coverage] Sampled [AHB_READ]: burst=AHB_BURST_SINGLE size=AHB_SIZE_32B beats=1 error=0
# UVM_INFO ../src/mst/ahb_master_monitor.sv(117) @ 375000: uvm_test_top.env.master_agent.mon [ahb_master_monitor] Beat[0] addr=0x000001e4 rdata=0x521024d2 resp=AHB_RESP_OKAY
# UVM_INFO ../src/mst/ahb_master_monitor.sv(222) @ 375000: uvm_test_top.env.master_agent.mon [ahb_master_monitor] Observed [AHB_READ]: HADDR=0x000001e4, HBURST=AHB_BURST_SINGLE, HSIZE=AHB_SIZE_32B, 1 beats
# UVM_INFO ../src/env/ahb_coverage.sv(127) @ 375000: uvm_test_top.env.master_cov [ahb_coverage] Sampled [AHB_READ]: burst=AHB_BURST_SINGLE size=AHB_SIZE_32B beats=1 error=0
# UVM_INFO ../src/env/ahb_scoreboard.sv(104) @ 375000: uvm_test_top.env.scb [ahb_scoreboard] MATCH #8: [AHB_READ] HADDR=0x000001e4 AHB_BURST_SINGLE 1 beats
# UVM_INFO ../src/mst_seq/ahb_read_after_write_seq.sv(99) @ 375000: uvm_test_top.env.master_agent.sqr@@seq [ahb_read_after_write_seq] RAW ok @0x000001e4: 0x521024d2
# UVM_INFO ../src/mst/ahb_master_driver.sv(82) @ 375000: uvm_test_top.env.master_agent.drv [ahb_master_driver] Queueing [AHB_WRITE]: HADDR=0x0000008c, HBURST=AHB_BURST_SINGLE, HSIZE=AHB_SIZE_32B, 1 beats
# UVM_INFO ../src/mst/ahb_master_driver.sv(124) @ 375000: uvm_test_top.env.master_agent.drv [ahb_master_driver] Driving [AHB_WRITE]: HADDR=0x0000008c, HBURST=AHB_BURST_SINGLE, HSIZE=AHB_SIZE_32B, 1 beats               
# UVM_INFO ../src/mst/ahb_master_driver.sv(309) @ 415000: uvm_test_top.env.master_agent.drv [ahb_master_driver] Beat[0/1] addr=0x0000008c trans=AHB_TRANS_NONSEQ resp=AHB_RESP_OKAY wdata=0x1f715221
# UVM_INFO ../src/mst/ahb_master_driver.sv(353) @ 415000: uvm_test_top.env.master_agent.drv [ahb_master_driver] Transaction complete: AHB_WRITE 0x0000008c, 1 beats, burst=AHB_BURST_SINGLE
# UVM_INFO ../src/slv/ahb_slave_driver.sv(174) @ 415000: uvm_test_top.env.slave_agent.drv [ahb_slave_driver] Beat AHB_WRITE addr=0x0000008c resp=AHB_RESP_OKAY waits=1 wdata=0x1f715221
# UVM_INFO ../src/slv/ahb_slave_monitor.sv(197) @ 415000: uvm_test_top.env.slave_agent.mon [ahb_slave_monitor] Observed [AHB_WRITE]: HADDR=0x0000008c, HBURST=AHB_BURST_SINGLE, HSIZE=AHB_SIZE_32B, 1 beats
# UVM_INFO ../src/env/ahb_coverage.sv(127) @ 415000: uvm_test_top.env.slave_cov [ahb_coverage] Sampled [AHB_WRITE]: burst=AHB_BURST_SINGLE size=AHB_SIZE_32B beats=1 error=0
# UVM_INFO ../src/mst/ahb_master_monitor.sv(117) @ 415000: uvm_test_top.env.master_agent.mon [ahb_master_monitor] Beat[0] addr=0x0000008c wdata=0x1f715221 resp=AHB_RESP_OKAY
# UVM_INFO ../src/mst/ahb_master_monitor.sv(222) @ 415000: uvm_test_top.env.master_agent.mon [ahb_master_monitor] Observed [AHB_WRITE]: HADDR=0x0000008c, HBURST=AHB_BURST_SINGLE, HSIZE=AHB_SIZE_32B, 1 beats
# UVM_INFO ../src/env/ahb_coverage.sv(127) @ 415000: uvm_test_top.env.master_cov [ahb_coverage] Sampled [AHB_WRITE]: burst=AHB_BURST_SINGLE size=AHB_SIZE_32B beats=1 error=0
# UVM_INFO ../src/env/ahb_scoreboard.sv(104) @ 415000: uvm_test_top.env.scb [ahb_scoreboard] MATCH #9: [AHB_WRITE] HADDR=0x0000008c AHB_BURST_SINGLE 1 beats
# UVM_INFO ../src/mst/ahb_master_driver.sv(82) @ 415000: uvm_test_top.env.master_agent.drv [ahb_master_driver] Queueing [AHB_READ]: HADDR=0x0000008c, HBURST=AHB_BURST_SINGLE, HSIZE=AHB_SIZE_32B, 1 beats
# UVM_INFO ../src/mst/ahb_master_driver.sv(124) @ 415000: uvm_test_top.env.master_agent.drv [ahb_master_driver] Driving [AHB_READ]: HADDR=0x0000008c, HBURST=AHB_BURST_SINGLE, HSIZE=AHB_SIZE_32B, 1 beats               
# UVM_INFO ../src/mst/ahb_master_driver.sv(309) @ 465000: uvm_test_top.env.master_agent.drv [ahb_master_driver] Beat[0/1] addr=0x0000008c trans=AHB_TRANS_NONSEQ resp=AHB_RESP_OKAY rdata=0x1f715221
# UVM_INFO ../src/mst/ahb_master_driver.sv(353) @ 465000: uvm_test_top.env.master_agent.drv [ahb_master_driver] Transaction complete: AHB_READ 0x0000008c, 1 beats, burst=AHB_BURST_SINGLE
# UVM_INFO ../src/slv/ahb_slave_driver.sv(174) @ 465000: uvm_test_top.env.slave_agent.drv [ahb_slave_driver] Beat AHB_READ addr=0x0000008c resp=AHB_RESP_OKAY waits=2 rdata=0x1f715221
# UVM_INFO ../src/mst/ahb_master_monitor.sv(117) @ 465000: uvm_test_top.env.master_agent.mon [ahb_master_monitor] Beat[0] addr=0x0000008c rdata=0x1f715221 resp=AHB_RESP_OKAY
# UVM_INFO ../src/mst/ahb_master_monitor.sv(222) @ 465000: uvm_test_top.env.master_agent.mon [ahb_master_monitor] Observed [AHB_READ]: HADDR=0x0000008c, HBURST=AHB_BURST_SINGLE, HSIZE=AHB_SIZE_32B, 1 beats
# UVM_INFO ../src/env/ahb_coverage.sv(127) @ 465000: uvm_test_top.env.master_cov [ahb_coverage] Sampled [AHB_READ]: burst=AHB_BURST_SINGLE size=AHB_SIZE_32B beats=1 error=0
# UVM_INFO ../src/slv/ahb_slave_monitor.sv(197) @ 465000: uvm_test_top.env.slave_agent.mon [ahb_slave_monitor] Observed [AHB_READ]: HADDR=0x0000008c, HBURST=AHB_BURST_SINGLE, HSIZE=AHB_SIZE_32B, 1 beats
# UVM_INFO ../src/env/ahb_scoreboard.sv(104) @ 465000: uvm_test_top.env.scb [ahb_scoreboard] MATCH #10: [AHB_READ] HADDR=0x0000008c AHB_BURST_SINGLE 1 beats
# UVM_INFO ../src/env/ahb_coverage.sv(127) @ 465000: uvm_test_top.env.slave_cov [ahb_coverage] Sampled [AHB_READ]: burst=AHB_BURST_SINGLE size=AHB_SIZE_32B beats=1 error=0
# UVM_INFO ../src/mst_seq/ahb_read_after_write_seq.sv(99) @ 465000: uvm_test_top.env.master_agent.sqr@@seq [ahb_read_after_write_seq] RAW ok @0x0000008c: 0x1f715221
# UVM_INFO ../src/mst/ahb_master_driver.sv(82) @ 465000: uvm_test_top.env.master_agent.drv [ahb_master_driver] Queueing [AHB_WRITE]: HADDR=0x00000288, HBURST=AHB_BURST_SINGLE, HSIZE=AHB_SIZE_32B, 1 beats
# UVM_INFO ../src/mst/ahb_master_driver.sv(124) @ 465000: uvm_test_top.env.master_agent.drv [ahb_master_driver] Driving [AHB_WRITE]: HADDR=0x00000288, HBURST=AHB_BURST_SINGLE, HSIZE=AHB_SIZE_32B, 1 beats               
# UVM_INFO ../src/mst/ahb_master_driver.sv(309) @ 505000: uvm_test_top.env.master_agent.drv [ahb_master_driver] Beat[0/1] addr=0x00000288 trans=AHB_TRANS_NONSEQ resp=AHB_RESP_OKAY wdata=0x27f1027c
# UVM_INFO ../src/mst/ahb_master_driver.sv(353) @ 505000: uvm_test_top.env.master_agent.drv [ahb_master_driver] Transaction complete: AHB_WRITE 0x00000288, 1 beats, burst=AHB_BURST_SINGLE
# UVM_INFO ../src/slv/ahb_slave_driver.sv(174) @ 505000: uvm_test_top.env.slave_agent.drv [ahb_slave_driver] Beat AHB_WRITE addr=0x00000288 resp=AHB_RESP_OKAY waits=1 wdata=0x27f1027c
# UVM_INFO ../src/mst/ahb_master_monitor.sv(117) @ 505000: uvm_test_top.env.master_agent.mon [ahb_master_monitor] Beat[0] addr=0x00000288 wdata=0x27f1027c resp=AHB_RESP_OKAY
# UVM_INFO ../src/mst/ahb_master_monitor.sv(222) @ 505000: uvm_test_top.env.master_agent.mon [ahb_master_monitor] Observed [AHB_WRITE]: HADDR=0x00000288, HBURST=AHB_BURST_SINGLE, HSIZE=AHB_SIZE_32B, 1 beats
# UVM_INFO ../src/env/ahb_coverage.sv(127) @ 505000: uvm_test_top.env.master_cov [ahb_coverage] Sampled [AHB_WRITE]: burst=AHB_BURST_SINGLE size=AHB_SIZE_32B beats=1 error=0
# UVM_INFO ../src/slv/ahb_slave_monitor.sv(197) @ 505000: uvm_test_top.env.slave_agent.mon [ahb_slave_monitor] Observed [AHB_WRITE]: HADDR=0x00000288, HBURST=AHB_BURST_SINGLE, HSIZE=AHB_SIZE_32B, 1 beats
# UVM_INFO ../src/env/ahb_scoreboard.sv(104) @ 505000: uvm_test_top.env.scb [ahb_scoreboard] MATCH #11: [AHB_WRITE] HADDR=0x00000288 AHB_BURST_SINGLE 1 beats
# UVM_INFO ../src/env/ahb_coverage.sv(127) @ 505000: uvm_test_top.env.slave_cov [ahb_coverage] Sampled [AHB_WRITE]: burst=AHB_BURST_SINGLE size=AHB_SIZE_32B beats=1 error=0
# UVM_INFO ../src/mst/ahb_master_driver.sv(82) @ 505000: uvm_test_top.env.master_agent.drv [ahb_master_driver] Queueing [AHB_READ]: HADDR=0x00000288, HBURST=AHB_BURST_SINGLE, HSIZE=AHB_SIZE_32B, 1 beats
# UVM_INFO ../src/mst/ahb_master_driver.sv(124) @ 505000: uvm_test_top.env.master_agent.drv [ahb_master_driver] Driving [AHB_READ]: HADDR=0x00000288, HBURST=AHB_BURST_SINGLE, HSIZE=AHB_SIZE_32B, 1 beats               
# UVM_INFO ../src/mst/ahb_master_driver.sv(309) @ 535000: uvm_test_top.env.master_agent.drv [ahb_master_driver] Beat[0/1] addr=0x00000288 trans=AHB_TRANS_NONSEQ resp=AHB_RESP_OKAY rdata=0x27f1027c
# UVM_INFO ../src/mst/ahb_master_driver.sv(353) @ 535000: uvm_test_top.env.master_agent.drv [ahb_master_driver] Transaction complete: AHB_READ 0x00000288, 1 beats, burst=AHB_BURST_SINGLE
# UVM_INFO ../src/slv/ahb_slave_driver.sv(174) @ 535000: uvm_test_top.env.slave_agent.drv [ahb_slave_driver] Beat AHB_READ addr=0x00000288 resp=AHB_RESP_OKAY waits=0 rdata=0x27f1027c
# UVM_INFO ../src/slv/ahb_slave_monitor.sv(197) @ 535000: uvm_test_top.env.slave_agent.mon [ahb_slave_monitor] Observed [AHB_READ]: HADDR=0x00000288, HBURST=AHB_BURST_SINGLE, HSIZE=AHB_SIZE_32B, 1 beats
# UVM_INFO ../src/env/ahb_coverage.sv(127) @ 535000: uvm_test_top.env.slave_cov [ahb_coverage] Sampled [AHB_READ]: burst=AHB_BURST_SINGLE size=AHB_SIZE_32B beats=1 error=0
# UVM_INFO ../src/mst/ahb_master_monitor.sv(117) @ 535000: uvm_test_top.env.master_agent.mon [ahb_master_monitor] Beat[0] addr=0x00000288 rdata=0x27f1027c resp=AHB_RESP_OKAY
# UVM_INFO ../src/mst/ahb_master_monitor.sv(222) @ 535000: uvm_test_top.env.master_agent.mon [ahb_master_monitor] Observed [AHB_READ]: HADDR=0x00000288, HBURST=AHB_BURST_SINGLE, HSIZE=AHB_SIZE_32B, 1 beats
# UVM_INFO ../src/env/ahb_coverage.sv(127) @ 535000: uvm_test_top.env.master_cov [ahb_coverage] Sampled [AHB_READ]: burst=AHB_BURST_SINGLE size=AHB_SIZE_32B beats=1 error=0
# UVM_INFO ../src/env/ahb_scoreboard.sv(104) @ 535000: uvm_test_top.env.scb [ahb_scoreboard] MATCH #12: [AHB_READ] HADDR=0x00000288 AHB_BURST_SINGLE 1 beats
# UVM_INFO ../src/mst_seq/ahb_read_after_write_seq.sv(99) @ 535000: uvm_test_top.env.master_agent.sqr@@seq [ahb_read_after_write_seq] RAW ok @0x00000288: 0x27f1027c
# UVM_INFO ../src/mst/ahb_master_driver.sv(82) @ 535000: uvm_test_top.env.master_agent.drv [ahb_master_driver] Queueing [AHB_WRITE]: HADDR=0x00000064, HBURST=AHB_BURST_SINGLE, HSIZE=AHB_SIZE_32B, 1 beats
# UVM_INFO ../src/mst/ahb_master_driver.sv(124) @ 535000: uvm_test_top.env.master_agent.drv [ahb_master_driver] Driving [AHB_WRITE]: HADDR=0x00000064, HBURST=AHB_BURST_SINGLE, HSIZE=AHB_SIZE_32B, 1 beats               
# UVM_INFO ../src/mst/ahb_master_driver.sv(309) @ 575000: uvm_test_top.env.master_agent.drv [ahb_master_driver] Beat[0/1] addr=0x00000064 trans=AHB_TRANS_NONSEQ resp=AHB_RESP_OKAY wdata=0xf53a3407
# UVM_INFO ../src/mst/ahb_master_driver.sv(353) @ 575000: uvm_test_top.env.master_agent.drv [ahb_master_driver] Transaction complete: AHB_WRITE 0x00000064, 1 beats, burst=AHB_BURST_SINGLE
# UVM_INFO ../src/slv/ahb_slave_driver.sv(174) @ 575000: uvm_test_top.env.slave_agent.drv [ahb_slave_driver] Beat AHB_WRITE addr=0x00000064 resp=AHB_RESP_OKAY waits=1 wdata=0xf53a3407
# UVM_INFO ../src/slv/ahb_slave_monitor.sv(197) @ 575000: uvm_test_top.env.slave_agent.mon [ahb_slave_monitor] Observed [AHB_WRITE]: HADDR=0x00000064, HBURST=AHB_BURST_SINGLE, HSIZE=AHB_SIZE_32B, 1 beats
# UVM_INFO ../src/env/ahb_coverage.sv(127) @ 575000: uvm_test_top.env.slave_cov [ahb_coverage] Sampled [AHB_WRITE]: burst=AHB_BURST_SINGLE size=AHB_SIZE_32B beats=1 error=0
# UVM_INFO ../src/mst/ahb_master_monitor.sv(117) @ 575000: uvm_test_top.env.master_agent.mon [ahb_master_monitor] Beat[0] addr=0x00000064 wdata=0xf53a3407 resp=AHB_RESP_OKAY
# UVM_INFO ../src/mst/ahb_master_monitor.sv(222) @ 575000: uvm_test_top.env.master_agent.mon [ahb_master_monitor] Observed [AHB_WRITE]: HADDR=0x00000064, HBURST=AHB_BURST_SINGLE, HSIZE=AHB_SIZE_32B, 1 beats
# UVM_INFO ../src/env/ahb_coverage.sv(127) @ 575000: uvm_test_top.env.master_cov [ahb_coverage] Sampled [AHB_WRITE]: burst=AHB_BURST_SINGLE size=AHB_SIZE_32B beats=1 error=0
# UVM_INFO ../src/env/ahb_scoreboard.sv(104) @ 575000: uvm_test_top.env.scb [ahb_scoreboard] MATCH #13: [AHB_WRITE] HADDR=0x00000064 AHB_BURST_SINGLE 1 beats
# UVM_INFO ../src/mst/ahb_master_driver.sv(82) @ 575000: uvm_test_top.env.master_agent.drv [ahb_master_driver] Queueing [AHB_READ]: HADDR=0x00000064, HBURST=AHB_BURST_SINGLE, HSIZE=AHB_SIZE_32B, 1 beats
# UVM_INFO ../src/mst/ahb_master_driver.sv(124) @ 575000: uvm_test_top.env.master_agent.drv [ahb_master_driver] Driving [AHB_READ]: HADDR=0x00000064, HBURST=AHB_BURST_SINGLE, HSIZE=AHB_SIZE_32B, 1 beats               
# UVM_INFO ../src/mst/ahb_master_driver.sv(309) @ 625000: uvm_test_top.env.master_agent.drv [ahb_master_driver] Beat[0/1] addr=0x00000064 trans=AHB_TRANS_NONSEQ resp=AHB_RESP_OKAY rdata=0xf53a3407
# UVM_INFO ../src/mst/ahb_master_driver.sv(353) @ 625000: uvm_test_top.env.master_agent.drv [ahb_master_driver] Transaction complete: AHB_READ 0x00000064, 1 beats, burst=AHB_BURST_SINGLE
# UVM_INFO ../src/slv/ahb_slave_driver.sv(174) @ 625000: uvm_test_top.env.slave_agent.drv [ahb_slave_driver] Beat AHB_READ addr=0x00000064 resp=AHB_RESP_OKAY waits=2 rdata=0xf53a3407
# UVM_INFO ../src/mst/ahb_master_monitor.sv(117) @ 625000: uvm_test_top.env.master_agent.mon [ahb_master_monitor] Beat[0] addr=0x00000064 rdata=0xf53a3407 resp=AHB_RESP_OKAY
# UVM_INFO ../src/mst/ahb_master_monitor.sv(222) @ 625000: uvm_test_top.env.master_agent.mon [ahb_master_monitor] Observed [AHB_READ]: HADDR=0x00000064, HBURST=AHB_BURST_SINGLE, HSIZE=AHB_SIZE_32B, 1 beats
# UVM_INFO ../src/env/ahb_coverage.sv(127) @ 625000: uvm_test_top.env.master_cov [ahb_coverage] Sampled [AHB_READ]: burst=AHB_BURST_SINGLE size=AHB_SIZE_32B beats=1 error=0
# UVM_INFO ../src/slv/ahb_slave_monitor.sv(197) @ 625000: uvm_test_top.env.slave_agent.mon [ahb_slave_monitor] Observed [AHB_READ]: HADDR=0x00000064, HBURST=AHB_BURST_SINGLE, HSIZE=AHB_SIZE_32B, 1 beats
# UVM_INFO ../src/env/ahb_scoreboard.sv(104) @ 625000: uvm_test_top.env.scb [ahb_scoreboard] MATCH #14: [AHB_READ] HADDR=0x00000064 AHB_BURST_SINGLE 1 beats
# UVM_INFO ../src/env/ahb_coverage.sv(127) @ 625000: uvm_test_top.env.slave_cov [ahb_coverage] Sampled [AHB_READ]: burst=AHB_BURST_SINGLE size=AHB_SIZE_32B beats=1 error=0
# UVM_INFO ../src/mst_seq/ahb_read_after_write_seq.sv(99) @ 625000: uvm_test_top.env.master_agent.sqr@@seq [ahb_read_after_write_seq] RAW ok @0x00000064: 0xf53a3407
# UVM_INFO ../src/mst/ahb_master_driver.sv(82) @ 625000: uvm_test_top.env.master_agent.drv [ahb_master_driver] Queueing [AHB_WRITE]: HADDR=0x000003e8, HBURST=AHB_BURST_SINGLE, HSIZE=AHB_SIZE_32B, 1 beats
# UVM_INFO ../src/mst/ahb_master_driver.sv(124) @ 625000: uvm_test_top.env.master_agent.drv [ahb_master_driver] Driving [AHB_WRITE]: HADDR=0x000003e8, HBURST=AHB_BURST_SINGLE, HSIZE=AHB_SIZE_32B, 1 beats               
# UVM_INFO ../src/mst/ahb_master_driver.sv(309) @ 665000: uvm_test_top.env.master_agent.drv [ahb_master_driver] Beat[0/1] addr=0x000003e8 trans=AHB_TRANS_NONSEQ resp=AHB_RESP_OKAY wdata=0x034142aa
# UVM_INFO ../src/mst/ahb_master_driver.sv(353) @ 665000: uvm_test_top.env.master_agent.drv [ahb_master_driver] Transaction complete: AHB_WRITE 0x000003e8, 1 beats, burst=AHB_BURST_SINGLE
# UVM_INFO ../src/slv/ahb_slave_driver.sv(174) @ 665000: uvm_test_top.env.slave_agent.drv [ahb_slave_driver] Beat AHB_WRITE addr=0x000003e8 resp=AHB_RESP_OKAY waits=1 wdata=0x034142aa
# UVM_INFO ../src/mst/ahb_master_monitor.sv(117) @ 665000: uvm_test_top.env.master_agent.mon [ahb_master_monitor] Beat[0] addr=0x000003e8 wdata=0x034142aa resp=AHB_RESP_OKAY
# UVM_INFO ../src/mst/ahb_master_monitor.sv(222) @ 665000: uvm_test_top.env.master_agent.mon [ahb_master_monitor] Observed [AHB_WRITE]: HADDR=0x000003e8, HBURST=AHB_BURST_SINGLE, HSIZE=AHB_SIZE_32B, 1 beats
# UVM_INFO ../src/env/ahb_coverage.sv(127) @ 665000: uvm_test_top.env.master_cov [ahb_coverage] Sampled [AHB_WRITE]: burst=AHB_BURST_SINGLE size=AHB_SIZE_32B beats=1 error=0
# UVM_INFO ../src/slv/ahb_slave_monitor.sv(197) @ 665000: uvm_test_top.env.slave_agent.mon [ahb_slave_monitor] Observed [AHB_WRITE]: HADDR=0x000003e8, HBURST=AHB_BURST_SINGLE, HSIZE=AHB_SIZE_32B, 1 beats
# UVM_INFO ../src/env/ahb_scoreboard.sv(104) @ 665000: uvm_test_top.env.scb [ahb_scoreboard] MATCH #15: [AHB_WRITE] HADDR=0x000003e8 AHB_BURST_SINGLE 1 beats
# UVM_INFO ../src/env/ahb_coverage.sv(127) @ 665000: uvm_test_top.env.slave_cov [ahb_coverage] Sampled [AHB_WRITE]: burst=AHB_BURST_SINGLE size=AHB_SIZE_32B beats=1 error=0
# UVM_INFO ../src/mst/ahb_master_driver.sv(82) @ 665000: uvm_test_top.env.master_agent.drv [ahb_master_driver] Queueing [AHB_READ]: HADDR=0x000003e8, HBURST=AHB_BURST_SINGLE, HSIZE=AHB_SIZE_32B, 1 beats
# UVM_INFO ../src/mst/ahb_master_driver.sv(124) @ 665000: uvm_test_top.env.master_agent.drv [ahb_master_driver] Driving [AHB_READ]: HADDR=0x000003e8, HBURST=AHB_BURST_SINGLE, HSIZE=AHB_SIZE_32B, 1 beats               
# UVM_INFO ../src/mst/ahb_master_driver.sv(309) @ 695000: uvm_test_top.env.master_agent.drv [ahb_master_driver] Beat[0/1] addr=0x000003e8 trans=AHB_TRANS_NONSEQ resp=AHB_RESP_OKAY rdata=0x034142aa
# UVM_INFO ../src/mst/ahb_master_driver.sv(353) @ 695000: uvm_test_top.env.master_agent.drv [ahb_master_driver] Transaction complete: AHB_READ 0x000003e8, 1 beats, burst=AHB_BURST_SINGLE
# UVM_INFO ../src/slv/ahb_slave_driver.sv(174) @ 695000: uvm_test_top.env.slave_agent.drv [ahb_slave_driver] Beat AHB_READ addr=0x000003e8 resp=AHB_RESP_OKAY waits=0 rdata=0x034142aa
# UVM_INFO ../src/slv/ahb_slave_monitor.sv(197) @ 695000: uvm_test_top.env.slave_agent.mon [ahb_slave_monitor] Observed [AHB_READ]: HADDR=0x000003e8, HBURST=AHB_BURST_SINGLE, HSIZE=AHB_SIZE_32B, 1 beats
# UVM_INFO ../src/env/ahb_coverage.sv(127) @ 695000: uvm_test_top.env.slave_cov [ahb_coverage] Sampled [AHB_READ]: burst=AHB_BURST_SINGLE size=AHB_SIZE_32B beats=1 error=0
# UVM_INFO ../src/mst/ahb_master_monitor.sv(117) @ 695000: uvm_test_top.env.master_agent.mon [ahb_master_monitor] Beat[0] addr=0x000003e8 rdata=0x034142aa resp=AHB_RESP_OKAY
# UVM_INFO ../src/mst/ahb_master_monitor.sv(222) @ 695000: uvm_test_top.env.master_agent.mon [ahb_master_monitor] Observed [AHB_READ]: HADDR=0x000003e8, HBURST=AHB_BURST_SINGLE, HSIZE=AHB_SIZE_32B, 1 beats
# UVM_INFO ../src/env/ahb_coverage.sv(127) @ 695000: uvm_test_top.env.master_cov [ahb_coverage] Sampled [AHB_READ]: burst=AHB_BURST_SINGLE size=AHB_SIZE_32B beats=1 error=0
# UVM_INFO ../src/env/ahb_scoreboard.sv(104) @ 695000: uvm_test_top.env.scb [ahb_scoreboard] MATCH #16: [AHB_READ] HADDR=0x000003e8 AHB_BURST_SINGLE 1 beats
# UVM_INFO ../src/mst_seq/ahb_read_after_write_seq.sv(99) @ 695000: uvm_test_top.env.master_agent.sqr@@seq [ahb_read_after_write_seq] RAW ok @0x000003e8: 0x034142aa
# UVM_INFO ../src/mst/ahb_master_driver.sv(82) @ 695000: uvm_test_top.env.master_agent.drv [ahb_master_driver] Queueing [AHB_WRITE]: HADDR=0x000003d0, HBURST=AHB_BURST_SINGLE, HSIZE=AHB_SIZE_32B, 1 beats
# UVM_INFO ../src/mst/ahb_master_driver.sv(124) @ 695000: uvm_test_top.env.master_agent.drv [ahb_master_driver] Driving [AHB_WRITE]: HADDR=0x000003d0, HBURST=AHB_BURST_SINGLE, HSIZE=AHB_SIZE_32B, 1 beats               
# UVM_INFO ../src/mst/ahb_master_driver.sv(309) @ 745000: uvm_test_top.env.master_agent.drv [ahb_master_driver] Beat[0/1] addr=0x000003d0 trans=AHB_TRANS_NONSEQ resp=AHB_RESP_OKAY wdata=0x205fdf34
# UVM_INFO ../src/mst/ahb_master_driver.sv(353) @ 745000: uvm_test_top.env.master_agent.drv [ahb_master_driver] Transaction complete: AHB_WRITE 0x000003d0, 1 beats, burst=AHB_BURST_SINGLE
# UVM_INFO ../src/slv/ahb_slave_driver.sv(174) @ 745000: uvm_test_top.env.slave_agent.drv [ahb_slave_driver] Beat AHB_WRITE addr=0x000003d0 resp=AHB_RESP_OKAY waits=2 wdata=0x205fdf34
# UVM_INFO ../src/mst/ahb_master_monitor.sv(117) @ 745000: uvm_test_top.env.master_agent.mon [ahb_master_monitor] Beat[0] addr=0x000003d0 wdata=0x205fdf34 resp=AHB_RESP_OKAY
# UVM_INFO ../src/mst/ahb_master_monitor.sv(222) @ 745000: uvm_test_top.env.master_agent.mon [ahb_master_monitor] Observed [AHB_WRITE]: HADDR=0x000003d0, HBURST=AHB_BURST_SINGLE, HSIZE=AHB_SIZE_32B, 1 beats
# UVM_INFO ../src/env/ahb_coverage.sv(127) @ 745000: uvm_test_top.env.master_cov [ahb_coverage] Sampled [AHB_WRITE]: burst=AHB_BURST_SINGLE size=AHB_SIZE_32B beats=1 error=0
# UVM_INFO ../src/slv/ahb_slave_monitor.sv(197) @ 745000: uvm_test_top.env.slave_agent.mon [ahb_slave_monitor] Observed [AHB_WRITE]: HADDR=0x000003d0, HBURST=AHB_BURST_SINGLE, HSIZE=AHB_SIZE_32B, 1 beats
# UVM_INFO ../src/env/ahb_scoreboard.sv(104) @ 745000: uvm_test_top.env.scb [ahb_scoreboard] MATCH #17: [AHB_WRITE] HADDR=0x000003d0 AHB_BURST_SINGLE 1 beats
# UVM_INFO ../src/env/ahb_coverage.sv(127) @ 745000: uvm_test_top.env.slave_cov [ahb_coverage] Sampled [AHB_WRITE]: burst=AHB_BURST_SINGLE size=AHB_SIZE_32B beats=1 error=0
# UVM_INFO ../src/mst/ahb_master_driver.sv(82) @ 745000: uvm_test_top.env.master_agent.drv [ahb_master_driver] Queueing [AHB_READ]: HADDR=0x000003d0, HBURST=AHB_BURST_SINGLE, HSIZE=AHB_SIZE_32B, 1 beats
# UVM_INFO ../src/mst/ahb_master_driver.sv(124) @ 745000: uvm_test_top.env.master_agent.drv [ahb_master_driver] Driving [AHB_READ]: HADDR=0x000003d0, HBURST=AHB_BURST_SINGLE, HSIZE=AHB_SIZE_32B, 1 beats               
# UVM_INFO ../src/mst/ahb_master_driver.sv(309) @ 795000: uvm_test_top.env.master_agent.drv [ahb_master_driver] Beat[0/1] addr=0x000003d0 trans=AHB_TRANS_NONSEQ resp=AHB_RESP_OKAY rdata=0x205fdf34
# UVM_INFO ../src/mst/ahb_master_driver.sv(353) @ 795000: uvm_test_top.env.master_agent.drv [ahb_master_driver] Transaction complete: AHB_READ 0x000003d0, 1 beats, burst=AHB_BURST_SINGLE
# UVM_INFO ../src/slv/ahb_slave_driver.sv(174) @ 795000: uvm_test_top.env.slave_agent.drv [ahb_slave_driver] Beat AHB_READ addr=0x000003d0 resp=AHB_RESP_OKAY waits=2 rdata=0x205fdf34
# UVM_INFO ../src/slv/ahb_slave_monitor.sv(197) @ 795000: uvm_test_top.env.slave_agent.mon [ahb_slave_monitor] Observed [AHB_READ]: HADDR=0x000003d0, HBURST=AHB_BURST_SINGLE, HSIZE=AHB_SIZE_32B, 1 beats
# UVM_INFO ../src/env/ahb_coverage.sv(127) @ 795000: uvm_test_top.env.slave_cov [ahb_coverage] Sampled [AHB_READ]: burst=AHB_BURST_SINGLE size=AHB_SIZE_32B beats=1 error=0
# UVM_INFO ../src/mst/ahb_master_monitor.sv(117) @ 795000: uvm_test_top.env.master_agent.mon [ahb_master_monitor] Beat[0] addr=0x000003d0 rdata=0x205fdf34 resp=AHB_RESP_OKAY
# UVM_INFO ../src/mst/ahb_master_monitor.sv(222) @ 795000: uvm_test_top.env.master_agent.mon [ahb_master_monitor] Observed [AHB_READ]: HADDR=0x000003d0, HBURST=AHB_BURST_SINGLE, HSIZE=AHB_SIZE_32B, 1 beats
# UVM_INFO ../src/env/ahb_coverage.sv(127) @ 795000: uvm_test_top.env.master_cov [ahb_coverage] Sampled [AHB_READ]: burst=AHB_BURST_SINGLE size=AHB_SIZE_32B beats=1 error=0
# UVM_INFO ../src/env/ahb_scoreboard.sv(104) @ 795000: uvm_test_top.env.scb [ahb_scoreboard] MATCH #18: [AHB_READ] HADDR=0x000003d0 AHB_BURST_SINGLE 1 beats
# UVM_INFO ../src/mst_seq/ahb_read_after_write_seq.sv(99) @ 795000: uvm_test_top.env.master_agent.sqr@@seq [ahb_read_after_write_seq] RAW ok @0x000003d0: 0x205fdf34
# UVM_INFO ../src/mst/ahb_master_driver.sv(82) @ 795000: uvm_test_top.env.master_agent.drv [ahb_master_driver] Queueing [AHB_WRITE]: HADDR=0x00000108, HBURST=AHB_BURST_SINGLE, HSIZE=AHB_SIZE_32B, 1 beats
# UVM_INFO ../src/mst/ahb_master_driver.sv(124) @ 795000: uvm_test_top.env.master_agent.drv [ahb_master_driver] Driving [AHB_WRITE]: HADDR=0x00000108, HBURST=AHB_BURST_SINGLE, HSIZE=AHB_SIZE_32B, 1 beats               
# UVM_INFO ../src/mst/ahb_master_driver.sv(309) @ 825000: uvm_test_top.env.master_agent.drv [ahb_master_driver] Beat[0/1] addr=0x00000108 trans=AHB_TRANS_NONSEQ resp=AHB_RESP_OKAY wdata=0x65373264
# UVM_INFO ../src/mst/ahb_master_driver.sv(353) @ 825000: uvm_test_top.env.master_agent.drv [ahb_master_driver] Transaction complete: AHB_WRITE 0x00000108, 1 beats, burst=AHB_BURST_SINGLE
# UVM_INFO ../src/slv/ahb_slave_driver.sv(174) @ 825000: uvm_test_top.env.slave_agent.drv [ahb_slave_driver] Beat AHB_WRITE addr=0x00000108 resp=AHB_RESP_OKAY waits=0 wdata=0x65373264
# UVM_INFO ../src/mst/ahb_master_monitor.sv(117) @ 825000: uvm_test_top.env.master_agent.mon [ahb_master_monitor] Beat[0] addr=0x00000108 wdata=0x65373264 resp=AHB_RESP_OKAY
# UVM_INFO ../src/mst/ahb_master_monitor.sv(222) @ 825000: uvm_test_top.env.master_agent.mon [ahb_master_monitor] Observed [AHB_WRITE]: HADDR=0x00000108, HBURST=AHB_BURST_SINGLE, HSIZE=AHB_SIZE_32B, 1 beats
# UVM_INFO ../src/env/ahb_coverage.sv(127) @ 825000: uvm_test_top.env.master_cov [ahb_coverage] Sampled [AHB_WRITE]: burst=AHB_BURST_SINGLE size=AHB_SIZE_32B beats=1 error=0
# UVM_INFO ../src/slv/ahb_slave_monitor.sv(197) @ 825000: uvm_test_top.env.slave_agent.mon [ahb_slave_monitor] Observed [AHB_WRITE]: HADDR=0x00000108, HBURST=AHB_BURST_SINGLE, HSIZE=AHB_SIZE_32B, 1 beats
# UVM_INFO ../src/env/ahb_scoreboard.sv(104) @ 825000: uvm_test_top.env.scb [ahb_scoreboard] MATCH #19: [AHB_WRITE] HADDR=0x00000108 AHB_BURST_SINGLE 1 beats
# UVM_INFO ../src/env/ahb_coverage.sv(127) @ 825000: uvm_test_top.env.slave_cov [ahb_coverage] Sampled [AHB_WRITE]: burst=AHB_BURST_SINGLE size=AHB_SIZE_32B beats=1 error=0
# UVM_INFO ../src/mst/ahb_master_driver.sv(82) @ 825000: uvm_test_top.env.master_agent.drv [ahb_master_driver] Queueing [AHB_READ]: HADDR=0x00000108, HBURST=AHB_BURST_SINGLE, HSIZE=AHB_SIZE_32B, 1 beats
# UVM_INFO ../src/mst/ahb_master_driver.sv(124) @ 825000: uvm_test_top.env.master_agent.drv [ahb_master_driver] Driving [AHB_READ]: HADDR=0x00000108, HBURST=AHB_BURST_SINGLE, HSIZE=AHB_SIZE_32B, 1 beats               
# UVM_INFO ../src/mst/ahb_master_driver.sv(309) @ 865000: uvm_test_top.env.master_agent.drv [ahb_master_driver] Beat[0/1] addr=0x00000108 trans=AHB_TRANS_NONSEQ resp=AHB_RESP_OKAY rdata=0x65373264
# UVM_INFO ../src/mst/ahb_master_driver.sv(353) @ 865000: uvm_test_top.env.master_agent.drv [ahb_master_driver] Transaction complete: AHB_READ 0x00000108, 1 beats, burst=AHB_BURST_SINGLE
# UVM_INFO ../src/slv/ahb_slave_driver.sv(174) @ 865000: uvm_test_top.env.slave_agent.drv [ahb_slave_driver] Beat AHB_READ addr=0x00000108 resp=AHB_RESP_OKAY waits=1 rdata=0x65373264
# UVM_INFO ../src/mst/ahb_master_monitor.sv(117) @ 865000: uvm_test_top.env.master_agent.mon [ahb_master_monitor] Beat[0] addr=0x00000108 rdata=0x65373264 resp=AHB_RESP_OKAY
# UVM_INFO ../src/mst/ahb_master_monitor.sv(222) @ 865000: uvm_test_top.env.master_agent.mon [ahb_master_monitor] Observed [AHB_READ]: HADDR=0x00000108, HBURST=AHB_BURST_SINGLE, HSIZE=AHB_SIZE_32B, 1 beats
# UVM_INFO ../src/env/ahb_coverage.sv(127) @ 865000: uvm_test_top.env.master_cov [ahb_coverage] Sampled [AHB_READ]: burst=AHB_BURST_SINGLE size=AHB_SIZE_32B beats=1 error=0
# UVM_INFO ../src/slv/ahb_slave_monitor.sv(197) @ 865000: uvm_test_top.env.slave_agent.mon [ahb_slave_monitor] Observed [AHB_READ]: HADDR=0x00000108, HBURST=AHB_BURST_SINGLE, HSIZE=AHB_SIZE_32B, 1 beats
# UVM_INFO ../src/env/ahb_scoreboard.sv(104) @ 865000: uvm_test_top.env.scb [ahb_scoreboard] MATCH #20: [AHB_READ] HADDR=0x00000108 AHB_BURST_SINGLE 1 beats
# UVM_INFO ../src/env/ahb_coverage.sv(127) @ 865000: uvm_test_top.env.slave_cov [ahb_coverage] Sampled [AHB_READ]: burst=AHB_BURST_SINGLE size=AHB_SIZE_32B beats=1 error=0
# UVM_INFO ../src/mst_seq/ahb_read_after_write_seq.sv(99) @ 865000: uvm_test_top.env.master_agent.sqr@@seq [ahb_read_after_write_seq] RAW ok @0x00000108: 0x65373264
# UVM_INFO ../src/mst/ahb_master_driver.sv(82) @ 865000: uvm_test_top.env.master_agent.drv [ahb_master_driver] Queueing [AHB_WRITE]: HADDR=0x00000294, HBURST=AHB_BURST_SINGLE, HSIZE=AHB_SIZE_32B, 1 beats
# UVM_INFO ../src/mst/ahb_master_driver.sv(124) @ 865000: uvm_test_top.env.master_agent.drv [ahb_master_driver] Driving [AHB_WRITE]: HADDR=0x00000294, HBURST=AHB_BURST_SINGLE, HSIZE=AHB_SIZE_32B, 1 beats               
# UVM_INFO ../src/mst/ahb_master_driver.sv(309) @ 895000: uvm_test_top.env.master_agent.drv [ahb_master_driver] Beat[0/1] addr=0x00000294 trans=AHB_TRANS_NONSEQ resp=AHB_RESP_OKAY wdata=0xb8609aeb
# UVM_INFO ../src/mst/ahb_master_driver.sv(353) @ 895000: uvm_test_top.env.master_agent.drv [ahb_master_driver] Transaction complete: AHB_WRITE 0x00000294, 1 beats, burst=AHB_BURST_SINGLE
# UVM_INFO ../src/slv/ahb_slave_driver.sv(174) @ 895000: uvm_test_top.env.slave_agent.drv [ahb_slave_driver] Beat AHB_WRITE addr=0x00000294 resp=AHB_RESP_OKAY waits=0 wdata=0xb8609aeb
# UVM_INFO ../src/slv/ahb_slave_monitor.sv(197) @ 895000: uvm_test_top.env.slave_agent.mon [ahb_slave_monitor] Observed [AHB_WRITE]: HADDR=0x00000294, HBURST=AHB_BURST_SINGLE, HSIZE=AHB_SIZE_32B, 1 beats
# UVM_INFO ../src/env/ahb_coverage.sv(127) @ 895000: uvm_test_top.env.slave_cov [ahb_coverage] Sampled [AHB_WRITE]: burst=AHB_BURST_SINGLE size=AHB_SIZE_32B beats=1 error=0
# UVM_INFO ../src/mst/ahb_master_monitor.sv(117) @ 895000: uvm_test_top.env.master_agent.mon [ahb_master_monitor] Beat[0] addr=0x00000294 wdata=0xb8609aeb resp=AHB_RESP_OKAY
# UVM_INFO ../src/mst/ahb_master_monitor.sv(222) @ 895000: uvm_test_top.env.master_agent.mon [ahb_master_monitor] Observed [AHB_WRITE]: HADDR=0x00000294, HBURST=AHB_BURST_SINGLE, HSIZE=AHB_SIZE_32B, 1 beats
# UVM_INFO ../src/env/ahb_coverage.sv(127) @ 895000: uvm_test_top.env.master_cov [ahb_coverage] Sampled [AHB_WRITE]: burst=AHB_BURST_SINGLE size=AHB_SIZE_32B beats=1 error=0
# UVM_INFO ../src/env/ahb_scoreboard.sv(104) @ 895000: uvm_test_top.env.scb [ahb_scoreboard] MATCH #21: [AHB_WRITE] HADDR=0x00000294 AHB_BURST_SINGLE 1 beats
# UVM_INFO ../src/mst/ahb_master_driver.sv(82) @ 895000: uvm_test_top.env.master_agent.drv [ahb_master_driver] Queueing [AHB_READ]: HADDR=0x00000294, HBURST=AHB_BURST_SINGLE, HSIZE=AHB_SIZE_32B, 1 beats
# UVM_INFO ../src/mst/ahb_master_driver.sv(124) @ 895000: uvm_test_top.env.master_agent.drv [ahb_master_driver] Driving [AHB_READ]: HADDR=0x00000294, HBURST=AHB_BURST_SINGLE, HSIZE=AHB_SIZE_32B, 1 beats               
# UVM_INFO ../src/mst/ahb_master_driver.sv(309) @ 925000: uvm_test_top.env.master_agent.drv [ahb_master_driver] Beat[0/1] addr=0x00000294 trans=AHB_TRANS_NONSEQ resp=AHB_RESP_OKAY rdata=0xb8609aeb
# UVM_INFO ../src/mst/ahb_master_driver.sv(353) @ 925000: uvm_test_top.env.master_agent.drv [ahb_master_driver] Transaction complete: AHB_READ 0x00000294, 1 beats, burst=AHB_BURST_SINGLE
# UVM_INFO ../src/slv/ahb_slave_driver.sv(174) @ 925000: uvm_test_top.env.slave_agent.drv [ahb_slave_driver] Beat AHB_READ addr=0x00000294 resp=AHB_RESP_OKAY waits=0 rdata=0xb8609aeb
# UVM_INFO ../src/mst/ahb_master_monitor.sv(117) @ 925000: uvm_test_top.env.master_agent.mon [ahb_master_monitor] Beat[0] addr=0x00000294 rdata=0xb8609aeb resp=AHB_RESP_OKAY
# UVM_INFO ../src/mst/ahb_master_monitor.sv(222) @ 925000: uvm_test_top.env.master_agent.mon [ahb_master_monitor] Observed [AHB_READ]: HADDR=0x00000294, HBURST=AHB_BURST_SINGLE, HSIZE=AHB_SIZE_32B, 1 beats
# UVM_INFO ../src/env/ahb_coverage.sv(127) @ 925000: uvm_test_top.env.master_cov [ahb_coverage] Sampled [AHB_READ]: burst=AHB_BURST_SINGLE size=AHB_SIZE_32B beats=1 error=0
# UVM_INFO ../src/slv/ahb_slave_monitor.sv(197) @ 925000: uvm_test_top.env.slave_agent.mon [ahb_slave_monitor] Observed [AHB_READ]: HADDR=0x00000294, HBURST=AHB_BURST_SINGLE, HSIZE=AHB_SIZE_32B, 1 beats
# UVM_INFO ../src/env/ahb_scoreboard.sv(104) @ 925000: uvm_test_top.env.scb [ahb_scoreboard] MATCH #22: [AHB_READ] HADDR=0x00000294 AHB_BURST_SINGLE 1 beats
# UVM_INFO ../src/env/ahb_coverage.sv(127) @ 925000: uvm_test_top.env.slave_cov [ahb_coverage] Sampled [AHB_READ]: burst=AHB_BURST_SINGLE size=AHB_SIZE_32B beats=1 error=0
# UVM_INFO ../src/mst_seq/ahb_read_after_write_seq.sv(99) @ 925000: uvm_test_top.env.master_agent.sqr@@seq [ahb_read_after_write_seq] RAW ok @0x00000294: 0xb8609aeb
# UVM_INFO ../src/mst/ahb_master_driver.sv(82) @ 925000: uvm_test_top.env.master_agent.drv [ahb_master_driver] Queueing [AHB_WRITE]: HADDR=0x000002e8, HBURST=AHB_BURST_SINGLE, HSIZE=AHB_SIZE_32B, 1 beats
# UVM_INFO ../src/mst/ahb_master_driver.sv(124) @ 925000: uvm_test_top.env.master_agent.drv [ahb_master_driver] Driving [AHB_WRITE]: HADDR=0x000002e8, HBURST=AHB_BURST_SINGLE, HSIZE=AHB_SIZE_32B, 1 beats               
# UVM_INFO ../src/mst/ahb_master_driver.sv(309) @ 955000: uvm_test_top.env.master_agent.drv [ahb_master_driver] Beat[0/1] addr=0x000002e8 trans=AHB_TRANS_NONSEQ resp=AHB_RESP_OKAY wdata=0x9d890412
# UVM_INFO ../src/mst/ahb_master_driver.sv(353) @ 955000: uvm_test_top.env.master_agent.drv [ahb_master_driver] Transaction complete: AHB_WRITE 0x000002e8, 1 beats, burst=AHB_BURST_SINGLE
# UVM_INFO ../src/slv/ahb_slave_driver.sv(174) @ 955000: uvm_test_top.env.slave_agent.drv [ahb_slave_driver] Beat AHB_WRITE addr=0x000002e8 resp=AHB_RESP_OKAY waits=0 wdata=0x9d890412
# UVM_INFO ../src/slv/ahb_slave_monitor.sv(197) @ 955000: uvm_test_top.env.slave_agent.mon [ahb_slave_monitor] Observed [AHB_WRITE]: HADDR=0x000002e8, HBURST=AHB_BURST_SINGLE, HSIZE=AHB_SIZE_32B, 1 beats
# UVM_INFO ../src/env/ahb_coverage.sv(127) @ 955000: uvm_test_top.env.slave_cov [ahb_coverage] Sampled [AHB_WRITE]: burst=AHB_BURST_SINGLE size=AHB_SIZE_32B beats=1 error=0
# UVM_INFO ../src/mst/ahb_master_monitor.sv(117) @ 955000: uvm_test_top.env.master_agent.mon [ahb_master_monitor] Beat[0] addr=0x000002e8 wdata=0x9d890412 resp=AHB_RESP_OKAY
# UVM_INFO ../src/mst/ahb_master_monitor.sv(222) @ 955000: uvm_test_top.env.master_agent.mon [ahb_master_monitor] Observed [AHB_WRITE]: HADDR=0x000002e8, HBURST=AHB_BURST_SINGLE, HSIZE=AHB_SIZE_32B, 1 beats
# UVM_INFO ../src/env/ahb_coverage.sv(127) @ 955000: uvm_test_top.env.master_cov [ahb_coverage] Sampled [AHB_WRITE]: burst=AHB_BURST_SINGLE size=AHB_SIZE_32B beats=1 error=0
# UVM_INFO ../src/env/ahb_scoreboard.sv(104) @ 955000: uvm_test_top.env.scb [ahb_scoreboard] MATCH #23: [AHB_WRITE] HADDR=0x000002e8 AHB_BURST_SINGLE 1 beats
# UVM_INFO ../src/mst/ahb_master_driver.sv(82) @ 955000: uvm_test_top.env.master_agent.drv [ahb_master_driver] Queueing [AHB_READ]: HADDR=0x000002e8, HBURST=AHB_BURST_SINGLE, HSIZE=AHB_SIZE_32B, 1 beats
# UVM_INFO ../src/mst/ahb_master_driver.sv(124) @ 955000: uvm_test_top.env.master_agent.drv [ahb_master_driver] Driving [AHB_READ]: HADDR=0x000002e8, HBURST=AHB_BURST_SINGLE, HSIZE=AHB_SIZE_32B, 1 beats               
# UVM_INFO ../src/mst/ahb_master_driver.sv(309) @ 995000: uvm_test_top.env.master_agent.drv [ahb_master_driver] Beat[0/1] addr=0x000002e8 trans=AHB_TRANS_NONSEQ resp=AHB_RESP_OKAY rdata=0x9d890412
# UVM_INFO ../src/mst/ahb_master_driver.sv(353) @ 995000: uvm_test_top.env.master_agent.drv [ahb_master_driver] Transaction complete: AHB_READ 0x000002e8, 1 beats, burst=AHB_BURST_SINGLE
# UVM_INFO ../src/slv/ahb_slave_driver.sv(174) @ 995000: uvm_test_top.env.slave_agent.drv [ahb_slave_driver] Beat AHB_READ addr=0x000002e8 resp=AHB_RESP_OKAY waits=1 rdata=0x9d890412
# UVM_INFO ../src/slv/ahb_slave_monitor.sv(197) @ 995000: uvm_test_top.env.slave_agent.mon [ahb_slave_monitor] Observed [AHB_READ]: HADDR=0x000002e8, HBURST=AHB_BURST_SINGLE, HSIZE=AHB_SIZE_32B, 1 beats
# UVM_INFO ../src/env/ahb_coverage.sv(127) @ 995000: uvm_test_top.env.slave_cov [ahb_coverage] Sampled [AHB_READ]: burst=AHB_BURST_SINGLE size=AHB_SIZE_32B beats=1 error=0
# UVM_INFO ../src/mst/ahb_master_monitor.sv(117) @ 995000: uvm_test_top.env.master_agent.mon [ahb_master_monitor] Beat[0] addr=0x000002e8 rdata=0x9d890412 resp=AHB_RESP_OKAY
# UVM_INFO ../src/mst/ahb_master_monitor.sv(222) @ 995000: uvm_test_top.env.master_agent.mon [ahb_master_monitor] Observed [AHB_READ]: HADDR=0x000002e8, HBURST=AHB_BURST_SINGLE, HSIZE=AHB_SIZE_32B, 1 beats
# UVM_INFO ../src/env/ahb_coverage.sv(127) @ 995000: uvm_test_top.env.master_cov [ahb_coverage] Sampled [AHB_READ]: burst=AHB_BURST_SINGLE size=AHB_SIZE_32B beats=1 error=0
# UVM_INFO ../src/env/ahb_scoreboard.sv(104) @ 995000: uvm_test_top.env.scb [ahb_scoreboard] MATCH #24: [AHB_READ] HADDR=0x000002e8 AHB_BURST_SINGLE 1 beats
# UVM_INFO ../src/mst_seq/ahb_read_after_write_seq.sv(99) @ 995000: uvm_test_top.env.master_agent.sqr@@seq [ahb_read_after_write_seq] RAW ok @0x000002e8: 0x9d890412
# UVM_INFO ../src/mst/ahb_master_driver.sv(82) @ 995000: uvm_test_top.env.master_agent.drv [ahb_master_driver] Queueing [AHB_WRITE]: HADDR=0x00000140, HBURST=AHB_BURST_SINGLE, HSIZE=AHB_SIZE_32B, 1 beats
# UVM_INFO ../src/mst/ahb_master_driver.sv(124) @ 995000: uvm_test_top.env.master_agent.drv [ahb_master_driver] Driving [AHB_WRITE]: HADDR=0x00000140, HBURST=AHB_BURST_SINGLE, HSIZE=AHB_SIZE_32B, 1 beats               
# UVM_INFO ../src/mst/ahb_master_driver.sv(309) @ 1045000: uvm_test_top.env.master_agent.drv [ahb_master_driver] Beat[0/1] addr=0x00000140 trans=AHB_TRANS_NONSEQ resp=AHB_RESP_OKAY wdata=0x194c7944
# UVM_INFO ../src/mst/ahb_master_driver.sv(353) @ 1045000: uvm_test_top.env.master_agent.drv [ahb_master_driver] Transaction complete: AHB_WRITE 0x00000140, 1 beats, burst=AHB_BURST_SINGLE
# UVM_INFO ../src/slv/ahb_slave_driver.sv(174) @ 1045000: uvm_test_top.env.slave_agent.drv [ahb_slave_driver] Beat AHB_WRITE addr=0x00000140 resp=AHB_RESP_OKAY waits=2 wdata=0x194c7944
# UVM_INFO ../src/mst/ahb_master_monitor.sv(117) @ 1045000: uvm_test_top.env.master_agent.mon [ahb_master_monitor] Beat[0] addr=0x00000140 wdata=0x194c7944 resp=AHB_RESP_OKAY
# UVM_INFO ../src/mst/ahb_master_monitor.sv(222) @ 1045000: uvm_test_top.env.master_agent.mon [ahb_master_monitor] Observed [AHB_WRITE]: HADDR=0x00000140, HBURST=AHB_BURST_SINGLE, HSIZE=AHB_SIZE_32B, 1 beats
# UVM_INFO ../src/env/ahb_coverage.sv(127) @ 1045000: uvm_test_top.env.master_cov [ahb_coverage] Sampled [AHB_WRITE]: burst=AHB_BURST_SINGLE size=AHB_SIZE_32B beats=1 error=0
# UVM_INFO ../src/slv/ahb_slave_monitor.sv(197) @ 1045000: uvm_test_top.env.slave_agent.mon [ahb_slave_monitor] Observed [AHB_WRITE]: HADDR=0x00000140, HBURST=AHB_BURST_SINGLE, HSIZE=AHB_SIZE_32B, 1 beats
# UVM_INFO ../src/env/ahb_scoreboard.sv(104) @ 1045000: uvm_test_top.env.scb [ahb_scoreboard] MATCH #25: [AHB_WRITE] HADDR=0x00000140 AHB_BURST_SINGLE 1 beats
# UVM_INFO ../src/env/ahb_coverage.sv(127) @ 1045000: uvm_test_top.env.slave_cov [ahb_coverage] Sampled [AHB_WRITE]: burst=AHB_BURST_SINGLE size=AHB_SIZE_32B beats=1 error=0
# UVM_INFO ../src/mst/ahb_master_driver.sv(82) @ 1045000: uvm_test_top.env.master_agent.drv [ahb_master_driver] Queueing [AHB_READ]: HADDR=0x00000140, HBURST=AHB_BURST_SINGLE, HSIZE=AHB_SIZE_32B, 1 beats
# UVM_INFO ../src/mst/ahb_master_driver.sv(124) @ 1045000: uvm_test_top.env.master_agent.drv [ahb_master_driver] Driving [AHB_READ]: HADDR=0x00000140, HBURST=AHB_BURST_SINGLE, HSIZE=AHB_SIZE_32B, 1 beats               
# UVM_INFO ../src/mst/ahb_master_driver.sv(309) @ 1075000: uvm_test_top.env.master_agent.drv [ahb_master_driver] Beat[0/1] addr=0x00000140 trans=AHB_TRANS_NONSEQ resp=AHB_RESP_OKAY rdata=0x194c7944
# UVM_INFO ../src/mst/ahb_master_driver.sv(353) @ 1075000: uvm_test_top.env.master_agent.drv [ahb_master_driver] Transaction complete: AHB_READ 0x00000140, 1 beats, burst=AHB_BURST_SINGLE
# UVM_INFO ../src/slv/ahb_slave_driver.sv(174) @ 1075000: uvm_test_top.env.slave_agent.drv [ahb_slave_driver] Beat AHB_READ addr=0x00000140 resp=AHB_RESP_OKAY waits=0 rdata=0x194c7944
# UVM_INFO ../src/slv/ahb_slave_monitor.sv(197) @ 1075000: uvm_test_top.env.slave_agent.mon [ahb_slave_monitor] Observed [AHB_READ]: HADDR=0x00000140, HBURST=AHB_BURST_SINGLE, HSIZE=AHB_SIZE_32B, 1 beats
# UVM_INFO ../src/env/ahb_coverage.sv(127) @ 1075000: uvm_test_top.env.slave_cov [ahb_coverage] Sampled [AHB_READ]: burst=AHB_BURST_SINGLE size=AHB_SIZE_32B beats=1 error=0
# UVM_INFO ../src/mst/ahb_master_monitor.sv(117) @ 1075000: uvm_test_top.env.master_agent.mon [ahb_master_monitor] Beat[0] addr=0x00000140 rdata=0x194c7944 resp=AHB_RESP_OKAY
# UVM_INFO ../src/mst/ahb_master_monitor.sv(222) @ 1075000: uvm_test_top.env.master_agent.mon [ahb_master_monitor] Observed [AHB_READ]: HADDR=0x00000140, HBURST=AHB_BURST_SINGLE, HSIZE=AHB_SIZE_32B, 1 beats
# UVM_INFO ../src/env/ahb_coverage.sv(127) @ 1075000: uvm_test_top.env.master_cov [ahb_coverage] Sampled [AHB_READ]: burst=AHB_BURST_SINGLE size=AHB_SIZE_32B beats=1 error=0
# UVM_INFO ../src/env/ahb_scoreboard.sv(104) @ 1075000: uvm_test_top.env.scb [ahb_scoreboard] MATCH #26: [AHB_READ] HADDR=0x00000140 AHB_BURST_SINGLE 1 beats
# UVM_INFO ../src/mst_seq/ahb_read_after_write_seq.sv(99) @ 1075000: uvm_test_top.env.master_agent.sqr@@seq [ahb_read_after_write_seq] RAW ok @0x00000140: 0x194c7944
# UVM_INFO ../src/mst/ahb_master_driver.sv(82) @ 1075000: uvm_test_top.env.master_agent.drv [ahb_master_driver] Queueing [AHB_WRITE]: HADDR=0x000003b4, HBURST=AHB_BURST_SINGLE, HSIZE=AHB_SIZE_32B, 1 beats
# UVM_INFO ../src/mst/ahb_master_driver.sv(124) @ 1075000: uvm_test_top.env.master_agent.drv [ahb_master_driver] Driving [AHB_WRITE]: HADDR=0x000003b4, HBURST=AHB_BURST_SINGLE, HSIZE=AHB_SIZE_32B, 1 beats               
# UVM_INFO ../src/mst/ahb_master_driver.sv(309) @ 1125000: uvm_test_top.env.master_agent.drv [ahb_master_driver] Beat[0/1] addr=0x000003b4 trans=AHB_TRANS_NONSEQ resp=AHB_RESP_OKAY wdata=0x34696c87
# UVM_INFO ../src/mst/ahb_master_driver.sv(353) @ 1125000: uvm_test_top.env.master_agent.drv [ahb_master_driver] Transaction complete: AHB_WRITE 0x000003b4, 1 beats, burst=AHB_BURST_SINGLE
# UVM_INFO ../src/slv/ahb_slave_driver.sv(174) @ 1125000: uvm_test_top.env.slave_agent.drv [ahb_slave_driver] Beat AHB_WRITE addr=0x000003b4 resp=AHB_RESP_OKAY waits=2 wdata=0x34696c87
# UVM_INFO ../src/mst/ahb_master_monitor.sv(117) @ 1125000: uvm_test_top.env.master_agent.mon [ahb_master_monitor] Beat[0] addr=0x000003b4 wdata=0x34696c87 resp=AHB_RESP_OKAY
# UVM_INFO ../src/mst/ahb_master_monitor.sv(222) @ 1125000: uvm_test_top.env.master_agent.mon [ahb_master_monitor] Observed [AHB_WRITE]: HADDR=0x000003b4, HBURST=AHB_BURST_SINGLE, HSIZE=AHB_SIZE_32B, 1 beats
# UVM_INFO ../src/env/ahb_coverage.sv(127) @ 1125000: uvm_test_top.env.master_cov [ahb_coverage] Sampled [AHB_WRITE]: burst=AHB_BURST_SINGLE size=AHB_SIZE_32B beats=1 error=0
# UVM_INFO ../src/slv/ahb_slave_monitor.sv(197) @ 1125000: uvm_test_top.env.slave_agent.mon [ahb_slave_monitor] Observed [AHB_WRITE]: HADDR=0x000003b4, HBURST=AHB_BURST_SINGLE, HSIZE=AHB_SIZE_32B, 1 beats
# UVM_INFO ../src/env/ahb_scoreboard.sv(104) @ 1125000: uvm_test_top.env.scb [ahb_scoreboard] MATCH #27: [AHB_WRITE] HADDR=0x000003b4 AHB_BURST_SINGLE 1 beats
# UVM_INFO ../src/env/ahb_coverage.sv(127) @ 1125000: uvm_test_top.env.slave_cov [ahb_coverage] Sampled [AHB_WRITE]: burst=AHB_BURST_SINGLE size=AHB_SIZE_32B beats=1 error=0
# UVM_INFO ../src/mst/ahb_master_driver.sv(82) @ 1125000: uvm_test_top.env.master_agent.drv [ahb_master_driver] Queueing [AHB_READ]: HADDR=0x000003b4, HBURST=AHB_BURST_SINGLE, HSIZE=AHB_SIZE_32B, 1 beats
# UVM_INFO ../src/mst/ahb_master_driver.sv(124) @ 1125000: uvm_test_top.env.master_agent.drv [ahb_master_driver] Driving [AHB_READ]: HADDR=0x000003b4, HBURST=AHB_BURST_SINGLE, HSIZE=AHB_SIZE_32B, 1 beats               
# UVM_INFO ../src/mst/ahb_master_driver.sv(309) @ 1165000: uvm_test_top.env.master_agent.drv [ahb_master_driver] Beat[0/1] addr=0x000003b4 trans=AHB_TRANS_NONSEQ resp=AHB_RESP_OKAY rdata=0x34696c87
# UVM_INFO ../src/mst/ahb_master_driver.sv(353) @ 1165000: uvm_test_top.env.master_agent.drv [ahb_master_driver] Transaction complete: AHB_READ 0x000003b4, 1 beats, burst=AHB_BURST_SINGLE
# UVM_INFO ../src/slv/ahb_slave_driver.sv(174) @ 1165000: uvm_test_top.env.slave_agent.drv [ahb_slave_driver] Beat AHB_READ addr=0x000003b4 resp=AHB_RESP_OKAY waits=1 rdata=0x34696c87
# UVM_INFO ../src/mst/ahb_master_monitor.sv(117) @ 1165000: uvm_test_top.env.master_agent.mon [ahb_master_monitor] Beat[0] addr=0x000003b4 rdata=0x34696c87 resp=AHB_RESP_OKAY
# UVM_INFO ../src/mst/ahb_master_monitor.sv(222) @ 1165000: uvm_test_top.env.master_agent.mon [ahb_master_monitor] Observed [AHB_READ]: HADDR=0x000003b4, HBURST=AHB_BURST_SINGLE, HSIZE=AHB_SIZE_32B, 1 beats
# UVM_INFO ../src/env/ahb_coverage.sv(127) @ 1165000: uvm_test_top.env.master_cov [ahb_coverage] Sampled [AHB_READ]: burst=AHB_BURST_SINGLE size=AHB_SIZE_32B beats=1 error=0
# UVM_INFO ../src/slv/ahb_slave_monitor.sv(197) @ 1165000: uvm_test_top.env.slave_agent.mon [ahb_slave_monitor] Observed [AHB_READ]: HADDR=0x000003b4, HBURST=AHB_BURST_SINGLE, HSIZE=AHB_SIZE_32B, 1 beats
# UVM_INFO ../src/env/ahb_scoreboard.sv(104) @ 1165000: uvm_test_top.env.scb [ahb_scoreboard] MATCH #28: [AHB_READ] HADDR=0x000003b4 AHB_BURST_SINGLE 1 beats
# UVM_INFO ../src/env/ahb_coverage.sv(127) @ 1165000: uvm_test_top.env.slave_cov [ahb_coverage] Sampled [AHB_READ]: burst=AHB_BURST_SINGLE size=AHB_SIZE_32B beats=1 error=0
# UVM_INFO ../src/mst_seq/ahb_read_after_write_seq.sv(99) @ 1165000: uvm_test_top.env.master_agent.sqr@@seq [ahb_read_after_write_seq] RAW ok @0x000003b4: 0x34696c87
# UVM_INFO ../src/mst/ahb_master_driver.sv(82) @ 1165000: uvm_test_top.env.master_agent.drv [ahb_master_driver] Queueing [AHB_WRITE]: HADDR=0x000003bc, HBURST=AHB_BURST_SINGLE, HSIZE=AHB_SIZE_32B, 1 beats
# UVM_INFO ../src/mst/ahb_master_driver.sv(124) @ 1165000: uvm_test_top.env.master_agent.drv [ahb_master_driver] Driving [AHB_WRITE]: HADDR=0x000003bc, HBURST=AHB_BURST_SINGLE, HSIZE=AHB_SIZE_32B, 1 beats               
# UVM_INFO ../src/mst/ahb_master_driver.sv(309) @ 1195000: uvm_test_top.env.master_agent.drv [ahb_master_driver] Beat[0/1] addr=0x000003bc trans=AHB_TRANS_NONSEQ resp=AHB_RESP_OKAY wdata=0xff395122
# UVM_INFO ../src/mst/ahb_master_driver.sv(353) @ 1195000: uvm_test_top.env.master_agent.drv [ahb_master_driver] Transaction complete: AHB_WRITE 0x000003bc, 1 beats, burst=AHB_BURST_SINGLE
# UVM_INFO ../src/slv/ahb_slave_driver.sv(174) @ 1195000: uvm_test_top.env.slave_agent.drv [ahb_slave_driver] Beat AHB_WRITE addr=0x000003bc resp=AHB_RESP_OKAY waits=0 wdata=0xff395122
# UVM_INFO ../src/slv/ahb_slave_monitor.sv(197) @ 1195000: uvm_test_top.env.slave_agent.mon [ahb_slave_monitor] Observed [AHB_WRITE]: HADDR=0x000003bc, HBURST=AHB_BURST_SINGLE, HSIZE=AHB_SIZE_32B, 1 beats
# UVM_INFO ../src/env/ahb_coverage.sv(127) @ 1195000: uvm_test_top.env.slave_cov [ahb_coverage] Sampled [AHB_WRITE]: burst=AHB_BURST_SINGLE size=AHB_SIZE_32B beats=1 error=0
# UVM_INFO ../src/mst/ahb_master_monitor.sv(117) @ 1195000: uvm_test_top.env.master_agent.mon [ahb_master_monitor] Beat[0] addr=0x000003bc wdata=0xff395122 resp=AHB_RESP_OKAY
# UVM_INFO ../src/mst/ahb_master_monitor.sv(222) @ 1195000: uvm_test_top.env.master_agent.mon [ahb_master_monitor] Observed [AHB_WRITE]: HADDR=0x000003bc, HBURST=AHB_BURST_SINGLE, HSIZE=AHB_SIZE_32B, 1 beats
# UVM_INFO ../src/env/ahb_coverage.sv(127) @ 1195000: uvm_test_top.env.master_cov [ahb_coverage] Sampled [AHB_WRITE]: burst=AHB_BURST_SINGLE size=AHB_SIZE_32B beats=1 error=0
# UVM_INFO ../src/env/ahb_scoreboard.sv(104) @ 1195000: uvm_test_top.env.scb [ahb_scoreboard] MATCH #29: [AHB_WRITE] HADDR=0x000003bc AHB_BURST_SINGLE 1 beats
# UVM_INFO ../src/mst/ahb_master_driver.sv(82) @ 1195000: uvm_test_top.env.master_agent.drv [ahb_master_driver] Queueing [AHB_READ]: HADDR=0x000003bc, HBURST=AHB_BURST_SINGLE, HSIZE=AHB_SIZE_32B, 1 beats
# UVM_INFO ../src/mst/ahb_master_driver.sv(124) @ 1195000: uvm_test_top.env.master_agent.drv [ahb_master_driver] Driving [AHB_READ]: HADDR=0x000003bc, HBURST=AHB_BURST_SINGLE, HSIZE=AHB_SIZE_32B, 1 beats               
# UVM_INFO ../src/mst/ahb_master_driver.sv(309) @ 1245000: uvm_test_top.env.master_agent.drv [ahb_master_driver] Beat[0/1] addr=0x000003bc trans=AHB_TRANS_NONSEQ resp=AHB_RESP_OKAY rdata=0xff395122
# UVM_INFO ../src/mst/ahb_master_driver.sv(353) @ 1245000: uvm_test_top.env.master_agent.drv [ahb_master_driver] Transaction complete: AHB_READ 0x000003bc, 1 beats, burst=AHB_BURST_SINGLE
# UVM_INFO ../src/slv/ahb_slave_driver.sv(174) @ 1245000: uvm_test_top.env.slave_agent.drv [ahb_slave_driver] Beat AHB_READ addr=0x000003bc resp=AHB_RESP_OKAY waits=2 rdata=0xff395122
# UVM_INFO ../src/mst/ahb_master_monitor.sv(117) @ 1245000: uvm_test_top.env.master_agent.mon [ahb_master_monitor] Beat[0] addr=0x000003bc rdata=0xff395122 resp=AHB_RESP_OKAY
# UVM_INFO ../src/mst/ahb_master_monitor.sv(222) @ 1245000: uvm_test_top.env.master_agent.mon [ahb_master_monitor] Observed [AHB_READ]: HADDR=0x000003bc, HBURST=AHB_BURST_SINGLE, HSIZE=AHB_SIZE_32B, 1 beats
# UVM_INFO ../src/env/ahb_coverage.sv(127) @ 1245000: uvm_test_top.env.master_cov [ahb_coverage] Sampled [AHB_READ]: burst=AHB_BURST_SINGLE size=AHB_SIZE_32B beats=1 error=0
# UVM_INFO ../src/slv/ahb_slave_monitor.sv(197) @ 1245000: uvm_test_top.env.slave_agent.mon [ahb_slave_monitor] Observed [AHB_READ]: HADDR=0x000003bc, HBURST=AHB_BURST_SINGLE, HSIZE=AHB_SIZE_32B, 1 beats
# UVM_INFO ../src/env/ahb_scoreboard.sv(104) @ 1245000: uvm_test_top.env.scb [ahb_scoreboard] MATCH #30: [AHB_READ] HADDR=0x000003bc AHB_BURST_SINGLE 1 beats
# UVM_INFO ../src/env/ahb_coverage.sv(127) @ 1245000: uvm_test_top.env.slave_cov [ahb_coverage] Sampled [AHB_READ]: burst=AHB_BURST_SINGLE size=AHB_SIZE_32B beats=1 error=0
# UVM_INFO ../src/mst_seq/ahb_read_after_write_seq.sv(99) @ 1245000: uvm_test_top.env.master_agent.sqr@@seq [ahb_read_after_write_seq] RAW ok @0x000003bc: 0xff395122
# UVM_INFO ../src/mst/ahb_master_driver.sv(82) @ 1245000: uvm_test_top.env.master_agent.drv [ahb_master_driver] Queueing [AHB_WRITE]: HADDR=0x0000000c, HBURST=AHB_BURST_SINGLE, HSIZE=AHB_SIZE_32B, 1 beats
# UVM_INFO ../src/mst/ahb_master_driver.sv(124) @ 1245000: uvm_test_top.env.master_agent.drv [ahb_master_driver] Driving [AHB_WRITE]: HADDR=0x0000000c, HBURST=AHB_BURST_SINGLE, HSIZE=AHB_SIZE_32B, 1 beats               
# UVM_INFO ../src/mst/ahb_master_driver.sv(309) @ 1295000: uvm_test_top.env.master_agent.drv [ahb_master_driver] Beat[0/1] addr=0x0000000c trans=AHB_TRANS_NONSEQ resp=AHB_RESP_OKAY wdata=0xdc5d90d4
# UVM_INFO ../src/mst/ahb_master_driver.sv(353) @ 1295000: uvm_test_top.env.master_agent.drv [ahb_master_driver] Transaction complete: AHB_WRITE 0x0000000c, 1 beats, burst=AHB_BURST_SINGLE
# UVM_INFO ../src/slv/ahb_slave_driver.sv(174) @ 1295000: uvm_test_top.env.slave_agent.drv [ahb_slave_driver] Beat AHB_WRITE addr=0x0000000c resp=AHB_RESP_OKAY waits=2 wdata=0xdc5d90d4
# UVM_INFO ../src/slv/ahb_slave_monitor.sv(197) @ 1295000: uvm_test_top.env.slave_agent.mon [ahb_slave_monitor] Observed [AHB_WRITE]: HADDR=0x0000000c, HBURST=AHB_BURST_SINGLE, HSIZE=AHB_SIZE_32B, 1 beats
# UVM_INFO ../src/env/ahb_coverage.sv(127) @ 1295000: uvm_test_top.env.slave_cov [ahb_coverage] Sampled [AHB_WRITE]: burst=AHB_BURST_SINGLE size=AHB_SIZE_32B beats=1 error=0
# UVM_INFO ../src/mst/ahb_master_monitor.sv(117) @ 1295000: uvm_test_top.env.master_agent.mon [ahb_master_monitor] Beat[0] addr=0x0000000c wdata=0xdc5d90d4 resp=AHB_RESP_OKAY
# UVM_INFO ../src/mst/ahb_master_monitor.sv(222) @ 1295000: uvm_test_top.env.master_agent.mon [ahb_master_monitor] Observed [AHB_WRITE]: HADDR=0x0000000c, HBURST=AHB_BURST_SINGLE, HSIZE=AHB_SIZE_32B, 1 beats
# UVM_INFO ../src/env/ahb_coverage.sv(127) @ 1295000: uvm_test_top.env.master_cov [ahb_coverage] Sampled [AHB_WRITE]: burst=AHB_BURST_SINGLE size=AHB_SIZE_32B beats=1 error=0
# UVM_INFO ../src/env/ahb_scoreboard.sv(104) @ 1295000: uvm_test_top.env.scb [ahb_scoreboard] MATCH #31: [AHB_WRITE] HADDR=0x0000000c AHB_BURST_SINGLE 1 beats
# UVM_INFO ../src/mst/ahb_master_driver.sv(82) @ 1295000: uvm_test_top.env.master_agent.drv [ahb_master_driver] Queueing [AHB_READ]: HADDR=0x0000000c, HBURST=AHB_BURST_SINGLE, HSIZE=AHB_SIZE_32B, 1 beats
# UVM_INFO ../src/mst/ahb_master_driver.sv(124) @ 1295000: uvm_test_top.env.master_agent.drv [ahb_master_driver] Driving [AHB_READ]: HADDR=0x0000000c, HBURST=AHB_BURST_SINGLE, HSIZE=AHB_SIZE_32B, 1 beats               
# UVM_INFO ../src/mst/ahb_master_driver.sv(309) @ 1335000: uvm_test_top.env.master_agent.drv [ahb_master_driver] Beat[0/1] addr=0x0000000c trans=AHB_TRANS_NONSEQ resp=AHB_RESP_OKAY rdata=0xdc5d90d4
# UVM_INFO ../src/mst/ahb_master_driver.sv(353) @ 1335000: uvm_test_top.env.master_agent.drv [ahb_master_driver] Transaction complete: AHB_READ 0x0000000c, 1 beats, burst=AHB_BURST_SINGLE
# UVM_INFO ../src/slv/ahb_slave_driver.sv(174) @ 1335000: uvm_test_top.env.slave_agent.drv [ahb_slave_driver] Beat AHB_READ addr=0x0000000c resp=AHB_RESP_OKAY waits=1 rdata=0xdc5d90d4
# UVM_INFO ../src/slv/ahb_slave_monitor.sv(197) @ 1335000: uvm_test_top.env.slave_agent.mon [ahb_slave_monitor] Observed [AHB_READ]: HADDR=0x0000000c, HBURST=AHB_BURST_SINGLE, HSIZE=AHB_SIZE_32B, 1 beats
# UVM_INFO ../src/env/ahb_coverage.sv(127) @ 1335000: uvm_test_top.env.slave_cov [ahb_coverage] Sampled [AHB_READ]: burst=AHB_BURST_SINGLE size=AHB_SIZE_32B beats=1 error=0
# UVM_INFO ../src/mst/ahb_master_monitor.sv(117) @ 1335000: uvm_test_top.env.master_agent.mon [ahb_master_monitor] Beat[0] addr=0x0000000c rdata=0xdc5d90d4 resp=AHB_RESP_OKAY
# UVM_INFO ../src/mst/ahb_master_monitor.sv(222) @ 1335000: uvm_test_top.env.master_agent.mon [ahb_master_monitor] Observed [AHB_READ]: HADDR=0x0000000c, HBURST=AHB_BURST_SINGLE, HSIZE=AHB_SIZE_32B, 1 beats
# UVM_INFO ../src/env/ahb_coverage.sv(127) @ 1335000: uvm_test_top.env.master_cov [ahb_coverage] Sampled [AHB_READ]: burst=AHB_BURST_SINGLE size=AHB_SIZE_32B beats=1 error=0
# UVM_INFO ../src/env/ahb_scoreboard.sv(104) @ 1335000: uvm_test_top.env.scb [ahb_scoreboard] MATCH #32: [AHB_READ] HADDR=0x0000000c AHB_BURST_SINGLE 1 beats
# UVM_INFO ../src/mst_seq/ahb_read_after_write_seq.sv(99) @ 1335000: uvm_test_top.env.master_agent.sqr@@seq [ahb_read_after_write_seq] RAW ok @0x0000000c: 0xdc5d90d4
# UVM_INFO ../src/mst/ahb_master_driver.sv(82) @ 1335000: uvm_test_top.env.master_agent.drv [ahb_master_driver] Queueing [AHB_WRITE]: HADDR=0x00000330, HBURST=AHB_BURST_SINGLE, HSIZE=AHB_SIZE_32B, 1 beats
# UVM_INFO ../src/mst/ahb_master_driver.sv(124) @ 1335000: uvm_test_top.env.master_agent.drv [ahb_master_driver] Driving [AHB_WRITE]: HADDR=0x00000330, HBURST=AHB_BURST_SINGLE, HSIZE=AHB_SIZE_32B, 1 beats               
# UVM_INFO ../src/mst/ahb_master_driver.sv(309) @ 1385000: uvm_test_top.env.master_agent.drv [ahb_master_driver] Beat[0/1] addr=0x00000330 trans=AHB_TRANS_NONSEQ resp=AHB_RESP_OKAY wdata=0x3bedc91d
# UVM_INFO ../src/mst/ahb_master_driver.sv(353) @ 1385000: uvm_test_top.env.master_agent.drv [ahb_master_driver] Transaction complete: AHB_WRITE 0x00000330, 1 beats, burst=AHB_BURST_SINGLE
# UVM_INFO ../src/slv/ahb_slave_driver.sv(174) @ 1385000: uvm_test_top.env.slave_agent.drv [ahb_slave_driver] Beat AHB_WRITE addr=0x00000330 resp=AHB_RESP_OKAY waits=2 wdata=0x3bedc91d
# UVM_INFO ../src/mst/ahb_master_monitor.sv(117) @ 1385000: uvm_test_top.env.master_agent.mon [ahb_master_monitor] Beat[0] addr=0x00000330 wdata=0x3bedc91d resp=AHB_RESP_OKAY
# UVM_INFO ../src/mst/ahb_master_monitor.sv(222) @ 1385000: uvm_test_top.env.master_agent.mon [ahb_master_monitor] Observed [AHB_WRITE]: HADDR=0x00000330, HBURST=AHB_BURST_SINGLE, HSIZE=AHB_SIZE_32B, 1 beats
# UVM_INFO ../src/env/ahb_coverage.sv(127) @ 1385000: uvm_test_top.env.master_cov [ahb_coverage] Sampled [AHB_WRITE]: burst=AHB_BURST_SINGLE size=AHB_SIZE_32B beats=1 error=0
# UVM_INFO ../src/slv/ahb_slave_monitor.sv(197) @ 1385000: uvm_test_top.env.slave_agent.mon [ahb_slave_monitor] Observed [AHB_WRITE]: HADDR=0x00000330, HBURST=AHB_BURST_SINGLE, HSIZE=AHB_SIZE_32B, 1 beats
# UVM_INFO ../src/env/ahb_scoreboard.sv(104) @ 1385000: uvm_test_top.env.scb [ahb_scoreboard] MATCH #33: [AHB_WRITE] HADDR=0x00000330 AHB_BURST_SINGLE 1 beats
# UVM_INFO ../src/env/ahb_coverage.sv(127) @ 1385000: uvm_test_top.env.slave_cov [ahb_coverage] Sampled [AHB_WRITE]: burst=AHB_BURST_SINGLE size=AHB_SIZE_32B beats=1 error=0
# UVM_INFO ../src/mst/ahb_master_driver.sv(82) @ 1385000: uvm_test_top.env.master_agent.drv [ahb_master_driver] Queueing [AHB_READ]: HADDR=0x00000330, HBURST=AHB_BURST_SINGLE, HSIZE=AHB_SIZE_32B, 1 beats
# UVM_INFO ../src/mst/ahb_master_driver.sv(124) @ 1385000: uvm_test_top.env.master_agent.drv [ahb_master_driver] Driving [AHB_READ]: HADDR=0x00000330, HBURST=AHB_BURST_SINGLE, HSIZE=AHB_SIZE_32B, 1 beats               
# UVM_INFO ../src/mst/ahb_master_driver.sv(309) @ 1425000: uvm_test_top.env.master_agent.drv [ahb_master_driver] Beat[0/1] addr=0x00000330 trans=AHB_TRANS_NONSEQ resp=AHB_RESP_OKAY rdata=0x3bedc91d
# UVM_INFO ../src/mst/ahb_master_driver.sv(353) @ 1425000: uvm_test_top.env.master_agent.drv [ahb_master_driver] Transaction complete: AHB_READ 0x00000330, 1 beats, burst=AHB_BURST_SINGLE
# UVM_INFO ../src/slv/ahb_slave_driver.sv(174) @ 1425000: uvm_test_top.env.slave_agent.drv [ahb_slave_driver] Beat AHB_READ addr=0x00000330 resp=AHB_RESP_OKAY waits=1 rdata=0x3bedc91d
# UVM_INFO ../src/mst/ahb_master_monitor.sv(117) @ 1425000: uvm_test_top.env.master_agent.mon [ahb_master_monitor] Beat[0] addr=0x00000330 rdata=0x3bedc91d resp=AHB_RESP_OKAY
# UVM_INFO ../src/mst/ahb_master_monitor.sv(222) @ 1425000: uvm_test_top.env.master_agent.mon [ahb_master_monitor] Observed [AHB_READ]: HADDR=0x00000330, HBURST=AHB_BURST_SINGLE, HSIZE=AHB_SIZE_32B, 1 beats
# UVM_INFO ../src/env/ahb_coverage.sv(127) @ 1425000: uvm_test_top.env.master_cov [ahb_coverage] Sampled [AHB_READ]: burst=AHB_BURST_SINGLE size=AHB_SIZE_32B beats=1 error=0
# UVM_INFO ../src/slv/ahb_slave_monitor.sv(197) @ 1425000: uvm_test_top.env.slave_agent.mon [ahb_slave_monitor] Observed [AHB_READ]: HADDR=0x00000330, HBURST=AHB_BURST_SINGLE, HSIZE=AHB_SIZE_32B, 1 beats
# UVM_INFO ../src/env/ahb_scoreboard.sv(104) @ 1425000: uvm_test_top.env.scb [ahb_scoreboard] MATCH #34: [AHB_READ] HADDR=0x00000330 AHB_BURST_SINGLE 1 beats
# UVM_INFO ../src/env/ahb_coverage.sv(127) @ 1425000: uvm_test_top.env.slave_cov [ahb_coverage] Sampled [AHB_READ]: burst=AHB_BURST_SINGLE size=AHB_SIZE_32B beats=1 error=0
# UVM_INFO ../src/mst_seq/ahb_read_after_write_seq.sv(99) @ 1425000: uvm_test_top.env.master_agent.sqr@@seq [ahb_read_after_write_seq] RAW ok @0x00000330: 0x3bedc91d
# UVM_INFO ../src/mst/ahb_master_driver.sv(82) @ 1425000: uvm_test_top.env.master_agent.drv [ahb_master_driver] Queueing [AHB_WRITE]: HADDR=0x00000108, HBURST=AHB_BURST_SINGLE, HSIZE=AHB_SIZE_32B, 1 beats
# UVM_INFO ../src/mst/ahb_master_driver.sv(124) @ 1425000: uvm_test_top.env.master_agent.drv [ahb_master_driver] Driving [AHB_WRITE]: HADDR=0x00000108, HBURST=AHB_BURST_SINGLE, HSIZE=AHB_SIZE_32B, 1 beats               
# UVM_INFO ../src/mst/ahb_master_driver.sv(309) @ 1465000: uvm_test_top.env.master_agent.drv [ahb_master_driver] Beat[0/1] addr=0x00000108 trans=AHB_TRANS_NONSEQ resp=AHB_RESP_OKAY wdata=0xc8767e7d
# UVM_INFO ../src/mst/ahb_master_driver.sv(353) @ 1465000: uvm_test_top.env.master_agent.drv [ahb_master_driver] Transaction complete: AHB_WRITE 0x00000108, 1 beats, burst=AHB_BURST_SINGLE
# UVM_INFO ../src/slv/ahb_slave_driver.sv(174) @ 1465000: uvm_test_top.env.slave_agent.drv [ahb_slave_driver] Beat AHB_WRITE addr=0x00000108 resp=AHB_RESP_OKAY waits=1 wdata=0xc8767e7d
# UVM_INFO ../src/mst/ahb_master_monitor.sv(117) @ 1465000: uvm_test_top.env.master_agent.mon [ahb_master_monitor] Beat[0] addr=0x00000108 wdata=0xc8767e7d resp=AHB_RESP_OKAY
# UVM_INFO ../src/mst/ahb_master_monitor.sv(222) @ 1465000: uvm_test_top.env.master_agent.mon [ahb_master_monitor] Observed [AHB_WRITE]: HADDR=0x00000108, HBURST=AHB_BURST_SINGLE, HSIZE=AHB_SIZE_32B, 1 beats
# UVM_INFO ../src/env/ahb_coverage.sv(127) @ 1465000: uvm_test_top.env.master_cov [ahb_coverage] Sampled [AHB_WRITE]: burst=AHB_BURST_SINGLE size=AHB_SIZE_32B beats=1 error=0
# UVM_INFO ../src/slv/ahb_slave_monitor.sv(197) @ 1465000: uvm_test_top.env.slave_agent.mon [ahb_slave_monitor] Observed [AHB_WRITE]: HADDR=0x00000108, HBURST=AHB_BURST_SINGLE, HSIZE=AHB_SIZE_32B, 1 beats
# UVM_INFO ../src/env/ahb_scoreboard.sv(104) @ 1465000: uvm_test_top.env.scb [ahb_scoreboard] MATCH #35: [AHB_WRITE] HADDR=0x00000108 AHB_BURST_SINGLE 1 beats
# UVM_INFO ../src/env/ahb_coverage.sv(127) @ 1465000: uvm_test_top.env.slave_cov [ahb_coverage] Sampled [AHB_WRITE]: burst=AHB_BURST_SINGLE size=AHB_SIZE_32B beats=1 error=0
# UVM_INFO ../src/mst/ahb_master_driver.sv(82) @ 1465000: uvm_test_top.env.master_agent.drv [ahb_master_driver] Queueing [AHB_READ]: HADDR=0x00000108, HBURST=AHB_BURST_SINGLE, HSIZE=AHB_SIZE_32B, 1 beats
# UVM_INFO ../src/mst/ahb_master_driver.sv(124) @ 1465000: uvm_test_top.env.master_agent.drv [ahb_master_driver] Driving [AHB_READ]: HADDR=0x00000108, HBURST=AHB_BURST_SINGLE, HSIZE=AHB_SIZE_32B, 1 beats               
# UVM_INFO ../src/mst/ahb_master_driver.sv(309) @ 1505000: uvm_test_top.env.master_agent.drv [ahb_master_driver] Beat[0/1] addr=0x00000108 trans=AHB_TRANS_NONSEQ resp=AHB_RESP_OKAY rdata=0xc8767e7d
# UVM_INFO ../src/mst/ahb_master_driver.sv(353) @ 1505000: uvm_test_top.env.master_agent.drv [ahb_master_driver] Transaction complete: AHB_READ 0x00000108, 1 beats, burst=AHB_BURST_SINGLE
# UVM_INFO ../src/slv/ahb_slave_driver.sv(174) @ 1505000: uvm_test_top.env.slave_agent.drv [ahb_slave_driver] Beat AHB_READ addr=0x00000108 resp=AHB_RESP_OKAY waits=1 rdata=0xc8767e7d
# UVM_INFO ../src/mst/ahb_master_monitor.sv(117) @ 1505000: uvm_test_top.env.master_agent.mon [ahb_master_monitor] Beat[0] addr=0x00000108 rdata=0xc8767e7d resp=AHB_RESP_OKAY
# UVM_INFO ../src/mst/ahb_master_monitor.sv(222) @ 1505000: uvm_test_top.env.master_agent.mon [ahb_master_monitor] Observed [AHB_READ]: HADDR=0x00000108, HBURST=AHB_BURST_SINGLE, HSIZE=AHB_SIZE_32B, 1 beats
# UVM_INFO ../src/env/ahb_coverage.sv(127) @ 1505000: uvm_test_top.env.master_cov [ahb_coverage] Sampled [AHB_READ]: burst=AHB_BURST_SINGLE size=AHB_SIZE_32B beats=1 error=0
# UVM_INFO ../src/slv/ahb_slave_monitor.sv(197) @ 1505000: uvm_test_top.env.slave_agent.mon [ahb_slave_monitor] Observed [AHB_READ]: HADDR=0x00000108, HBURST=AHB_BURST_SINGLE, HSIZE=AHB_SIZE_32B, 1 beats
# UVM_INFO ../src/env/ahb_scoreboard.sv(104) @ 1505000: uvm_test_top.env.scb [ahb_scoreboard] MATCH #36: [AHB_READ] HADDR=0x00000108 AHB_BURST_SINGLE 1 beats
# UVM_INFO ../src/env/ahb_coverage.sv(127) @ 1505000: uvm_test_top.env.slave_cov [ahb_coverage] Sampled [AHB_READ]: burst=AHB_BURST_SINGLE size=AHB_SIZE_32B beats=1 error=0
# UVM_INFO ../src/mst_seq/ahb_read_after_write_seq.sv(99) @ 1505000: uvm_test_top.env.master_agent.sqr@@seq [ahb_read_after_write_seq] RAW ok @0x00000108: 0xc8767e7d
# UVM_INFO ../src/mst/ahb_master_driver.sv(82) @ 1505000: uvm_test_top.env.master_agent.drv [ahb_master_driver] Queueing [AHB_WRITE]: HADDR=0x00000284, HBURST=AHB_BURST_SINGLE, HSIZE=AHB_SIZE_32B, 1 beats
# UVM_INFO ../src/mst/ahb_master_driver.sv(124) @ 1505000: uvm_test_top.env.master_agent.drv [ahb_master_driver] Driving [AHB_WRITE]: HADDR=0x00000284, HBURST=AHB_BURST_SINGLE, HSIZE=AHB_SIZE_32B, 1 beats               
# UVM_INFO ../src/mst/ahb_master_driver.sv(309) @ 1545000: uvm_test_top.env.master_agent.drv [ahb_master_driver] Beat[0/1] addr=0x00000284 trans=AHB_TRANS_NONSEQ resp=AHB_RESP_OKAY wdata=0xa212a4f3
# UVM_INFO ../src/mst/ahb_master_driver.sv(353) @ 1545000: uvm_test_top.env.master_agent.drv [ahb_master_driver] Transaction complete: AHB_WRITE 0x00000284, 1 beats, burst=AHB_BURST_SINGLE
# UVM_INFO ../src/slv/ahb_slave_driver.sv(174) @ 1545000: uvm_test_top.env.slave_agent.drv [ahb_slave_driver] Beat AHB_WRITE addr=0x00000284 resp=AHB_RESP_OKAY waits=1 wdata=0xa212a4f3
# UVM_INFO ../src/mst/ahb_master_monitor.sv(117) @ 1545000: uvm_test_top.env.master_agent.mon [ahb_master_monitor] Beat[0] addr=0x00000284 wdata=0xa212a4f3 resp=AHB_RESP_OKAY
# UVM_INFO ../src/mst/ahb_master_monitor.sv(222) @ 1545000: uvm_test_top.env.master_agent.mon [ahb_master_monitor] Observed [AHB_WRITE]: HADDR=0x00000284, HBURST=AHB_BURST_SINGLE, HSIZE=AHB_SIZE_32B, 1 beats
# UVM_INFO ../src/env/ahb_coverage.sv(127) @ 1545000: uvm_test_top.env.master_cov [ahb_coverage] Sampled [AHB_WRITE]: burst=AHB_BURST_SINGLE size=AHB_SIZE_32B beats=1 error=0
# UVM_INFO ../src/slv/ahb_slave_monitor.sv(197) @ 1545000: uvm_test_top.env.slave_agent.mon [ahb_slave_monitor] Observed [AHB_WRITE]: HADDR=0x00000284, HBURST=AHB_BURST_SINGLE, HSIZE=AHB_SIZE_32B, 1 beats
# UVM_INFO ../src/env/ahb_scoreboard.sv(104) @ 1545000: uvm_test_top.env.scb [ahb_scoreboard] MATCH #37: [AHB_WRITE] HADDR=0x00000284 AHB_BURST_SINGLE 1 beats
# UVM_INFO ../src/env/ahb_coverage.sv(127) @ 1545000: uvm_test_top.env.slave_cov [ahb_coverage] Sampled [AHB_WRITE]: burst=AHB_BURST_SINGLE size=AHB_SIZE_32B beats=1 error=0
# UVM_INFO ../src/mst/ahb_master_driver.sv(82) @ 1545000: uvm_test_top.env.master_agent.drv [ahb_master_driver] Queueing [AHB_READ]: HADDR=0x00000284, HBURST=AHB_BURST_SINGLE, HSIZE=AHB_SIZE_32B, 1 beats
# UVM_INFO ../src/mst/ahb_master_driver.sv(124) @ 1545000: uvm_test_top.env.master_agent.drv [ahb_master_driver] Driving [AHB_READ]: HADDR=0x00000284, HBURST=AHB_BURST_SINGLE, HSIZE=AHB_SIZE_32B, 1 beats               
# UVM_INFO ../src/mst/ahb_master_driver.sv(309) @ 1575000: uvm_test_top.env.master_agent.drv [ahb_master_driver] Beat[0/1] addr=0x00000284 trans=AHB_TRANS_NONSEQ resp=AHB_RESP_OKAY rdata=0xa212a4f3
# UVM_INFO ../src/mst/ahb_master_driver.sv(353) @ 1575000: uvm_test_top.env.master_agent.drv [ahb_master_driver] Transaction complete: AHB_READ 0x00000284, 1 beats, burst=AHB_BURST_SINGLE
# UVM_INFO ../src/slv/ahb_slave_driver.sv(174) @ 1575000: uvm_test_top.env.slave_agent.drv [ahb_slave_driver] Beat AHB_READ addr=0x00000284 resp=AHB_RESP_OKAY waits=0 rdata=0xa212a4f3
# UVM_INFO ../src/slv/ahb_slave_monitor.sv(197) @ 1575000: uvm_test_top.env.slave_agent.mon [ahb_slave_monitor] Observed [AHB_READ]: HADDR=0x00000284, HBURST=AHB_BURST_SINGLE, HSIZE=AHB_SIZE_32B, 1 beats
# UVM_INFO ../src/env/ahb_coverage.sv(127) @ 1575000: uvm_test_top.env.slave_cov [ahb_coverage] Sampled [AHB_READ]: burst=AHB_BURST_SINGLE size=AHB_SIZE_32B beats=1 error=0
# UVM_INFO ../src/mst/ahb_master_monitor.sv(117) @ 1575000: uvm_test_top.env.master_agent.mon [ahb_master_monitor] Beat[0] addr=0x00000284 rdata=0xa212a4f3 resp=AHB_RESP_OKAY
# UVM_INFO ../src/mst/ahb_master_monitor.sv(222) @ 1575000: uvm_test_top.env.master_agent.mon [ahb_master_monitor] Observed [AHB_READ]: HADDR=0x00000284, HBURST=AHB_BURST_SINGLE, HSIZE=AHB_SIZE_32B, 1 beats
# UVM_INFO ../src/env/ahb_coverage.sv(127) @ 1575000: uvm_test_top.env.master_cov [ahb_coverage] Sampled [AHB_READ]: burst=AHB_BURST_SINGLE size=AHB_SIZE_32B beats=1 error=0
# UVM_INFO ../src/env/ahb_scoreboard.sv(104) @ 1575000: uvm_test_top.env.scb [ahb_scoreboard] MATCH #38: [AHB_READ] HADDR=0x00000284 AHB_BURST_SINGLE 1 beats
# UVM_INFO ../src/mst_seq/ahb_read_after_write_seq.sv(99) @ 1575000: uvm_test_top.env.master_agent.sqr@@seq [ahb_read_after_write_seq] RAW ok @0x00000284: 0xa212a4f3
# UVM_INFO ../src/mst/ahb_master_driver.sv(82) @ 1575000: uvm_test_top.env.master_agent.drv [ahb_master_driver] Queueing [AHB_WRITE]: HADDR=0x00000294, HBURST=AHB_BURST_SINGLE, HSIZE=AHB_SIZE_32B, 1 beats
# UVM_INFO ../src/mst/ahb_master_driver.sv(124) @ 1575000: uvm_test_top.env.master_agent.drv [ahb_master_driver] Driving [AHB_WRITE]: HADDR=0x00000294, HBURST=AHB_BURST_SINGLE, HSIZE=AHB_SIZE_32B, 1 beats               
# UVM_INFO ../src/mst/ahb_master_driver.sv(309) @ 1615000: uvm_test_top.env.master_agent.drv [ahb_master_driver] Beat[0/1] addr=0x00000294 trans=AHB_TRANS_NONSEQ resp=AHB_RESP_OKAY wdata=0xc1214080
# UVM_INFO ../src/mst/ahb_master_driver.sv(353) @ 1615000: uvm_test_top.env.master_agent.drv [ahb_master_driver] Transaction complete: AHB_WRITE 0x00000294, 1 beats, burst=AHB_BURST_SINGLE
# UVM_INFO ../src/slv/ahb_slave_driver.sv(174) @ 1615000: uvm_test_top.env.slave_agent.drv [ahb_slave_driver] Beat AHB_WRITE addr=0x00000294 resp=AHB_RESP_OKAY waits=1 wdata=0xc1214080
# UVM_INFO ../src/slv/ahb_slave_monitor.sv(197) @ 1615000: uvm_test_top.env.slave_agent.mon [ahb_slave_monitor] Observed [AHB_WRITE]: HADDR=0x00000294, HBURST=AHB_BURST_SINGLE, HSIZE=AHB_SIZE_32B, 1 beats
# UVM_INFO ../src/env/ahb_coverage.sv(127) @ 1615000: uvm_test_top.env.slave_cov [ahb_coverage] Sampled [AHB_WRITE]: burst=AHB_BURST_SINGLE size=AHB_SIZE_32B beats=1 error=0
# UVM_INFO ../src/mst/ahb_master_monitor.sv(117) @ 1615000: uvm_test_top.env.master_agent.mon [ahb_master_monitor] Beat[0] addr=0x00000294 wdata=0xc1214080 resp=AHB_RESP_OKAY
# UVM_INFO ../src/mst/ahb_master_monitor.sv(222) @ 1615000: uvm_test_top.env.master_agent.mon [ahb_master_monitor] Observed [AHB_WRITE]: HADDR=0x00000294, HBURST=AHB_BURST_SINGLE, HSIZE=AHB_SIZE_32B, 1 beats
# UVM_INFO ../src/env/ahb_coverage.sv(127) @ 1615000: uvm_test_top.env.master_cov [ahb_coverage] Sampled [AHB_WRITE]: burst=AHB_BURST_SINGLE size=AHB_SIZE_32B beats=1 error=0
# UVM_INFO ../src/env/ahb_scoreboard.sv(104) @ 1615000: uvm_test_top.env.scb [ahb_scoreboard] MATCH #39: [AHB_WRITE] HADDR=0x00000294 AHB_BURST_SINGLE 1 beats
# UVM_INFO ../src/mst/ahb_master_driver.sv(82) @ 1615000: uvm_test_top.env.master_agent.drv [ahb_master_driver] Queueing [AHB_READ]: HADDR=0x00000294, HBURST=AHB_BURST_SINGLE, HSIZE=AHB_SIZE_32B, 1 beats
# UVM_INFO ../src/mst/ahb_master_driver.sv(124) @ 1615000: uvm_test_top.env.master_agent.drv [ahb_master_driver] Driving [AHB_READ]: HADDR=0x00000294, HBURST=AHB_BURST_SINGLE, HSIZE=AHB_SIZE_32B, 1 beats               
# UVM_INFO ../src/mst/ahb_master_driver.sv(309) @ 1645000: uvm_test_top.env.master_agent.drv [ahb_master_driver] Beat[0/1] addr=0x00000294 trans=AHB_TRANS_NONSEQ resp=AHB_RESP_OKAY rdata=0xc1214080
# UVM_INFO ../src/mst/ahb_master_driver.sv(353) @ 1645000: uvm_test_top.env.master_agent.drv [ahb_master_driver] Transaction complete: AHB_READ 0x00000294, 1 beats, burst=AHB_BURST_SINGLE
# UVM_INFO ../src/slv/ahb_slave_driver.sv(174) @ 1645000: uvm_test_top.env.slave_agent.drv [ahb_slave_driver] Beat AHB_READ addr=0x00000294 resp=AHB_RESP_OKAY waits=0 rdata=0xc1214080
# UVM_INFO ../src/mst/ahb_master_monitor.sv(117) @ 1645000: uvm_test_top.env.master_agent.mon [ahb_master_monitor] Beat[0] addr=0x00000294 rdata=0xc1214080 resp=AHB_RESP_OKAY
# UVM_INFO ../src/mst/ahb_master_monitor.sv(222) @ 1645000: uvm_test_top.env.master_agent.mon [ahb_master_monitor] Observed [AHB_READ]: HADDR=0x00000294, HBURST=AHB_BURST_SINGLE, HSIZE=AHB_SIZE_32B, 1 beats
# UVM_INFO ../src/env/ahb_coverage.sv(127) @ 1645000: uvm_test_top.env.master_cov [ahb_coverage] Sampled [AHB_READ]: burst=AHB_BURST_SINGLE size=AHB_SIZE_32B beats=1 error=0
# UVM_INFO ../src/slv/ahb_slave_monitor.sv(197) @ 1645000: uvm_test_top.env.slave_agent.mon [ahb_slave_monitor] Observed [AHB_READ]: HADDR=0x00000294, HBURST=AHB_BURST_SINGLE, HSIZE=AHB_SIZE_32B, 1 beats
# UVM_INFO ../src/env/ahb_scoreboard.sv(104) @ 1645000: uvm_test_top.env.scb [ahb_scoreboard] MATCH #40: [AHB_READ] HADDR=0x00000294 AHB_BURST_SINGLE 1 beats
# UVM_INFO ../src/env/ahb_coverage.sv(127) @ 1645000: uvm_test_top.env.slave_cov [ahb_coverage] Sampled [AHB_READ]: burst=AHB_BURST_SINGLE size=AHB_SIZE_32B beats=1 error=0
# UVM_INFO ../src/mst_seq/ahb_read_after_write_seq.sv(99) @ 1645000: uvm_test_top.env.master_agent.sqr@@seq [ahb_read_after_write_seq] RAW ok @0x00000294: 0xc1214080
# UVM_INFO ../src/mst_seq/ahb_read_after_write_seq.sv(106) @ 1645000: uvm_test_top.env.master_agent.sqr@@seq [ahb_read_after_write_seq] Read-after-write done: checked=20 mismatch=0
# UVM_INFO verilog_src/uvm-1.1d/src/base/uvm_objection.svh(1268) @ 1645200: reporter [TEST_DONE] 'run' phase is ready to proceed to the 'extract' phase
# UVM_INFO ../src/env/ahb_coverage.sv(137) @ 1645200: uvm_test_top.env.master_cov [ahb_coverage] [master_cov] functional coverage = 41.79%
# UVM_INFO ../src/env/ahb_scoreboard.sv(209) @ 1645200: uvm_test_top.env.scb [ahb_scoreboard] Passthrough : compared=40 matched=40 mismatched=0
# UVM_INFO ../src/env/ahb_scoreboard.sv(213) @ 1645200: uvm_test_top.env.scb [ahb_scoreboard] Ref-memory  : wr_bytes=80 rd_checked=80 rd_uninit=0 rd_mismatch=0
# UVM_INFO ../src/env/ahb_coverage.sv(137) @ 1645200: uvm_test_top.env.slave_cov [ahb_coverage] [slave_cov] functional coverage = 41.79%
# UVM_INFO ../src/test/ahb_base_test.sv(74) @ 1645200: uvm_test_top [ahb_read_after_write_test] 
# === TEST PASSED ===
# 
# 
# --- UVM Report Summary ---
# 
# ** Report counts by severity
# UVM_INFO :  488
# UVM_WARNING :    0
# UVM_ERROR :    0
# UVM_FATAL :    0
# ** Report counts by id
# [Questa UVM]     3
# [RNTST]     1
# [TB_TOP]     3
# [TEST_DONE]     1
# [UVMTOP]     1
# [ahb_coverage]    82
# [ahb_master_agent]     1
# [ahb_master_driver]   162
# [ahb_master_monitor]    81
# [ahb_read_after_write_seq]    22
# [ahb_read_after_write_test]     1
# [ahb_scoreboard]    42
# [ahb_slave_agent]     1
# [ahb_slave_driver]    41
# [ahb_slave_monitor]    41
# [ahb_vip_env]     5
# ** Note: $finish    : /cadtools/mentor/Questa_10.6b/questasim/linux_x86_64/../verilog_src/uvm-1.1d/src/base/uvm_root.svh(430)
#    Time: 1645200 ps  Iteration: 53  Instance: /tb_top
# Saving coverage database on exit...
# End time: 08:41:45 on Aug 03,2026, Elapsed time: 0:00:02
# Errors: 0, Warnings: 0
