# vsim -c -coverage -sv_seed 11896538 "+UVM_TESTNAME=ahb_sanity_test" "+UVM_VERBOSITY=UVM_HIGH" "+DUMP_VCD" -l ./report/logs/ahb_sanity_test_run_2_seed_11896538.log -do "coverage save -onexit ./report/coverage/ahb_sanity_test_run_2_seed_11896538.ucdb; run -all; quit -f" opt_tb_top 
# Start time: 08:59:57 on Aug 06,2026
# //  Questa Sim-64
# //  Version 10.6b linux_x86_64 May 25 2017
# //
# //  Copyright 1991-2017 Mentor Graphics Corporation
# //  All Rights Reserved.
# //
# //  QuestaSim and its associated documentation contain trade
# //  secrets and commercial or financial information that are the property of
# //  Mentor Graphics Corporation and are privileged, confidential,
# //  and exempt from disclosure under the Freedom of Information Act,
# //  5 U.S.C. Section 552. Furthermore, this information
# //  is prohibited from disclosure under the Trade Secrets Act,
# //  18 U.S.C. Section 1905.
# //
# Loading sv_std.std
# Loading work.ahb_if(fast)
# Loading mtiUvm.uvm_pkg
# Loading work.ahb_pkg(fast)
# Loading work.ahb_seq_pkg(fast)
# Loading work.ahb_test_pkg(fast)
# Loading work.tb_top(fast)
# Loading work.ahb_if(fast)
# Loading work.ahb_sva(fast)
# Loading mtiUvm.questa_uvm_pkg(fast)
# Loading /cadtools/mentor/Questa_10.6b/questasim/uvm-1.1d/linux_x86_64/uvm_dpi.so
# coverage save -onexit ./report/coverage/ahb_sanity_test_run_2_seed_11896538.ucdb
#  run -all
# ----------------------------------------------------------------
# UVM-1.1d
# (C) 2007-2013 Mentor Graphics Corporation
# (C) 2007-2013 Cadence Design Systems, Inc.
# (C) 2006-2013 Synopsys, Inc.
# (C) 2011-2013 Cypress Semiconductor Corp.
# ----------------------------------------------------------------
# 
#   ***********       IMPORTANT RELEASE NOTES         ************
# 
#   You are using a version of the UVM library that has been compiled
#   with `UVM_NO_DEPRECATED undefined.
#   See http://www.eda.org/svdb/view.php?id=3313 for more details.
# 
#   You are using a version of the UVM library that has been compiled
#   with `UVM_OBJECT_MUST_HAVE_CONSTRUCTOR undefined.
#   See http://www.eda.org/svdb/view.php?id=3770 for more details.
# 
#       (Specify +UVM_NO_RELNOTES to turn off this notice)
# 
# UVM_INFO verilog_src/questa_uvm_pkg-1.2/src/questa_uvm_pkg.sv(215) @ 0: reporter [Questa UVM] QUESTA_UVM-1.2.3
# UVM_INFO verilog_src/questa_uvm_pkg-1.2/src/questa_uvm_pkg.sv(217) @ 0: reporter [Questa UVM]  questa_uvm::init(+struct)
# UVM_INFO ../src/tb_top.sv(126) @ 0: reporter [TB_TOP] Virtual interface set in config_db
# UVM_INFO @ 0: reporter [RNTST] Running test ahb_sanity_test...
# UVM_INFO ../src/tb_top.sv(140) @ 0: reporter [TB_TOP] Waveform VCD dumping enabled (ahb_lite_vip.vcd)
# UVM_INFO ../src/env/ahb_vip_env.sv(64) @ 0: uvm_test_top.env [ahb_vip_env] slave_vif not set - reusing master_vif (passthrough mode)
# UVM_INFO ../src/env/ahb_vip_env.sv(72) @ 0: uvm_test_top.env [ahb_vip_env] Scoreboard created
# UVM_INFO ../src/env/ahb_vip_env.sv(78) @ 0: uvm_test_top.env [ahb_vip_env] Coverage collectors created
# UVM_INFO ../src/mst/ahb_master_agent.sv(61) @ 0: uvm_test_top.env.master_agent [ahb_master_agent] ACTIVE mode - driver + sequencer created
# UVM_INFO ../src/slv/ahb_slave_agent.sv(64) @ 0: uvm_test_top.env.slave_agent [ahb_slave_agent] ACTIVE mode - driver + sequencer created (    auto responses)
# UVM_INFO ../src/env/ahb_vip_env.sv(92) @ 0: uvm_test_top.env [ahb_vip_env] Scoreboard connected: master_mon.ap -> scb, slave_mon.ap -> scb
# UVM_INFO ../src/env/ahb_vip_env.sv(102) @ 0: uvm_test_top.env [ahb_vip_env] Coverage connected: master_mon.ap/trans_ap -> master_cov, slave_mon.ap/trans_ap -> slave_cov
# UVM_INFO @ 0: reporter [UVMTOP] UVM testbench topology:
# ---------------------------------------------------------------
# Name                       Type                     Size  Value
# ---------------------------------------------------------------
# uvm_test_top               ahb_sanity_test          -     @475 
#   env                      ahb_vip_env              -     @490 
#     master_agent           ahb_master_agent         -     @505 
#       drv                  ahb_master_driver        -     @570 
#         rsp_port           uvm_analysis_port        -     @585 
#         seq_item_port      uvm_seq_item_pull_port   -     @577 
#       mon                  ahb_master_monitor       -     @563 
#         ap                 uvm_analysis_port        -     @704 
#         trans_ap           uvm_analysis_port        -     @712 
#       sqr                  ahb_master_sequencer     -     @593 
#         rsp_export         uvm_analysis_export      -     @600 
#         seq_item_export    uvm_seq_item_pull_imp    -     @694 
#         arbitration_queue  array                    0     -    
#         lock_queue         array                    0     -    
#         num_last_reqs      integral                 32    'd1  
#         num_last_rsps      integral                 32    'd1  
#     master_cov             ahb_coverage             -     @526 
#       analysis_imp         uvm_analysis_imp         -     @533 
#       trans_export         uvm_analysis_imp_trans   -     @726 
#     scb                    ahb_scoreboard           -     @519 
#       master_export        uvm_analysis_imp_master  -     @734 
#       slave_export         uvm_analysis_imp_slave   -     @742 
#     slave_agent            ahb_slave_agent          -     @512 
#       drv                  ahb_slave_driver         -     @764 
#         rsp_port           uvm_analysis_port        -     @779 
#         seq_item_port      uvm_seq_item_pull_port   -     @771 
#       mon                  ahb_slave_monitor        -     @757 
#         ap                 uvm_analysis_port        -     @898 
#         trans_ap           uvm_analysis_port        -     @906 
#       sqr                  ahb_slave_sequencer      -     @787 
#         rsp_export         uvm_analysis_export      -     @794 
#         seq_item_export    uvm_seq_item_pull_imp    -     @888 
#         arbitration_queue  array                    0     -    
#         lock_queue         array                    0     -    
#         num_last_reqs      integral                 32    'd1  
#         num_last_rsps      integral                 32    'd1  
#     slave_cov              ahb_coverage             -     @541 
#       analysis_imp         uvm_analysis_imp         -     @548 
#       trans_export         uvm_analysis_imp_trans   -     @920 
# ---------------------------------------------------------------
# 
# UVM_INFO verilog_src/questa_uvm_pkg-1.2/src/questa_uvm_pkg.sv(277) @ 0: reporter [Questa UVM] End Of Elaboration
# UVM_INFO ../src/mst_seq/ahb_sanity_seq.sv(52) @ 0: uvm_test_top.env.master_agent.sqr@@seq [ahb_sanity_seq] Starting sanity: 4 slots over [0x00001000 : 0x000010ff]
# UVM_INFO ../src/mst/ahb_master_driver.sv(183) @ 5000: uvm_test_top.env.master_agent.drv [ahb_master_driver] Flushed pending transactions (reset)
# UVM_INFO ../src/tb_top.sv(48) @ 95000: reporter [TB_TOP] Reset de-asserted
# UVM_INFO ../src/slv/ahb_slave_driver.sv(63) @ 95000: uvm_test_top.env.slave_agent.drv [ahb_slave_driver] Reset deasserted - slave driver active (    auto mode)
# UVM_INFO ../src/mst/ahb_master_driver.sv(72) @ 95000: uvm_test_top.env.master_agent.drv [ahb_master_driver] Reset deasserted - master driver active
# UVM_INFO ../src/mst/ahb_master_monitor.sv(81) @ 95000: uvm_test_top.env.master_agent.mon [ahb_master_monitor] Reset deasserted - master monitor active
# UVM_INFO ../src/slv/ahb_slave_monitor.sv(75) @ 95000: uvm_test_top.env.slave_agent.mon [ahb_slave_monitor] Reset deasserted - slave monitor active
# UVM_INFO ../src/mst/ahb_master_driver.sv(85) @ 95000: uvm_test_top.env.master_agent.drv [ahb_master_driver] Queueing [AHB_WRITE]: HADDR=0x00001000, HBURST=AHB_BURST_SINGLE, HSIZE=AHB_SIZE_32B, 1 beats
# UVM_INFO ../src/mst/ahb_master_driver.sv(127) @ 95000: uvm_test_top.env.master_agent.drv [ahb_master_driver] Driving [AHB_WRITE]: HADDR=0x00001000, HBURST=AHB_BURST_SINGLE, HSIZE=AHB_SIZE_32B, 1 beats               
# UVM_INFO ../src/mst/ahb_master_driver.sv(332) @ 115000: uvm_test_top.env.master_agent.drv [ahb_master_driver] Beat[0/1] addr=0x00001000 trans=AHB_TRANS_NONSEQ resp=AHB_RESP_OKAY wdata=0xa5a50000
# UVM_INFO ../src/mst/ahb_master_driver.sv(376) @ 115000: uvm_test_top.env.master_agent.drv [ahb_master_driver] Transaction complete: AHB_WRITE 0x00001000, 1 beats, burst=AHB_BURST_SINGLE
# UVM_INFO ../src/slv/ahb_slave_driver.sv(184) @ 115000: uvm_test_top.env.slave_agent.drv [ahb_slave_driver] Beat AHB_WRITE addr=0x00001000 resp=AHB_RESP_OKAY waits=0 wdata=0xa5a50000
# UVM_INFO ../src/slv/ahb_slave_monitor.sv(208) @ 115000: uvm_test_top.env.slave_agent.mon [ahb_slave_monitor] Observed [AHB_WRITE]: HADDR=0x00001000, HBURST=AHB_BURST_SINGLE, HSIZE=AHB_SIZE_32B, 1 beats
# UVM_INFO ../src/env/ahb_coverage.sv(174) @ 115000: uvm_test_top.env.slave_cov [ahb_coverage] Sampled [AHB_WRITE]: burst=AHB_BURST_SINGLE size=AHB_SIZE_32B beats=1 error=0
# UVM_INFO ../src/mst/ahb_master_monitor.sv(128) @ 115000: uvm_test_top.env.master_agent.mon [ahb_master_monitor] Beat[0] addr=0x00001000 wdata=0xa5a50000 resp=AHB_RESP_OKAY
# UVM_INFO ../src/mst/ahb_master_monitor.sv(231) @ 115000: uvm_test_top.env.master_agent.mon [ahb_master_monitor] Observed [AHB_WRITE]: HADDR=0x00001000, HBURST=AHB_BURST_SINGLE, HSIZE=AHB_SIZE_32B, 1 beats
# UVM_INFO ../src/env/ahb_coverage.sv(174) @ 115000: uvm_test_top.env.master_cov [ahb_coverage] Sampled [AHB_WRITE]: burst=AHB_BURST_SINGLE size=AHB_SIZE_32B beats=1 error=0
# UVM_INFO ../src/env/ahb_scoreboard.sv(104) @ 115000: uvm_test_top.env.scb [ahb_scoreboard] MATCH #1: [AHB_WRITE] HADDR=0x00001000 AHB_BURST_SINGLE 1 beats
# UVM_INFO ../src/mst/ahb_master_driver.sv(85) @ 115000: uvm_test_top.env.master_agent.drv [ahb_master_driver] Queueing [AHB_READ]: HADDR=0x00001000, HBURST=AHB_BURST_SINGLE, HSIZE=AHB_SIZE_32B, 1 beats
# UVM_INFO ../src/mst/ahb_master_driver.sv(127) @ 115000: uvm_test_top.env.master_agent.drv [ahb_master_driver] Driving [AHB_READ]: HADDR=0x00001000, HBURST=AHB_BURST_SINGLE, HSIZE=AHB_SIZE_32B, 1 beats               
# UVM_INFO ../src/mst/ahb_master_driver.sv(332) @ 145000: uvm_test_top.env.master_agent.drv [ahb_master_driver] Beat[0/1] addr=0x00001000 trans=AHB_TRANS_NONSEQ resp=AHB_RESP_OKAY rdata=0xa5a50000
# UVM_INFO ../src/mst/ahb_master_driver.sv(376) @ 145000: uvm_test_top.env.master_agent.drv [ahb_master_driver] Transaction complete: AHB_READ 0x00001000, 1 beats, burst=AHB_BURST_SINGLE
# UVM_INFO ../src/slv/ahb_slave_driver.sv(184) @ 145000: uvm_test_top.env.slave_agent.drv [ahb_slave_driver] Beat AHB_READ addr=0x00001000 resp=AHB_RESP_OKAY waits=0 rdata=0xa5a50000
# UVM_INFO ../src/mst/ahb_master_monitor.sv(128) @ 145000: uvm_test_top.env.master_agent.mon [ahb_master_monitor] Beat[0] addr=0x00001000 rdata=0xa5a50000 resp=AHB_RESP_OKAY
# UVM_INFO ../src/mst/ahb_master_monitor.sv(231) @ 145000: uvm_test_top.env.master_agent.mon [ahb_master_monitor] Observed [AHB_READ]: HADDR=0x00001000, HBURST=AHB_BURST_SINGLE, HSIZE=AHB_SIZE_32B, 1 beats
# UVM_INFO ../src/env/ahb_coverage.sv(174) @ 145000: uvm_test_top.env.master_cov [ahb_coverage] Sampled [AHB_READ]: burst=AHB_BURST_SINGLE size=AHB_SIZE_32B beats=1 error=0
# UVM_INFO ../src/slv/ahb_slave_monitor.sv(208) @ 145000: uvm_test_top.env.slave_agent.mon [ahb_slave_monitor] Observed [AHB_READ]: HADDR=0x00001000, HBURST=AHB_BURST_SINGLE, HSIZE=AHB_SIZE_32B, 1 beats
# UVM_INFO ../src/env/ahb_scoreboard.sv(104) @ 145000: uvm_test_top.env.scb [ahb_scoreboard] MATCH #2: [AHB_READ] HADDR=0x00001000 AHB_BURST_SINGLE 1 beats
# UVM_INFO ../src/env/ahb_coverage.sv(174) @ 145000: uvm_test_top.env.slave_cov [ahb_coverage] Sampled [AHB_READ]: burst=AHB_BURST_SINGLE size=AHB_SIZE_32B beats=1 error=0
# UVM_INFO ../src/mst_seq/ahb_sanity_seq.sv(138) @ 145000: uvm_test_top.env.master_agent.sqr@@seq [ahb_sanity_seq] AHB_BURST_SINGLE beat 0 @0x00001000: 0xa5a50000 ok
# UVM_INFO ../src/mst/ahb_master_driver.sv(85) @ 145000: uvm_test_top.env.master_agent.drv [ahb_master_driver] Queueing [AHB_WRITE]: HADDR=0x00001020, HBURST=AHB_BURST_INCR4, HSIZE=AHB_SIZE_32B, 4 beats
# UVM_INFO ../src/mst/ahb_master_driver.sv(127) @ 145000: uvm_test_top.env.master_agent.drv [ahb_master_driver] Driving [AHB_WRITE]: HADDR=0x00001020, HBURST=AHB_BURST_INCR4, HSIZE=AHB_SIZE_32B, 4 beats               
# UVM_INFO ../src/mst/ahb_master_driver.sv(332) @ 175000: uvm_test_top.env.master_agent.drv [ahb_master_driver] Beat[0/4] addr=0x00001020 trans=AHB_TRANS_NONSEQ resp=AHB_RESP_OKAY wdata=0x5a5a0000
# UVM_INFO ../src/slv/ahb_slave_driver.sv(184) @ 175000: uvm_test_top.env.slave_agent.drv [ahb_slave_driver] Beat AHB_WRITE addr=0x00001020 resp=AHB_RESP_OKAY waits=0 wdata=0x5a5a0000
# UVM_INFO ../src/mst/ahb_master_monitor.sv(128) @ 175000: uvm_test_top.env.master_agent.mon [ahb_master_monitor] Beat[0] addr=0x00001020 wdata=0x5a5a0000 resp=AHB_RESP_OKAY
# UVM_INFO ../src/mst/ahb_master_driver.sv(332) @ 185000: uvm_test_top.env.master_agent.drv [ahb_master_driver] Beat[1/4] addr=0x00001024 trans=AHB_TRANS_SEQ resp=AHB_RESP_OKAY wdata=0x5a5a0001
# UVM_INFO ../src/slv/ahb_slave_driver.sv(184) @ 185000: uvm_test_top.env.slave_agent.drv [ahb_slave_driver] Beat AHB_WRITE addr=0x00001024 resp=AHB_RESP_OKAY waits=0 wdata=0x5a5a0001
# UVM_INFO ../src/mst/ahb_master_monitor.sv(128) @ 185000: uvm_test_top.env.master_agent.mon [ahb_master_monitor] Beat[1] addr=0x00001024 wdata=0x5a5a0001 resp=AHB_RESP_OKAY
# UVM_INFO ../src/mst/ahb_master_driver.sv(332) @ 195000: uvm_test_top.env.master_agent.drv [ahb_master_driver] Beat[2/4] addr=0x00001028 trans=AHB_TRANS_SEQ resp=AHB_RESP_OKAY wdata=0x5a5a0002
# UVM_INFO ../src/slv/ahb_slave_driver.sv(184) @ 195000: uvm_test_top.env.slave_agent.drv [ahb_slave_driver] Beat AHB_WRITE addr=0x00001028 resp=AHB_RESP_OKAY waits=0 wdata=0x5a5a0002
# UVM_INFO ../src/mst/ahb_master_monitor.sv(128) @ 195000: uvm_test_top.env.master_agent.mon [ahb_master_monitor] Beat[2] addr=0x00001028 wdata=0x5a5a0002 resp=AHB_RESP_OKAY
# UVM_INFO ../src/mst/ahb_master_driver.sv(332) @ 205000: uvm_test_top.env.master_agent.drv [ahb_master_driver] Beat[3/4] addr=0x0000102c trans=AHB_TRANS_SEQ resp=AHB_RESP_OKAY wdata=0x5a5a0003
# UVM_INFO ../src/mst/ahb_master_driver.sv(376) @ 205000: uvm_test_top.env.master_agent.drv [ahb_master_driver] Transaction complete: AHB_WRITE 0x00001020, 4 beats, burst=AHB_BURST_INCR4
# UVM_INFO ../src/slv/ahb_slave_driver.sv(184) @ 205000: uvm_test_top.env.slave_agent.drv [ahb_slave_driver] Beat AHB_WRITE addr=0x0000102c resp=AHB_RESP_OKAY waits=0 wdata=0x5a5a0003
# UVM_INFO ../src/mst/ahb_master_monitor.sv(128) @ 205000: uvm_test_top.env.master_agent.mon [ahb_master_monitor] Beat[3] addr=0x0000102c wdata=0x5a5a0003 resp=AHB_RESP_OKAY
# UVM_INFO ../src/mst/ahb_master_monitor.sv(231) @ 205000: uvm_test_top.env.master_agent.mon [ahb_master_monitor] Observed [AHB_WRITE]: HADDR=0x00001020, HBURST=AHB_BURST_INCR4, HSIZE=AHB_SIZE_32B, 4 beats
# UVM_INFO ../src/env/ahb_coverage.sv(174) @ 205000: uvm_test_top.env.master_cov [ahb_coverage] Sampled [AHB_WRITE]: burst=AHB_BURST_INCR4 size=AHB_SIZE_32B beats=4 error=0
# UVM_INFO ../src/slv/ahb_slave_monitor.sv(208) @ 205000: uvm_test_top.env.slave_agent.mon [ahb_slave_monitor] Observed [AHB_WRITE]: HADDR=0x00001020, HBURST=AHB_BURST_INCR4, HSIZE=AHB_SIZE_32B, 4 beats
# UVM_INFO ../src/env/ahb_scoreboard.sv(104) @ 205000: uvm_test_top.env.scb [ahb_scoreboard] MATCH #3: [AHB_WRITE] HADDR=0x00001020 AHB_BURST_INCR4 4 beats
# UVM_INFO ../src/env/ahb_coverage.sv(174) @ 205000: uvm_test_top.env.slave_cov [ahb_coverage] Sampled [AHB_WRITE]: burst=AHB_BURST_INCR4 size=AHB_SIZE_32B beats=4 error=0
# UVM_INFO ../src/mst/ahb_master_driver.sv(85) @ 205000: uvm_test_top.env.master_agent.drv [ahb_master_driver] Queueing [AHB_READ]: HADDR=0x00001020, HBURST=AHB_BURST_INCR4, HSIZE=AHB_SIZE_32B, 4 beats
# UVM_INFO ../src/mst/ahb_master_driver.sv(127) @ 205000: uvm_test_top.env.master_agent.drv [ahb_master_driver] Driving [AHB_READ]: HADDR=0x00001020, HBURST=AHB_BURST_INCR4, HSIZE=AHB_SIZE_32B, 4 beats               
# UVM_INFO ../src/mst/ahb_master_driver.sv(332) @ 235000: uvm_test_top.env.master_agent.drv [ahb_master_driver] Beat[0/4] addr=0x00001020 trans=AHB_TRANS_NONSEQ resp=AHB_RESP_OKAY rdata=0x5a5a0000
# UVM_INFO ../src/slv/ahb_slave_driver.sv(184) @ 235000: uvm_test_top.env.slave_agent.drv [ahb_slave_driver] Beat AHB_READ addr=0x00001020 resp=AHB_RESP_OKAY waits=0 rdata=0x5a5a0000
# UVM_INFO ../src/mst/ahb_master_monitor.sv(128) @ 235000: uvm_test_top.env.master_agent.mon [ahb_master_monitor] Beat[0] addr=0x00001020 rdata=0x5a5a0000 resp=AHB_RESP_OKAY
# UVM_INFO ../src/mst/ahb_master_driver.sv(332) @ 245000: uvm_test_top.env.master_agent.drv [ahb_master_driver] Beat[1/4] addr=0x00001024 trans=AHB_TRANS_SEQ resp=AHB_RESP_OKAY rdata=0x5a5a0001
# UVM_INFO ../src/slv/ahb_slave_driver.sv(184) @ 245000: uvm_test_top.env.slave_agent.drv [ahb_slave_driver] Beat AHB_READ addr=0x00001024 resp=AHB_RESP_OKAY waits=0 rdata=0x5a5a0001
# UVM_INFO ../src/mst/ahb_master_monitor.sv(128) @ 245000: uvm_test_top.env.master_agent.mon [ahb_master_monitor] Beat[1] addr=0x00001024 rdata=0x5a5a0001 resp=AHB_RESP_OKAY
# UVM_INFO ../src/mst/ahb_master_driver.sv(332) @ 255000: uvm_test_top.env.master_agent.drv [ahb_master_driver] Beat[2/4] addr=0x00001028 trans=AHB_TRANS_SEQ resp=AHB_RESP_OKAY rdata=0x5a5a0002
# UVM_INFO ../src/slv/ahb_slave_driver.sv(184) @ 255000: uvm_test_top.env.slave_agent.drv [ahb_slave_driver] Beat AHB_READ addr=0x00001028 resp=AHB_RESP_OKAY waits=0 rdata=0x5a5a0002
# UVM_INFO ../src/mst/ahb_master_monitor.sv(128) @ 255000: uvm_test_top.env.master_agent.mon [ahb_master_monitor] Beat[2] addr=0x00001028 rdata=0x5a5a0002 resp=AHB_RESP_OKAY
# UVM_INFO ../src/mst/ahb_master_driver.sv(332) @ 265000: uvm_test_top.env.master_agent.drv [ahb_master_driver] Beat[3/4] addr=0x0000102c trans=AHB_TRANS_SEQ resp=AHB_RESP_OKAY rdata=0x5a5a0003
# UVM_INFO ../src/mst/ahb_master_driver.sv(376) @ 265000: uvm_test_top.env.master_agent.drv [ahb_master_driver] Transaction complete: AHB_READ 0x00001020, 4 beats, burst=AHB_BURST_INCR4
# UVM_INFO ../src/slv/ahb_slave_driver.sv(184) @ 265000: uvm_test_top.env.slave_agent.drv [ahb_slave_driver] Beat AHB_READ addr=0x0000102c resp=AHB_RESP_OKAY waits=0 rdata=0x5a5a0003
# UVM_INFO ../src/mst/ahb_master_monitor.sv(128) @ 265000: uvm_test_top.env.master_agent.mon [ahb_master_monitor] Beat[3] addr=0x0000102c rdata=0x5a5a0003 resp=AHB_RESP_OKAY
# UVM_INFO ../src/mst/ahb_master_monitor.sv(231) @ 265000: uvm_test_top.env.master_agent.mon [ahb_master_monitor] Observed [AHB_READ]: HADDR=0x00001020, HBURST=AHB_BURST_INCR4, HSIZE=AHB_SIZE_32B, 4 beats
# UVM_INFO ../src/env/ahb_coverage.sv(174) @ 265000: uvm_test_top.env.master_cov [ahb_coverage] Sampled [AHB_READ]: burst=AHB_BURST_INCR4 size=AHB_SIZE_32B beats=4 error=0
# UVM_INFO ../src/slv/ahb_slave_monitor.sv(208) @ 265000: uvm_test_top.env.slave_agent.mon [ahb_slave_monitor] Observed [AHB_READ]: HADDR=0x00001020, HBURST=AHB_BURST_INCR4, HSIZE=AHB_SIZE_32B, 4 beats
# UVM_INFO ../src/env/ahb_scoreboard.sv(104) @ 265000: uvm_test_top.env.scb [ahb_scoreboard] MATCH #4: [AHB_READ] HADDR=0x00001020 AHB_BURST_INCR4 4 beats
# UVM_INFO ../src/env/ahb_coverage.sv(174) @ 265000: uvm_test_top.env.slave_cov [ahb_coverage] Sampled [AHB_READ]: burst=AHB_BURST_INCR4 size=AHB_SIZE_32B beats=4 error=0
# UVM_INFO ../src/mst_seq/ahb_sanity_seq.sv(138) @ 265000: uvm_test_top.env.master_agent.sqr@@seq [ahb_sanity_seq] AHB_BURST_INCR4 beat 0 @0x00001020: 0x5a5a0000 ok
# UVM_INFO ../src/mst_seq/ahb_sanity_seq.sv(138) @ 265000: uvm_test_top.env.master_agent.sqr@@seq [ahb_sanity_seq] AHB_BURST_INCR4 beat 1 @0x00001024: 0x5a5a0001 ok
# UVM_INFO ../src/mst_seq/ahb_sanity_seq.sv(138) @ 265000: uvm_test_top.env.master_agent.sqr@@seq [ahb_sanity_seq] AHB_BURST_INCR4 beat 2 @0x00001028: 0x5a5a0002 ok
# UVM_INFO ../src/mst_seq/ahb_sanity_seq.sv(138) @ 265000: uvm_test_top.env.master_agent.sqr@@seq [ahb_sanity_seq] AHB_BURST_INCR4 beat 3 @0x0000102c: 0x5a5a0003 ok
# UVM_INFO ../src/mst/ahb_master_driver.sv(85) @ 265000: uvm_test_top.env.master_agent.drv [ahb_master_driver] Queueing [AHB_WRITE]: HADDR=0x00001040, HBURST=AHB_BURST_SINGLE, HSIZE=AHB_SIZE_32B, 1 beats
# UVM_INFO ../src/mst/ahb_master_driver.sv(127) @ 265000: uvm_test_top.env.master_agent.drv [ahb_master_driver] Driving [AHB_WRITE]: HADDR=0x00001040, HBURST=AHB_BURST_SINGLE, HSIZE=AHB_SIZE_32B, 1 beats               
# UVM_INFO ../src/mst/ahb_master_driver.sv(332) @ 295000: uvm_test_top.env.master_agent.drv [ahb_master_driver] Beat[0/1] addr=0x00001040 trans=AHB_TRANS_NONSEQ resp=AHB_RESP_OKAY wdata=0xa5a50001
# UVM_INFO ../src/mst/ahb_master_driver.sv(376) @ 295000: uvm_test_top.env.master_agent.drv [ahb_master_driver] Transaction complete: AHB_WRITE 0x00001040, 1 beats, burst=AHB_BURST_SINGLE
# UVM_INFO ../src/slv/ahb_slave_driver.sv(184) @ 295000: uvm_test_top.env.slave_agent.drv [ahb_slave_driver] Beat AHB_WRITE addr=0x00001040 resp=AHB_RESP_OKAY waits=0 wdata=0xa5a50001
# UVM_INFO ../src/slv/ahb_slave_monitor.sv(208) @ 295000: uvm_test_top.env.slave_agent.mon [ahb_slave_monitor] Observed [AHB_WRITE]: HADDR=0x00001040, HBURST=AHB_BURST_SINGLE, HSIZE=AHB_SIZE_32B, 1 beats
# UVM_INFO ../src/env/ahb_coverage.sv(174) @ 295000: uvm_test_top.env.slave_cov [ahb_coverage] Sampled [AHB_WRITE]: burst=AHB_BURST_SINGLE size=AHB_SIZE_32B beats=1 error=0
# UVM_INFO ../src/mst/ahb_master_monitor.sv(128) @ 295000: uvm_test_top.env.master_agent.mon [ahb_master_monitor] Beat[0] addr=0x00001040 wdata=0xa5a50001 resp=AHB_RESP_OKAY
# UVM_INFO ../src/mst/ahb_master_monitor.sv(231) @ 295000: uvm_test_top.env.master_agent.mon [ahb_master_monitor] Observed [AHB_WRITE]: HADDR=0x00001040, HBURST=AHB_BURST_SINGLE, HSIZE=AHB_SIZE_32B, 1 beats
# UVM_INFO ../src/env/ahb_coverage.sv(174) @ 295000: uvm_test_top.env.master_cov [ahb_coverage] Sampled [AHB_WRITE]: burst=AHB_BURST_SINGLE size=AHB_SIZE_32B beats=1 error=0
# UVM_INFO ../src/env/ahb_scoreboard.sv(104) @ 295000: uvm_test_top.env.scb [ahb_scoreboard] MATCH #5: [AHB_WRITE] HADDR=0x00001040 AHB_BURST_SINGLE 1 beats
# UVM_INFO ../src/mst/ahb_master_driver.sv(85) @ 295000: uvm_test_top.env.master_agent.drv [ahb_master_driver] Queueing [AHB_READ]: HADDR=0x00001040, HBURST=AHB_BURST_SINGLE, HSIZE=AHB_SIZE_32B, 1 beats
# UVM_INFO ../src/mst/ahb_master_driver.sv(127) @ 295000: uvm_test_top.env.master_agent.drv [ahb_master_driver] Driving [AHB_READ]: HADDR=0x00001040, HBURST=AHB_BURST_SINGLE, HSIZE=AHB_SIZE_32B, 1 beats               
# UVM_INFO ../src/mst/ahb_master_driver.sv(332) @ 325000: uvm_test_top.env.master_agent.drv [ahb_master_driver] Beat[0/1] addr=0x00001040 trans=AHB_TRANS_NONSEQ resp=AHB_RESP_OKAY rdata=0xa5a50001
# UVM_INFO ../src/mst/ahb_master_driver.sv(376) @ 325000: uvm_test_top.env.master_agent.drv [ahb_master_driver] Transaction complete: AHB_READ 0x00001040, 1 beats, burst=AHB_BURST_SINGLE
# UVM_INFO ../src/slv/ahb_slave_driver.sv(184) @ 325000: uvm_test_top.env.slave_agent.drv [ahb_slave_driver] Beat AHB_READ addr=0x00001040 resp=AHB_RESP_OKAY waits=0 rdata=0xa5a50001
# UVM_INFO ../src/mst/ahb_master_monitor.sv(128) @ 325000: uvm_test_top.env.master_agent.mon [ahb_master_monitor] Beat[0] addr=0x00001040 rdata=0xa5a50001 resp=AHB_RESP_OKAY
# UVM_INFO ../src/mst/ahb_master_monitor.sv(231) @ 325000: uvm_test_top.env.master_agent.mon [ahb_master_monitor] Observed [AHB_READ]: HADDR=0x00001040, HBURST=AHB_BURST_SINGLE, HSIZE=AHB_SIZE_32B, 1 beats
# UVM_INFO ../src/env/ahb_coverage.sv(174) @ 325000: uvm_test_top.env.master_cov [ahb_coverage] Sampled [AHB_READ]: burst=AHB_BURST_SINGLE size=AHB_SIZE_32B beats=1 error=0
# UVM_INFO ../src/slv/ahb_slave_monitor.sv(208) @ 325000: uvm_test_top.env.slave_agent.mon [ahb_slave_monitor] Observed [AHB_READ]: HADDR=0x00001040, HBURST=AHB_BURST_SINGLE, HSIZE=AHB_SIZE_32B, 1 beats
# UVM_INFO ../src/env/ahb_scoreboard.sv(104) @ 325000: uvm_test_top.env.scb [ahb_scoreboard] MATCH #6: [AHB_READ] HADDR=0x00001040 AHB_BURST_SINGLE 1 beats
# UVM_INFO ../src/env/ahb_coverage.sv(174) @ 325000: uvm_test_top.env.slave_cov [ahb_coverage] Sampled [AHB_READ]: burst=AHB_BURST_SINGLE size=AHB_SIZE_32B beats=1 error=0
# UVM_INFO ../src/mst_seq/ahb_sanity_seq.sv(138) @ 325000: uvm_test_top.env.master_agent.sqr@@seq [ahb_sanity_seq] AHB_BURST_SINGLE beat 0 @0x00001040: 0xa5a50001 ok
# UVM_INFO ../src/mst/ahb_master_driver.sv(85) @ 325000: uvm_test_top.env.master_agent.drv [ahb_master_driver] Queueing [AHB_WRITE]: HADDR=0x00001060, HBURST=AHB_BURST_INCR4, HSIZE=AHB_SIZE_32B, 4 beats
# UVM_INFO ../src/mst/ahb_master_driver.sv(127) @ 325000: uvm_test_top.env.master_agent.drv [ahb_master_driver] Driving [AHB_WRITE]: HADDR=0x00001060, HBURST=AHB_BURST_INCR4, HSIZE=AHB_SIZE_32B, 4 beats               
# UVM_INFO ../src/mst/ahb_master_driver.sv(332) @ 355000: uvm_test_top.env.master_agent.drv [ahb_master_driver] Beat[0/4] addr=0x00001060 trans=AHB_TRANS_NONSEQ resp=AHB_RESP_OKAY wdata=0x5a5a0100
# UVM_INFO ../src/slv/ahb_slave_driver.sv(184) @ 355000: uvm_test_top.env.slave_agent.drv [ahb_slave_driver] Beat AHB_WRITE addr=0x00001060 resp=AHB_RESP_OKAY waits=0 wdata=0x5a5a0100
# UVM_INFO ../src/mst/ahb_master_monitor.sv(128) @ 355000: uvm_test_top.env.master_agent.mon [ahb_master_monitor] Beat[0] addr=0x00001060 wdata=0x5a5a0100 resp=AHB_RESP_OKAY
# UVM_INFO ../src/mst/ahb_master_driver.sv(332) @ 365000: uvm_test_top.env.master_agent.drv [ahb_master_driver] Beat[1/4] addr=0x00001064 trans=AHB_TRANS_SEQ resp=AHB_RESP_OKAY wdata=0x5a5a0101
# UVM_INFO ../src/slv/ahb_slave_driver.sv(184) @ 365000: uvm_test_top.env.slave_agent.drv [ahb_slave_driver] Beat AHB_WRITE addr=0x00001064 resp=AHB_RESP_OKAY waits=0 wdata=0x5a5a0101
# UVM_INFO ../src/mst/ahb_master_monitor.sv(128) @ 365000: uvm_test_top.env.master_agent.mon [ahb_master_monitor] Beat[1] addr=0x00001064 wdata=0x5a5a0101 resp=AHB_RESP_OKAY
# UVM_INFO ../src/mst/ahb_master_driver.sv(332) @ 375000: uvm_test_top.env.master_agent.drv [ahb_master_driver] Beat[2/4] addr=0x00001068 trans=AHB_TRANS_SEQ resp=AHB_RESP_OKAY wdata=0x5a5a0102
# UVM_INFO ../src/slv/ahb_slave_driver.sv(184) @ 375000: uvm_test_top.env.slave_agent.drv [ahb_slave_driver] Beat AHB_WRITE addr=0x00001068 resp=AHB_RESP_OKAY waits=0 wdata=0x5a5a0102
# UVM_INFO ../src/mst/ahb_master_monitor.sv(128) @ 375000: uvm_test_top.env.master_agent.mon [ahb_master_monitor] Beat[2] addr=0x00001068 wdata=0x5a5a0102 resp=AHB_RESP_OKAY
# UVM_INFO ../src/mst/ahb_master_driver.sv(332) @ 385000: uvm_test_top.env.master_agent.drv [ahb_master_driver] Beat[3/4] addr=0x0000106c trans=AHB_TRANS_SEQ resp=AHB_RESP_OKAY wdata=0x5a5a0103
# UVM_INFO ../src/mst/ahb_master_driver.sv(376) @ 385000: uvm_test_top.env.master_agent.drv [ahb_master_driver] Transaction complete: AHB_WRITE 0x00001060, 4 beats, burst=AHB_BURST_INCR4
# UVM_INFO ../src/slv/ahb_slave_driver.sv(184) @ 385000: uvm_test_top.env.slave_agent.drv [ahb_slave_driver] Beat AHB_WRITE addr=0x0000106c resp=AHB_RESP_OKAY waits=0 wdata=0x5a5a0103
# UVM_INFO ../src/mst/ahb_master_monitor.sv(128) @ 385000: uvm_test_top.env.master_agent.mon [ahb_master_monitor] Beat[3] addr=0x0000106c wdata=0x5a5a0103 resp=AHB_RESP_OKAY
# UVM_INFO ../src/mst/ahb_master_monitor.sv(231) @ 385000: uvm_test_top.env.master_agent.mon [ahb_master_monitor] Observed [AHB_WRITE]: HADDR=0x00001060, HBURST=AHB_BURST_INCR4, HSIZE=AHB_SIZE_32B, 4 beats
# UVM_INFO ../src/env/ahb_coverage.sv(174) @ 385000: uvm_test_top.env.master_cov [ahb_coverage] Sampled [AHB_WRITE]: burst=AHB_BURST_INCR4 size=AHB_SIZE_32B beats=4 error=0
# UVM_INFO ../src/slv/ahb_slave_monitor.sv(208) @ 385000: uvm_test_top.env.slave_agent.mon [ahb_slave_monitor] Observed [AHB_WRITE]: HADDR=0x00001060, HBURST=AHB_BURST_INCR4, HSIZE=AHB_SIZE_32B, 4 beats
# UVM_INFO ../src/env/ahb_scoreboard.sv(104) @ 385000: uvm_test_top.env.scb [ahb_scoreboard] MATCH #7: [AHB_WRITE] HADDR=0x00001060 AHB_BURST_INCR4 4 beats
# UVM_INFO ../src/env/ahb_coverage.sv(174) @ 385000: uvm_test_top.env.slave_cov [ahb_coverage] Sampled [AHB_WRITE]: burst=AHB_BURST_INCR4 size=AHB_SIZE_32B beats=4 error=0
# UVM_INFO ../src/mst/ahb_master_driver.sv(85) @ 385000: uvm_test_top.env.master_agent.drv [ahb_master_driver] Queueing [AHB_READ]: HADDR=0x00001060, HBURST=AHB_BURST_INCR4, HSIZE=AHB_SIZE_32B, 4 beats
# UVM_INFO ../src/mst/ahb_master_driver.sv(127) @ 385000: uvm_test_top.env.master_agent.drv [ahb_master_driver] Driving [AHB_READ]: HADDR=0x00001060, HBURST=AHB_BURST_INCR4, HSIZE=AHB_SIZE_32B, 4 beats               
# UVM_INFO ../src/mst/ahb_master_driver.sv(332) @ 415000: uvm_test_top.env.master_agent.drv [ahb_master_driver] Beat[0/4] addr=0x00001060 trans=AHB_TRANS_NONSEQ resp=AHB_RESP_OKAY rdata=0x5a5a0100
# UVM_INFO ../src/slv/ahb_slave_driver.sv(184) @ 415000: uvm_test_top.env.slave_agent.drv [ahb_slave_driver] Beat AHB_READ addr=0x00001060 resp=AHB_RESP_OKAY waits=0 rdata=0x5a5a0100
# UVM_INFO ../src/mst/ahb_master_monitor.sv(128) @ 415000: uvm_test_top.env.master_agent.mon [ahb_master_monitor] Beat[0] addr=0x00001060 rdata=0x5a5a0100 resp=AHB_RESP_OKAY
# UVM_INFO ../src/mst/ahb_master_driver.sv(332) @ 425000: uvm_test_top.env.master_agent.drv [ahb_master_driver] Beat[1/4] addr=0x00001064 trans=AHB_TRANS_SEQ resp=AHB_RESP_OKAY rdata=0x5a5a0101
# UVM_INFO ../src/slv/ahb_slave_driver.sv(184) @ 425000: uvm_test_top.env.slave_agent.drv [ahb_slave_driver] Beat AHB_READ addr=0x00001064 resp=AHB_RESP_OKAY waits=0 rdata=0x5a5a0101
# UVM_INFO ../src/mst/ahb_master_monitor.sv(128) @ 425000: uvm_test_top.env.master_agent.mon [ahb_master_monitor] Beat[1] addr=0x00001064 rdata=0x5a5a0101 resp=AHB_RESP_OKAY
# UVM_INFO ../src/mst/ahb_master_driver.sv(332) @ 435000: uvm_test_top.env.master_agent.drv [ahb_master_driver] Beat[2/4] addr=0x00001068 trans=AHB_TRANS_SEQ resp=AHB_RESP_OKAY rdata=0x5a5a0102
# UVM_INFO ../src/slv/ahb_slave_driver.sv(184) @ 435000: uvm_test_top.env.slave_agent.drv [ahb_slave_driver] Beat AHB_READ addr=0x00001068 resp=AHB_RESP_OKAY waits=0 rdata=0x5a5a0102
# UVM_INFO ../src/mst/ahb_master_monitor.sv(128) @ 435000: uvm_test_top.env.master_agent.mon [ahb_master_monitor] Beat[2] addr=0x00001068 rdata=0x5a5a0102 resp=AHB_RESP_OKAY
# UVM_INFO ../src/mst/ahb_master_driver.sv(332) @ 445000: uvm_test_top.env.master_agent.drv [ahb_master_driver] Beat[3/4] addr=0x0000106c trans=AHB_TRANS_SEQ resp=AHB_RESP_OKAY rdata=0x5a5a0103
# UVM_INFO ../src/mst/ahb_master_driver.sv(376) @ 445000: uvm_test_top.env.master_agent.drv [ahb_master_driver] Transaction complete: AHB_READ 0x00001060, 4 beats, burst=AHB_BURST_INCR4
# UVM_INFO ../src/slv/ahb_slave_driver.sv(184) @ 445000: uvm_test_top.env.slave_agent.drv [ahb_slave_driver] Beat AHB_READ addr=0x0000106c resp=AHB_RESP_OKAY waits=0 rdata=0x5a5a0103
# UVM_INFO ../src/mst/ahb_master_monitor.sv(128) @ 445000: uvm_test_top.env.master_agent.mon [ahb_master_monitor] Beat[3] addr=0x0000106c rdata=0x5a5a0103 resp=AHB_RESP_OKAY
# UVM_INFO ../src/mst/ahb_master_monitor.sv(231) @ 445000: uvm_test_top.env.master_agent.mon [ahb_master_monitor] Observed [AHB_READ]: HADDR=0x00001060, HBURST=AHB_BURST_INCR4, HSIZE=AHB_SIZE_32B, 4 beats
# UVM_INFO ../src/env/ahb_coverage.sv(174) @ 445000: uvm_test_top.env.master_cov [ahb_coverage] Sampled [AHB_READ]: burst=AHB_BURST_INCR4 size=AHB_SIZE_32B beats=4 error=0
# UVM_INFO ../src/slv/ahb_slave_monitor.sv(208) @ 445000: uvm_test_top.env.slave_agent.mon [ahb_slave_monitor] Observed [AHB_READ]: HADDR=0x00001060, HBURST=AHB_BURST_INCR4, HSIZE=AHB_SIZE_32B, 4 beats
# UVM_INFO ../src/env/ahb_scoreboard.sv(104) @ 445000: uvm_test_top.env.scb [ahb_scoreboard] MATCH #8: [AHB_READ] HADDR=0x00001060 AHB_BURST_INCR4 4 beats
# UVM_INFO ../src/env/ahb_coverage.sv(174) @ 445000: uvm_test_top.env.slave_cov [ahb_coverage] Sampled [AHB_READ]: burst=AHB_BURST_INCR4 size=AHB_SIZE_32B beats=4 error=0
# UVM_INFO ../src/mst_seq/ahb_sanity_seq.sv(138) @ 445000: uvm_test_top.env.master_agent.sqr@@seq [ahb_sanity_seq] AHB_BURST_INCR4 beat 0 @0x00001060: 0x5a5a0100 ok
# UVM_INFO ../src/mst_seq/ahb_sanity_seq.sv(138) @ 445000: uvm_test_top.env.master_agent.sqr@@seq [ahb_sanity_seq] AHB_BURST_INCR4 beat 1 @0x00001064: 0x5a5a0101 ok
# UVM_INFO ../src/mst_seq/ahb_sanity_seq.sv(138) @ 445000: uvm_test_top.env.master_agent.sqr@@seq [ahb_sanity_seq] AHB_BURST_INCR4 beat 2 @0x00001068: 0x5a5a0102 ok
# UVM_INFO ../src/mst_seq/ahb_sanity_seq.sv(138) @ 445000: uvm_test_top.env.master_agent.sqr@@seq [ahb_sanity_seq] AHB_BURST_INCR4 beat 3 @0x0000106c: 0x5a5a0103 ok
# UVM_INFO ../src/mst/ahb_master_driver.sv(85) @ 445000: uvm_test_top.env.master_agent.drv [ahb_master_driver] Queueing [AHB_WRITE]: HADDR=0x00001080, HBURST=AHB_BURST_SINGLE, HSIZE=AHB_SIZE_32B, 1 beats
# UVM_INFO ../src/mst/ahb_master_driver.sv(127) @ 445000: uvm_test_top.env.master_agent.drv [ahb_master_driver] Driving [AHB_WRITE]: HADDR=0x00001080, HBURST=AHB_BURST_SINGLE, HSIZE=AHB_SIZE_32B, 1 beats               
# UVM_INFO ../src/mst/ahb_master_driver.sv(332) @ 475000: uvm_test_top.env.master_agent.drv [ahb_master_driver] Beat[0/1] addr=0x00001080 trans=AHB_TRANS_NONSEQ resp=AHB_RESP_OKAY wdata=0xa5a50002
# UVM_INFO ../src/mst/ahb_master_driver.sv(376) @ 475000: uvm_test_top.env.master_agent.drv [ahb_master_driver] Transaction complete: AHB_WRITE 0x00001080, 1 beats, burst=AHB_BURST_SINGLE
# UVM_INFO ../src/slv/ahb_slave_driver.sv(184) @ 475000: uvm_test_top.env.slave_agent.drv [ahb_slave_driver] Beat AHB_WRITE addr=0x00001080 resp=AHB_RESP_OKAY waits=0 wdata=0xa5a50002
# UVM_INFO ../src/slv/ahb_slave_monitor.sv(208) @ 475000: uvm_test_top.env.slave_agent.mon [ahb_slave_monitor] Observed [AHB_WRITE]: HADDR=0x00001080, HBURST=AHB_BURST_SINGLE, HSIZE=AHB_SIZE_32B, 1 beats
# UVM_INFO ../src/env/ahb_coverage.sv(174) @ 475000: uvm_test_top.env.slave_cov [ahb_coverage] Sampled [AHB_WRITE]: burst=AHB_BURST_SINGLE size=AHB_SIZE_32B beats=1 error=0
# UVM_INFO ../src/mst/ahb_master_monitor.sv(128) @ 475000: uvm_test_top.env.master_agent.mon [ahb_master_monitor] Beat[0] addr=0x00001080 wdata=0xa5a50002 resp=AHB_RESP_OKAY
# UVM_INFO ../src/mst/ahb_master_monitor.sv(231) @ 475000: uvm_test_top.env.master_agent.mon [ahb_master_monitor] Observed [AHB_WRITE]: HADDR=0x00001080, HBURST=AHB_BURST_SINGLE, HSIZE=AHB_SIZE_32B, 1 beats
# UVM_INFO ../src/env/ahb_coverage.sv(174) @ 475000: uvm_test_top.env.master_cov [ahb_coverage] Sampled [AHB_WRITE]: burst=AHB_BURST_SINGLE size=AHB_SIZE_32B beats=1 error=0
# UVM_INFO ../src/env/ahb_scoreboard.sv(104) @ 475000: uvm_test_top.env.scb [ahb_scoreboard] MATCH #9: [AHB_WRITE] HADDR=0x00001080 AHB_BURST_SINGLE 1 beats
# UVM_INFO ../src/mst/ahb_master_driver.sv(85) @ 475000: uvm_test_top.env.master_agent.drv [ahb_master_driver] Queueing [AHB_READ]: HADDR=0x00001080, HBURST=AHB_BURST_SINGLE, HSIZE=AHB_SIZE_32B, 1 beats
# UVM_INFO ../src/mst/ahb_master_driver.sv(127) @ 475000: uvm_test_top.env.master_agent.drv [ahb_master_driver] Driving [AHB_READ]: HADDR=0x00001080, HBURST=AHB_BURST_SINGLE, HSIZE=AHB_SIZE_32B, 1 beats               
# UVM_INFO ../src/mst/ahb_master_driver.sv(332) @ 505000: uvm_test_top.env.master_agent.drv [ahb_master_driver] Beat[0/1] addr=0x00001080 trans=AHB_TRANS_NONSEQ resp=AHB_RESP_OKAY rdata=0xa5a50002
# UVM_INFO ../src/mst/ahb_master_driver.sv(376) @ 505000: uvm_test_top.env.master_agent.drv [ahb_master_driver] Transaction complete: AHB_READ 0x00001080, 1 beats, burst=AHB_BURST_SINGLE
# UVM_INFO ../src/slv/ahb_slave_driver.sv(184) @ 505000: uvm_test_top.env.slave_agent.drv [ahb_slave_driver] Beat AHB_READ addr=0x00001080 resp=AHB_RESP_OKAY waits=0 rdata=0xa5a50002
# UVM_INFO ../src/mst/ahb_master_monitor.sv(128) @ 505000: uvm_test_top.env.master_agent.mon [ahb_master_monitor] Beat[0] addr=0x00001080 rdata=0xa5a50002 resp=AHB_RESP_OKAY
# UVM_INFO ../src/mst/ahb_master_monitor.sv(231) @ 505000: uvm_test_top.env.master_agent.mon [ahb_master_monitor] Observed [AHB_READ]: HADDR=0x00001080, HBURST=AHB_BURST_SINGLE, HSIZE=AHB_SIZE_32B, 1 beats
# UVM_INFO ../src/env/ahb_coverage.sv(174) @ 505000: uvm_test_top.env.master_cov [ahb_coverage] Sampled [AHB_READ]: burst=AHB_BURST_SINGLE size=AHB_SIZE_32B beats=1 error=0
# UVM_INFO ../src/slv/ahb_slave_monitor.sv(208) @ 505000: uvm_test_top.env.slave_agent.mon [ahb_slave_monitor] Observed [AHB_READ]: HADDR=0x00001080, HBURST=AHB_BURST_SINGLE, HSIZE=AHB_SIZE_32B, 1 beats
# UVM_INFO ../src/env/ahb_scoreboard.sv(104) @ 505000: uvm_test_top.env.scb [ahb_scoreboard] MATCH #10: [AHB_READ] HADDR=0x00001080 AHB_BURST_SINGLE 1 beats
# UVM_INFO ../src/env/ahb_coverage.sv(174) @ 505000: uvm_test_top.env.slave_cov [ahb_coverage] Sampled [AHB_READ]: burst=AHB_BURST_SINGLE size=AHB_SIZE_32B beats=1 error=0
# UVM_INFO ../src/mst_seq/ahb_sanity_seq.sv(138) @ 505000: uvm_test_top.env.master_agent.sqr@@seq [ahb_sanity_seq] AHB_BURST_SINGLE beat 0 @0x00001080: 0xa5a50002 ok
# UVM_INFO ../src/mst/ahb_master_driver.sv(85) @ 505000: uvm_test_top.env.master_agent.drv [ahb_master_driver] Queueing [AHB_WRITE]: HADDR=0x000010a0, HBURST=AHB_BURST_INCR4, HSIZE=AHB_SIZE_32B, 4 beats
# UVM_INFO ../src/mst/ahb_master_driver.sv(127) @ 505000: uvm_test_top.env.master_agent.drv [ahb_master_driver] Driving [AHB_WRITE]: HADDR=0x000010a0, HBURST=AHB_BURST_INCR4, HSIZE=AHB_SIZE_32B, 4 beats               
# UVM_INFO ../src/mst/ahb_master_driver.sv(332) @ 535000: uvm_test_top.env.master_agent.drv [ahb_master_driver] Beat[0/4] addr=0x000010a0 trans=AHB_TRANS_NONSEQ resp=AHB_RESP_OKAY wdata=0x5a5a0200
# UVM_INFO ../src/slv/ahb_slave_driver.sv(184) @ 535000: uvm_test_top.env.slave_agent.drv [ahb_slave_driver] Beat AHB_WRITE addr=0x000010a0 resp=AHB_RESP_OKAY waits=0 wdata=0x5a5a0200
# UVM_INFO ../src/mst/ahb_master_monitor.sv(128) @ 535000: uvm_test_top.env.master_agent.mon [ahb_master_monitor] Beat[0] addr=0x000010a0 wdata=0x5a5a0200 resp=AHB_RESP_OKAY
# UVM_INFO ../src/mst/ahb_master_driver.sv(332) @ 545000: uvm_test_top.env.master_agent.drv [ahb_master_driver] Beat[1/4] addr=0x000010a4 trans=AHB_TRANS_SEQ resp=AHB_RESP_OKAY wdata=0x5a5a0201
# UVM_INFO ../src/slv/ahb_slave_driver.sv(184) @ 545000: uvm_test_top.env.slave_agent.drv [ahb_slave_driver] Beat AHB_WRITE addr=0x000010a4 resp=AHB_RESP_OKAY waits=0 wdata=0x5a5a0201
# UVM_INFO ../src/mst/ahb_master_monitor.sv(128) @ 545000: uvm_test_top.env.master_agent.mon [ahb_master_monitor] Beat[1] addr=0x000010a4 wdata=0x5a5a0201 resp=AHB_RESP_OKAY
# UVM_INFO ../src/mst/ahb_master_driver.sv(332) @ 555000: uvm_test_top.env.master_agent.drv [ahb_master_driver] Beat[2/4] addr=0x000010a8 trans=AHB_TRANS_SEQ resp=AHB_RESP_OKAY wdata=0x5a5a0202
# UVM_INFO ../src/slv/ahb_slave_driver.sv(184) @ 555000: uvm_test_top.env.slave_agent.drv [ahb_slave_driver] Beat AHB_WRITE addr=0x000010a8 resp=AHB_RESP_OKAY waits=0 wdata=0x5a5a0202
# UVM_INFO ../src/mst/ahb_master_monitor.sv(128) @ 555000: uvm_test_top.env.master_agent.mon [ahb_master_monitor] Beat[2] addr=0x000010a8 wdata=0x5a5a0202 resp=AHB_RESP_OKAY
# UVM_INFO ../src/mst/ahb_master_driver.sv(332) @ 565000: uvm_test_top.env.master_agent.drv [ahb_master_driver] Beat[3/4] addr=0x000010ac trans=AHB_TRANS_SEQ resp=AHB_RESP_OKAY wdata=0x5a5a0203
# UVM_INFO ../src/mst/ahb_master_driver.sv(376) @ 565000: uvm_test_top.env.master_agent.drv [ahb_master_driver] Transaction complete: AHB_WRITE 0x000010a0, 4 beats, burst=AHB_BURST_INCR4
# UVM_INFO ../src/slv/ahb_slave_driver.sv(184) @ 565000: uvm_test_top.env.slave_agent.drv [ahb_slave_driver] Beat AHB_WRITE addr=0x000010ac resp=AHB_RESP_OKAY waits=0 wdata=0x5a5a0203
# UVM_INFO ../src/mst/ahb_master_monitor.sv(128) @ 565000: uvm_test_top.env.master_agent.mon [ahb_master_monitor] Beat[3] addr=0x000010ac wdata=0x5a5a0203 resp=AHB_RESP_OKAY
# UVM_INFO ../src/mst/ahb_master_monitor.sv(231) @ 565000: uvm_test_top.env.master_agent.mon [ahb_master_monitor] Observed [AHB_WRITE]: HADDR=0x000010a0, HBURST=AHB_BURST_INCR4, HSIZE=AHB_SIZE_32B, 4 beats
# UVM_INFO ../src/env/ahb_coverage.sv(174) @ 565000: uvm_test_top.env.master_cov [ahb_coverage] Sampled [AHB_WRITE]: burst=AHB_BURST_INCR4 size=AHB_SIZE_32B beats=4 error=0
# UVM_INFO ../src/slv/ahb_slave_monitor.sv(208) @ 565000: uvm_test_top.env.slave_agent.mon [ahb_slave_monitor] Observed [AHB_WRITE]: HADDR=0x000010a0, HBURST=AHB_BURST_INCR4, HSIZE=AHB_SIZE_32B, 4 beats
# UVM_INFO ../src/env/ahb_scoreboard.sv(104) @ 565000: uvm_test_top.env.scb [ahb_scoreboard] MATCH #11: [AHB_WRITE] HADDR=0x000010a0 AHB_BURST_INCR4 4 beats
# UVM_INFO ../src/env/ahb_coverage.sv(174) @ 565000: uvm_test_top.env.slave_cov [ahb_coverage] Sampled [AHB_WRITE]: burst=AHB_BURST_INCR4 size=AHB_SIZE_32B beats=4 error=0
# UVM_INFO ../src/mst/ahb_master_driver.sv(85) @ 565000: uvm_test_top.env.master_agent.drv [ahb_master_driver] Queueing [AHB_READ]: HADDR=0x000010a0, HBURST=AHB_BURST_INCR4, HSIZE=AHB_SIZE_32B, 4 beats
# UVM_INFO ../src/mst/ahb_master_driver.sv(127) @ 565000: uvm_test_top.env.master_agent.drv [ahb_master_driver] Driving [AHB_READ]: HADDR=0x000010a0, HBURST=AHB_BURST_INCR4, HSIZE=AHB_SIZE_32B, 4 beats               
# UVM_INFO ../src/mst/ahb_master_driver.sv(332) @ 595000: uvm_test_top.env.master_agent.drv [ahb_master_driver] Beat[0/4] addr=0x000010a0 trans=AHB_TRANS_NONSEQ resp=AHB_RESP_OKAY rdata=0x5a5a0200
# UVM_INFO ../src/slv/ahb_slave_driver.sv(184) @ 595000: uvm_test_top.env.slave_agent.drv [ahb_slave_driver] Beat AHB_READ addr=0x000010a0 resp=AHB_RESP_OKAY waits=0 rdata=0x5a5a0200
# UVM_INFO ../src/mst/ahb_master_monitor.sv(128) @ 595000: uvm_test_top.env.master_agent.mon [ahb_master_monitor] Beat[0] addr=0x000010a0 rdata=0x5a5a0200 resp=AHB_RESP_OKAY
# UVM_INFO ../src/mst/ahb_master_driver.sv(332) @ 605000: uvm_test_top.env.master_agent.drv [ahb_master_driver] Beat[1/4] addr=0x000010a4 trans=AHB_TRANS_SEQ resp=AHB_RESP_OKAY rdata=0x5a5a0201
# UVM_INFO ../src/slv/ahb_slave_driver.sv(184) @ 605000: uvm_test_top.env.slave_agent.drv [ahb_slave_driver] Beat AHB_READ addr=0x000010a4 resp=AHB_RESP_OKAY waits=0 rdata=0x5a5a0201
# UVM_INFO ../src/mst/ahb_master_monitor.sv(128) @ 605000: uvm_test_top.env.master_agent.mon [ahb_master_monitor] Beat[1] addr=0x000010a4 rdata=0x5a5a0201 resp=AHB_RESP_OKAY
# UVM_INFO ../src/mst/ahb_master_driver.sv(332) @ 615000: uvm_test_top.env.master_agent.drv [ahb_master_driver] Beat[2/4] addr=0x000010a8 trans=AHB_TRANS_SEQ resp=AHB_RESP_OKAY rdata=0x5a5a0202
# UVM_INFO ../src/slv/ahb_slave_driver.sv(184) @ 615000: uvm_test_top.env.slave_agent.drv [ahb_slave_driver] Beat AHB_READ addr=0x000010a8 resp=AHB_RESP_OKAY waits=0 rdata=0x5a5a0202
# UVM_INFO ../src/mst/ahb_master_monitor.sv(128) @ 615000: uvm_test_top.env.master_agent.mon [ahb_master_monitor] Beat[2] addr=0x000010a8 rdata=0x5a5a0202 resp=AHB_RESP_OKAY
# UVM_INFO ../src/mst/ahb_master_driver.sv(332) @ 625000: uvm_test_top.env.master_agent.drv [ahb_master_driver] Beat[3/4] addr=0x000010ac trans=AHB_TRANS_SEQ resp=AHB_RESP_OKAY rdata=0x5a5a0203
# UVM_INFO ../src/mst/ahb_master_driver.sv(376) @ 625000: uvm_test_top.env.master_agent.drv [ahb_master_driver] Transaction complete: AHB_READ 0x000010a0, 4 beats, burst=AHB_BURST_INCR4
# UVM_INFO ../src/slv/ahb_slave_driver.sv(184) @ 625000: uvm_test_top.env.slave_agent.drv [ahb_slave_driver] Beat AHB_READ addr=0x000010ac resp=AHB_RESP_OKAY waits=0 rdata=0x5a5a0203
# UVM_INFO ../src/mst/ahb_master_monitor.sv(128) @ 625000: uvm_test_top.env.master_agent.mon [ahb_master_monitor] Beat[3] addr=0x000010ac rdata=0x5a5a0203 resp=AHB_RESP_OKAY
# UVM_INFO ../src/mst/ahb_master_monitor.sv(231) @ 625000: uvm_test_top.env.master_agent.mon [ahb_master_monitor] Observed [AHB_READ]: HADDR=0x000010a0, HBURST=AHB_BURST_INCR4, HSIZE=AHB_SIZE_32B, 4 beats
# UVM_INFO ../src/env/ahb_coverage.sv(174) @ 625000: uvm_test_top.env.master_cov [ahb_coverage] Sampled [AHB_READ]: burst=AHB_BURST_INCR4 size=AHB_SIZE_32B beats=4 error=0
# UVM_INFO ../src/slv/ahb_slave_monitor.sv(208) @ 625000: uvm_test_top.env.slave_agent.mon [ahb_slave_monitor] Observed [AHB_READ]: HADDR=0x000010a0, HBURST=AHB_BURST_INCR4, HSIZE=AHB_SIZE_32B, 4 beats
# UVM_INFO ../src/env/ahb_scoreboard.sv(104) @ 625000: uvm_test_top.env.scb [ahb_scoreboard] MATCH #12: [AHB_READ] HADDR=0x000010a0 AHB_BURST_INCR4 4 beats
# UVM_INFO ../src/env/ahb_coverage.sv(174) @ 625000: uvm_test_top.env.slave_cov [ahb_coverage] Sampled [AHB_READ]: burst=AHB_BURST_INCR4 size=AHB_SIZE_32B beats=4 error=0
# UVM_INFO ../src/mst_seq/ahb_sanity_seq.sv(138) @ 625000: uvm_test_top.env.master_agent.sqr@@seq [ahb_sanity_seq] AHB_BURST_INCR4 beat 0 @0x000010a0: 0x5a5a0200 ok
# UVM_INFO ../src/mst_seq/ahb_sanity_seq.sv(138) @ 625000: uvm_test_top.env.master_agent.sqr@@seq [ahb_sanity_seq] AHB_BURST_INCR4 beat 1 @0x000010a4: 0x5a5a0201 ok
# UVM_INFO ../src/mst_seq/ahb_sanity_seq.sv(138) @ 625000: uvm_test_top.env.master_agent.sqr@@seq [ahb_sanity_seq] AHB_BURST_INCR4 beat 2 @0x000010a8: 0x5a5a0202 ok
# UVM_INFO ../src/mst_seq/ahb_sanity_seq.sv(138) @ 625000: uvm_test_top.env.master_agent.sqr@@seq [ahb_sanity_seq] AHB_BURST_INCR4 beat 3 @0x000010ac: 0x5a5a0203 ok
# UVM_INFO ../src/mst/ahb_master_driver.sv(85) @ 625000: uvm_test_top.env.master_agent.drv [ahb_master_driver] Queueing [AHB_WRITE]: HADDR=0x000010c0, HBURST=AHB_BURST_SINGLE, HSIZE=AHB_SIZE_32B, 1 beats
# UVM_INFO ../src/mst/ahb_master_driver.sv(127) @ 625000: uvm_test_top.env.master_agent.drv [ahb_master_driver] Driving [AHB_WRITE]: HADDR=0x000010c0, HBURST=AHB_BURST_SINGLE, HSIZE=AHB_SIZE_32B, 1 beats               
# UVM_INFO ../src/mst/ahb_master_driver.sv(332) @ 655000: uvm_test_top.env.master_agent.drv [ahb_master_driver] Beat[0/1] addr=0x000010c0 trans=AHB_TRANS_NONSEQ resp=AHB_RESP_OKAY wdata=0xa5a50003
# UVM_INFO ../src/mst/ahb_master_driver.sv(376) @ 655000: uvm_test_top.env.master_agent.drv [ahb_master_driver] Transaction complete: AHB_WRITE 0x000010c0, 1 beats, burst=AHB_BURST_SINGLE
# UVM_INFO ../src/slv/ahb_slave_driver.sv(184) @ 655000: uvm_test_top.env.slave_agent.drv [ahb_slave_driver] Beat AHB_WRITE addr=0x000010c0 resp=AHB_RESP_OKAY waits=0 wdata=0xa5a50003
# UVM_INFO ../src/slv/ahb_slave_monitor.sv(208) @ 655000: uvm_test_top.env.slave_agent.mon [ahb_slave_monitor] Observed [AHB_WRITE]: HADDR=0x000010c0, HBURST=AHB_BURST_SINGLE, HSIZE=AHB_SIZE_32B, 1 beats
# UVM_INFO ../src/env/ahb_coverage.sv(174) @ 655000: uvm_test_top.env.slave_cov [ahb_coverage] Sampled [AHB_WRITE]: burst=AHB_BURST_SINGLE size=AHB_SIZE_32B beats=1 error=0
# UVM_INFO ../src/mst/ahb_master_monitor.sv(128) @ 655000: uvm_test_top.env.master_agent.mon [ahb_master_monitor] Beat[0] addr=0x000010c0 wdata=0xa5a50003 resp=AHB_RESP_OKAY
# UVM_INFO ../src/mst/ahb_master_monitor.sv(231) @ 655000: uvm_test_top.env.master_agent.mon [ahb_master_monitor] Observed [AHB_WRITE]: HADDR=0x000010c0, HBURST=AHB_BURST_SINGLE, HSIZE=AHB_SIZE_32B, 1 beats
# UVM_INFO ../src/env/ahb_coverage.sv(174) @ 655000: uvm_test_top.env.master_cov [ahb_coverage] Sampled [AHB_WRITE]: burst=AHB_BURST_SINGLE size=AHB_SIZE_32B beats=1 error=0
# UVM_INFO ../src/env/ahb_scoreboard.sv(104) @ 655000: uvm_test_top.env.scb [ahb_scoreboard] MATCH #13: [AHB_WRITE] HADDR=0x000010c0 AHB_BURST_SINGLE 1 beats
# UVM_INFO ../src/mst/ahb_master_driver.sv(85) @ 655000: uvm_test_top.env.master_agent.drv [ahb_master_driver] Queueing [AHB_READ]: HADDR=0x000010c0, HBURST=AHB_BURST_SINGLE, HSIZE=AHB_SIZE_32B, 1 beats
# UVM_INFO ../src/mst/ahb_master_driver.sv(127) @ 655000: uvm_test_top.env.master_agent.drv [ahb_master_driver] Driving [AHB_READ]: HADDR=0x000010c0, HBURST=AHB_BURST_SINGLE, HSIZE=AHB_SIZE_32B, 1 beats               
# UVM_INFO ../src/mst/ahb_master_driver.sv(332) @ 685000: uvm_test_top.env.master_agent.drv [ahb_master_driver] Beat[0/1] addr=0x000010c0 trans=AHB_TRANS_NONSEQ resp=AHB_RESP_OKAY rdata=0xa5a50003
# UVM_INFO ../src/mst/ahb_master_driver.sv(376) @ 685000: uvm_test_top.env.master_agent.drv [ahb_master_driver] Transaction complete: AHB_READ 0x000010c0, 1 beats, burst=AHB_BURST_SINGLE
# UVM_INFO ../src/slv/ahb_slave_driver.sv(184) @ 685000: uvm_test_top.env.slave_agent.drv [ahb_slave_driver] Beat AHB_READ addr=0x000010c0 resp=AHB_RESP_OKAY waits=0 rdata=0xa5a50003
# UVM_INFO ../src/mst/ahb_master_monitor.sv(128) @ 685000: uvm_test_top.env.master_agent.mon [ahb_master_monitor] Beat[0] addr=0x000010c0 rdata=0xa5a50003 resp=AHB_RESP_OKAY
# UVM_INFO ../src/mst/ahb_master_monitor.sv(231) @ 685000: uvm_test_top.env.master_agent.mon [ahb_master_monitor] Observed [AHB_READ]: HADDR=0x000010c0, HBURST=AHB_BURST_SINGLE, HSIZE=AHB_SIZE_32B, 1 beats
# UVM_INFO ../src/env/ahb_coverage.sv(174) @ 685000: uvm_test_top.env.master_cov [ahb_coverage] Sampled [AHB_READ]: burst=AHB_BURST_SINGLE size=AHB_SIZE_32B beats=1 error=0
# UVM_INFO ../src/slv/ahb_slave_monitor.sv(208) @ 685000: uvm_test_top.env.slave_agent.mon [ahb_slave_monitor] Observed [AHB_READ]: HADDR=0x000010c0, HBURST=AHB_BURST_SINGLE, HSIZE=AHB_SIZE_32B, 1 beats
# UVM_INFO ../src/env/ahb_scoreboard.sv(104) @ 685000: uvm_test_top.env.scb [ahb_scoreboard] MATCH #14: [AHB_READ] HADDR=0x000010c0 AHB_BURST_SINGLE 1 beats
# UVM_INFO ../src/env/ahb_coverage.sv(174) @ 685000: uvm_test_top.env.slave_cov [ahb_coverage] Sampled [AHB_READ]: burst=AHB_BURST_SINGLE size=AHB_SIZE_32B beats=1 error=0
# UVM_INFO ../src/mst_seq/ahb_sanity_seq.sv(138) @ 685000: uvm_test_top.env.master_agent.sqr@@seq [ahb_sanity_seq] AHB_BURST_SINGLE beat 0 @0x000010c0: 0xa5a50003 ok
# UVM_INFO ../src/mst/ahb_master_driver.sv(85) @ 685000: uvm_test_top.env.master_agent.drv [ahb_master_driver] Queueing [AHB_WRITE]: HADDR=0x000010e0, HBURST=AHB_BURST_INCR4, HSIZE=AHB_SIZE_32B, 4 beats
# UVM_INFO ../src/mst/ahb_master_driver.sv(127) @ 685000: uvm_test_top.env.master_agent.drv [ahb_master_driver] Driving [AHB_WRITE]: HADDR=0x000010e0, HBURST=AHB_BURST_INCR4, HSIZE=AHB_SIZE_32B, 4 beats               
# UVM_INFO ../src/mst/ahb_master_driver.sv(332) @ 715000: uvm_test_top.env.master_agent.drv [ahb_master_driver] Beat[0/4] addr=0x000010e0 trans=AHB_TRANS_NONSEQ resp=AHB_RESP_OKAY wdata=0x5a5a0300
# UVM_INFO ../src/slv/ahb_slave_driver.sv(184) @ 715000: uvm_test_top.env.slave_agent.drv [ahb_slave_driver] Beat AHB_WRITE addr=0x000010e0 resp=AHB_RESP_OKAY waits=0 wdata=0x5a5a0300
# UVM_INFO ../src/mst/ahb_master_monitor.sv(128) @ 715000: uvm_test_top.env.master_agent.mon [ahb_master_monitor] Beat[0] addr=0x000010e0 wdata=0x5a5a0300 resp=AHB_RESP_OKAY
# UVM_INFO ../src/mst/ahb_master_driver.sv(332) @ 725000: uvm_test_top.env.master_agent.drv [ahb_master_driver] Beat[1/4] addr=0x000010e4 trans=AHB_TRANS_SEQ resp=AHB_RESP_OKAY wdata=0x5a5a0301
# UVM_INFO ../src/slv/ahb_slave_driver.sv(184) @ 725000: uvm_test_top.env.slave_agent.drv [ahb_slave_driver] Beat AHB_WRITE addr=0x000010e4 resp=AHB_RESP_OKAY waits=0 wdata=0x5a5a0301
# UVM_INFO ../src/mst/ahb_master_monitor.sv(128) @ 725000: uvm_test_top.env.master_agent.mon [ahb_master_monitor] Beat[1] addr=0x000010e4 wdata=0x5a5a0301 resp=AHB_RESP_OKAY
# UVM_INFO ../src/mst/ahb_master_driver.sv(332) @ 735000: uvm_test_top.env.master_agent.drv [ahb_master_driver] Beat[2/4] addr=0x000010e8 trans=AHB_TRANS_SEQ resp=AHB_RESP_OKAY wdata=0x5a5a0302
# UVM_INFO ../src/slv/ahb_slave_driver.sv(184) @ 735000: uvm_test_top.env.slave_agent.drv [ahb_slave_driver] Beat AHB_WRITE addr=0x000010e8 resp=AHB_RESP_OKAY waits=0 wdata=0x5a5a0302
# UVM_INFO ../src/mst/ahb_master_monitor.sv(128) @ 735000: uvm_test_top.env.master_agent.mon [ahb_master_monitor] Beat[2] addr=0x000010e8 wdata=0x5a5a0302 resp=AHB_RESP_OKAY
# UVM_INFO ../src/mst/ahb_master_driver.sv(332) @ 745000: uvm_test_top.env.master_agent.drv [ahb_master_driver] Beat[3/4] addr=0x000010ec trans=AHB_TRANS_SEQ resp=AHB_RESP_OKAY wdata=0x5a5a0303
# UVM_INFO ../src/mst/ahb_master_driver.sv(376) @ 745000: uvm_test_top.env.master_agent.drv [ahb_master_driver] Transaction complete: AHB_WRITE 0x000010e0, 4 beats, burst=AHB_BURST_INCR4
# UVM_INFO ../src/slv/ahb_slave_driver.sv(184) @ 745000: uvm_test_top.env.slave_agent.drv [ahb_slave_driver] Beat AHB_WRITE addr=0x000010ec resp=AHB_RESP_OKAY waits=0 wdata=0x5a5a0303
# UVM_INFO ../src/mst/ahb_master_monitor.sv(128) @ 745000: uvm_test_top.env.master_agent.mon [ahb_master_monitor] Beat[3] addr=0x000010ec wdata=0x5a5a0303 resp=AHB_RESP_OKAY
# UVM_INFO ../src/mst/ahb_master_monitor.sv(231) @ 745000: uvm_test_top.env.master_agent.mon [ahb_master_monitor] Observed [AHB_WRITE]: HADDR=0x000010e0, HBURST=AHB_BURST_INCR4, HSIZE=AHB_SIZE_32B, 4 beats
# UVM_INFO ../src/env/ahb_coverage.sv(174) @ 745000: uvm_test_top.env.master_cov [ahb_coverage] Sampled [AHB_WRITE]: burst=AHB_BURST_INCR4 size=AHB_SIZE_32B beats=4 error=0
# UVM_INFO ../src/slv/ahb_slave_monitor.sv(208) @ 745000: uvm_test_top.env.slave_agent.mon [ahb_slave_monitor] Observed [AHB_WRITE]: HADDR=0x000010e0, HBURST=AHB_BURST_INCR4, HSIZE=AHB_SIZE_32B, 4 beats
# UVM_INFO ../src/env/ahb_scoreboard.sv(104) @ 745000: uvm_test_top.env.scb [ahb_scoreboard] MATCH #15: [AHB_WRITE] HADDR=0x000010e0 AHB_BURST_INCR4 4 beats
# UVM_INFO ../src/env/ahb_coverage.sv(174) @ 745000: uvm_test_top.env.slave_cov [ahb_coverage] Sampled [AHB_WRITE]: burst=AHB_BURST_INCR4 size=AHB_SIZE_32B beats=4 error=0
# UVM_INFO ../src/mst/ahb_master_driver.sv(85) @ 745000: uvm_test_top.env.master_agent.drv [ahb_master_driver] Queueing [AHB_READ]: HADDR=0x000010e0, HBURST=AHB_BURST_INCR4, HSIZE=AHB_SIZE_32B, 4 beats
# UVM_INFO ../src/mst/ahb_master_driver.sv(127) @ 745000: uvm_test_top.env.master_agent.drv [ahb_master_driver] Driving [AHB_READ]: HADDR=0x000010e0, HBURST=AHB_BURST_INCR4, HSIZE=AHB_SIZE_32B, 4 beats               
# UVM_INFO ../src/mst/ahb_master_driver.sv(332) @ 775000: uvm_test_top.env.master_agent.drv [ahb_master_driver] Beat[0/4] addr=0x000010e0 trans=AHB_TRANS_NONSEQ resp=AHB_RESP_OKAY rdata=0x5a5a0300
# UVM_INFO ../src/slv/ahb_slave_driver.sv(184) @ 775000: uvm_test_top.env.slave_agent.drv [ahb_slave_driver] Beat AHB_READ addr=0x000010e0 resp=AHB_RESP_OKAY waits=0 rdata=0x5a5a0300
# UVM_INFO ../src/mst/ahb_master_monitor.sv(128) @ 775000: uvm_test_top.env.master_agent.mon [ahb_master_monitor] Beat[0] addr=0x000010e0 rdata=0x5a5a0300 resp=AHB_RESP_OKAY
# UVM_INFO ../src/mst/ahb_master_driver.sv(332) @ 785000: uvm_test_top.env.master_agent.drv [ahb_master_driver] Beat[1/4] addr=0x000010e4 trans=AHB_TRANS_SEQ resp=AHB_RESP_OKAY rdata=0x5a5a0301
# UVM_INFO ../src/slv/ahb_slave_driver.sv(184) @ 785000: uvm_test_top.env.slave_agent.drv [ahb_slave_driver] Beat AHB_READ addr=0x000010e4 resp=AHB_RESP_OKAY waits=0 rdata=0x5a5a0301
# UVM_INFO ../src/mst/ahb_master_monitor.sv(128) @ 785000: uvm_test_top.env.master_agent.mon [ahb_master_monitor] Beat[1] addr=0x000010e4 rdata=0x5a5a0301 resp=AHB_RESP_OKAY
# UVM_INFO ../src/mst/ahb_master_driver.sv(332) @ 795000: uvm_test_top.env.master_agent.drv [ahb_master_driver] Beat[2/4] addr=0x000010e8 trans=AHB_TRANS_SEQ resp=AHB_RESP_OKAY rdata=0x5a5a0302
# UVM_INFO ../src/slv/ahb_slave_driver.sv(184) @ 795000: uvm_test_top.env.slave_agent.drv [ahb_slave_driver] Beat AHB_READ addr=0x000010e8 resp=AHB_RESP_OKAY waits=0 rdata=0x5a5a0302
# UVM_INFO ../src/mst/ahb_master_monitor.sv(128) @ 795000: uvm_test_top.env.master_agent.mon [ahb_master_monitor] Beat[2] addr=0x000010e8 rdata=0x5a5a0302 resp=AHB_RESP_OKAY
# UVM_INFO ../src/mst/ahb_master_driver.sv(332) @ 805000: uvm_test_top.env.master_agent.drv [ahb_master_driver] Beat[3/4] addr=0x000010ec trans=AHB_TRANS_SEQ resp=AHB_RESP_OKAY rdata=0x5a5a0303
# UVM_INFO ../src/mst/ahb_master_driver.sv(376) @ 805000: uvm_test_top.env.master_agent.drv [ahb_master_driver] Transaction complete: AHB_READ 0x000010e0, 4 beats, burst=AHB_BURST_INCR4
# UVM_INFO ../src/slv/ahb_slave_driver.sv(184) @ 805000: uvm_test_top.env.slave_agent.drv [ahb_slave_driver] Beat AHB_READ addr=0x000010ec resp=AHB_RESP_OKAY waits=0 rdata=0x5a5a0303
# UVM_INFO ../src/mst/ahb_master_monitor.sv(128) @ 805000: uvm_test_top.env.master_agent.mon [ahb_master_monitor] Beat[3] addr=0x000010ec rdata=0x5a5a0303 resp=AHB_RESP_OKAY
# UVM_INFO ../src/mst/ahb_master_monitor.sv(231) @ 805000: uvm_test_top.env.master_agent.mon [ahb_master_monitor] Observed [AHB_READ]: HADDR=0x000010e0, HBURST=AHB_BURST_INCR4, HSIZE=AHB_SIZE_32B, 4 beats
# UVM_INFO ../src/env/ahb_coverage.sv(174) @ 805000: uvm_test_top.env.master_cov [ahb_coverage] Sampled [AHB_READ]: burst=AHB_BURST_INCR4 size=AHB_SIZE_32B beats=4 error=0
# UVM_INFO ../src/slv/ahb_slave_monitor.sv(208) @ 805000: uvm_test_top.env.slave_agent.mon [ahb_slave_monitor] Observed [AHB_READ]: HADDR=0x000010e0, HBURST=AHB_BURST_INCR4, HSIZE=AHB_SIZE_32B, 4 beats
# UVM_INFO ../src/env/ahb_scoreboard.sv(104) @ 805000: uvm_test_top.env.scb [ahb_scoreboard] MATCH #16: [AHB_READ] HADDR=0x000010e0 AHB_BURST_INCR4 4 beats
# UVM_INFO ../src/env/ahb_coverage.sv(174) @ 805000: uvm_test_top.env.slave_cov [ahb_coverage] Sampled [AHB_READ]: burst=AHB_BURST_INCR4 size=AHB_SIZE_32B beats=4 error=0
# UVM_INFO ../src/mst_seq/ahb_sanity_seq.sv(138) @ 805000: uvm_test_top.env.master_agent.sqr@@seq [ahb_sanity_seq] AHB_BURST_INCR4 beat 0 @0x000010e0: 0x5a5a0300 ok
# UVM_INFO ../src/mst_seq/ahb_sanity_seq.sv(138) @ 805000: uvm_test_top.env.master_agent.sqr@@seq [ahb_sanity_seq] AHB_BURST_INCR4 beat 1 @0x000010e4: 0x5a5a0301 ok
# UVM_INFO ../src/mst_seq/ahb_sanity_seq.sv(138) @ 805000: uvm_test_top.env.master_agent.sqr@@seq [ahb_sanity_seq] AHB_BURST_INCR4 beat 2 @0x000010e8: 0x5a5a0302 ok
# UVM_INFO ../src/mst_seq/ahb_sanity_seq.sv(138) @ 805000: uvm_test_top.env.master_agent.sqr@@seq [ahb_sanity_seq] AHB_BURST_INCR4 beat 3 @0x000010ec: 0x5a5a0303 ok
# UVM_INFO ../src/mst_seq/ahb_sanity_seq.sv(68) @ 805000: uvm_test_top.env.master_agent.sqr@@seq [ahb_sanity_seq] Sanity done: checked=20 mismatch=0
# UVM_INFO verilog_src/uvm-1.1d/src/base/uvm_objection.svh(1268) @ 805200: reporter [TEST_DONE] 'run' phase is ready to proceed to the 'extract' phase
# UVM_INFO ../src/env/ahb_coverage.sv(195) @ 805200: uvm_test_top.env.master_cov [ahb_coverage] [master_cov] functional coverage: ahb_cg = 41.92%, ahb_trans_cg = 75.00%
# UVM_INFO ../src/env/ahb_scoreboard.sv(208) @ 805200: uvm_test_top.env.scb [ahb_scoreboard] Passthrough : compared=16 matched=16 mismatched=0
# UVM_INFO ../src/env/ahb_scoreboard.sv(212) @ 805200: uvm_test_top.env.scb [ahb_scoreboard] Ref-memory  : wr_bytes=80 rd_checked=80 rd_uninit=0 rd_mismatch=0
# UVM_INFO ../src/env/ahb_coverage.sv(195) @ 805200: uvm_test_top.env.slave_cov [ahb_coverage] [slave_cov] functional coverage: ahb_cg = 41.92%, ahb_trans_cg = 75.00%
# UVM_INFO ../src/test/ahb_base_test.sv(74) @ 805200: uvm_test_top [ahb_sanity_test] 
# === TEST PASSED ===
# 
# 
# --- UVM Report Summary ---
# 
# ** Report counts by severity
# UVM_INFO :  296
# UVM_WARNING :    0
# UVM_ERROR :    0
# UVM_FATAL :    0
# ** Report counts by id
# [Questa UVM]     3
# [RNTST]     1
# [TB_TOP]     3
# [TEST_DONE]     1
# [UVMTOP]     1
# [ahb_coverage]    34
# [ahb_master_agent]     1
# [ahb_master_driver]    90
# [ahb_master_monitor]    57
# [ahb_sanity_seq]    22
# [ahb_sanity_test]     1
# [ahb_scoreboard]    18
# [ahb_slave_agent]     1
# [ahb_slave_driver]    41
# [ahb_slave_monitor]    17
# [ahb_vip_env]     5
# ** Note: $finish    : /cadtools/mentor/Questa_10.6b/questasim/linux_x86_64/../verilog_src/uvm-1.1d/src/base/uvm_root.svh(430)
#    Time: 805200 ps  Iteration: 53  Instance: /tb_top
# Saving coverage database on exit...
# End time: 08:59:58 on Aug 06,2026, Elapsed time: 0:00:01
# Errors: 0, Warnings: 0
