# vsim -c -coverage -sv_seed 86703594 "+UVM_TESTNAME=ahb_single_transfer_test" "+UVM_VERBOSITY=UVM_HIGH" "+DUMP_VCD" -l ./report/logs/ahb_single_transfer_test_run_1_seed_86703594.log -do "coverage save -onexit ./report/coverage/ahb_single_transfer_test_run_1_seed_86703594.ucdb; run -all; quit -f" opt_tb_top 
# Start time: 11:01:18 on Aug 05,2026
# //  Questa Sim-64
# //  Version 10.6b linux_x86_64 May 25 2017
# //
# //  Copyright 1991-2017 Mentor Graphics Corporation
# //  All Rights Reserved.
# //
# //  QuestaSim and its associated documentation contain trade
# //  secrets and commercial or financial information that are the property of
# //  Mentor Graphics Corporation and are privileged, confidential,
# //  and exempt from disclosure under the Freedom of Information Act,
# //  5 U.S.C. Section 552. Furthermore, this information
# //  is prohibited from disclosure under the Trade Secrets Act,
# //  18 U.S.C. Section 1905.
# //
# Loading sv_std.std
# Loading work.ahb_if(fast)
# Loading mtiUvm.uvm_pkg
# Loading work.ahb_pkg(fast)
# Loading work.ahb_seq_pkg(fast)
# Loading work.ahb_test_pkg(fast)
# Loading work.tb_top(fast)
# Loading work.ahb_if(fast)
# Loading work.ahb_sva(fast)
# Loading mtiUvm.questa_uvm_pkg(fast)
# Loading /cadtools/mentor/Questa_10.6b/questasim/uvm-1.1d/linux_x86_64/uvm_dpi.so
# coverage save -onexit ./report/coverage/ahb_single_transfer_test_run_1_seed_86703594.ucdb
#  run -all
# ----------------------------------------------------------------
# UVM-1.1d
# (C) 2007-2013 Mentor Graphics Corporation
# (C) 2007-2013 Cadence Design Systems, Inc.
# (C) 2006-2013 Synopsys, Inc.
# (C) 2011-2013 Cypress Semiconductor Corp.
# ----------------------------------------------------------------
# 
#   ***********       IMPORTANT RELEASE NOTES         ************
# 
#   You are using a version of the UVM library that has been compiled
#   with `UVM_NO_DEPRECATED undefined.
#   See http://www.eda.org/svdb/view.php?id=3313 for more details.
# 
#   You are using a version of the UVM library that has been compiled
#   with `UVM_OBJECT_MUST_HAVE_CONSTRUCTOR undefined.
#   See http://www.eda.org/svdb/view.php?id=3770 for more details.
# 
#       (Specify +UVM_NO_RELNOTES to turn off this notice)
# 
# UVM_INFO verilog_src/questa_uvm_pkg-1.2/src/questa_uvm_pkg.sv(215) @ 0: reporter [Questa UVM] QUESTA_UVM-1.2.3
# UVM_INFO verilog_src/questa_uvm_pkg-1.2/src/questa_uvm_pkg.sv(217) @ 0: reporter [Questa UVM]  questa_uvm::init(+struct)
# UVM_INFO ../src/tb_top.sv(126) @ 0: reporter [TB_TOP] Virtual interface set in config_db
# UVM_INFO @ 0: reporter [RNTST] Running test ahb_single_transfer_test...
# UVM_INFO ../src/tb_top.sv(140) @ 0: reporter [TB_TOP] Waveform VCD dumping enabled (ahb_lite_vip.vcd)
# UVM_INFO ../src/env/ahb_vip_env.sv(64) @ 0: uvm_test_top.env [ahb_vip_env] slave_vif not set - reusing master_vif (passthrough mode)
# UVM_INFO ../src/env/ahb_vip_env.sv(72) @ 0: uvm_test_top.env [ahb_vip_env] Scoreboard created
# UVM_INFO ../src/env/ahb_vip_env.sv(78) @ 0: uvm_test_top.env [ahb_vip_env] Coverage collectors created
# UVM_INFO ../src/mst/ahb_master_agent.sv(61) @ 0: uvm_test_top.env.master_agent [ahb_master_agent] ACTIVE mode - driver + sequencer created
# UVM_INFO ../src/slv/ahb_slave_agent.sv(64) @ 0: uvm_test_top.env.slave_agent [ahb_slave_agent] ACTIVE mode - driver + sequencer created (    auto responses)
# UVM_INFO ../src/env/ahb_vip_env.sv(92) @ 0: uvm_test_top.env [ahb_vip_env] Scoreboard connected: master_mon.ap -> scb, slave_mon.ap -> scb
# UVM_INFO ../src/env/ahb_vip_env.sv(99) @ 0: uvm_test_top.env [ahb_vip_env] Coverage connected: master_mon.ap -> master_cov, slave_mon.ap -> slave_cov
# UVM_INFO @ 0: reporter [UVMTOP] UVM testbench topology:
# ----------------------------------------------------------------
# Name                       Type                      Size  Value
# ----------------------------------------------------------------
# uvm_test_top               ahb_single_transfer_test  -     @475 
#   env                      ahb_vip_env               -     @490 
#     master_agent           ahb_master_agent          -     @505 
#       drv                  ahb_master_driver         -     @570 
#         rsp_port           uvm_analysis_port         -     @585 
#         seq_item_port      uvm_seq_item_pull_port    -     @577 
#       mon                  ahb_master_monitor        -     @563 
#         ap                 uvm_analysis_port         -     @704 
#       sqr                  ahb_master_sequencer      -     @593 
#         rsp_export         uvm_analysis_export       -     @600 
#         seq_item_export    uvm_seq_item_pull_imp     -     @694 
#         arbitration_queue  array                     0     -    
#         lock_queue         array                     0     -    
#         num_last_reqs      integral                  32    'd1  
#         num_last_rsps      integral                  32    'd1  
#     master_cov             ahb_coverage              -     @526 
#       analysis_imp         uvm_analysis_imp          -     @533 
#     scb                    ahb_scoreboard            -     @519 
#       master_export        uvm_analysis_imp_master   -     @718 
#       slave_export         uvm_analysis_imp_slave    -     @726 
#     slave_agent            ahb_slave_agent           -     @512 
#       drv                  ahb_slave_driver          -     @748 
#         rsp_port           uvm_analysis_port         -     @763 
#         seq_item_port      uvm_seq_item_pull_port    -     @755 
#       mon                  ahb_slave_monitor         -     @741 
#         ap                 uvm_analysis_port         -     @882 
#       sqr                  ahb_slave_sequencer       -     @771 
#         rsp_export         uvm_analysis_export       -     @778 
#         seq_item_export    uvm_seq_item_pull_imp     -     @872 
#         arbitration_queue  array                     0     -    
#         lock_queue         array                     0     -    
#         num_last_reqs      integral                  32    'd1  
#         num_last_rsps      integral                  32    'd1  
#     slave_cov              ahb_coverage              -     @541 
#       analysis_imp         uvm_analysis_imp          -     @548 
# ----------------------------------------------------------------
# 
# UVM_INFO verilog_src/questa_uvm_pkg-1.2/src/questa_uvm_pkg.sv(277) @ 0: reporter [Questa UVM] End Of Elaboration
# UVM_INFO ../src/mst_seq/ahb_single_seq.sv(47) @ 0: uvm_test_top.env.master_agent.sqr@@seq [ahb_single_seq] Starting SINGLE transfers: 20 iterations from 0x00002000
# UVM_INFO ../src/mst/ahb_master_driver.sv(183) @ 5000: uvm_test_top.env.master_agent.drv [ahb_master_driver] Flushed pending transactions (reset)
# UVM_INFO ../src/tb_top.sv(48) @ 95000: reporter [TB_TOP] Reset de-asserted
# UVM_INFO ../src/slv/ahb_slave_driver.sv(63) @ 95000: uvm_test_top.env.slave_agent.drv [ahb_slave_driver] Reset deasserted - slave driver active (    auto mode)
# UVM_INFO ../src/mst/ahb_master_driver.sv(72) @ 95000: uvm_test_top.env.master_agent.drv [ahb_master_driver] Reset deasserted - master driver active
# UVM_INFO ../src/mst/ahb_master_monitor.sv(75) @ 95000: uvm_test_top.env.master_agent.mon [ahb_master_monitor] Reset deasserted - master monitor active
# UVM_INFO ../src/slv/ahb_slave_monitor.sv(69) @ 95000: uvm_test_top.env.slave_agent.mon [ahb_slave_monitor] Reset deasserted - slave monitor active
# UVM_INFO ../src/mst/ahb_master_driver.sv(85) @ 95000: uvm_test_top.env.master_agent.drv [ahb_master_driver] Queueing [AHB_WRITE]: HADDR=0x00002000, HBURST=AHB_BURST_SINGLE, HSIZE=AHB_SIZE_32B, 1 beats
# UVM_INFO ../src/mst/ahb_master_driver.sv(127) @ 95000: uvm_test_top.env.master_agent.drv [ahb_master_driver] Driving [AHB_WRITE]: HADDR=0x00002000, HBURST=AHB_BURST_SINGLE, HSIZE=AHB_SIZE_32B, 1 beats               
# UVM_INFO ../src/mst/ahb_master_driver.sv(332) @ 135000: uvm_test_top.env.master_agent.drv [ahb_master_driver] Beat[0/1] addr=0x00002000 trans=AHB_TRANS_NONSEQ resp=AHB_RESP_OKAY wdata=0xe4268f71
# UVM_INFO ../src/mst/ahb_master_driver.sv(376) @ 135000: uvm_test_top.env.master_agent.drv [ahb_master_driver] Transaction complete: AHB_WRITE 0x00002000, 1 beats, burst=AHB_BURST_SINGLE
# UVM_INFO ../src/slv/ahb_slave_driver.sv(184) @ 135000: uvm_test_top.env.slave_agent.drv [ahb_slave_driver] Beat AHB_WRITE addr=0x00002000 resp=AHB_RESP_OKAY waits=2 wdata=0xe4268f71
# UVM_INFO ../src/slv/ahb_slave_monitor.sv(197) @ 135000: uvm_test_top.env.slave_agent.mon [ahb_slave_monitor] Observed [AHB_WRITE]: HADDR=0x00002000, HBURST=AHB_BURST_SINGLE, HSIZE=AHB_SIZE_32B, 1 beats
# UVM_INFO ../src/env/ahb_coverage.sv(126) @ 135000: uvm_test_top.env.slave_cov [ahb_coverage] Sampled [AHB_WRITE]: burst=AHB_BURST_SINGLE size=AHB_SIZE_32B beats=1 error=0
# UVM_INFO ../src/mst/ahb_master_monitor.sv(117) @ 135000: uvm_test_top.env.master_agent.mon [ahb_master_monitor] Beat[0] addr=0x00002000 wdata=0xe4268f71 resp=AHB_RESP_OKAY
# UVM_INFO ../src/mst/ahb_master_monitor.sv(220) @ 135000: uvm_test_top.env.master_agent.mon [ahb_master_monitor] Observed [AHB_WRITE]: HADDR=0x00002000, HBURST=AHB_BURST_SINGLE, HSIZE=AHB_SIZE_32B, 1 beats
# UVM_INFO ../src/env/ahb_coverage.sv(126) @ 135000: uvm_test_top.env.master_cov [ahb_coverage] Sampled [AHB_WRITE]: burst=AHB_BURST_SINGLE size=AHB_SIZE_32B beats=1 error=0
# UVM_INFO ../src/env/ahb_scoreboard.sv(104) @ 135000: uvm_test_top.env.scb [ahb_scoreboard] MATCH #1: [AHB_WRITE] HADDR=0x00002000 AHB_BURST_SINGLE 1 beats
# UVM_INFO ../src/mst/ahb_master_driver.sv(85) @ 135000: uvm_test_top.env.master_agent.drv [ahb_master_driver] Queueing [AHB_READ]: HADDR=0x00002000, HBURST=AHB_BURST_SINGLE, HSIZE=AHB_SIZE_32B, 1 beats
# UVM_INFO ../src/mst/ahb_master_driver.sv(127) @ 135000: uvm_test_top.env.master_agent.drv [ahb_master_driver] Driving [AHB_READ]: HADDR=0x00002000, HBURST=AHB_BURST_SINGLE, HSIZE=AHB_SIZE_32B, 1 beats               
# UVM_INFO ../src/mst/ahb_master_driver.sv(332) @ 175000: uvm_test_top.env.master_agent.drv [ahb_master_driver] Beat[0/1] addr=0x00002000 trans=AHB_TRANS_NONSEQ resp=AHB_RESP_OKAY rdata=0xe4268f71
# UVM_INFO ../src/mst/ahb_master_driver.sv(376) @ 175000: uvm_test_top.env.master_agent.drv [ahb_master_driver] Transaction complete: AHB_READ 0x00002000, 1 beats, burst=AHB_BURST_SINGLE
# UVM_INFO ../src/slv/ahb_slave_driver.sv(184) @ 175000: uvm_test_top.env.slave_agent.drv [ahb_slave_driver] Beat AHB_READ addr=0x00002000 resp=AHB_RESP_OKAY waits=1 rdata=0xe4268f71
# UVM_INFO ../src/slv/ahb_slave_monitor.sv(197) @ 175000: uvm_test_top.env.slave_agent.mon [ahb_slave_monitor] Observed [AHB_READ]: HADDR=0x00002000, HBURST=AHB_BURST_SINGLE, HSIZE=AHB_SIZE_32B, 1 beats
# UVM_INFO ../src/env/ahb_coverage.sv(126) @ 175000: uvm_test_top.env.slave_cov [ahb_coverage] Sampled [AHB_READ]: burst=AHB_BURST_SINGLE size=AHB_SIZE_32B beats=1 error=0
# UVM_INFO ../src/mst/ahb_master_monitor.sv(117) @ 175000: uvm_test_top.env.master_agent.mon [ahb_master_monitor] Beat[0] addr=0x00002000 rdata=0xe4268f71 resp=AHB_RESP_OKAY
# UVM_INFO ../src/mst/ahb_master_monitor.sv(220) @ 175000: uvm_test_top.env.master_agent.mon [ahb_master_monitor] Observed [AHB_READ]: HADDR=0x00002000, HBURST=AHB_BURST_SINGLE, HSIZE=AHB_SIZE_32B, 1 beats
# UVM_INFO ../src/env/ahb_coverage.sv(126) @ 175000: uvm_test_top.env.master_cov [ahb_coverage] Sampled [AHB_READ]: burst=AHB_BURST_SINGLE size=AHB_SIZE_32B beats=1 error=0
# UVM_INFO ../src/env/ahb_scoreboard.sv(104) @ 175000: uvm_test_top.env.scb [ahb_scoreboard] MATCH #2: [AHB_READ] HADDR=0x00002000 AHB_BURST_SINGLE 1 beats
# UVM_INFO ../src/mst_seq/ahb_base_seq.sv(157) @ 175000: uvm_test_top.env.master_agent.sqr@@seq [ahb_single_seq] AHB_BURST_SINGLE AHB_SIZE_32B beat 0 @0x00002000 ok
# UVM_INFO ../src/mst/ahb_master_driver.sv(85) @ 175000: uvm_test_top.env.master_agent.drv [ahb_master_driver] Queueing [AHB_WRITE]: HADDR=0x00002004, HBURST=AHB_BURST_SINGLE, HSIZE=AHB_SIZE_16B, 1 beats
# UVM_INFO ../src/mst/ahb_master_driver.sv(127) @ 175000: uvm_test_top.env.master_agent.drv [ahb_master_driver] Driving [AHB_WRITE]: HADDR=0x00002004, HBURST=AHB_BURST_SINGLE, HSIZE=AHB_SIZE_16B, 1 beats               
# UVM_INFO ../src/mst/ahb_master_driver.sv(332) @ 225000: uvm_test_top.env.master_agent.drv [ahb_master_driver] Beat[0/1] addr=0x00002004 trans=AHB_TRANS_NONSEQ resp=AHB_RESP_OKAY wdata=0x7d71a08a
# UVM_INFO ../src/mst/ahb_master_driver.sv(376) @ 225000: uvm_test_top.env.master_agent.drv [ahb_master_driver] Transaction complete: AHB_WRITE 0x00002004, 1 beats, burst=AHB_BURST_SINGLE
# UVM_INFO ../src/slv/ahb_slave_driver.sv(184) @ 225000: uvm_test_top.env.slave_agent.drv [ahb_slave_driver] Beat AHB_WRITE addr=0x00002004 resp=AHB_RESP_OKAY waits=2 wdata=0x7d71a08a
# UVM_INFO ../src/mst/ahb_master_monitor.sv(117) @ 225000: uvm_test_top.env.master_agent.mon [ahb_master_monitor] Beat[0] addr=0x00002004 wdata=0x7d71a08a resp=AHB_RESP_OKAY
# UVM_INFO ../src/mst/ahb_master_monitor.sv(220) @ 225000: uvm_test_top.env.master_agent.mon [ahb_master_monitor] Observed [AHB_WRITE]: HADDR=0x00002004, HBURST=AHB_BURST_SINGLE, HSIZE=AHB_SIZE_16B, 1 beats
# UVM_INFO ../src/env/ahb_coverage.sv(126) @ 225000: uvm_test_top.env.master_cov [ahb_coverage] Sampled [AHB_WRITE]: burst=AHB_BURST_SINGLE size=AHB_SIZE_16B beats=1 error=0
# UVM_INFO ../src/slv/ahb_slave_monitor.sv(197) @ 225000: uvm_test_top.env.slave_agent.mon [ahb_slave_monitor] Observed [AHB_WRITE]: HADDR=0x00002004, HBURST=AHB_BURST_SINGLE, HSIZE=AHB_SIZE_16B, 1 beats
# UVM_INFO ../src/env/ahb_scoreboard.sv(104) @ 225000: uvm_test_top.env.scb [ahb_scoreboard] MATCH #3: [AHB_WRITE] HADDR=0x00002004 AHB_BURST_SINGLE 1 beats
# UVM_INFO ../src/env/ahb_coverage.sv(126) @ 225000: uvm_test_top.env.slave_cov [ahb_coverage] Sampled [AHB_WRITE]: burst=AHB_BURST_SINGLE size=AHB_SIZE_16B beats=1 error=0
# UVM_INFO ../src/mst/ahb_master_driver.sv(85) @ 225000: uvm_test_top.env.master_agent.drv [ahb_master_driver] Queueing [AHB_READ]: HADDR=0x00002004, HBURST=AHB_BURST_SINGLE, HSIZE=AHB_SIZE_16B, 1 beats
# UVM_INFO ../src/mst/ahb_master_driver.sv(127) @ 225000: uvm_test_top.env.master_agent.drv [ahb_master_driver] Driving [AHB_READ]: HADDR=0x00002004, HBURST=AHB_BURST_SINGLE, HSIZE=AHB_SIZE_16B, 1 beats               
# UVM_INFO ../src/mst/ahb_master_driver.sv(332) @ 265000: uvm_test_top.env.master_agent.drv [ahb_master_driver] Beat[0/1] addr=0x00002004 trans=AHB_TRANS_NONSEQ resp=AHB_RESP_OKAY rdata=0x7d71a08a
# UVM_INFO ../src/mst/ahb_master_driver.sv(376) @ 265000: uvm_test_top.env.master_agent.drv [ahb_master_driver] Transaction complete: AHB_READ 0x00002004, 1 beats, burst=AHB_BURST_SINGLE
# UVM_INFO ../src/slv/ahb_slave_driver.sv(184) @ 265000: uvm_test_top.env.slave_agent.drv [ahb_slave_driver] Beat AHB_READ addr=0x00002004 resp=AHB_RESP_OKAY waits=1 rdata=0x7d71a08a
# UVM_INFO ../src/mst/ahb_master_monitor.sv(117) @ 265000: uvm_test_top.env.master_agent.mon [ahb_master_monitor] Beat[0] addr=0x00002004 rdata=0x7d71a08a resp=AHB_RESP_OKAY
# UVM_INFO ../src/mst/ahb_master_monitor.sv(220) @ 265000: uvm_test_top.env.master_agent.mon [ahb_master_monitor] Observed [AHB_READ]: HADDR=0x00002004, HBURST=AHB_BURST_SINGLE, HSIZE=AHB_SIZE_16B, 1 beats
# UVM_INFO ../src/env/ahb_coverage.sv(126) @ 265000: uvm_test_top.env.master_cov [ahb_coverage] Sampled [AHB_READ]: burst=AHB_BURST_SINGLE size=AHB_SIZE_16B beats=1 error=0
# UVM_INFO ../src/slv/ahb_slave_monitor.sv(197) @ 265000: uvm_test_top.env.slave_agent.mon [ahb_slave_monitor] Observed [AHB_READ]: HADDR=0x00002004, HBURST=AHB_BURST_SINGLE, HSIZE=AHB_SIZE_16B, 1 beats
# UVM_INFO ../src/env/ahb_scoreboard.sv(104) @ 265000: uvm_test_top.env.scb [ahb_scoreboard] MATCH #4: [AHB_READ] HADDR=0x00002004 AHB_BURST_SINGLE 1 beats
# UVM_INFO ../src/env/ahb_coverage.sv(126) @ 265000: uvm_test_top.env.slave_cov [ahb_coverage] Sampled [AHB_READ]: burst=AHB_BURST_SINGLE size=AHB_SIZE_16B beats=1 error=0
# UVM_INFO ../src/mst_seq/ahb_base_seq.sv(157) @ 265000: uvm_test_top.env.master_agent.sqr@@seq [ahb_single_seq] AHB_BURST_SINGLE AHB_SIZE_16B beat 0 @0x00002004 ok
# UVM_INFO ../src/mst/ahb_master_driver.sv(85) @ 265000: uvm_test_top.env.master_agent.drv [ahb_master_driver] Queueing [AHB_WRITE]: HADDR=0x0000200a, HBURST=AHB_BURST_SINGLE, HSIZE=AHB_SIZE_8B, 1 beats
# UVM_INFO ../src/mst/ahb_master_driver.sv(127) @ 265000: uvm_test_top.env.master_agent.drv [ahb_master_driver] Driving [AHB_WRITE]: HADDR=0x0000200a, HBURST=AHB_BURST_SINGLE, HSIZE=AHB_SIZE_8B, 1 beats               
# UVM_INFO ../src/mst/ahb_master_driver.sv(332) @ 305000: uvm_test_top.env.master_agent.drv [ahb_master_driver] Beat[0/1] addr=0x0000200a trans=AHB_TRANS_NONSEQ resp=AHB_RESP_OKAY wdata=0x76ebe7aa
# UVM_INFO ../src/mst/ahb_master_driver.sv(376) @ 305000: uvm_test_top.env.master_agent.drv [ahb_master_driver] Transaction complete: AHB_WRITE 0x0000200a, 1 beats, burst=AHB_BURST_SINGLE
# UVM_INFO ../src/slv/ahb_slave_driver.sv(184) @ 305000: uvm_test_top.env.slave_agent.drv [ahb_slave_driver] Beat AHB_WRITE addr=0x0000200a resp=AHB_RESP_OKAY waits=1 wdata=0x76ebe7aa
# UVM_INFO ../src/mst/ahb_master_monitor.sv(117) @ 305000: uvm_test_top.env.master_agent.mon [ahb_master_monitor] Beat[0] addr=0x0000200a wdata=0x76ebe7aa resp=AHB_RESP_OKAY
# UVM_INFO ../src/mst/ahb_master_monitor.sv(220) @ 305000: uvm_test_top.env.master_agent.mon [ahb_master_monitor] Observed [AHB_WRITE]: HADDR=0x0000200a, HBURST=AHB_BURST_SINGLE, HSIZE=AHB_SIZE_8B, 1 beats
# UVM_INFO ../src/env/ahb_coverage.sv(126) @ 305000: uvm_test_top.env.master_cov [ahb_coverage] Sampled [AHB_WRITE]: burst=AHB_BURST_SINGLE size=AHB_SIZE_8B beats=1 error=0
# UVM_INFO ../src/slv/ahb_slave_monitor.sv(197) @ 305000: uvm_test_top.env.slave_agent.mon [ahb_slave_monitor] Observed [AHB_WRITE]: HADDR=0x0000200a, HBURST=AHB_BURST_SINGLE, HSIZE=AHB_SIZE_8B, 1 beats
# UVM_INFO ../src/env/ahb_scoreboard.sv(104) @ 305000: uvm_test_top.env.scb [ahb_scoreboard] MATCH #5: [AHB_WRITE] HADDR=0x0000200a AHB_BURST_SINGLE 1 beats
# UVM_INFO ../src/env/ahb_coverage.sv(126) @ 305000: uvm_test_top.env.slave_cov [ahb_coverage] Sampled [AHB_WRITE]: burst=AHB_BURST_SINGLE size=AHB_SIZE_8B beats=1 error=0
# UVM_INFO ../src/mst/ahb_master_driver.sv(85) @ 305000: uvm_test_top.env.master_agent.drv [ahb_master_driver] Queueing [AHB_READ]: HADDR=0x0000200a, HBURST=AHB_BURST_SINGLE, HSIZE=AHB_SIZE_8B, 1 beats
# UVM_INFO ../src/mst/ahb_master_driver.sv(127) @ 305000: uvm_test_top.env.master_agent.drv [ahb_master_driver] Driving [AHB_READ]: HADDR=0x0000200a, HBURST=AHB_BURST_SINGLE, HSIZE=AHB_SIZE_8B, 1 beats               
# UVM_INFO ../src/mst/ahb_master_driver.sv(332) @ 355000: uvm_test_top.env.master_agent.drv [ahb_master_driver] Beat[0/1] addr=0x0000200a trans=AHB_TRANS_NONSEQ resp=AHB_RESP_OKAY rdata=0x76ebe7aa
# UVM_INFO ../src/mst/ahb_master_driver.sv(376) @ 355000: uvm_test_top.env.master_agent.drv [ahb_master_driver] Transaction complete: AHB_READ 0x0000200a, 1 beats, burst=AHB_BURST_SINGLE
# UVM_INFO ../src/slv/ahb_slave_driver.sv(184) @ 355000: uvm_test_top.env.slave_agent.drv [ahb_slave_driver] Beat AHB_READ addr=0x0000200a resp=AHB_RESP_OKAY waits=2 rdata=0x76ebe7aa
# UVM_INFO ../src/slv/ahb_slave_monitor.sv(197) @ 355000: uvm_test_top.env.slave_agent.mon [ahb_slave_monitor] Observed [AHB_READ]: HADDR=0x0000200a, HBURST=AHB_BURST_SINGLE, HSIZE=AHB_SIZE_8B, 1 beats
# UVM_INFO ../src/env/ahb_coverage.sv(126) @ 355000: uvm_test_top.env.slave_cov [ahb_coverage] Sampled [AHB_READ]: burst=AHB_BURST_SINGLE size=AHB_SIZE_8B beats=1 error=0
# UVM_INFO ../src/mst/ahb_master_monitor.sv(117) @ 355000: uvm_test_top.env.master_agent.mon [ahb_master_monitor] Beat[0] addr=0x0000200a rdata=0x76ebe7aa resp=AHB_RESP_OKAY
# UVM_INFO ../src/mst/ahb_master_monitor.sv(220) @ 355000: uvm_test_top.env.master_agent.mon [ahb_master_monitor] Observed [AHB_READ]: HADDR=0x0000200a, HBURST=AHB_BURST_SINGLE, HSIZE=AHB_SIZE_8B, 1 beats
# UVM_INFO ../src/env/ahb_coverage.sv(126) @ 355000: uvm_test_top.env.master_cov [ahb_coverage] Sampled [AHB_READ]: burst=AHB_BURST_SINGLE size=AHB_SIZE_8B beats=1 error=0
# UVM_INFO ../src/env/ahb_scoreboard.sv(104) @ 355000: uvm_test_top.env.scb [ahb_scoreboard] MATCH #6: [AHB_READ] HADDR=0x0000200a AHB_BURST_SINGLE 1 beats
# UVM_INFO ../src/mst_seq/ahb_base_seq.sv(157) @ 355000: uvm_test_top.env.master_agent.sqr@@seq [ahb_single_seq] AHB_BURST_SINGLE AHB_SIZE_8B beat 0 @0x0000200a ok
# UVM_INFO ../src/mst/ahb_master_driver.sv(85) @ 355000: uvm_test_top.env.master_agent.drv [ahb_master_driver] Queueing [AHB_WRITE]: HADDR=0x0000200c, HBURST=AHB_BURST_SINGLE, HSIZE=AHB_SIZE_32B, 1 beats
# UVM_INFO ../src/mst/ahb_master_driver.sv(127) @ 355000: uvm_test_top.env.master_agent.drv [ahb_master_driver] Driving [AHB_WRITE]: HADDR=0x0000200c, HBURST=AHB_BURST_SINGLE, HSIZE=AHB_SIZE_32B, 1 beats               
# UVM_INFO ../src/mst/ahb_master_driver.sv(332) @ 385000: uvm_test_top.env.master_agent.drv [ahb_master_driver] Beat[0/1] addr=0x0000200c trans=AHB_TRANS_NONSEQ resp=AHB_RESP_OKAY wdata=0xd29a5355
# UVM_INFO ../src/mst/ahb_master_driver.sv(376) @ 385000: uvm_test_top.env.master_agent.drv [ahb_master_driver] Transaction complete: AHB_WRITE 0x0000200c, 1 beats, burst=AHB_BURST_SINGLE
# UVM_INFO ../src/slv/ahb_slave_driver.sv(184) @ 385000: uvm_test_top.env.slave_agent.drv [ahb_slave_driver] Beat AHB_WRITE addr=0x0000200c resp=AHB_RESP_OKAY waits=0 wdata=0xd29a5355
# UVM_INFO ../src/mst/ahb_master_monitor.sv(117) @ 385000: uvm_test_top.env.master_agent.mon [ahb_master_monitor] Beat[0] addr=0x0000200c wdata=0xd29a5355 resp=AHB_RESP_OKAY
# UVM_INFO ../src/mst/ahb_master_monitor.sv(220) @ 385000: uvm_test_top.env.master_agent.mon [ahb_master_monitor] Observed [AHB_WRITE]: HADDR=0x0000200c, HBURST=AHB_BURST_SINGLE, HSIZE=AHB_SIZE_32B, 1 beats
# UVM_INFO ../src/env/ahb_coverage.sv(126) @ 385000: uvm_test_top.env.master_cov [ahb_coverage] Sampled [AHB_WRITE]: burst=AHB_BURST_SINGLE size=AHB_SIZE_32B beats=1 error=0
# UVM_INFO ../src/slv/ahb_slave_monitor.sv(197) @ 385000: uvm_test_top.env.slave_agent.mon [ahb_slave_monitor] Observed [AHB_WRITE]: HADDR=0x0000200c, HBURST=AHB_BURST_SINGLE, HSIZE=AHB_SIZE_32B, 1 beats
# UVM_INFO ../src/env/ahb_scoreboard.sv(104) @ 385000: uvm_test_top.env.scb [ahb_scoreboard] MATCH #7: [AHB_WRITE] HADDR=0x0000200c AHB_BURST_SINGLE 1 beats
# UVM_INFO ../src/env/ahb_coverage.sv(126) @ 385000: uvm_test_top.env.slave_cov [ahb_coverage] Sampled [AHB_WRITE]: burst=AHB_BURST_SINGLE size=AHB_SIZE_32B beats=1 error=0
# UVM_INFO ../src/mst/ahb_master_driver.sv(85) @ 385000: uvm_test_top.env.master_agent.drv [ahb_master_driver] Queueing [AHB_READ]: HADDR=0x0000200c, HBURST=AHB_BURST_SINGLE, HSIZE=AHB_SIZE_32B, 1 beats
# UVM_INFO ../src/mst/ahb_master_driver.sv(127) @ 385000: uvm_test_top.env.master_agent.drv [ahb_master_driver] Driving [AHB_READ]: HADDR=0x0000200c, HBURST=AHB_BURST_SINGLE, HSIZE=AHB_SIZE_32B, 1 beats               
# UVM_INFO ../src/mst/ahb_master_driver.sv(332) @ 435000: uvm_test_top.env.master_agent.drv [ahb_master_driver] Beat[0/1] addr=0x0000200c trans=AHB_TRANS_NONSEQ resp=AHB_RESP_OKAY rdata=0xd29a5355
# UVM_INFO ../src/mst/ahb_master_driver.sv(376) @ 435000: uvm_test_top.env.master_agent.drv [ahb_master_driver] Transaction complete: AHB_READ 0x0000200c, 1 beats, burst=AHB_BURST_SINGLE
# UVM_INFO ../src/slv/ahb_slave_driver.sv(184) @ 435000: uvm_test_top.env.slave_agent.drv [ahb_slave_driver] Beat AHB_READ addr=0x0000200c resp=AHB_RESP_OKAY waits=2 rdata=0xd29a5355
# UVM_INFO ../src/slv/ahb_slave_monitor.sv(197) @ 435000: uvm_test_top.env.slave_agent.mon [ahb_slave_monitor] Observed [AHB_READ]: HADDR=0x0000200c, HBURST=AHB_BURST_SINGLE, HSIZE=AHB_SIZE_32B, 1 beats
# UVM_INFO ../src/env/ahb_coverage.sv(126) @ 435000: uvm_test_top.env.slave_cov [ahb_coverage] Sampled [AHB_READ]: burst=AHB_BURST_SINGLE size=AHB_SIZE_32B beats=1 error=0
# UVM_INFO ../src/mst/ahb_master_monitor.sv(117) @ 435000: uvm_test_top.env.master_agent.mon [ahb_master_monitor] Beat[0] addr=0x0000200c rdata=0xd29a5355 resp=AHB_RESP_OKAY
# UVM_INFO ../src/mst/ahb_master_monitor.sv(220) @ 435000: uvm_test_top.env.master_agent.mon [ahb_master_monitor] Observed [AHB_READ]: HADDR=0x0000200c, HBURST=AHB_BURST_SINGLE, HSIZE=AHB_SIZE_32B, 1 beats
# UVM_INFO ../src/env/ahb_coverage.sv(126) @ 435000: uvm_test_top.env.master_cov [ahb_coverage] Sampled [AHB_READ]: burst=AHB_BURST_SINGLE size=AHB_SIZE_32B beats=1 error=0
# UVM_INFO ../src/env/ahb_scoreboard.sv(104) @ 435000: uvm_test_top.env.scb [ahb_scoreboard] MATCH #8: [AHB_READ] HADDR=0x0000200c AHB_BURST_SINGLE 1 beats
# UVM_INFO ../src/mst_seq/ahb_base_seq.sv(157) @ 435000: uvm_test_top.env.master_agent.sqr@@seq [ahb_single_seq] AHB_BURST_SINGLE AHB_SIZE_32B beat 0 @0x0000200c ok
# UVM_INFO ../src/mst/ahb_master_driver.sv(85) @ 435000: uvm_test_top.env.master_agent.drv [ahb_master_driver] Queueing [AHB_WRITE]: HADDR=0x00002010, HBURST=AHB_BURST_SINGLE, HSIZE=AHB_SIZE_32B, 1 beats
# UVM_INFO ../src/mst/ahb_master_driver.sv(127) @ 435000: uvm_test_top.env.master_agent.drv [ahb_master_driver] Driving [AHB_WRITE]: HADDR=0x00002010, HBURST=AHB_BURST_SINGLE, HSIZE=AHB_SIZE_32B, 1 beats               
# UVM_INFO ../src/mst/ahb_master_driver.sv(332) @ 465000: uvm_test_top.env.master_agent.drv [ahb_master_driver] Beat[0/1] addr=0x00002010 trans=AHB_TRANS_NONSEQ resp=AHB_RESP_OKAY wdata=0x2dcb1452
# UVM_INFO ../src/mst/ahb_master_driver.sv(376) @ 465000: uvm_test_top.env.master_agent.drv [ahb_master_driver] Transaction complete: AHB_WRITE 0x00002010, 1 beats, burst=AHB_BURST_SINGLE
# UVM_INFO ../src/slv/ahb_slave_driver.sv(184) @ 465000: uvm_test_top.env.slave_agent.drv [ahb_slave_driver] Beat AHB_WRITE addr=0x00002010 resp=AHB_RESP_OKAY waits=0 wdata=0x2dcb1452
# UVM_INFO ../src/mst/ahb_master_monitor.sv(117) @ 465000: uvm_test_top.env.master_agent.mon [ahb_master_monitor] Beat[0] addr=0x00002010 wdata=0x2dcb1452 resp=AHB_RESP_OKAY
# UVM_INFO ../src/mst/ahb_master_monitor.sv(220) @ 465000: uvm_test_top.env.master_agent.mon [ahb_master_monitor] Observed [AHB_WRITE]: HADDR=0x00002010, HBURST=AHB_BURST_SINGLE, HSIZE=AHB_SIZE_32B, 1 beats
# UVM_INFO ../src/env/ahb_coverage.sv(126) @ 465000: uvm_test_top.env.master_cov [ahb_coverage] Sampled [AHB_WRITE]: burst=AHB_BURST_SINGLE size=AHB_SIZE_32B beats=1 error=0
# UVM_INFO ../src/slv/ahb_slave_monitor.sv(197) @ 465000: uvm_test_top.env.slave_agent.mon [ahb_slave_monitor] Observed [AHB_WRITE]: HADDR=0x00002010, HBURST=AHB_BURST_SINGLE, HSIZE=AHB_SIZE_32B, 1 beats
# UVM_INFO ../src/env/ahb_scoreboard.sv(104) @ 465000: uvm_test_top.env.scb [ahb_scoreboard] MATCH #9: [AHB_WRITE] HADDR=0x00002010 AHB_BURST_SINGLE 1 beats
# UVM_INFO ../src/env/ahb_coverage.sv(126) @ 465000: uvm_test_top.env.slave_cov [ahb_coverage] Sampled [AHB_WRITE]: burst=AHB_BURST_SINGLE size=AHB_SIZE_32B beats=1 error=0
# UVM_INFO ../src/mst/ahb_master_driver.sv(85) @ 465000: uvm_test_top.env.master_agent.drv [ahb_master_driver] Queueing [AHB_READ]: HADDR=0x00002010, HBURST=AHB_BURST_SINGLE, HSIZE=AHB_SIZE_32B, 1 beats
# UVM_INFO ../src/mst/ahb_master_driver.sv(127) @ 465000: uvm_test_top.env.master_agent.drv [ahb_master_driver] Driving [AHB_READ]: HADDR=0x00002010, HBURST=AHB_BURST_SINGLE, HSIZE=AHB_SIZE_32B, 1 beats               
# UVM_INFO ../src/mst/ahb_master_driver.sv(332) @ 505000: uvm_test_top.env.master_agent.drv [ahb_master_driver] Beat[0/1] addr=0x00002010 trans=AHB_TRANS_NONSEQ resp=AHB_RESP_OKAY rdata=0x2dcb1452
# UVM_INFO ../src/mst/ahb_master_driver.sv(376) @ 505000: uvm_test_top.env.master_agent.drv [ahb_master_driver] Transaction complete: AHB_READ 0x00002010, 1 beats, burst=AHB_BURST_SINGLE
# UVM_INFO ../src/slv/ahb_slave_driver.sv(184) @ 505000: uvm_test_top.env.slave_agent.drv [ahb_slave_driver] Beat AHB_READ addr=0x00002010 resp=AHB_RESP_OKAY waits=1 rdata=0x2dcb1452
# UVM_INFO ../src/mst/ahb_master_monitor.sv(117) @ 505000: uvm_test_top.env.master_agent.mon [ahb_master_monitor] Beat[0] addr=0x00002010 rdata=0x2dcb1452 resp=AHB_RESP_OKAY
# UVM_INFO ../src/mst/ahb_master_monitor.sv(220) @ 505000: uvm_test_top.env.master_agent.mon [ahb_master_monitor] Observed [AHB_READ]: HADDR=0x00002010, HBURST=AHB_BURST_SINGLE, HSIZE=AHB_SIZE_32B, 1 beats
# UVM_INFO ../src/env/ahb_coverage.sv(126) @ 505000: uvm_test_top.env.master_cov [ahb_coverage] Sampled [AHB_READ]: burst=AHB_BURST_SINGLE size=AHB_SIZE_32B beats=1 error=0
# UVM_INFO ../src/slv/ahb_slave_monitor.sv(197) @ 505000: uvm_test_top.env.slave_agent.mon [ahb_slave_monitor] Observed [AHB_READ]: HADDR=0x00002010, HBURST=AHB_BURST_SINGLE, HSIZE=AHB_SIZE_32B, 1 beats
# UVM_INFO ../src/env/ahb_scoreboard.sv(104) @ 505000: uvm_test_top.env.scb [ahb_scoreboard] MATCH #10: [AHB_READ] HADDR=0x00002010 AHB_BURST_SINGLE 1 beats
# UVM_INFO ../src/env/ahb_coverage.sv(126) @ 505000: uvm_test_top.env.slave_cov [ahb_coverage] Sampled [AHB_READ]: burst=AHB_BURST_SINGLE size=AHB_SIZE_32B beats=1 error=0
# UVM_INFO ../src/mst_seq/ahb_base_seq.sv(157) @ 505000: uvm_test_top.env.master_agent.sqr@@seq [ahb_single_seq] AHB_BURST_SINGLE AHB_SIZE_32B beat 0 @0x00002010 ok
# UVM_INFO ../src/mst/ahb_master_driver.sv(85) @ 505000: uvm_test_top.env.master_agent.drv [ahb_master_driver] Queueing [AHB_WRITE]: HADDR=0x00002014, HBURST=AHB_BURST_SINGLE, HSIZE=AHB_SIZE_16B, 1 beats
# UVM_INFO ../src/mst/ahb_master_driver.sv(127) @ 505000: uvm_test_top.env.master_agent.drv [ahb_master_driver] Driving [AHB_WRITE]: HADDR=0x00002014, HBURST=AHB_BURST_SINGLE, HSIZE=AHB_SIZE_16B, 1 beats               
# UVM_INFO ../src/mst/ahb_master_driver.sv(332) @ 545000: uvm_test_top.env.master_agent.drv [ahb_master_driver] Beat[0/1] addr=0x00002014 trans=AHB_TRANS_NONSEQ resp=AHB_RESP_OKAY wdata=0x2fdcc9ac
# UVM_INFO ../src/mst/ahb_master_driver.sv(376) @ 545000: uvm_test_top.env.master_agent.drv [ahb_master_driver] Transaction complete: AHB_WRITE 0x00002014, 1 beats, burst=AHB_BURST_SINGLE
# UVM_INFO ../src/slv/ahb_slave_driver.sv(184) @ 545000: uvm_test_top.env.slave_agent.drv [ahb_slave_driver] Beat AHB_WRITE addr=0x00002014 resp=AHB_RESP_OKAY waits=1 wdata=0x2fdcc9ac
# UVM_INFO ../src/mst/ahb_master_monitor.sv(117) @ 545000: uvm_test_top.env.master_agent.mon [ahb_master_monitor] Beat[0] addr=0x00002014 wdata=0x2fdcc9ac resp=AHB_RESP_OKAY
# UVM_INFO ../src/mst/ahb_master_monitor.sv(220) @ 545000: uvm_test_top.env.master_agent.mon [ahb_master_monitor] Observed [AHB_WRITE]: HADDR=0x00002014, HBURST=AHB_BURST_SINGLE, HSIZE=AHB_SIZE_16B, 1 beats
# UVM_INFO ../src/env/ahb_coverage.sv(126) @ 545000: uvm_test_top.env.master_cov [ahb_coverage] Sampled [AHB_WRITE]: burst=AHB_BURST_SINGLE size=AHB_SIZE_16B beats=1 error=0
# UVM_INFO ../src/slv/ahb_slave_monitor.sv(197) @ 545000: uvm_test_top.env.slave_agent.mon [ahb_slave_monitor] Observed [AHB_WRITE]: HADDR=0x00002014, HBURST=AHB_BURST_SINGLE, HSIZE=AHB_SIZE_16B, 1 beats
# UVM_INFO ../src/env/ahb_scoreboard.sv(104) @ 545000: uvm_test_top.env.scb [ahb_scoreboard] MATCH #11: [AHB_WRITE] HADDR=0x00002014 AHB_BURST_SINGLE 1 beats
# UVM_INFO ../src/env/ahb_coverage.sv(126) @ 545000: uvm_test_top.env.slave_cov [ahb_coverage] Sampled [AHB_WRITE]: burst=AHB_BURST_SINGLE size=AHB_SIZE_16B beats=1 error=0
# UVM_INFO ../src/mst/ahb_master_driver.sv(85) @ 545000: uvm_test_top.env.master_agent.drv [ahb_master_driver] Queueing [AHB_READ]: HADDR=0x00002014, HBURST=AHB_BURST_SINGLE, HSIZE=AHB_SIZE_16B, 1 beats
# UVM_INFO ../src/mst/ahb_master_driver.sv(127) @ 545000: uvm_test_top.env.master_agent.drv [ahb_master_driver] Driving [AHB_READ]: HADDR=0x00002014, HBURST=AHB_BURST_SINGLE, HSIZE=AHB_SIZE_16B, 1 beats               
# UVM_INFO ../src/mst/ahb_master_driver.sv(332) @ 595000: uvm_test_top.env.master_agent.drv [ahb_master_driver] Beat[0/1] addr=0x00002014 trans=AHB_TRANS_NONSEQ resp=AHB_RESP_OKAY rdata=0x2fdcc9ac
# UVM_INFO ../src/mst/ahb_master_driver.sv(376) @ 595000: uvm_test_top.env.master_agent.drv [ahb_master_driver] Transaction complete: AHB_READ 0x00002014, 1 beats, burst=AHB_BURST_SINGLE
# UVM_INFO ../src/slv/ahb_slave_driver.sv(184) @ 595000: uvm_test_top.env.slave_agent.drv [ahb_slave_driver] Beat AHB_READ addr=0x00002014 resp=AHB_RESP_OKAY waits=2 rdata=0x2fdcc9ac
# UVM_INFO ../src/slv/ahb_slave_monitor.sv(197) @ 595000: uvm_test_top.env.slave_agent.mon [ahb_slave_monitor] Observed [AHB_READ]: HADDR=0x00002014, HBURST=AHB_BURST_SINGLE, HSIZE=AHB_SIZE_16B, 1 beats
# UVM_INFO ../src/env/ahb_coverage.sv(126) @ 595000: uvm_test_top.env.slave_cov [ahb_coverage] Sampled [AHB_READ]: burst=AHB_BURST_SINGLE size=AHB_SIZE_16B beats=1 error=0
# UVM_INFO ../src/mst/ahb_master_monitor.sv(117) @ 595000: uvm_test_top.env.master_agent.mon [ahb_master_monitor] Beat[0] addr=0x00002014 rdata=0x2fdcc9ac resp=AHB_RESP_OKAY
# UVM_INFO ../src/mst/ahb_master_monitor.sv(220) @ 595000: uvm_test_top.env.master_agent.mon [ahb_master_monitor] Observed [AHB_READ]: HADDR=0x00002014, HBURST=AHB_BURST_SINGLE, HSIZE=AHB_SIZE_16B, 1 beats
# UVM_INFO ../src/env/ahb_coverage.sv(126) @ 595000: uvm_test_top.env.master_cov [ahb_coverage] Sampled [AHB_READ]: burst=AHB_BURST_SINGLE size=AHB_SIZE_16B beats=1 error=0
# UVM_INFO ../src/env/ahb_scoreboard.sv(104) @ 595000: uvm_test_top.env.scb [ahb_scoreboard] MATCH #12: [AHB_READ] HADDR=0x00002014 AHB_BURST_SINGLE 1 beats
# UVM_INFO ../src/mst_seq/ahb_base_seq.sv(157) @ 595000: uvm_test_top.env.master_agent.sqr@@seq [ahb_single_seq] AHB_BURST_SINGLE AHB_SIZE_16B beat 0 @0x00002014 ok
# UVM_INFO ../src/mst/ahb_master_driver.sv(85) @ 595000: uvm_test_top.env.master_agent.drv [ahb_master_driver] Queueing [AHB_WRITE]: HADDR=0x00002019, HBURST=AHB_BURST_SINGLE, HSIZE=AHB_SIZE_8B, 1 beats
# UVM_INFO ../src/mst/ahb_master_driver.sv(127) @ 595000: uvm_test_top.env.master_agent.drv [ahb_master_driver] Driving [AHB_WRITE]: HADDR=0x00002019, HBURST=AHB_BURST_SINGLE, HSIZE=AHB_SIZE_8B, 1 beats               
# UVM_INFO ../src/mst/ahb_master_driver.sv(332) @ 635000: uvm_test_top.env.master_agent.drv [ahb_master_driver] Beat[0/1] addr=0x00002019 trans=AHB_TRANS_NONSEQ resp=AHB_RESP_OKAY wdata=0x5bb7a226
# UVM_INFO ../src/mst/ahb_master_driver.sv(376) @ 635000: uvm_test_top.env.master_agent.drv [ahb_master_driver] Transaction complete: AHB_WRITE 0x00002019, 1 beats, burst=AHB_BURST_SINGLE
# UVM_INFO ../src/slv/ahb_slave_driver.sv(184) @ 635000: uvm_test_top.env.slave_agent.drv [ahb_slave_driver] Beat AHB_WRITE addr=0x00002019 resp=AHB_RESP_OKAY waits=1 wdata=0x5bb7a226
# UVM_INFO ../src/slv/ahb_slave_monitor.sv(197) @ 635000: uvm_test_top.env.slave_agent.mon [ahb_slave_monitor] Observed [AHB_WRITE]: HADDR=0x00002019, HBURST=AHB_BURST_SINGLE, HSIZE=AHB_SIZE_8B, 1 beats
# UVM_INFO ../src/env/ahb_coverage.sv(126) @ 635000: uvm_test_top.env.slave_cov [ahb_coverage] Sampled [AHB_WRITE]: burst=AHB_BURST_SINGLE size=AHB_SIZE_8B beats=1 error=0
# UVM_INFO ../src/mst/ahb_master_monitor.sv(117) @ 635000: uvm_test_top.env.master_agent.mon [ahb_master_monitor] Beat[0] addr=0x00002019 wdata=0x5bb7a226 resp=AHB_RESP_OKAY
# UVM_INFO ../src/mst/ahb_master_monitor.sv(220) @ 635000: uvm_test_top.env.master_agent.mon [ahb_master_monitor] Observed [AHB_WRITE]: HADDR=0x00002019, HBURST=AHB_BURST_SINGLE, HSIZE=AHB_SIZE_8B, 1 beats
# UVM_INFO ../src/env/ahb_coverage.sv(126) @ 635000: uvm_test_top.env.master_cov [ahb_coverage] Sampled [AHB_WRITE]: burst=AHB_BURST_SINGLE size=AHB_SIZE_8B beats=1 error=0
# UVM_INFO ../src/env/ahb_scoreboard.sv(104) @ 635000: uvm_test_top.env.scb [ahb_scoreboard] MATCH #13: [AHB_WRITE] HADDR=0x00002019 AHB_BURST_SINGLE 1 beats
# UVM_INFO ../src/mst/ahb_master_driver.sv(85) @ 635000: uvm_test_top.env.master_agent.drv [ahb_master_driver] Queueing [AHB_READ]: HADDR=0x00002019, HBURST=AHB_BURST_SINGLE, HSIZE=AHB_SIZE_8B, 1 beats
# UVM_INFO ../src/mst/ahb_master_driver.sv(127) @ 635000: uvm_test_top.env.master_agent.drv [ahb_master_driver] Driving [AHB_READ]: HADDR=0x00002019, HBURST=AHB_BURST_SINGLE, HSIZE=AHB_SIZE_8B, 1 beats               
# UVM_INFO ../src/mst/ahb_master_driver.sv(332) @ 665000: uvm_test_top.env.master_agent.drv [ahb_master_driver] Beat[0/1] addr=0x00002019 trans=AHB_TRANS_NONSEQ resp=AHB_RESP_OKAY rdata=0x5bb7a226
# UVM_INFO ../src/mst/ahb_master_driver.sv(376) @ 665000: uvm_test_top.env.master_agent.drv [ahb_master_driver] Transaction complete: AHB_READ 0x00002019, 1 beats, burst=AHB_BURST_SINGLE
# UVM_INFO ../src/slv/ahb_slave_driver.sv(184) @ 665000: uvm_test_top.env.slave_agent.drv [ahb_slave_driver] Beat AHB_READ addr=0x00002019 resp=AHB_RESP_OKAY waits=0 rdata=0x5bb7a226
# UVM_INFO ../src/mst/ahb_master_monitor.sv(117) @ 665000: uvm_test_top.env.master_agent.mon [ahb_master_monitor] Beat[0] addr=0x00002019 rdata=0x5bb7a226 resp=AHB_RESP_OKAY
# UVM_INFO ../src/mst/ahb_master_monitor.sv(220) @ 665000: uvm_test_top.env.master_agent.mon [ahb_master_monitor] Observed [AHB_READ]: HADDR=0x00002019, HBURST=AHB_BURST_SINGLE, HSIZE=AHB_SIZE_8B, 1 beats
# UVM_INFO ../src/env/ahb_coverage.sv(126) @ 665000: uvm_test_top.env.master_cov [ahb_coverage] Sampled [AHB_READ]: burst=AHB_BURST_SINGLE size=AHB_SIZE_8B beats=1 error=0
# UVM_INFO ../src/slv/ahb_slave_monitor.sv(197) @ 665000: uvm_test_top.env.slave_agent.mon [ahb_slave_monitor] Observed [AHB_READ]: HADDR=0x00002019, HBURST=AHB_BURST_SINGLE, HSIZE=AHB_SIZE_8B, 1 beats
# UVM_INFO ../src/env/ahb_scoreboard.sv(104) @ 665000: uvm_test_top.env.scb [ahb_scoreboard] MATCH #14: [AHB_READ] HADDR=0x00002019 AHB_BURST_SINGLE 1 beats
# UVM_INFO ../src/env/ahb_coverage.sv(126) @ 665000: uvm_test_top.env.slave_cov [ahb_coverage] Sampled [AHB_READ]: burst=AHB_BURST_SINGLE size=AHB_SIZE_8B beats=1 error=0
# UVM_INFO ../src/mst_seq/ahb_base_seq.sv(157) @ 665000: uvm_test_top.env.master_agent.sqr@@seq [ahb_single_seq] AHB_BURST_SINGLE AHB_SIZE_8B beat 0 @0x00002019 ok
# UVM_INFO ../src/mst/ahb_master_driver.sv(85) @ 665000: uvm_test_top.env.master_agent.drv [ahb_master_driver] Queueing [AHB_WRITE]: HADDR=0x0000201f, HBURST=AHB_BURST_SINGLE, HSIZE=AHB_SIZE_8B, 1 beats
# UVM_INFO ../src/mst/ahb_master_driver.sv(127) @ 665000: uvm_test_top.env.master_agent.drv [ahb_master_driver] Driving [AHB_WRITE]: HADDR=0x0000201f, HBURST=AHB_BURST_SINGLE, HSIZE=AHB_SIZE_8B, 1 beats               
# UVM_INFO ../src/mst/ahb_master_driver.sv(332) @ 705000: uvm_test_top.env.master_agent.drv [ahb_master_driver] Beat[0/1] addr=0x0000201f trans=AHB_TRANS_NONSEQ resp=AHB_RESP_OKAY wdata=0xee772573
# UVM_INFO ../src/mst/ahb_master_driver.sv(376) @ 705000: uvm_test_top.env.master_agent.drv [ahb_master_driver] Transaction complete: AHB_WRITE 0x0000201f, 1 beats, burst=AHB_BURST_SINGLE
# UVM_INFO ../src/slv/ahb_slave_driver.sv(184) @ 705000: uvm_test_top.env.slave_agent.drv [ahb_slave_driver] Beat AHB_WRITE addr=0x0000201f resp=AHB_RESP_OKAY waits=1 wdata=0xee772573
# UVM_INFO ../src/mst/ahb_master_monitor.sv(117) @ 705000: uvm_test_top.env.master_agent.mon [ahb_master_monitor] Beat[0] addr=0x0000201f wdata=0xee772573 resp=AHB_RESP_OKAY
# UVM_INFO ../src/mst/ahb_master_monitor.sv(220) @ 705000: uvm_test_top.env.master_agent.mon [ahb_master_monitor] Observed [AHB_WRITE]: HADDR=0x0000201f, HBURST=AHB_BURST_SINGLE, HSIZE=AHB_SIZE_8B, 1 beats
# UVM_INFO ../src/env/ahb_coverage.sv(126) @ 705000: uvm_test_top.env.master_cov [ahb_coverage] Sampled [AHB_WRITE]: burst=AHB_BURST_SINGLE size=AHB_SIZE_8B beats=1 error=0
# UVM_INFO ../src/slv/ahb_slave_monitor.sv(197) @ 705000: uvm_test_top.env.slave_agent.mon [ahb_slave_monitor] Observed [AHB_WRITE]: HADDR=0x0000201f, HBURST=AHB_BURST_SINGLE, HSIZE=AHB_SIZE_8B, 1 beats
# UVM_INFO ../src/env/ahb_scoreboard.sv(104) @ 705000: uvm_test_top.env.scb [ahb_scoreboard] MATCH #15: [AHB_WRITE] HADDR=0x0000201f AHB_BURST_SINGLE 1 beats
# UVM_INFO ../src/env/ahb_coverage.sv(126) @ 705000: uvm_test_top.env.slave_cov [ahb_coverage] Sampled [AHB_WRITE]: burst=AHB_BURST_SINGLE size=AHB_SIZE_8B beats=1 error=0
# UVM_INFO ../src/mst/ahb_master_driver.sv(85) @ 705000: uvm_test_top.env.master_agent.drv [ahb_master_driver] Queueing [AHB_READ]: HADDR=0x0000201f, HBURST=AHB_BURST_SINGLE, HSIZE=AHB_SIZE_8B, 1 beats
# UVM_INFO ../src/mst/ahb_master_driver.sv(127) @ 705000: uvm_test_top.env.master_agent.drv [ahb_master_driver] Driving [AHB_READ]: HADDR=0x0000201f, HBURST=AHB_BURST_SINGLE, HSIZE=AHB_SIZE_8B, 1 beats               
# UVM_INFO ../src/mst/ahb_master_driver.sv(332) @ 745000: uvm_test_top.env.master_agent.drv [ahb_master_driver] Beat[0/1] addr=0x0000201f trans=AHB_TRANS_NONSEQ resp=AHB_RESP_OKAY rdata=0xee772573
# UVM_INFO ../src/mst/ahb_master_driver.sv(376) @ 745000: uvm_test_top.env.master_agent.drv [ahb_master_driver] Transaction complete: AHB_READ 0x0000201f, 1 beats, burst=AHB_BURST_SINGLE
# UVM_INFO ../src/slv/ahb_slave_driver.sv(184) @ 745000: uvm_test_top.env.slave_agent.drv [ahb_slave_driver] Beat AHB_READ addr=0x0000201f resp=AHB_RESP_OKAY waits=1 rdata=0xee772573
# UVM_INFO ../src/mst/ahb_master_monitor.sv(117) @ 745000: uvm_test_top.env.master_agent.mon [ahb_master_monitor] Beat[0] addr=0x0000201f rdata=0xee772573 resp=AHB_RESP_OKAY
# UVM_INFO ../src/mst/ahb_master_monitor.sv(220) @ 745000: uvm_test_top.env.master_agent.mon [ahb_master_monitor] Observed [AHB_READ]: HADDR=0x0000201f, HBURST=AHB_BURST_SINGLE, HSIZE=AHB_SIZE_8B, 1 beats
# UVM_INFO ../src/env/ahb_coverage.sv(126) @ 745000: uvm_test_top.env.master_cov [ahb_coverage] Sampled [AHB_READ]: burst=AHB_BURST_SINGLE size=AHB_SIZE_8B beats=1 error=0
# UVM_INFO ../src/slv/ahb_slave_monitor.sv(197) @ 745000: uvm_test_top.env.slave_agent.mon [ahb_slave_monitor] Observed [AHB_READ]: HADDR=0x0000201f, HBURST=AHB_BURST_SINGLE, HSIZE=AHB_SIZE_8B, 1 beats
# UVM_INFO ../src/env/ahb_scoreboard.sv(104) @ 745000: uvm_test_top.env.scb [ahb_scoreboard] MATCH #16: [AHB_READ] HADDR=0x0000201f AHB_BURST_SINGLE 1 beats
# UVM_INFO ../src/env/ahb_coverage.sv(126) @ 745000: uvm_test_top.env.slave_cov [ahb_coverage] Sampled [AHB_READ]: burst=AHB_BURST_SINGLE size=AHB_SIZE_8B beats=1 error=0
# UVM_INFO ../src/mst_seq/ahb_base_seq.sv(157) @ 745000: uvm_test_top.env.master_agent.sqr@@seq [ahb_single_seq] AHB_BURST_SINGLE AHB_SIZE_8B beat 0 @0x0000201f ok
# UVM_INFO ../src/mst/ahb_master_driver.sv(85) @ 745000: uvm_test_top.env.master_agent.drv [ahb_master_driver] Queueing [AHB_WRITE]: HADDR=0x00002022, HBURST=AHB_BURST_SINGLE, HSIZE=AHB_SIZE_16B, 1 beats
# UVM_INFO ../src/mst/ahb_master_driver.sv(127) @ 745000: uvm_test_top.env.master_agent.drv [ahb_master_driver] Driving [AHB_WRITE]: HADDR=0x00002022, HBURST=AHB_BURST_SINGLE, HSIZE=AHB_SIZE_16B, 1 beats               
# UVM_INFO ../src/mst/ahb_master_driver.sv(332) @ 795000: uvm_test_top.env.master_agent.drv [ahb_master_driver] Beat[0/1] addr=0x00002022 trans=AHB_TRANS_NONSEQ resp=AHB_RESP_OKAY wdata=0xaee88bb0
# UVM_INFO ../src/mst/ahb_master_driver.sv(376) @ 795000: uvm_test_top.env.master_agent.drv [ahb_master_driver] Transaction complete: AHB_WRITE 0x00002022, 1 beats, burst=AHB_BURST_SINGLE
# UVM_INFO ../src/slv/ahb_slave_driver.sv(184) @ 795000: uvm_test_top.env.slave_agent.drv [ahb_slave_driver] Beat AHB_WRITE addr=0x00002022 resp=AHB_RESP_OKAY waits=2 wdata=0xaee88bb0
# UVM_INFO ../src/slv/ahb_slave_monitor.sv(197) @ 795000: uvm_test_top.env.slave_agent.mon [ahb_slave_monitor] Observed [AHB_WRITE]: HADDR=0x00002022, HBURST=AHB_BURST_SINGLE, HSIZE=AHB_SIZE_16B, 1 beats
# UVM_INFO ../src/env/ahb_coverage.sv(126) @ 795000: uvm_test_top.env.slave_cov [ahb_coverage] Sampled [AHB_WRITE]: burst=AHB_BURST_SINGLE size=AHB_SIZE_16B beats=1 error=0
# UVM_INFO ../src/mst/ahb_master_monitor.sv(117) @ 795000: uvm_test_top.env.master_agent.mon [ahb_master_monitor] Beat[0] addr=0x00002022 wdata=0xaee88bb0 resp=AHB_RESP_OKAY
# UVM_INFO ../src/mst/ahb_master_monitor.sv(220) @ 795000: uvm_test_top.env.master_agent.mon [ahb_master_monitor] Observed [AHB_WRITE]: HADDR=0x00002022, HBURST=AHB_BURST_SINGLE, HSIZE=AHB_SIZE_16B, 1 beats
# UVM_INFO ../src/env/ahb_coverage.sv(126) @ 795000: uvm_test_top.env.master_cov [ahb_coverage] Sampled [AHB_WRITE]: burst=AHB_BURST_SINGLE size=AHB_SIZE_16B beats=1 error=0
# UVM_INFO ../src/env/ahb_scoreboard.sv(104) @ 795000: uvm_test_top.env.scb [ahb_scoreboard] MATCH #17: [AHB_WRITE] HADDR=0x00002022 AHB_BURST_SINGLE 1 beats
# UVM_INFO ../src/mst/ahb_master_driver.sv(85) @ 795000: uvm_test_top.env.master_agent.drv [ahb_master_driver] Queueing [AHB_READ]: HADDR=0x00002022, HBURST=AHB_BURST_SINGLE, HSIZE=AHB_SIZE_16B, 1 beats
# UVM_INFO ../src/mst/ahb_master_driver.sv(127) @ 795000: uvm_test_top.env.master_agent.drv [ahb_master_driver] Driving [AHB_READ]: HADDR=0x00002022, HBURST=AHB_BURST_SINGLE, HSIZE=AHB_SIZE_16B, 1 beats               
# UVM_INFO ../src/mst/ahb_master_driver.sv(332) @ 825000: uvm_test_top.env.master_agent.drv [ahb_master_driver] Beat[0/1] addr=0x00002022 trans=AHB_TRANS_NONSEQ resp=AHB_RESP_OKAY rdata=0xaee88bb0
# UVM_INFO ../src/mst/ahb_master_driver.sv(376) @ 825000: uvm_test_top.env.master_agent.drv [ahb_master_driver] Transaction complete: AHB_READ 0x00002022, 1 beats, burst=AHB_BURST_SINGLE
# UVM_INFO ../src/slv/ahb_slave_driver.sv(184) @ 825000: uvm_test_top.env.slave_agent.drv [ahb_slave_driver] Beat AHB_READ addr=0x00002022 resp=AHB_RESP_OKAY waits=0 rdata=0xaee88bb0
# UVM_INFO ../src/mst/ahb_master_monitor.sv(117) @ 825000: uvm_test_top.env.master_agent.mon [ahb_master_monitor] Beat[0] addr=0x00002022 rdata=0xaee88bb0 resp=AHB_RESP_OKAY
# UVM_INFO ../src/mst/ahb_master_monitor.sv(220) @ 825000: uvm_test_top.env.master_agent.mon [ahb_master_monitor] Observed [AHB_READ]: HADDR=0x00002022, HBURST=AHB_BURST_SINGLE, HSIZE=AHB_SIZE_16B, 1 beats
# UVM_INFO ../src/env/ahb_coverage.sv(126) @ 825000: uvm_test_top.env.master_cov [ahb_coverage] Sampled [AHB_READ]: burst=AHB_BURST_SINGLE size=AHB_SIZE_16B beats=1 error=0
# UVM_INFO ../src/slv/ahb_slave_monitor.sv(197) @ 825000: uvm_test_top.env.slave_agent.mon [ahb_slave_monitor] Observed [AHB_READ]: HADDR=0x00002022, HBURST=AHB_BURST_SINGLE, HSIZE=AHB_SIZE_16B, 1 beats
# UVM_INFO ../src/env/ahb_scoreboard.sv(104) @ 825000: uvm_test_top.env.scb [ahb_scoreboard] MATCH #18: [AHB_READ] HADDR=0x00002022 AHB_BURST_SINGLE 1 beats
# UVM_INFO ../src/env/ahb_coverage.sv(126) @ 825000: uvm_test_top.env.slave_cov [ahb_coverage] Sampled [AHB_READ]: burst=AHB_BURST_SINGLE size=AHB_SIZE_16B beats=1 error=0
# UVM_INFO ../src/mst_seq/ahb_base_seq.sv(157) @ 825000: uvm_test_top.env.master_agent.sqr@@seq [ahb_single_seq] AHB_BURST_SINGLE AHB_SIZE_16B beat 0 @0x00002022 ok
# UVM_INFO ../src/mst/ahb_master_driver.sv(85) @ 825000: uvm_test_top.env.master_agent.drv [ahb_master_driver] Queueing [AHB_WRITE]: HADDR=0x00002026, HBURST=AHB_BURST_SINGLE, HSIZE=AHB_SIZE_16B, 1 beats
# UVM_INFO ../src/mst/ahb_master_driver.sv(127) @ 825000: uvm_test_top.env.master_agent.drv [ahb_master_driver] Driving [AHB_WRITE]: HADDR=0x00002026, HBURST=AHB_BURST_SINGLE, HSIZE=AHB_SIZE_16B, 1 beats               
# UVM_INFO ../src/mst/ahb_master_driver.sv(332) @ 875000: uvm_test_top.env.master_agent.drv [ahb_master_driver] Beat[0/1] addr=0x00002026 trans=AHB_TRANS_NONSEQ resp=AHB_RESP_OKAY wdata=0x9eef848b
# UVM_INFO ../src/mst/ahb_master_driver.sv(376) @ 875000: uvm_test_top.env.master_agent.drv [ahb_master_driver] Transaction complete: AHB_WRITE 0x00002026, 1 beats, burst=AHB_BURST_SINGLE
# UVM_INFO ../src/slv/ahb_slave_driver.sv(184) @ 875000: uvm_test_top.env.slave_agent.drv [ahb_slave_driver] Beat AHB_WRITE addr=0x00002026 resp=AHB_RESP_OKAY waits=2 wdata=0x9eef848b
# UVM_INFO ../src/slv/ahb_slave_monitor.sv(197) @ 875000: uvm_test_top.env.slave_agent.mon [ahb_slave_monitor] Observed [AHB_WRITE]: HADDR=0x00002026, HBURST=AHB_BURST_SINGLE, HSIZE=AHB_SIZE_16B, 1 beats
# UVM_INFO ../src/env/ahb_coverage.sv(126) @ 875000: uvm_test_top.env.slave_cov [ahb_coverage] Sampled [AHB_WRITE]: burst=AHB_BURST_SINGLE size=AHB_SIZE_16B beats=1 error=0
# UVM_INFO ../src/mst/ahb_master_monitor.sv(117) @ 875000: uvm_test_top.env.master_agent.mon [ahb_master_monitor] Beat[0] addr=0x00002026 wdata=0x9eef848b resp=AHB_RESP_OKAY
# UVM_INFO ../src/mst/ahb_master_monitor.sv(220) @ 875000: uvm_test_top.env.master_agent.mon [ahb_master_monitor] Observed [AHB_WRITE]: HADDR=0x00002026, HBURST=AHB_BURST_SINGLE, HSIZE=AHB_SIZE_16B, 1 beats
# UVM_INFO ../src/env/ahb_coverage.sv(126) @ 875000: uvm_test_top.env.master_cov [ahb_coverage] Sampled [AHB_WRITE]: burst=AHB_BURST_SINGLE size=AHB_SIZE_16B beats=1 error=0
# UVM_INFO ../src/env/ahb_scoreboard.sv(104) @ 875000: uvm_test_top.env.scb [ahb_scoreboard] MATCH #19: [AHB_WRITE] HADDR=0x00002026 AHB_BURST_SINGLE 1 beats
# UVM_INFO ../src/mst/ahb_master_driver.sv(85) @ 875000: uvm_test_top.env.master_agent.drv [ahb_master_driver] Queueing [AHB_READ]: HADDR=0x00002026, HBURST=AHB_BURST_SINGLE, HSIZE=AHB_SIZE_16B, 1 beats
# UVM_INFO ../src/mst/ahb_master_driver.sv(127) @ 875000: uvm_test_top.env.master_agent.drv [ahb_master_driver] Driving [AHB_READ]: HADDR=0x00002026, HBURST=AHB_BURST_SINGLE, HSIZE=AHB_SIZE_16B, 1 beats               
# UVM_INFO ../src/mst/ahb_master_driver.sv(332) @ 915000: uvm_test_top.env.master_agent.drv [ahb_master_driver] Beat[0/1] addr=0x00002026 trans=AHB_TRANS_NONSEQ resp=AHB_RESP_OKAY rdata=0x9eef848b
# UVM_INFO ../src/mst/ahb_master_driver.sv(376) @ 915000: uvm_test_top.env.master_agent.drv [ahb_master_driver] Transaction complete: AHB_READ 0x00002026, 1 beats, burst=AHB_BURST_SINGLE
# UVM_INFO ../src/slv/ahb_slave_driver.sv(184) @ 915000: uvm_test_top.env.slave_agent.drv [ahb_slave_driver] Beat AHB_READ addr=0x00002026 resp=AHB_RESP_OKAY waits=1 rdata=0x9eef848b
# UVM_INFO ../src/slv/ahb_slave_monitor.sv(197) @ 915000: uvm_test_top.env.slave_agent.mon [ahb_slave_monitor] Observed [AHB_READ]: HADDR=0x00002026, HBURST=AHB_BURST_SINGLE, HSIZE=AHB_SIZE_16B, 1 beats
# UVM_INFO ../src/env/ahb_coverage.sv(126) @ 915000: uvm_test_top.env.slave_cov [ahb_coverage] Sampled [AHB_READ]: burst=AHB_BURST_SINGLE size=AHB_SIZE_16B beats=1 error=0
# UVM_INFO ../src/mst/ahb_master_monitor.sv(117) @ 915000: uvm_test_top.env.master_agent.mon [ahb_master_monitor] Beat[0] addr=0x00002026 rdata=0x9eef848b resp=AHB_RESP_OKAY
# UVM_INFO ../src/mst/ahb_master_monitor.sv(220) @ 915000: uvm_test_top.env.master_agent.mon [ahb_master_monitor] Observed [AHB_READ]: HADDR=0x00002026, HBURST=AHB_BURST_SINGLE, HSIZE=AHB_SIZE_16B, 1 beats
# UVM_INFO ../src/env/ahb_coverage.sv(126) @ 915000: uvm_test_top.env.master_cov [ahb_coverage] Sampled [AHB_READ]: burst=AHB_BURST_SINGLE size=AHB_SIZE_16B beats=1 error=0
# UVM_INFO ../src/env/ahb_scoreboard.sv(104) @ 915000: uvm_test_top.env.scb [ahb_scoreboard] MATCH #20: [AHB_READ] HADDR=0x00002026 AHB_BURST_SINGLE 1 beats
# UVM_INFO ../src/mst_seq/ahb_base_seq.sv(157) @ 915000: uvm_test_top.env.master_agent.sqr@@seq [ahb_single_seq] AHB_BURST_SINGLE AHB_SIZE_16B beat 0 @0x00002026 ok
# UVM_INFO ../src/mst/ahb_master_driver.sv(85) @ 915000: uvm_test_top.env.master_agent.drv [ahb_master_driver] Queueing [AHB_WRITE]: HADDR=0x00002028, HBURST=AHB_BURST_SINGLE, HSIZE=AHB_SIZE_16B, 1 beats
# UVM_INFO ../src/mst/ahb_master_driver.sv(127) @ 915000: uvm_test_top.env.master_agent.drv [ahb_master_driver] Driving [AHB_WRITE]: HADDR=0x00002028, HBURST=AHB_BURST_SINGLE, HSIZE=AHB_SIZE_16B, 1 beats               
# UVM_INFO ../src/mst/ahb_master_driver.sv(332) @ 965000: uvm_test_top.env.master_agent.drv [ahb_master_driver] Beat[0/1] addr=0x00002028 trans=AHB_TRANS_NONSEQ resp=AHB_RESP_OKAY wdata=0x7d21872a
# UVM_INFO ../src/mst/ahb_master_driver.sv(376) @ 965000: uvm_test_top.env.master_agent.drv [ahb_master_driver] Transaction complete: AHB_WRITE 0x00002028, 1 beats, burst=AHB_BURST_SINGLE
# UVM_INFO ../src/slv/ahb_slave_driver.sv(184) @ 965000: uvm_test_top.env.slave_agent.drv [ahb_slave_driver] Beat AHB_WRITE addr=0x00002028 resp=AHB_RESP_OKAY waits=2 wdata=0x7d21872a
# UVM_INFO ../src/mst/ahb_master_monitor.sv(117) @ 965000: uvm_test_top.env.master_agent.mon [ahb_master_monitor] Beat[0] addr=0x00002028 wdata=0x7d21872a resp=AHB_RESP_OKAY
# UVM_INFO ../src/mst/ahb_master_monitor.sv(220) @ 965000: uvm_test_top.env.master_agent.mon [ahb_master_monitor] Observed [AHB_WRITE]: HADDR=0x00002028, HBURST=AHB_BURST_SINGLE, HSIZE=AHB_SIZE_16B, 1 beats
# UVM_INFO ../src/env/ahb_coverage.sv(126) @ 965000: uvm_test_top.env.master_cov [ahb_coverage] Sampled [AHB_WRITE]: burst=AHB_BURST_SINGLE size=AHB_SIZE_16B beats=1 error=0
# UVM_INFO ../src/slv/ahb_slave_monitor.sv(197) @ 965000: uvm_test_top.env.slave_agent.mon [ahb_slave_monitor] Observed [AHB_WRITE]: HADDR=0x00002028, HBURST=AHB_BURST_SINGLE, HSIZE=AHB_SIZE_16B, 1 beats
# UVM_INFO ../src/env/ahb_scoreboard.sv(104) @ 965000: uvm_test_top.env.scb [ahb_scoreboard] MATCH #21: [AHB_WRITE] HADDR=0x00002028 AHB_BURST_SINGLE 1 beats
# UVM_INFO ../src/env/ahb_coverage.sv(126) @ 965000: uvm_test_top.env.slave_cov [ahb_coverage] Sampled [AHB_WRITE]: burst=AHB_BURST_SINGLE size=AHB_SIZE_16B beats=1 error=0
# UVM_INFO ../src/mst/ahb_master_driver.sv(85) @ 965000: uvm_test_top.env.master_agent.drv [ahb_master_driver] Queueing [AHB_READ]: HADDR=0x00002028, HBURST=AHB_BURST_SINGLE, HSIZE=AHB_SIZE_16B, 1 beats
# UVM_INFO ../src/mst/ahb_master_driver.sv(127) @ 965000: uvm_test_top.env.master_agent.drv [ahb_master_driver] Driving [AHB_READ]: HADDR=0x00002028, HBURST=AHB_BURST_SINGLE, HSIZE=AHB_SIZE_16B, 1 beats               
# UVM_INFO ../src/mst/ahb_master_driver.sv(332) @ 1005000: uvm_test_top.env.master_agent.drv [ahb_master_driver] Beat[0/1] addr=0x00002028 trans=AHB_TRANS_NONSEQ resp=AHB_RESP_OKAY rdata=0x7d21872a
# UVM_INFO ../src/mst/ahb_master_driver.sv(376) @ 1005000: uvm_test_top.env.master_agent.drv [ahb_master_driver] Transaction complete: AHB_READ 0x00002028, 1 beats, burst=AHB_BURST_SINGLE
# UVM_INFO ../src/slv/ahb_slave_driver.sv(184) @ 1005000: uvm_test_top.env.slave_agent.drv [ahb_slave_driver] Beat AHB_READ addr=0x00002028 resp=AHB_RESP_OKAY waits=1 rdata=0x7d21872a
# UVM_INFO ../src/mst/ahb_master_monitor.sv(117) @ 1005000: uvm_test_top.env.master_agent.mon [ahb_master_monitor] Beat[0] addr=0x00002028 rdata=0x7d21872a resp=AHB_RESP_OKAY
# UVM_INFO ../src/mst/ahb_master_monitor.sv(220) @ 1005000: uvm_test_top.env.master_agent.mon [ahb_master_monitor] Observed [AHB_READ]: HADDR=0x00002028, HBURST=AHB_BURST_SINGLE, HSIZE=AHB_SIZE_16B, 1 beats
# UVM_INFO ../src/env/ahb_coverage.sv(126) @ 1005000: uvm_test_top.env.master_cov [ahb_coverage] Sampled [AHB_READ]: burst=AHB_BURST_SINGLE size=AHB_SIZE_16B beats=1 error=0
# UVM_INFO ../src/slv/ahb_slave_monitor.sv(197) @ 1005000: uvm_test_top.env.slave_agent.mon [ahb_slave_monitor] Observed [AHB_READ]: HADDR=0x00002028, HBURST=AHB_BURST_SINGLE, HSIZE=AHB_SIZE_16B, 1 beats
# UVM_INFO ../src/env/ahb_scoreboard.sv(104) @ 1005000: uvm_test_top.env.scb [ahb_scoreboard] MATCH #22: [AHB_READ] HADDR=0x00002028 AHB_BURST_SINGLE 1 beats
# UVM_INFO ../src/env/ahb_coverage.sv(126) @ 1005000: uvm_test_top.env.slave_cov [ahb_coverage] Sampled [AHB_READ]: burst=AHB_BURST_SINGLE size=AHB_SIZE_16B beats=1 error=0
# UVM_INFO ../src/mst_seq/ahb_base_seq.sv(157) @ 1005000: uvm_test_top.env.master_agent.sqr@@seq [ahb_single_seq] AHB_BURST_SINGLE AHB_SIZE_16B beat 0 @0x00002028 ok
# UVM_INFO ../src/mst/ahb_master_driver.sv(85) @ 1005000: uvm_test_top.env.master_agent.drv [ahb_master_driver] Queueing [AHB_WRITE]: HADDR=0x0000202f, HBURST=AHB_BURST_SINGLE, HSIZE=AHB_SIZE_8B, 1 beats
# UVM_INFO ../src/mst/ahb_master_driver.sv(127) @ 1005000: uvm_test_top.env.master_agent.drv [ahb_master_driver] Driving [AHB_WRITE]: HADDR=0x0000202f, HBURST=AHB_BURST_SINGLE, HSIZE=AHB_SIZE_8B, 1 beats               
# UVM_INFO ../src/mst/ahb_master_driver.sv(332) @ 1045000: uvm_test_top.env.master_agent.drv [ahb_master_driver] Beat[0/1] addr=0x0000202f trans=AHB_TRANS_NONSEQ resp=AHB_RESP_OKAY wdata=0x842b9e8f
# UVM_INFO ../src/mst/ahb_master_driver.sv(376) @ 1045000: uvm_test_top.env.master_agent.drv [ahb_master_driver] Transaction complete: AHB_WRITE 0x0000202f, 1 beats, burst=AHB_BURST_SINGLE
# UVM_INFO ../src/slv/ahb_slave_driver.sv(184) @ 1045000: uvm_test_top.env.slave_agent.drv [ahb_slave_driver] Beat AHB_WRITE addr=0x0000202f resp=AHB_RESP_OKAY waits=1 wdata=0x842b9e8f
# UVM_INFO ../src/mst/ahb_master_monitor.sv(117) @ 1045000: uvm_test_top.env.master_agent.mon [ahb_master_monitor] Beat[0] addr=0x0000202f wdata=0x842b9e8f resp=AHB_RESP_OKAY
# UVM_INFO ../src/mst/ahb_master_monitor.sv(220) @ 1045000: uvm_test_top.env.master_agent.mon [ahb_master_monitor] Observed [AHB_WRITE]: HADDR=0x0000202f, HBURST=AHB_BURST_SINGLE, HSIZE=AHB_SIZE_8B, 1 beats
# UVM_INFO ../src/env/ahb_coverage.sv(126) @ 1045000: uvm_test_top.env.master_cov [ahb_coverage] Sampled [AHB_WRITE]: burst=AHB_BURST_SINGLE size=AHB_SIZE_8B beats=1 error=0
# UVM_INFO ../src/slv/ahb_slave_monitor.sv(197) @ 1045000: uvm_test_top.env.slave_agent.mon [ahb_slave_monitor] Observed [AHB_WRITE]: HADDR=0x0000202f, HBURST=AHB_BURST_SINGLE, HSIZE=AHB_SIZE_8B, 1 beats
# UVM_INFO ../src/env/ahb_scoreboard.sv(104) @ 1045000: uvm_test_top.env.scb [ahb_scoreboard] MATCH #23: [AHB_WRITE] HADDR=0x0000202f AHB_BURST_SINGLE 1 beats
# UVM_INFO ../src/env/ahb_coverage.sv(126) @ 1045000: uvm_test_top.env.slave_cov [ahb_coverage] Sampled [AHB_WRITE]: burst=AHB_BURST_SINGLE size=AHB_SIZE_8B beats=1 error=0
# UVM_INFO ../src/mst/ahb_master_driver.sv(85) @ 1045000: uvm_test_top.env.master_agent.drv [ahb_master_driver] Queueing [AHB_READ]: HADDR=0x0000202f, HBURST=AHB_BURST_SINGLE, HSIZE=AHB_SIZE_8B, 1 beats
# UVM_INFO ../src/mst/ahb_master_driver.sv(127) @ 1045000: uvm_test_top.env.master_agent.drv [ahb_master_driver] Driving [AHB_READ]: HADDR=0x0000202f, HBURST=AHB_BURST_SINGLE, HSIZE=AHB_SIZE_8B, 1 beats               
# UVM_INFO ../src/mst/ahb_master_driver.sv(332) @ 1095000: uvm_test_top.env.master_agent.drv [ahb_master_driver] Beat[0/1] addr=0x0000202f trans=AHB_TRANS_NONSEQ resp=AHB_RESP_OKAY rdata=0x842b9e8f
# UVM_INFO ../src/mst/ahb_master_driver.sv(376) @ 1095000: uvm_test_top.env.master_agent.drv [ahb_master_driver] Transaction complete: AHB_READ 0x0000202f, 1 beats, burst=AHB_BURST_SINGLE
# UVM_INFO ../src/slv/ahb_slave_driver.sv(184) @ 1095000: uvm_test_top.env.slave_agent.drv [ahb_slave_driver] Beat AHB_READ addr=0x0000202f resp=AHB_RESP_OKAY waits=2 rdata=0x842b9e8f
# UVM_INFO ../src/slv/ahb_slave_monitor.sv(197) @ 1095000: uvm_test_top.env.slave_agent.mon [ahb_slave_monitor] Observed [AHB_READ]: HADDR=0x0000202f, HBURST=AHB_BURST_SINGLE, HSIZE=AHB_SIZE_8B, 1 beats
# UVM_INFO ../src/env/ahb_coverage.sv(126) @ 1095000: uvm_test_top.env.slave_cov [ahb_coverage] Sampled [AHB_READ]: burst=AHB_BURST_SINGLE size=AHB_SIZE_8B beats=1 error=0
# UVM_INFO ../src/mst/ahb_master_monitor.sv(117) @ 1095000: uvm_test_top.env.master_agent.mon [ahb_master_monitor] Beat[0] addr=0x0000202f rdata=0x842b9e8f resp=AHB_RESP_OKAY
# UVM_INFO ../src/mst/ahb_master_monitor.sv(220) @ 1095000: uvm_test_top.env.master_agent.mon [ahb_master_monitor] Observed [AHB_READ]: HADDR=0x0000202f, HBURST=AHB_BURST_SINGLE, HSIZE=AHB_SIZE_8B, 1 beats
# UVM_INFO ../src/env/ahb_coverage.sv(126) @ 1095000: uvm_test_top.env.master_cov [ahb_coverage] Sampled [AHB_READ]: burst=AHB_BURST_SINGLE size=AHB_SIZE_8B beats=1 error=0
# UVM_INFO ../src/env/ahb_scoreboard.sv(104) @ 1095000: uvm_test_top.env.scb [ahb_scoreboard] MATCH #24: [AHB_READ] HADDR=0x0000202f AHB_BURST_SINGLE 1 beats
# UVM_INFO ../src/mst_seq/ahb_base_seq.sv(157) @ 1095000: uvm_test_top.env.master_agent.sqr@@seq [ahb_single_seq] AHB_BURST_SINGLE AHB_SIZE_8B beat 0 @0x0000202f ok
# UVM_INFO ../src/mst/ahb_master_driver.sv(85) @ 1095000: uvm_test_top.env.master_agent.drv [ahb_master_driver] Queueing [AHB_WRITE]: HADDR=0x00002031, HBURST=AHB_BURST_SINGLE, HSIZE=AHB_SIZE_8B, 1 beats
# UVM_INFO ../src/mst/ahb_master_driver.sv(127) @ 1095000: uvm_test_top.env.master_agent.drv [ahb_master_driver] Driving [AHB_WRITE]: HADDR=0x00002031, HBURST=AHB_BURST_SINGLE, HSIZE=AHB_SIZE_8B, 1 beats               
# UVM_INFO ../src/mst/ahb_master_driver.sv(332) @ 1145000: uvm_test_top.env.master_agent.drv [ahb_master_driver] Beat[0/1] addr=0x00002031 trans=AHB_TRANS_NONSEQ resp=AHB_RESP_OKAY wdata=0xfc617b03
# UVM_INFO ../src/mst/ahb_master_driver.sv(376) @ 1145000: uvm_test_top.env.master_agent.drv [ahb_master_driver] Transaction complete: AHB_WRITE 0x00002031, 1 beats, burst=AHB_BURST_SINGLE
# UVM_INFO ../src/slv/ahb_slave_driver.sv(184) @ 1145000: uvm_test_top.env.slave_agent.drv [ahb_slave_driver] Beat AHB_WRITE addr=0x00002031 resp=AHB_RESP_OKAY waits=2 wdata=0xfc617b03
# UVM_INFO ../src/mst/ahb_master_monitor.sv(117) @ 1145000: uvm_test_top.env.master_agent.mon [ahb_master_monitor] Beat[0] addr=0x00002031 wdata=0xfc617b03 resp=AHB_RESP_OKAY
# UVM_INFO ../src/mst/ahb_master_monitor.sv(220) @ 1145000: uvm_test_top.env.master_agent.mon [ahb_master_monitor] Observed [AHB_WRITE]: HADDR=0x00002031, HBURST=AHB_BURST_SINGLE, HSIZE=AHB_SIZE_8B, 1 beats
# UVM_INFO ../src/env/ahb_coverage.sv(126) @ 1145000: uvm_test_top.env.master_cov [ahb_coverage] Sampled [AHB_WRITE]: burst=AHB_BURST_SINGLE size=AHB_SIZE_8B beats=1 error=0
# UVM_INFO ../src/slv/ahb_slave_monitor.sv(197) @ 1145000: uvm_test_top.env.slave_agent.mon [ahb_slave_monitor] Observed [AHB_WRITE]: HADDR=0x00002031, HBURST=AHB_BURST_SINGLE, HSIZE=AHB_SIZE_8B, 1 beats
# UVM_INFO ../src/env/ahb_scoreboard.sv(104) @ 1145000: uvm_test_top.env.scb [ahb_scoreboard] MATCH #25: [AHB_WRITE] HADDR=0x00002031 AHB_BURST_SINGLE 1 beats
# UVM_INFO ../src/env/ahb_coverage.sv(126) @ 1145000: uvm_test_top.env.slave_cov [ahb_coverage] Sampled [AHB_WRITE]: burst=AHB_BURST_SINGLE size=AHB_SIZE_8B beats=1 error=0
# UVM_INFO ../src/mst/ahb_master_driver.sv(85) @ 1145000: uvm_test_top.env.master_agent.drv [ahb_master_driver] Queueing [AHB_READ]: HADDR=0x00002031, HBURST=AHB_BURST_SINGLE, HSIZE=AHB_SIZE_8B, 1 beats
# UVM_INFO ../src/mst/ahb_master_driver.sv(127) @ 1145000: uvm_test_top.env.master_agent.drv [ahb_master_driver] Driving [AHB_READ]: HADDR=0x00002031, HBURST=AHB_BURST_SINGLE, HSIZE=AHB_SIZE_8B, 1 beats               
# UVM_INFO ../src/mst/ahb_master_driver.sv(332) @ 1175000: uvm_test_top.env.master_agent.drv [ahb_master_driver] Beat[0/1] addr=0x00002031 trans=AHB_TRANS_NONSEQ resp=AHB_RESP_OKAY rdata=0xfc617b03
# UVM_INFO ../src/mst/ahb_master_driver.sv(376) @ 1175000: uvm_test_top.env.master_agent.drv [ahb_master_driver] Transaction complete: AHB_READ 0x00002031, 1 beats, burst=AHB_BURST_SINGLE
# UVM_INFO ../src/slv/ahb_slave_driver.sv(184) @ 1175000: uvm_test_top.env.slave_agent.drv [ahb_slave_driver] Beat AHB_READ addr=0x00002031 resp=AHB_RESP_OKAY waits=0 rdata=0xfc617b03
# UVM_INFO ../src/slv/ahb_slave_monitor.sv(197) @ 1175000: uvm_test_top.env.slave_agent.mon [ahb_slave_monitor] Observed [AHB_READ]: HADDR=0x00002031, HBURST=AHB_BURST_SINGLE, HSIZE=AHB_SIZE_8B, 1 beats
# UVM_INFO ../src/env/ahb_coverage.sv(126) @ 1175000: uvm_test_top.env.slave_cov [ahb_coverage] Sampled [AHB_READ]: burst=AHB_BURST_SINGLE size=AHB_SIZE_8B beats=1 error=0
# UVM_INFO ../src/mst/ahb_master_monitor.sv(117) @ 1175000: uvm_test_top.env.master_agent.mon [ahb_master_monitor] Beat[0] addr=0x00002031 rdata=0xfc617b03 resp=AHB_RESP_OKAY
# UVM_INFO ../src/mst/ahb_master_monitor.sv(220) @ 1175000: uvm_test_top.env.master_agent.mon [ahb_master_monitor] Observed [AHB_READ]: HADDR=0x00002031, HBURST=AHB_BURST_SINGLE, HSIZE=AHB_SIZE_8B, 1 beats
# UVM_INFO ../src/env/ahb_coverage.sv(126) @ 1175000: uvm_test_top.env.master_cov [ahb_coverage] Sampled [AHB_READ]: burst=AHB_BURST_SINGLE size=AHB_SIZE_8B beats=1 error=0
# UVM_INFO ../src/env/ahb_scoreboard.sv(104) @ 1175000: uvm_test_top.env.scb [ahb_scoreboard] MATCH #26: [AHB_READ] HADDR=0x00002031 AHB_BURST_SINGLE 1 beats
# UVM_INFO ../src/mst_seq/ahb_base_seq.sv(157) @ 1175000: uvm_test_top.env.master_agent.sqr@@seq [ahb_single_seq] AHB_BURST_SINGLE AHB_SIZE_8B beat 0 @0x00002031 ok
# UVM_INFO ../src/mst/ahb_master_driver.sv(85) @ 1175000: uvm_test_top.env.master_agent.drv [ahb_master_driver] Queueing [AHB_WRITE]: HADDR=0x00002035, HBURST=AHB_BURST_SINGLE, HSIZE=AHB_SIZE_8B, 1 beats
# UVM_INFO ../src/mst/ahb_master_driver.sv(127) @ 1175000: uvm_test_top.env.master_agent.drv [ahb_master_driver] Driving [AHB_WRITE]: HADDR=0x00002035, HBURST=AHB_BURST_SINGLE, HSIZE=AHB_SIZE_8B, 1 beats               
# UVM_INFO ../src/mst/ahb_master_driver.sv(332) @ 1215000: uvm_test_top.env.master_agent.drv [ahb_master_driver] Beat[0/1] addr=0x00002035 trans=AHB_TRANS_NONSEQ resp=AHB_RESP_OKAY wdata=0x2acb5e59
# UVM_INFO ../src/mst/ahb_master_driver.sv(376) @ 1215000: uvm_test_top.env.master_agent.drv [ahb_master_driver] Transaction complete: AHB_WRITE 0x00002035, 1 beats, burst=AHB_BURST_SINGLE
# UVM_INFO ../src/slv/ahb_slave_driver.sv(184) @ 1215000: uvm_test_top.env.slave_agent.drv [ahb_slave_driver] Beat AHB_WRITE addr=0x00002035 resp=AHB_RESP_OKAY waits=1 wdata=0x2acb5e59
# UVM_INFO ../src/slv/ahb_slave_monitor.sv(197) @ 1215000: uvm_test_top.env.slave_agent.mon [ahb_slave_monitor] Observed [AHB_WRITE]: HADDR=0x00002035, HBURST=AHB_BURST_SINGLE, HSIZE=AHB_SIZE_8B, 1 beats
# UVM_INFO ../src/env/ahb_coverage.sv(126) @ 1215000: uvm_test_top.env.slave_cov [ahb_coverage] Sampled [AHB_WRITE]: burst=AHB_BURST_SINGLE size=AHB_SIZE_8B beats=1 error=0
# UVM_INFO ../src/mst/ahb_master_monitor.sv(117) @ 1215000: uvm_test_top.env.master_agent.mon [ahb_master_monitor] Beat[0] addr=0x00002035 wdata=0x2acb5e59 resp=AHB_RESP_OKAY
# UVM_INFO ../src/mst/ahb_master_monitor.sv(220) @ 1215000: uvm_test_top.env.master_agent.mon [ahb_master_monitor] Observed [AHB_WRITE]: HADDR=0x00002035, HBURST=AHB_BURST_SINGLE, HSIZE=AHB_SIZE_8B, 1 beats
# UVM_INFO ../src/env/ahb_coverage.sv(126) @ 1215000: uvm_test_top.env.master_cov [ahb_coverage] Sampled [AHB_WRITE]: burst=AHB_BURST_SINGLE size=AHB_SIZE_8B beats=1 error=0
# UVM_INFO ../src/env/ahb_scoreboard.sv(104) @ 1215000: uvm_test_top.env.scb [ahb_scoreboard] MATCH #27: [AHB_WRITE] HADDR=0x00002035 AHB_BURST_SINGLE 1 beats
# UVM_INFO ../src/mst/ahb_master_driver.sv(85) @ 1215000: uvm_test_top.env.master_agent.drv [ahb_master_driver] Queueing [AHB_READ]: HADDR=0x00002035, HBURST=AHB_BURST_SINGLE, HSIZE=AHB_SIZE_8B, 1 beats
# UVM_INFO ../src/mst/ahb_master_driver.sv(127) @ 1215000: uvm_test_top.env.master_agent.drv [ahb_master_driver] Driving [AHB_READ]: HADDR=0x00002035, HBURST=AHB_BURST_SINGLE, HSIZE=AHB_SIZE_8B, 1 beats               
# UVM_INFO ../src/mst/ahb_master_driver.sv(332) @ 1255000: uvm_test_top.env.master_agent.drv [ahb_master_driver] Beat[0/1] addr=0x00002035 trans=AHB_TRANS_NONSEQ resp=AHB_RESP_OKAY rdata=0x2acb5e59
# UVM_INFO ../src/mst/ahb_master_driver.sv(376) @ 1255000: uvm_test_top.env.master_agent.drv [ahb_master_driver] Transaction complete: AHB_READ 0x00002035, 1 beats, burst=AHB_BURST_SINGLE
# UVM_INFO ../src/slv/ahb_slave_driver.sv(184) @ 1255000: uvm_test_top.env.slave_agent.drv [ahb_slave_driver] Beat AHB_READ addr=0x00002035 resp=AHB_RESP_OKAY waits=1 rdata=0x2acb5e59
# UVM_INFO ../src/slv/ahb_slave_monitor.sv(197) @ 1255000: uvm_test_top.env.slave_agent.mon [ahb_slave_monitor] Observed [AHB_READ]: HADDR=0x00002035, HBURST=AHB_BURST_SINGLE, HSIZE=AHB_SIZE_8B, 1 beats
# UVM_INFO ../src/env/ahb_coverage.sv(126) @ 1255000: uvm_test_top.env.slave_cov [ahb_coverage] Sampled [AHB_READ]: burst=AHB_BURST_SINGLE size=AHB_SIZE_8B beats=1 error=0
# UVM_INFO ../src/mst/ahb_master_monitor.sv(117) @ 1255000: uvm_test_top.env.master_agent.mon [ahb_master_monitor] Beat[0] addr=0x00002035 rdata=0x2acb5e59 resp=AHB_RESP_OKAY
# UVM_INFO ../src/mst/ahb_master_monitor.sv(220) @ 1255000: uvm_test_top.env.master_agent.mon [ahb_master_monitor] Observed [AHB_READ]: HADDR=0x00002035, HBURST=AHB_BURST_SINGLE, HSIZE=AHB_SIZE_8B, 1 beats
# UVM_INFO ../src/env/ahb_coverage.sv(126) @ 1255000: uvm_test_top.env.master_cov [ahb_coverage] Sampled [AHB_READ]: burst=AHB_BURST_SINGLE size=AHB_SIZE_8B beats=1 error=0
# UVM_INFO ../src/env/ahb_scoreboard.sv(104) @ 1255000: uvm_test_top.env.scb [ahb_scoreboard] MATCH #28: [AHB_READ] HADDR=0x00002035 AHB_BURST_SINGLE 1 beats
# UVM_INFO ../src/mst_seq/ahb_base_seq.sv(157) @ 1255000: uvm_test_top.env.master_agent.sqr@@seq [ahb_single_seq] AHB_BURST_SINGLE AHB_SIZE_8B beat 0 @0x00002035 ok
# UVM_INFO ../src/mst/ahb_master_driver.sv(85) @ 1255000: uvm_test_top.env.master_agent.drv [ahb_master_driver] Queueing [AHB_WRITE]: HADDR=0x00002038, HBURST=AHB_BURST_SINGLE, HSIZE=AHB_SIZE_32B, 1 beats
# UVM_INFO ../src/mst/ahb_master_driver.sv(127) @ 1255000: uvm_test_top.env.master_agent.drv [ahb_master_driver] Driving [AHB_WRITE]: HADDR=0x00002038, HBURST=AHB_BURST_SINGLE, HSIZE=AHB_SIZE_32B, 1 beats               
# UVM_INFO ../src/mst/ahb_master_driver.sv(332) @ 1305000: uvm_test_top.env.master_agent.drv [ahb_master_driver] Beat[0/1] addr=0x00002038 trans=AHB_TRANS_NONSEQ resp=AHB_RESP_OKAY wdata=0x67f07d67
# UVM_INFO ../src/mst/ahb_master_driver.sv(376) @ 1305000: uvm_test_top.env.master_agent.drv [ahb_master_driver] Transaction complete: AHB_WRITE 0x00002038, 1 beats, burst=AHB_BURST_SINGLE
# UVM_INFO ../src/slv/ahb_slave_driver.sv(184) @ 1305000: uvm_test_top.env.slave_agent.drv [ahb_slave_driver] Beat AHB_WRITE addr=0x00002038 resp=AHB_RESP_OKAY waits=2 wdata=0x67f07d67
# UVM_INFO ../src/mst/ahb_master_monitor.sv(117) @ 1305000: uvm_test_top.env.master_agent.mon [ahb_master_monitor] Beat[0] addr=0x00002038 wdata=0x67f07d67 resp=AHB_RESP_OKAY
# UVM_INFO ../src/mst/ahb_master_monitor.sv(220) @ 1305000: uvm_test_top.env.master_agent.mon [ahb_master_monitor] Observed [AHB_WRITE]: HADDR=0x00002038, HBURST=AHB_BURST_SINGLE, HSIZE=AHB_SIZE_32B, 1 beats
# UVM_INFO ../src/env/ahb_coverage.sv(126) @ 1305000: uvm_test_top.env.master_cov [ahb_coverage] Sampled [AHB_WRITE]: burst=AHB_BURST_SINGLE size=AHB_SIZE_32B beats=1 error=0
# UVM_INFO ../src/slv/ahb_slave_monitor.sv(197) @ 1305000: uvm_test_top.env.slave_agent.mon [ahb_slave_monitor] Observed [AHB_WRITE]: HADDR=0x00002038, HBURST=AHB_BURST_SINGLE, HSIZE=AHB_SIZE_32B, 1 beats
# UVM_INFO ../src/env/ahb_scoreboard.sv(104) @ 1305000: uvm_test_top.env.scb [ahb_scoreboard] MATCH #29: [AHB_WRITE] HADDR=0x00002038 AHB_BURST_SINGLE 1 beats
# UVM_INFO ../src/env/ahb_coverage.sv(126) @ 1305000: uvm_test_top.env.slave_cov [ahb_coverage] Sampled [AHB_WRITE]: burst=AHB_BURST_SINGLE size=AHB_SIZE_32B beats=1 error=0
# UVM_INFO ../src/mst/ahb_master_driver.sv(85) @ 1305000: uvm_test_top.env.master_agent.drv [ahb_master_driver] Queueing [AHB_READ]: HADDR=0x00002038, HBURST=AHB_BURST_SINGLE, HSIZE=AHB_SIZE_32B, 1 beats
# UVM_INFO ../src/mst/ahb_master_driver.sv(127) @ 1305000: uvm_test_top.env.master_agent.drv [ahb_master_driver] Driving [AHB_READ]: HADDR=0x00002038, HBURST=AHB_BURST_SINGLE, HSIZE=AHB_SIZE_32B, 1 beats               
# UVM_INFO ../src/mst/ahb_master_driver.sv(332) @ 1335000: uvm_test_top.env.master_agent.drv [ahb_master_driver] Beat[0/1] addr=0x00002038 trans=AHB_TRANS_NONSEQ resp=AHB_RESP_OKAY rdata=0x67f07d67
# UVM_INFO ../src/mst/ahb_master_driver.sv(376) @ 1335000: uvm_test_top.env.master_agent.drv [ahb_master_driver] Transaction complete: AHB_READ 0x00002038, 1 beats, burst=AHB_BURST_SINGLE
# UVM_INFO ../src/slv/ahb_slave_driver.sv(184) @ 1335000: uvm_test_top.env.slave_agent.drv [ahb_slave_driver] Beat AHB_READ addr=0x00002038 resp=AHB_RESP_OKAY waits=0 rdata=0x67f07d67
# UVM_INFO ../src/slv/ahb_slave_monitor.sv(197) @ 1335000: uvm_test_top.env.slave_agent.mon [ahb_slave_monitor] Observed [AHB_READ]: HADDR=0x00002038, HBURST=AHB_BURST_SINGLE, HSIZE=AHB_SIZE_32B, 1 beats
# UVM_INFO ../src/env/ahb_coverage.sv(126) @ 1335000: uvm_test_top.env.slave_cov [ahb_coverage] Sampled [AHB_READ]: burst=AHB_BURST_SINGLE size=AHB_SIZE_32B beats=1 error=0
# UVM_INFO ../src/mst/ahb_master_monitor.sv(117) @ 1335000: uvm_test_top.env.master_agent.mon [ahb_master_monitor] Beat[0] addr=0x00002038 rdata=0x67f07d67 resp=AHB_RESP_OKAY
# UVM_INFO ../src/mst/ahb_master_monitor.sv(220) @ 1335000: uvm_test_top.env.master_agent.mon [ahb_master_monitor] Observed [AHB_READ]: HADDR=0x00002038, HBURST=AHB_BURST_SINGLE, HSIZE=AHB_SIZE_32B, 1 beats
# UVM_INFO ../src/env/ahb_coverage.sv(126) @ 1335000: uvm_test_top.env.master_cov [ahb_coverage] Sampled [AHB_READ]: burst=AHB_BURST_SINGLE size=AHB_SIZE_32B beats=1 error=0
# UVM_INFO ../src/env/ahb_scoreboard.sv(104) @ 1335000: uvm_test_top.env.scb [ahb_scoreboard] MATCH #30: [AHB_READ] HADDR=0x00002038 AHB_BURST_SINGLE 1 beats
# UVM_INFO ../src/mst_seq/ahb_base_seq.sv(157) @ 1335000: uvm_test_top.env.master_agent.sqr@@seq [ahb_single_seq] AHB_BURST_SINGLE AHB_SIZE_32B beat 0 @0x00002038 ok
# UVM_INFO ../src/mst/ahb_master_driver.sv(85) @ 1335000: uvm_test_top.env.master_agent.drv [ahb_master_driver] Queueing [AHB_WRITE]: HADDR=0x0000203c, HBURST=AHB_BURST_SINGLE, HSIZE=AHB_SIZE_32B, 1 beats
# UVM_INFO ../src/mst/ahb_master_driver.sv(127) @ 1335000: uvm_test_top.env.master_agent.drv [ahb_master_driver] Driving [AHB_WRITE]: HADDR=0x0000203c, HBURST=AHB_BURST_SINGLE, HSIZE=AHB_SIZE_32B, 1 beats               
# UVM_INFO ../src/mst/ahb_master_driver.sv(332) @ 1385000: uvm_test_top.env.master_agent.drv [ahb_master_driver] Beat[0/1] addr=0x0000203c trans=AHB_TRANS_NONSEQ resp=AHB_RESP_OKAY wdata=0x41437fc3
# UVM_INFO ../src/mst/ahb_master_driver.sv(376) @ 1385000: uvm_test_top.env.master_agent.drv [ahb_master_driver] Transaction complete: AHB_WRITE 0x0000203c, 1 beats, burst=AHB_BURST_SINGLE
# UVM_INFO ../src/slv/ahb_slave_driver.sv(184) @ 1385000: uvm_test_top.env.slave_agent.drv [ahb_slave_driver] Beat AHB_WRITE addr=0x0000203c resp=AHB_RESP_OKAY waits=2 wdata=0x41437fc3
# UVM_INFO ../src/mst/ahb_master_monitor.sv(117) @ 1385000: uvm_test_top.env.master_agent.mon [ahb_master_monitor] Beat[0] addr=0x0000203c wdata=0x41437fc3 resp=AHB_RESP_OKAY
# UVM_INFO ../src/mst/ahb_master_monitor.sv(220) @ 1385000: uvm_test_top.env.master_agent.mon [ahb_master_monitor] Observed [AHB_WRITE]: HADDR=0x0000203c, HBURST=AHB_BURST_SINGLE, HSIZE=AHB_SIZE_32B, 1 beats
# UVM_INFO ../src/env/ahb_coverage.sv(126) @ 1385000: uvm_test_top.env.master_cov [ahb_coverage] Sampled [AHB_WRITE]: burst=AHB_BURST_SINGLE size=AHB_SIZE_32B beats=1 error=0
# UVM_INFO ../src/slv/ahb_slave_monitor.sv(197) @ 1385000: uvm_test_top.env.slave_agent.mon [ahb_slave_monitor] Observed [AHB_WRITE]: HADDR=0x0000203c, HBURST=AHB_BURST_SINGLE, HSIZE=AHB_SIZE_32B, 1 beats
# UVM_INFO ../src/env/ahb_scoreboard.sv(104) @ 1385000: uvm_test_top.env.scb [ahb_scoreboard] MATCH #31: [AHB_WRITE] HADDR=0x0000203c AHB_BURST_SINGLE 1 beats
# UVM_INFO ../src/env/ahb_coverage.sv(126) @ 1385000: uvm_test_top.env.slave_cov [ahb_coverage] Sampled [AHB_WRITE]: burst=AHB_BURST_SINGLE size=AHB_SIZE_32B beats=1 error=0
# UVM_INFO ../src/mst/ahb_master_driver.sv(85) @ 1385000: uvm_test_top.env.master_agent.drv [ahb_master_driver] Queueing [AHB_READ]: HADDR=0x0000203c, HBURST=AHB_BURST_SINGLE, HSIZE=AHB_SIZE_32B, 1 beats
# UVM_INFO ../src/mst/ahb_master_driver.sv(127) @ 1385000: uvm_test_top.env.master_agent.drv [ahb_master_driver] Driving [AHB_READ]: HADDR=0x0000203c, HBURST=AHB_BURST_SINGLE, HSIZE=AHB_SIZE_32B, 1 beats               
# UVM_INFO ../src/mst/ahb_master_driver.sv(332) @ 1425000: uvm_test_top.env.master_agent.drv [ahb_master_driver] Beat[0/1] addr=0x0000203c trans=AHB_TRANS_NONSEQ resp=AHB_RESP_OKAY rdata=0x41437fc3
# UVM_INFO ../src/mst/ahb_master_driver.sv(376) @ 1425000: uvm_test_top.env.master_agent.drv [ahb_master_driver] Transaction complete: AHB_READ 0x0000203c, 1 beats, burst=AHB_BURST_SINGLE
# UVM_INFO ../src/slv/ahb_slave_driver.sv(184) @ 1425000: uvm_test_top.env.slave_agent.drv [ahb_slave_driver] Beat AHB_READ addr=0x0000203c resp=AHB_RESP_OKAY waits=1 rdata=0x41437fc3
# UVM_INFO ../src/mst/ahb_master_monitor.sv(117) @ 1425000: uvm_test_top.env.master_agent.mon [ahb_master_monitor] Beat[0] addr=0x0000203c rdata=0x41437fc3 resp=AHB_RESP_OKAY
# UVM_INFO ../src/mst/ahb_master_monitor.sv(220) @ 1425000: uvm_test_top.env.master_agent.mon [ahb_master_monitor] Observed [AHB_READ]: HADDR=0x0000203c, HBURST=AHB_BURST_SINGLE, HSIZE=AHB_SIZE_32B, 1 beats
# UVM_INFO ../src/env/ahb_coverage.sv(126) @ 1425000: uvm_test_top.env.master_cov [ahb_coverage] Sampled [AHB_READ]: burst=AHB_BURST_SINGLE size=AHB_SIZE_32B beats=1 error=0
# UVM_INFO ../src/slv/ahb_slave_monitor.sv(197) @ 1425000: uvm_test_top.env.slave_agent.mon [ahb_slave_monitor] Observed [AHB_READ]: HADDR=0x0000203c, HBURST=AHB_BURST_SINGLE, HSIZE=AHB_SIZE_32B, 1 beats
# UVM_INFO ../src/env/ahb_scoreboard.sv(104) @ 1425000: uvm_test_top.env.scb [ahb_scoreboard] MATCH #32: [AHB_READ] HADDR=0x0000203c AHB_BURST_SINGLE 1 beats
# UVM_INFO ../src/env/ahb_coverage.sv(126) @ 1425000: uvm_test_top.env.slave_cov [ahb_coverage] Sampled [AHB_READ]: burst=AHB_BURST_SINGLE size=AHB_SIZE_32B beats=1 error=0
# UVM_INFO ../src/mst_seq/ahb_base_seq.sv(157) @ 1425000: uvm_test_top.env.master_agent.sqr@@seq [ahb_single_seq] AHB_BURST_SINGLE AHB_SIZE_32B beat 0 @0x0000203c ok
# UVM_INFO ../src/mst/ahb_master_driver.sv(85) @ 1425000: uvm_test_top.env.master_agent.drv [ahb_master_driver] Queueing [AHB_WRITE]: HADDR=0x00002040, HBURST=AHB_BURST_SINGLE, HSIZE=AHB_SIZE_8B, 1 beats
# UVM_INFO ../src/mst/ahb_master_driver.sv(127) @ 1425000: uvm_test_top.env.master_agent.drv [ahb_master_driver] Driving [AHB_WRITE]: HADDR=0x00002040, HBURST=AHB_BURST_SINGLE, HSIZE=AHB_SIZE_8B, 1 beats               
# UVM_INFO ../src/mst/ahb_master_driver.sv(332) @ 1475000: uvm_test_top.env.master_agent.drv [ahb_master_driver] Beat[0/1] addr=0x00002040 trans=AHB_TRANS_NONSEQ resp=AHB_RESP_OKAY wdata=0x7ca2fe71
# UVM_INFO ../src/mst/ahb_master_driver.sv(376) @ 1475000: uvm_test_top.env.master_agent.drv [ahb_master_driver] Transaction complete: AHB_WRITE 0x00002040, 1 beats, burst=AHB_BURST_SINGLE
# UVM_INFO ../src/slv/ahb_slave_driver.sv(184) @ 1475000: uvm_test_top.env.slave_agent.drv [ahb_slave_driver] Beat AHB_WRITE addr=0x00002040 resp=AHB_RESP_OKAY waits=2 wdata=0x7ca2fe71
# UVM_INFO ../src/slv/ahb_slave_monitor.sv(197) @ 1475000: uvm_test_top.env.slave_agent.mon [ahb_slave_monitor] Observed [AHB_WRITE]: HADDR=0x00002040, HBURST=AHB_BURST_SINGLE, HSIZE=AHB_SIZE_8B, 1 beats
# UVM_INFO ../src/env/ahb_coverage.sv(126) @ 1475000: uvm_test_top.env.slave_cov [ahb_coverage] Sampled [AHB_WRITE]: burst=AHB_BURST_SINGLE size=AHB_SIZE_8B beats=1 error=0
# UVM_INFO ../src/mst/ahb_master_monitor.sv(117) @ 1475000: uvm_test_top.env.master_agent.mon [ahb_master_monitor] Beat[0] addr=0x00002040 wdata=0x7ca2fe71 resp=AHB_RESP_OKAY
# UVM_INFO ../src/mst/ahb_master_monitor.sv(220) @ 1475000: uvm_test_top.env.master_agent.mon [ahb_master_monitor] Observed [AHB_WRITE]: HADDR=0x00002040, HBURST=AHB_BURST_SINGLE, HSIZE=AHB_SIZE_8B, 1 beats
# UVM_INFO ../src/env/ahb_coverage.sv(126) @ 1475000: uvm_test_top.env.master_cov [ahb_coverage] Sampled [AHB_WRITE]: burst=AHB_BURST_SINGLE size=AHB_SIZE_8B beats=1 error=0
# UVM_INFO ../src/env/ahb_scoreboard.sv(104) @ 1475000: uvm_test_top.env.scb [ahb_scoreboard] MATCH #33: [AHB_WRITE] HADDR=0x00002040 AHB_BURST_SINGLE 1 beats
# UVM_INFO ../src/mst/ahb_master_driver.sv(85) @ 1475000: uvm_test_top.env.master_agent.drv [ahb_master_driver] Queueing [AHB_READ]: HADDR=0x00002040, HBURST=AHB_BURST_SINGLE, HSIZE=AHB_SIZE_8B, 1 beats
# UVM_INFO ../src/mst/ahb_master_driver.sv(127) @ 1475000: uvm_test_top.env.master_agent.drv [ahb_master_driver] Driving [AHB_READ]: HADDR=0x00002040, HBURST=AHB_BURST_SINGLE, HSIZE=AHB_SIZE_8B, 1 beats               
# UVM_INFO ../src/mst/ahb_master_driver.sv(332) @ 1505000: uvm_test_top.env.master_agent.drv [ahb_master_driver] Beat[0/1] addr=0x00002040 trans=AHB_TRANS_NONSEQ resp=AHB_RESP_OKAY rdata=0x7ca2fe71
# UVM_INFO ../src/mst/ahb_master_driver.sv(376) @ 1505000: uvm_test_top.env.master_agent.drv [ahb_master_driver] Transaction complete: AHB_READ 0x00002040, 1 beats, burst=AHB_BURST_SINGLE
# UVM_INFO ../src/slv/ahb_slave_driver.sv(184) @ 1505000: uvm_test_top.env.slave_agent.drv [ahb_slave_driver] Beat AHB_READ addr=0x00002040 resp=AHB_RESP_OKAY waits=0 rdata=0x7ca2fe71
# UVM_INFO ../src/mst/ahb_master_monitor.sv(117) @ 1505000: uvm_test_top.env.master_agent.mon [ahb_master_monitor] Beat[0] addr=0x00002040 rdata=0x7ca2fe71 resp=AHB_RESP_OKAY
# UVM_INFO ../src/mst/ahb_master_monitor.sv(220) @ 1505000: uvm_test_top.env.master_agent.mon [ahb_master_monitor] Observed [AHB_READ]: HADDR=0x00002040, HBURST=AHB_BURST_SINGLE, HSIZE=AHB_SIZE_8B, 1 beats
# UVM_INFO ../src/env/ahb_coverage.sv(126) @ 1505000: uvm_test_top.env.master_cov [ahb_coverage] Sampled [AHB_READ]: burst=AHB_BURST_SINGLE size=AHB_SIZE_8B beats=1 error=0
# UVM_INFO ../src/slv/ahb_slave_monitor.sv(197) @ 1505000: uvm_test_top.env.slave_agent.mon [ahb_slave_monitor] Observed [AHB_READ]: HADDR=0x00002040, HBURST=AHB_BURST_SINGLE, HSIZE=AHB_SIZE_8B, 1 beats
# UVM_INFO ../src/env/ahb_scoreboard.sv(104) @ 1505000: uvm_test_top.env.scb [ahb_scoreboard] MATCH #34: [AHB_READ] HADDR=0x00002040 AHB_BURST_SINGLE 1 beats
# UVM_INFO ../src/env/ahb_coverage.sv(126) @ 1505000: uvm_test_top.env.slave_cov [ahb_coverage] Sampled [AHB_READ]: burst=AHB_BURST_SINGLE size=AHB_SIZE_8B beats=1 error=0
# UVM_INFO ../src/mst_seq/ahb_base_seq.sv(157) @ 1505000: uvm_test_top.env.master_agent.sqr@@seq [ahb_single_seq] AHB_BURST_SINGLE AHB_SIZE_8B beat 0 @0x00002040 ok
# UVM_INFO ../src/mst/ahb_master_driver.sv(85) @ 1505000: uvm_test_top.env.master_agent.drv [ahb_master_driver] Queueing [AHB_WRITE]: HADDR=0x00002044, HBURST=AHB_BURST_SINGLE, HSIZE=AHB_SIZE_32B, 1 beats
# UVM_INFO ../src/mst/ahb_master_driver.sv(127) @ 1505000: uvm_test_top.env.master_agent.drv [ahb_master_driver] Driving [AHB_WRITE]: HADDR=0x00002044, HBURST=AHB_BURST_SINGLE, HSIZE=AHB_SIZE_32B, 1 beats               
# UVM_INFO ../src/mst/ahb_master_driver.sv(332) @ 1545000: uvm_test_top.env.master_agent.drv [ahb_master_driver] Beat[0/1] addr=0x00002044 trans=AHB_TRANS_NONSEQ resp=AHB_RESP_OKAY wdata=0x2c2f472d
# UVM_INFO ../src/mst/ahb_master_driver.sv(376) @ 1545000: uvm_test_top.env.master_agent.drv [ahb_master_driver] Transaction complete: AHB_WRITE 0x00002044, 1 beats, burst=AHB_BURST_SINGLE
# UVM_INFO ../src/slv/ahb_slave_driver.sv(184) @ 1545000: uvm_test_top.env.slave_agent.drv [ahb_slave_driver] Beat AHB_WRITE addr=0x00002044 resp=AHB_RESP_OKAY waits=1 wdata=0x2c2f472d
# UVM_INFO ../src/mst/ahb_master_monitor.sv(117) @ 1545000: uvm_test_top.env.master_agent.mon [ahb_master_monitor] Beat[0] addr=0x00002044 wdata=0x2c2f472d resp=AHB_RESP_OKAY
# UVM_INFO ../src/mst/ahb_master_monitor.sv(220) @ 1545000: uvm_test_top.env.master_agent.mon [ahb_master_monitor] Observed [AHB_WRITE]: HADDR=0x00002044, HBURST=AHB_BURST_SINGLE, HSIZE=AHB_SIZE_32B, 1 beats
# UVM_INFO ../src/env/ahb_coverage.sv(126) @ 1545000: uvm_test_top.env.master_cov [ahb_coverage] Sampled [AHB_WRITE]: burst=AHB_BURST_SINGLE size=AHB_SIZE_32B beats=1 error=0
# UVM_INFO ../src/slv/ahb_slave_monitor.sv(197) @ 1545000: uvm_test_top.env.slave_agent.mon [ahb_slave_monitor] Observed [AHB_WRITE]: HADDR=0x00002044, HBURST=AHB_BURST_SINGLE, HSIZE=AHB_SIZE_32B, 1 beats
# UVM_INFO ../src/env/ahb_scoreboard.sv(104) @ 1545000: uvm_test_top.env.scb [ahb_scoreboard] MATCH #35: [AHB_WRITE] HADDR=0x00002044 AHB_BURST_SINGLE 1 beats
# UVM_INFO ../src/env/ahb_coverage.sv(126) @ 1545000: uvm_test_top.env.slave_cov [ahb_coverage] Sampled [AHB_WRITE]: burst=AHB_BURST_SINGLE size=AHB_SIZE_32B beats=1 error=0
# UVM_INFO ../src/mst/ahb_master_driver.sv(85) @ 1545000: uvm_test_top.env.master_agent.drv [ahb_master_driver] Queueing [AHB_READ]: HADDR=0x00002044, HBURST=AHB_BURST_SINGLE, HSIZE=AHB_SIZE_32B, 1 beats
# UVM_INFO ../src/mst/ahb_master_driver.sv(127) @ 1545000: uvm_test_top.env.master_agent.drv [ahb_master_driver] Driving [AHB_READ]: HADDR=0x00002044, HBURST=AHB_BURST_SINGLE, HSIZE=AHB_SIZE_32B, 1 beats               
# UVM_INFO ../src/mst/ahb_master_driver.sv(332) @ 1585000: uvm_test_top.env.master_agent.drv [ahb_master_driver] Beat[0/1] addr=0x00002044 trans=AHB_TRANS_NONSEQ resp=AHB_RESP_OKAY rdata=0x2c2f472d
# UVM_INFO ../src/mst/ahb_master_driver.sv(376) @ 1585000: uvm_test_top.env.master_agent.drv [ahb_master_driver] Transaction complete: AHB_READ 0x00002044, 1 beats, burst=AHB_BURST_SINGLE
# UVM_INFO ../src/slv/ahb_slave_driver.sv(184) @ 1585000: uvm_test_top.env.slave_agent.drv [ahb_slave_driver] Beat AHB_READ addr=0x00002044 resp=AHB_RESP_OKAY waits=1 rdata=0x2c2f472d
# UVM_INFO ../src/mst/ahb_master_monitor.sv(117) @ 1585000: uvm_test_top.env.master_agent.mon [ahb_master_monitor] Beat[0] addr=0x00002044 rdata=0x2c2f472d resp=AHB_RESP_OKAY
# UVM_INFO ../src/mst/ahb_master_monitor.sv(220) @ 1585000: uvm_test_top.env.master_agent.mon [ahb_master_monitor] Observed [AHB_READ]: HADDR=0x00002044, HBURST=AHB_BURST_SINGLE, HSIZE=AHB_SIZE_32B, 1 beats
# UVM_INFO ../src/env/ahb_coverage.sv(126) @ 1585000: uvm_test_top.env.master_cov [ahb_coverage] Sampled [AHB_READ]: burst=AHB_BURST_SINGLE size=AHB_SIZE_32B beats=1 error=0
# UVM_INFO ../src/slv/ahb_slave_monitor.sv(197) @ 1585000: uvm_test_top.env.slave_agent.mon [ahb_slave_monitor] Observed [AHB_READ]: HADDR=0x00002044, HBURST=AHB_BURST_SINGLE, HSIZE=AHB_SIZE_32B, 1 beats
# UVM_INFO ../src/env/ahb_scoreboard.sv(104) @ 1585000: uvm_test_top.env.scb [ahb_scoreboard] MATCH #36: [AHB_READ] HADDR=0x00002044 AHB_BURST_SINGLE 1 beats
# UVM_INFO ../src/env/ahb_coverage.sv(126) @ 1585000: uvm_test_top.env.slave_cov [ahb_coverage] Sampled [AHB_READ]: burst=AHB_BURST_SINGLE size=AHB_SIZE_32B beats=1 error=0
# UVM_INFO ../src/mst_seq/ahb_base_seq.sv(157) @ 1585000: uvm_test_top.env.master_agent.sqr@@seq [ahb_single_seq] AHB_BURST_SINGLE AHB_SIZE_32B beat 0 @0x00002044 ok
# UVM_INFO ../src/mst/ahb_master_driver.sv(85) @ 1585000: uvm_test_top.env.master_agent.drv [ahb_master_driver] Queueing [AHB_WRITE]: HADDR=0x00002048, HBURST=AHB_BURST_SINGLE, HSIZE=AHB_SIZE_8B, 1 beats
# UVM_INFO ../src/mst/ahb_master_driver.sv(127) @ 1585000: uvm_test_top.env.master_agent.drv [ahb_master_driver] Driving [AHB_WRITE]: HADDR=0x00002048, HBURST=AHB_BURST_SINGLE, HSIZE=AHB_SIZE_8B, 1 beats               
# UVM_INFO ../src/mst/ahb_master_driver.sv(332) @ 1635000: uvm_test_top.env.master_agent.drv [ahb_master_driver] Beat[0/1] addr=0x00002048 trans=AHB_TRANS_NONSEQ resp=AHB_RESP_OKAY wdata=0xdb5e13ad
# UVM_INFO ../src/mst/ahb_master_driver.sv(376) @ 1635000: uvm_test_top.env.master_agent.drv [ahb_master_driver] Transaction complete: AHB_WRITE 0x00002048, 1 beats, burst=AHB_BURST_SINGLE
# UVM_INFO ../src/slv/ahb_slave_driver.sv(184) @ 1635000: uvm_test_top.env.slave_agent.drv [ahb_slave_driver] Beat AHB_WRITE addr=0x00002048 resp=AHB_RESP_OKAY waits=2 wdata=0xdb5e13ad
# UVM_INFO ../src/slv/ahb_slave_monitor.sv(197) @ 1635000: uvm_test_top.env.slave_agent.mon [ahb_slave_monitor] Observed [AHB_WRITE]: HADDR=0x00002048, HBURST=AHB_BURST_SINGLE, HSIZE=AHB_SIZE_8B, 1 beats
# UVM_INFO ../src/env/ahb_coverage.sv(126) @ 1635000: uvm_test_top.env.slave_cov [ahb_coverage] Sampled [AHB_WRITE]: burst=AHB_BURST_SINGLE size=AHB_SIZE_8B beats=1 error=0
# UVM_INFO ../src/mst/ahb_master_monitor.sv(117) @ 1635000: uvm_test_top.env.master_agent.mon [ahb_master_monitor] Beat[0] addr=0x00002048 wdata=0xdb5e13ad resp=AHB_RESP_OKAY
# UVM_INFO ../src/mst/ahb_master_monitor.sv(220) @ 1635000: uvm_test_top.env.master_agent.mon [ahb_master_monitor] Observed [AHB_WRITE]: HADDR=0x00002048, HBURST=AHB_BURST_SINGLE, HSIZE=AHB_SIZE_8B, 1 beats
# UVM_INFO ../src/env/ahb_coverage.sv(126) @ 1635000: uvm_test_top.env.master_cov [ahb_coverage] Sampled [AHB_WRITE]: burst=AHB_BURST_SINGLE size=AHB_SIZE_8B beats=1 error=0
# UVM_INFO ../src/env/ahb_scoreboard.sv(104) @ 1635000: uvm_test_top.env.scb [ahb_scoreboard] MATCH #37: [AHB_WRITE] HADDR=0x00002048 AHB_BURST_SINGLE 1 beats
# UVM_INFO ../src/mst/ahb_master_driver.sv(85) @ 1635000: uvm_test_top.env.master_agent.drv [ahb_master_driver] Queueing [AHB_READ]: HADDR=0x00002048, HBURST=AHB_BURST_SINGLE, HSIZE=AHB_SIZE_8B, 1 beats
# UVM_INFO ../src/mst/ahb_master_driver.sv(127) @ 1635000: uvm_test_top.env.master_agent.drv [ahb_master_driver] Driving [AHB_READ]: HADDR=0x00002048, HBURST=AHB_BURST_SINGLE, HSIZE=AHB_SIZE_8B, 1 beats               
# UVM_INFO ../src/mst/ahb_master_driver.sv(332) @ 1685000: uvm_test_top.env.master_agent.drv [ahb_master_driver] Beat[0/1] addr=0x00002048 trans=AHB_TRANS_NONSEQ resp=AHB_RESP_OKAY rdata=0xdb5e13ad
# UVM_INFO ../src/mst/ahb_master_driver.sv(376) @ 1685000: uvm_test_top.env.master_agent.drv [ahb_master_driver] Transaction complete: AHB_READ 0x00002048, 1 beats, burst=AHB_BURST_SINGLE
# UVM_INFO ../src/slv/ahb_slave_driver.sv(184) @ 1685000: uvm_test_top.env.slave_agent.drv [ahb_slave_driver] Beat AHB_READ addr=0x00002048 resp=AHB_RESP_OKAY waits=2 rdata=0xdb5e13ad
# UVM_INFO ../src/mst/ahb_master_monitor.sv(117) @ 1685000: uvm_test_top.env.master_agent.mon [ahb_master_monitor] Beat[0] addr=0x00002048 rdata=0xdb5e13ad resp=AHB_RESP_OKAY
# UVM_INFO ../src/mst/ahb_master_monitor.sv(220) @ 1685000: uvm_test_top.env.master_agent.mon [ahb_master_monitor] Observed [AHB_READ]: HADDR=0x00002048, HBURST=AHB_BURST_SINGLE, HSIZE=AHB_SIZE_8B, 1 beats
# UVM_INFO ../src/env/ahb_coverage.sv(126) @ 1685000: uvm_test_top.env.master_cov [ahb_coverage] Sampled [AHB_READ]: burst=AHB_BURST_SINGLE size=AHB_SIZE_8B beats=1 error=0
# UVM_INFO ../src/slv/ahb_slave_monitor.sv(197) @ 1685000: uvm_test_top.env.slave_agent.mon [ahb_slave_monitor] Observed [AHB_READ]: HADDR=0x00002048, HBURST=AHB_BURST_SINGLE, HSIZE=AHB_SIZE_8B, 1 beats
# UVM_INFO ../src/env/ahb_scoreboard.sv(104) @ 1685000: uvm_test_top.env.scb [ahb_scoreboard] MATCH #38: [AHB_READ] HADDR=0x00002048 AHB_BURST_SINGLE 1 beats
# UVM_INFO ../src/env/ahb_coverage.sv(126) @ 1685000: uvm_test_top.env.slave_cov [ahb_coverage] Sampled [AHB_READ]: burst=AHB_BURST_SINGLE size=AHB_SIZE_8B beats=1 error=0
# UVM_INFO ../src/mst_seq/ahb_base_seq.sv(157) @ 1685000: uvm_test_top.env.master_agent.sqr@@seq [ahb_single_seq] AHB_BURST_SINGLE AHB_SIZE_8B beat 0 @0x00002048 ok
# UVM_INFO ../src/mst/ahb_master_driver.sv(85) @ 1685000: uvm_test_top.env.master_agent.drv [ahb_master_driver] Queueing [AHB_WRITE]: HADDR=0x0000204d, HBURST=AHB_BURST_SINGLE, HSIZE=AHB_SIZE_8B, 1 beats
# UVM_INFO ../src/mst/ahb_master_driver.sv(127) @ 1685000: uvm_test_top.env.master_agent.drv [ahb_master_driver] Driving [AHB_WRITE]: HADDR=0x0000204d, HBURST=AHB_BURST_SINGLE, HSIZE=AHB_SIZE_8B, 1 beats               
# UVM_INFO ../src/mst/ahb_master_driver.sv(332) @ 1725000: uvm_test_top.env.master_agent.drv [ahb_master_driver] Beat[0/1] addr=0x0000204d trans=AHB_TRANS_NONSEQ resp=AHB_RESP_OKAY wdata=0x54faaf66
# UVM_INFO ../src/mst/ahb_master_driver.sv(376) @ 1725000: uvm_test_top.env.master_agent.drv [ahb_master_driver] Transaction complete: AHB_WRITE 0x0000204d, 1 beats, burst=AHB_BURST_SINGLE
# UVM_INFO ../src/slv/ahb_slave_driver.sv(184) @ 1725000: uvm_test_top.env.slave_agent.drv [ahb_slave_driver] Beat AHB_WRITE addr=0x0000204d resp=AHB_RESP_OKAY waits=1 wdata=0x54faaf66
# UVM_INFO ../src/mst/ahb_master_monitor.sv(117) @ 1725000: uvm_test_top.env.master_agent.mon [ahb_master_monitor] Beat[0] addr=0x0000204d wdata=0x54faaf66 resp=AHB_RESP_OKAY
# UVM_INFO ../src/mst/ahb_master_monitor.sv(220) @ 1725000: uvm_test_top.env.master_agent.mon [ahb_master_monitor] Observed [AHB_WRITE]: HADDR=0x0000204d, HBURST=AHB_BURST_SINGLE, HSIZE=AHB_SIZE_8B, 1 beats
# UVM_INFO ../src/env/ahb_coverage.sv(126) @ 1725000: uvm_test_top.env.master_cov [ahb_coverage] Sampled [AHB_WRITE]: burst=AHB_BURST_SINGLE size=AHB_SIZE_8B beats=1 error=0
# UVM_INFO ../src/slv/ahb_slave_monitor.sv(197) @ 1725000: uvm_test_top.env.slave_agent.mon [ahb_slave_monitor] Observed [AHB_WRITE]: HADDR=0x0000204d, HBURST=AHB_BURST_SINGLE, HSIZE=AHB_SIZE_8B, 1 beats
# UVM_INFO ../src/env/ahb_scoreboard.sv(104) @ 1725000: uvm_test_top.env.scb [ahb_scoreboard] MATCH #39: [AHB_WRITE] HADDR=0x0000204d AHB_BURST_SINGLE 1 beats
# UVM_INFO ../src/env/ahb_coverage.sv(126) @ 1725000: uvm_test_top.env.slave_cov [ahb_coverage] Sampled [AHB_WRITE]: burst=AHB_BURST_SINGLE size=AHB_SIZE_8B beats=1 error=0
# UVM_INFO ../src/mst/ahb_master_driver.sv(85) @ 1725000: uvm_test_top.env.master_agent.drv [ahb_master_driver] Queueing [AHB_READ]: HADDR=0x0000204d, HBURST=AHB_BURST_SINGLE, HSIZE=AHB_SIZE_8B, 1 beats
# UVM_INFO ../src/mst/ahb_master_driver.sv(127) @ 1725000: uvm_test_top.env.master_agent.drv [ahb_master_driver] Driving [AHB_READ]: HADDR=0x0000204d, HBURST=AHB_BURST_SINGLE, HSIZE=AHB_SIZE_8B, 1 beats               
# UVM_INFO ../src/mst/ahb_master_driver.sv(332) @ 1775000: uvm_test_top.env.master_agent.drv [ahb_master_driver] Beat[0/1] addr=0x0000204d trans=AHB_TRANS_NONSEQ resp=AHB_RESP_OKAY rdata=0x54faaf66
# UVM_INFO ../src/mst/ahb_master_driver.sv(376) @ 1775000: uvm_test_top.env.master_agent.drv [ahb_master_driver] Transaction complete: AHB_READ 0x0000204d, 1 beats, burst=AHB_BURST_SINGLE
# UVM_INFO ../src/slv/ahb_slave_driver.sv(184) @ 1775000: uvm_test_top.env.slave_agent.drv [ahb_slave_driver] Beat AHB_READ addr=0x0000204d resp=AHB_RESP_OKAY waits=2 rdata=0x54faaf66
# UVM_INFO ../src/slv/ahb_slave_monitor.sv(197) @ 1775000: uvm_test_top.env.slave_agent.mon [ahb_slave_monitor] Observed [AHB_READ]: HADDR=0x0000204d, HBURST=AHB_BURST_SINGLE, HSIZE=AHB_SIZE_8B, 1 beats
# UVM_INFO ../src/env/ahb_coverage.sv(126) @ 1775000: uvm_test_top.env.slave_cov [ahb_coverage] Sampled [AHB_READ]: burst=AHB_BURST_SINGLE size=AHB_SIZE_8B beats=1 error=0
# UVM_INFO ../src/mst/ahb_master_monitor.sv(117) @ 1775000: uvm_test_top.env.master_agent.mon [ahb_master_monitor] Beat[0] addr=0x0000204d rdata=0x54faaf66 resp=AHB_RESP_OKAY
# UVM_INFO ../src/mst/ahb_master_monitor.sv(220) @ 1775000: uvm_test_top.env.master_agent.mon [ahb_master_monitor] Observed [AHB_READ]: HADDR=0x0000204d, HBURST=AHB_BURST_SINGLE, HSIZE=AHB_SIZE_8B, 1 beats
# UVM_INFO ../src/env/ahb_coverage.sv(126) @ 1775000: uvm_test_top.env.master_cov [ahb_coverage] Sampled [AHB_READ]: burst=AHB_BURST_SINGLE size=AHB_SIZE_8B beats=1 error=0
# UVM_INFO ../src/env/ahb_scoreboard.sv(104) @ 1775000: uvm_test_top.env.scb [ahb_scoreboard] MATCH #40: [AHB_READ] HADDR=0x0000204d AHB_BURST_SINGLE 1 beats
# UVM_INFO ../src/mst_seq/ahb_base_seq.sv(157) @ 1775000: uvm_test_top.env.master_agent.sqr@@seq [ahb_single_seq] AHB_BURST_SINGLE AHB_SIZE_8B beat 0 @0x0000204d ok
# UVM_INFO ../src/mst_seq/ahb_single_seq.sv(69) @ 1775000: uvm_test_top.env.master_agent.sqr@@seq [ahb_single_seq] SINGLE transfers done: beats=20 mismatch=0
# UVM_INFO verilog_src/uvm-1.1d/src/base/uvm_objection.svh(1268) @ 1775200: reporter [TEST_DONE] 'run' phase is ready to proceed to the 'extract' phase
# UVM_INFO ../src/env/ahb_coverage.sv(136) @ 1775200: uvm_test_top.env.master_cov [ahb_coverage] [master_cov] functional coverage = 55.12%
# UVM_INFO ../src/env/ahb_scoreboard.sv(208) @ 1775200: uvm_test_top.env.scb [ahb_scoreboard] Passthrough : compared=40 matched=40 mismatched=0
# UVM_INFO ../src/env/ahb_scoreboard.sv(212) @ 1775200: uvm_test_top.env.scb [ahb_scoreboard] Ref-memory  : wr_bytes=43 rd_checked=43 rd_uninit=0 rd_mismatch=0
# UVM_INFO ../src/env/ahb_coverage.sv(136) @ 1775200: uvm_test_top.env.slave_cov [ahb_coverage] [slave_cov] functional coverage = 55.12%
# UVM_INFO ../src/test/ahb_base_test.sv(74) @ 1775200: uvm_test_top [ahb_single_transfer_test] 
# === TEST PASSED ===
# 
# 
# --- UVM Report Summary ---
# 
# ** Report counts by severity
# UVM_INFO :  488
# UVM_WARNING :    0
# UVM_ERROR :    0
# UVM_FATAL :    0
# ** Report counts by id
# [Questa UVM]     3
# [RNTST]     1
# [TB_TOP]     3
# [TEST_DONE]     1
# [UVMTOP]     1
# [ahb_coverage]    82
# [ahb_master_agent]     1
# [ahb_master_driver]   162
# [ahb_master_monitor]    81
# [ahb_scoreboard]    42
# [ahb_single_seq]    22
# [ahb_single_transfer_test]     1
# [ahb_slave_agent]     1
# [ahb_slave_driver]    41
# [ahb_slave_monitor]    41
# [ahb_vip_env]     5
# ** Note: $finish    : /cadtools/mentor/Questa_10.6b/questasim/linux_x86_64/../verilog_src/uvm-1.1d/src/base/uvm_root.svh(430)
#    Time: 1775200 ps  Iteration: 53  Instance: /tb_top
# Saving coverage database on exit...
# End time: 11:01:19 on Aug 05,2026, Elapsed time: 0:00:01
# Errors: 0, Warnings: 0
