# vsim -c -coverage -sv_seed 39474547 "+UVM_TESTNAME=ahb_read_after_write_test" "+UVM_VERBOSITY=UVM_HIGH" "+DUMP_VCD" -l ./report/logs/ahb_read_after_write_test_run_3_seed_39474547.log -do "coverage save -onexit ./report/coverage/ahb_read_after_write_test_run_3_seed_39474547.ucdb; run -all; quit -f" opt_tb_top 
# Start time: 10:23:57 on Aug 05,2026
# //  Questa Sim-64
# //  Version 10.6b linux_x86_64 May 25 2017
# //
# //  Copyright 1991-2017 Mentor Graphics Corporation
# //  All Rights Reserved.
# //
# //  QuestaSim and its associated documentation contain trade
# //  secrets and commercial or financial information that are the property of
# //  Mentor Graphics Corporation and are privileged, confidential,
# //  and exempt from disclosure under the Freedom of Information Act,
# //  5 U.S.C. Section 552. Furthermore, this information
# //  is prohibited from disclosure under the Trade Secrets Act,
# //  18 U.S.C. Section 1905.
# //
# Loading sv_std.std
# Loading work.ahb_if(fast)
# Loading mtiUvm.uvm_pkg
# Loading work.ahb_pkg(fast)
# Loading work.ahb_seq_pkg(fast)
# Loading work.ahb_test_pkg(fast)
# Loading work.tb_top(fast)
# Loading work.ahb_if(fast)
# Loading work.ahb_sva(fast)
# Loading mtiUvm.questa_uvm_pkg(fast)
# Loading /cadtools/mentor/Questa_10.6b/questasim/uvm-1.1d/linux_x86_64/uvm_dpi.so
# coverage save -onexit ./report/coverage/ahb_read_after_write_test_run_3_seed_39474547.ucdb
#  run -all
# ----------------------------------------------------------------
# UVM-1.1d
# (C) 2007-2013 Mentor Graphics Corporation
# (C) 2007-2013 Cadence Design Systems, Inc.
# (C) 2006-2013 Synopsys, Inc.
# (C) 2011-2013 Cypress Semiconductor Corp.
# ----------------------------------------------------------------
# 
#   ***********       IMPORTANT RELEASE NOTES         ************
# 
#   You are using a version of the UVM library that has been compiled
#   with `UVM_NO_DEPRECATED undefined.
#   See http://www.eda.org/svdb/view.php?id=3313 for more details.
# 
#   You are using a version of the UVM library that has been compiled
#   with `UVM_OBJECT_MUST_HAVE_CONSTRUCTOR undefined.
#   See http://www.eda.org/svdb/view.php?id=3770 for more details.
# 
#       (Specify +UVM_NO_RELNOTES to turn off this notice)
# 
# UVM_INFO verilog_src/questa_uvm_pkg-1.2/src/questa_uvm_pkg.sv(215) @ 0: reporter [Questa UVM] QUESTA_UVM-1.2.3
# UVM_INFO verilog_src/questa_uvm_pkg-1.2/src/questa_uvm_pkg.sv(217) @ 0: reporter [Questa UVM]  questa_uvm::init(+struct)
# UVM_INFO ../src/tb_top.sv(126) @ 0: reporter [TB_TOP] Virtual interface set in config_db
# UVM_INFO @ 0: reporter [RNTST] Running test ahb_read_after_write_test...
# UVM_INFO ../src/tb_top.sv(140) @ 0: reporter [TB_TOP] Waveform VCD dumping enabled (ahb_lite_vip.vcd)
# UVM_INFO ../src/env/ahb_vip_env.sv(64) @ 0: uvm_test_top.env [ahb_vip_env] slave_vif not set - reusing master_vif (passthrough mode)
# UVM_INFO ../src/env/ahb_vip_env.sv(72) @ 0: uvm_test_top.env [ahb_vip_env] Scoreboard created
# UVM_INFO ../src/env/ahb_vip_env.sv(78) @ 0: uvm_test_top.env [ahb_vip_env] Coverage collectors created
# UVM_INFO ../src/mst/ahb_master_agent.sv(61) @ 0: uvm_test_top.env.master_agent [ahb_master_agent] ACTIVE mode - driver + sequencer created
# UVM_INFO ../src/slv/ahb_slave_agent.sv(64) @ 0: uvm_test_top.env.slave_agent [ahb_slave_agent] ACTIVE mode - driver + sequencer created (    auto responses)
# UVM_INFO ../src/env/ahb_vip_env.sv(92) @ 0: uvm_test_top.env [ahb_vip_env] Scoreboard connected: master_mon.ap -> scb, slave_mon.ap -> scb
# UVM_INFO ../src/env/ahb_vip_env.sv(99) @ 0: uvm_test_top.env [ahb_vip_env] Coverage connected: master_mon.ap -> master_cov, slave_mon.ap -> slave_cov
# UVM_INFO @ 0: reporter [UVMTOP] UVM testbench topology:
# -----------------------------------------------------------------
# Name                       Type                       Size  Value
# -----------------------------------------------------------------
# uvm_test_top               ahb_read_after_write_test  -     @475 
#   env                      ahb_vip_env                -     @490 
#     master_agent           ahb_master_agent           -     @505 
#       drv                  ahb_master_driver          -     @570 
#         rsp_port           uvm_analysis_port          -     @585 
#         seq_item_port      uvm_seq_item_pull_port     -     @577 
#       mon                  ahb_master_monitor         -     @563 
#         ap                 uvm_analysis_port          -     @704 
#       sqr                  ahb_master_sequencer       -     @593 
#         rsp_export         uvm_analysis_export        -     @600 
#         seq_item_export    uvm_seq_item_pull_imp      -     @694 
#         arbitration_queue  array                      0     -    
#         lock_queue         array                      0     -    
#         num_last_reqs      integral                   32    'd1  
#         num_last_rsps      integral                   32    'd1  
#     master_cov             ahb_coverage               -     @526 
#       analysis_imp         uvm_analysis_imp           -     @533 
#     scb                    ahb_scoreboard             -     @519 
#       master_export        uvm_analysis_imp_master    -     @718 
#       slave_export         uvm_analysis_imp_slave     -     @726 
#     slave_agent            ahb_slave_agent            -     @512 
#       drv                  ahb_slave_driver           -     @748 
#         rsp_port           uvm_analysis_port          -     @763 
#         seq_item_port      uvm_seq_item_pull_port     -     @755 
#       mon                  ahb_slave_monitor          -     @741 
#         ap                 uvm_analysis_port          -     @882 
#       sqr                  ahb_slave_sequencer        -     @771 
#         rsp_export         uvm_analysis_export        -     @778 
#         seq_item_export    uvm_seq_item_pull_imp      -     @872 
#         arbitration_queue  array                      0     -    
#         lock_queue         array                      0     -    
#         num_last_reqs      integral                   32    'd1  
#         num_last_rsps      integral                   32    'd1  
#     slave_cov              ahb_coverage               -     @541 
#       analysis_imp         uvm_analysis_imp           -     @548 
# -----------------------------------------------------------------
# 
# UVM_INFO verilog_src/questa_uvm_pkg-1.2/src/questa_uvm_pkg.sv(277) @ 0: reporter [Questa UVM] End Of Elaboration
# UVM_INFO ../src/mst_seq/ahb_read_after_write_seq.sv(51) @ 0: uvm_test_top.env.master_agent.sqr@@seq [ahb_read_after_write_seq] Starting read-after-write: 20 iterations over [0x00000000 : 0x000003ff]
# UVM_INFO ../src/mst/ahb_master_driver.sv(183) @ 5000: uvm_test_top.env.master_agent.drv [ahb_master_driver] Flushed pending transactions (reset)
# UVM_INFO ../src/tb_top.sv(48) @ 95000: reporter [TB_TOP] Reset de-asserted
# UVM_INFO ../src/slv/ahb_slave_driver.sv(63) @ 95000: uvm_test_top.env.slave_agent.drv [ahb_slave_driver] Reset deasserted - slave driver active (    auto mode)
# UVM_INFO ../src/mst/ahb_master_driver.sv(72) @ 95000: uvm_test_top.env.master_agent.drv [ahb_master_driver] Reset deasserted - master driver active
# UVM_INFO ../src/mst/ahb_master_monitor.sv(75) @ 95000: uvm_test_top.env.master_agent.mon [ahb_master_monitor] Reset deasserted - master monitor active
# UVM_INFO ../src/slv/ahb_slave_monitor.sv(69) @ 95000: uvm_test_top.env.slave_agent.mon [ahb_slave_monitor] Reset deasserted - slave monitor active
# UVM_INFO ../src/mst/ahb_master_driver.sv(85) @ 95000: uvm_test_top.env.master_agent.drv [ahb_master_driver] Queueing [AHB_WRITE]: HADDR=0x00000320, HBURST=AHB_BURST_SINGLE, HSIZE=AHB_SIZE_32B, 1 beats
# UVM_INFO ../src/mst/ahb_master_driver.sv(127) @ 95000: uvm_test_top.env.master_agent.drv [ahb_master_driver] Driving [AHB_WRITE]: HADDR=0x00000320, HBURST=AHB_BURST_SINGLE, HSIZE=AHB_SIZE_32B, 1 beats               
# UVM_INFO ../src/mst/ahb_master_driver.sv(332) @ 115000: uvm_test_top.env.master_agent.drv [ahb_master_driver] Beat[0/1] addr=0x00000320 trans=AHB_TRANS_NONSEQ resp=AHB_RESP_OKAY wdata=0xbd884e76
# UVM_INFO ../src/mst/ahb_master_driver.sv(376) @ 115000: uvm_test_top.env.master_agent.drv [ahb_master_driver] Transaction complete: AHB_WRITE 0x00000320, 1 beats, burst=AHB_BURST_SINGLE
# UVM_INFO ../src/slv/ahb_slave_driver.sv(184) @ 115000: uvm_test_top.env.slave_agent.drv [ahb_slave_driver] Beat AHB_WRITE addr=0x00000320 resp=AHB_RESP_OKAY waits=0 wdata=0xbd884e76
# UVM_INFO ../src/slv/ahb_slave_monitor.sv(197) @ 115000: uvm_test_top.env.slave_agent.mon [ahb_slave_monitor] Observed [AHB_WRITE]: HADDR=0x00000320, HBURST=AHB_BURST_SINGLE, HSIZE=AHB_SIZE_32B, 1 beats
# UVM_INFO ../src/env/ahb_coverage.sv(126) @ 115000: uvm_test_top.env.slave_cov [ahb_coverage] Sampled [AHB_WRITE]: burst=AHB_BURST_SINGLE size=AHB_SIZE_32B beats=1 error=0
# UVM_INFO ../src/mst/ahb_master_monitor.sv(117) @ 115000: uvm_test_top.env.master_agent.mon [ahb_master_monitor] Beat[0] addr=0x00000320 wdata=0xbd884e76 resp=AHB_RESP_OKAY
# UVM_INFO ../src/mst/ahb_master_monitor.sv(220) @ 115000: uvm_test_top.env.master_agent.mon [ahb_master_monitor] Observed [AHB_WRITE]: HADDR=0x00000320, HBURST=AHB_BURST_SINGLE, HSIZE=AHB_SIZE_32B, 1 beats
# UVM_INFO ../src/env/ahb_coverage.sv(126) @ 115000: uvm_test_top.env.master_cov [ahb_coverage] Sampled [AHB_WRITE]: burst=AHB_BURST_SINGLE size=AHB_SIZE_32B beats=1 error=0
# UVM_INFO ../src/env/ahb_scoreboard.sv(104) @ 115000: uvm_test_top.env.scb [ahb_scoreboard] MATCH #1: [AHB_WRITE] HADDR=0x00000320 AHB_BURST_SINGLE 1 beats
# UVM_INFO ../src/mst/ahb_master_driver.sv(85) @ 115000: uvm_test_top.env.master_agent.drv [ahb_master_driver] Queueing [AHB_READ]: HADDR=0x00000320, HBURST=AHB_BURST_SINGLE, HSIZE=AHB_SIZE_32B, 1 beats
# UVM_INFO ../src/mst/ahb_master_driver.sv(127) @ 115000: uvm_test_top.env.master_agent.drv [ahb_master_driver] Driving [AHB_READ]: HADDR=0x00000320, HBURST=AHB_BURST_SINGLE, HSIZE=AHB_SIZE_32B, 1 beats               
# UVM_INFO ../src/mst/ahb_master_driver.sv(332) @ 165000: uvm_test_top.env.master_agent.drv [ahb_master_driver] Beat[0/1] addr=0x00000320 trans=AHB_TRANS_NONSEQ resp=AHB_RESP_OKAY rdata=0xbd884e76
# UVM_INFO ../src/mst/ahb_master_driver.sv(376) @ 165000: uvm_test_top.env.master_agent.drv [ahb_master_driver] Transaction complete: AHB_READ 0x00000320, 1 beats, burst=AHB_BURST_SINGLE
# UVM_INFO ../src/slv/ahb_slave_driver.sv(184) @ 165000: uvm_test_top.env.slave_agent.drv [ahb_slave_driver] Beat AHB_READ addr=0x00000320 resp=AHB_RESP_OKAY waits=2 rdata=0xbd884e76
# UVM_INFO ../src/mst/ahb_master_monitor.sv(117) @ 165000: uvm_test_top.env.master_agent.mon [ahb_master_monitor] Beat[0] addr=0x00000320 rdata=0xbd884e76 resp=AHB_RESP_OKAY
# UVM_INFO ../src/mst/ahb_master_monitor.sv(220) @ 165000: uvm_test_top.env.master_agent.mon [ahb_master_monitor] Observed [AHB_READ]: HADDR=0x00000320, HBURST=AHB_BURST_SINGLE, HSIZE=AHB_SIZE_32B, 1 beats
# UVM_INFO ../src/env/ahb_coverage.sv(126) @ 165000: uvm_test_top.env.master_cov [ahb_coverage] Sampled [AHB_READ]: burst=AHB_BURST_SINGLE size=AHB_SIZE_32B beats=1 error=0
# UVM_INFO ../src/slv/ahb_slave_monitor.sv(197) @ 165000: uvm_test_top.env.slave_agent.mon [ahb_slave_monitor] Observed [AHB_READ]: HADDR=0x00000320, HBURST=AHB_BURST_SINGLE, HSIZE=AHB_SIZE_32B, 1 beats
# UVM_INFO ../src/env/ahb_scoreboard.sv(104) @ 165000: uvm_test_top.env.scb [ahb_scoreboard] MATCH #2: [AHB_READ] HADDR=0x00000320 AHB_BURST_SINGLE 1 beats
# UVM_INFO ../src/env/ahb_coverage.sv(126) @ 165000: uvm_test_top.env.slave_cov [ahb_coverage] Sampled [AHB_READ]: burst=AHB_BURST_SINGLE size=AHB_SIZE_32B beats=1 error=0
# UVM_INFO ../src/mst_seq/ahb_read_after_write_seq.sv(99) @ 165000: uvm_test_top.env.master_agent.sqr@@seq [ahb_read_after_write_seq] RAW ok @0x00000320: 0xbd884e76
# UVM_INFO ../src/mst/ahb_master_driver.sv(85) @ 165000: uvm_test_top.env.master_agent.drv [ahb_master_driver] Queueing [AHB_WRITE]: HADDR=0x000001e8, HBURST=AHB_BURST_SINGLE, HSIZE=AHB_SIZE_32B, 1 beats
# UVM_INFO ../src/mst/ahb_master_driver.sv(127) @ 165000: uvm_test_top.env.master_agent.drv [ahb_master_driver] Driving [AHB_WRITE]: HADDR=0x000001e8, HBURST=AHB_BURST_SINGLE, HSIZE=AHB_SIZE_32B, 1 beats               
# UVM_INFO ../src/mst/ahb_master_driver.sv(332) @ 205000: uvm_test_top.env.master_agent.drv [ahb_master_driver] Beat[0/1] addr=0x000001e8 trans=AHB_TRANS_NONSEQ resp=AHB_RESP_OKAY wdata=0x8ae1c6e2
# UVM_INFO ../src/mst/ahb_master_driver.sv(376) @ 205000: uvm_test_top.env.master_agent.drv [ahb_master_driver] Transaction complete: AHB_WRITE 0x000001e8, 1 beats, burst=AHB_BURST_SINGLE
# UVM_INFO ../src/slv/ahb_slave_driver.sv(184) @ 205000: uvm_test_top.env.slave_agent.drv [ahb_slave_driver] Beat AHB_WRITE addr=0x000001e8 resp=AHB_RESP_OKAY waits=1 wdata=0x8ae1c6e2
# UVM_INFO ../src/mst/ahb_master_monitor.sv(117) @ 205000: uvm_test_top.env.master_agent.mon [ahb_master_monitor] Beat[0] addr=0x000001e8 wdata=0x8ae1c6e2 resp=AHB_RESP_OKAY
# UVM_INFO ../src/mst/ahb_master_monitor.sv(220) @ 205000: uvm_test_top.env.master_agent.mon [ahb_master_monitor] Observed [AHB_WRITE]: HADDR=0x000001e8, HBURST=AHB_BURST_SINGLE, HSIZE=AHB_SIZE_32B, 1 beats
# UVM_INFO ../src/env/ahb_coverage.sv(126) @ 205000: uvm_test_top.env.master_cov [ahb_coverage] Sampled [AHB_WRITE]: burst=AHB_BURST_SINGLE size=AHB_SIZE_32B beats=1 error=0
# UVM_INFO ../src/slv/ahb_slave_monitor.sv(197) @ 205000: uvm_test_top.env.slave_agent.mon [ahb_slave_monitor] Observed [AHB_WRITE]: HADDR=0x000001e8, HBURST=AHB_BURST_SINGLE, HSIZE=AHB_SIZE_32B, 1 beats
# UVM_INFO ../src/env/ahb_scoreboard.sv(104) @ 205000: uvm_test_top.env.scb [ahb_scoreboard] MATCH #3: [AHB_WRITE] HADDR=0x000001e8 AHB_BURST_SINGLE 1 beats
# UVM_INFO ../src/env/ahb_coverage.sv(126) @ 205000: uvm_test_top.env.slave_cov [ahb_coverage] Sampled [AHB_WRITE]: burst=AHB_BURST_SINGLE size=AHB_SIZE_32B beats=1 error=0
# UVM_INFO ../src/mst/ahb_master_driver.sv(85) @ 205000: uvm_test_top.env.master_agent.drv [ahb_master_driver] Queueing [AHB_READ]: HADDR=0x000001e8, HBURST=AHB_BURST_SINGLE, HSIZE=AHB_SIZE_32B, 1 beats
# UVM_INFO ../src/mst/ahb_master_driver.sv(127) @ 205000: uvm_test_top.env.master_agent.drv [ahb_master_driver] Driving [AHB_READ]: HADDR=0x000001e8, HBURST=AHB_BURST_SINGLE, HSIZE=AHB_SIZE_32B, 1 beats               
# UVM_INFO ../src/mst/ahb_master_driver.sv(332) @ 235000: uvm_test_top.env.master_agent.drv [ahb_master_driver] Beat[0/1] addr=0x000001e8 trans=AHB_TRANS_NONSEQ resp=AHB_RESP_OKAY rdata=0x8ae1c6e2
# UVM_INFO ../src/mst/ahb_master_driver.sv(376) @ 235000: uvm_test_top.env.master_agent.drv [ahb_master_driver] Transaction complete: AHB_READ 0x000001e8, 1 beats, burst=AHB_BURST_SINGLE
# UVM_INFO ../src/slv/ahb_slave_driver.sv(184) @ 235000: uvm_test_top.env.slave_agent.drv [ahb_slave_driver] Beat AHB_READ addr=0x000001e8 resp=AHB_RESP_OKAY waits=0 rdata=0x8ae1c6e2
# UVM_INFO ../src/slv/ahb_slave_monitor.sv(197) @ 235000: uvm_test_top.env.slave_agent.mon [ahb_slave_monitor] Observed [AHB_READ]: HADDR=0x000001e8, HBURST=AHB_BURST_SINGLE, HSIZE=AHB_SIZE_32B, 1 beats
# UVM_INFO ../src/env/ahb_coverage.sv(126) @ 235000: uvm_test_top.env.slave_cov [ahb_coverage] Sampled [AHB_READ]: burst=AHB_BURST_SINGLE size=AHB_SIZE_32B beats=1 error=0
# UVM_INFO ../src/mst/ahb_master_monitor.sv(117) @ 235000: uvm_test_top.env.master_agent.mon [ahb_master_monitor] Beat[0] addr=0x000001e8 rdata=0x8ae1c6e2 resp=AHB_RESP_OKAY
# UVM_INFO ../src/mst/ahb_master_monitor.sv(220) @ 235000: uvm_test_top.env.master_agent.mon [ahb_master_monitor] Observed [AHB_READ]: HADDR=0x000001e8, HBURST=AHB_BURST_SINGLE, HSIZE=AHB_SIZE_32B, 1 beats
# UVM_INFO ../src/env/ahb_coverage.sv(126) @ 235000: uvm_test_top.env.master_cov [ahb_coverage] Sampled [AHB_READ]: burst=AHB_BURST_SINGLE size=AHB_SIZE_32B beats=1 error=0
# UVM_INFO ../src/env/ahb_scoreboard.sv(104) @ 235000: uvm_test_top.env.scb [ahb_scoreboard] MATCH #4: [AHB_READ] HADDR=0x000001e8 AHB_BURST_SINGLE 1 beats
# UVM_INFO ../src/mst_seq/ahb_read_after_write_seq.sv(99) @ 235000: uvm_test_top.env.master_agent.sqr@@seq [ahb_read_after_write_seq] RAW ok @0x000001e8: 0x8ae1c6e2
# UVM_INFO ../src/mst/ahb_master_driver.sv(85) @ 235000: uvm_test_top.env.master_agent.drv [ahb_master_driver] Queueing [AHB_WRITE]: HADDR=0x000001d0, HBURST=AHB_BURST_SINGLE, HSIZE=AHB_SIZE_32B, 1 beats
# UVM_INFO ../src/mst/ahb_master_driver.sv(127) @ 235000: uvm_test_top.env.master_agent.drv [ahb_master_driver] Driving [AHB_WRITE]: HADDR=0x000001d0, HBURST=AHB_BURST_SINGLE, HSIZE=AHB_SIZE_32B, 1 beats               
# UVM_INFO ../src/mst/ahb_master_driver.sv(332) @ 285000: uvm_test_top.env.master_agent.drv [ahb_master_driver] Beat[0/1] addr=0x000001d0 trans=AHB_TRANS_NONSEQ resp=AHB_RESP_OKAY wdata=0x90f99531
# UVM_INFO ../src/mst/ahb_master_driver.sv(376) @ 285000: uvm_test_top.env.master_agent.drv [ahb_master_driver] Transaction complete: AHB_WRITE 0x000001d0, 1 beats, burst=AHB_BURST_SINGLE
# UVM_INFO ../src/slv/ahb_slave_driver.sv(184) @ 285000: uvm_test_top.env.slave_agent.drv [ahb_slave_driver] Beat AHB_WRITE addr=0x000001d0 resp=AHB_RESP_OKAY waits=2 wdata=0x90f99531
# UVM_INFO ../src/mst/ahb_master_monitor.sv(117) @ 285000: uvm_test_top.env.master_agent.mon [ahb_master_monitor] Beat[0] addr=0x000001d0 wdata=0x90f99531 resp=AHB_RESP_OKAY
# UVM_INFO ../src/mst/ahb_master_monitor.sv(220) @ 285000: uvm_test_top.env.master_agent.mon [ahb_master_monitor] Observed [AHB_WRITE]: HADDR=0x000001d0, HBURST=AHB_BURST_SINGLE, HSIZE=AHB_SIZE_32B, 1 beats
# UVM_INFO ../src/env/ahb_coverage.sv(126) @ 285000: uvm_test_top.env.master_cov [ahb_coverage] Sampled [AHB_WRITE]: burst=AHB_BURST_SINGLE size=AHB_SIZE_32B beats=1 error=0
# UVM_INFO ../src/slv/ahb_slave_monitor.sv(197) @ 285000: uvm_test_top.env.slave_agent.mon [ahb_slave_monitor] Observed [AHB_WRITE]: HADDR=0x000001d0, HBURST=AHB_BURST_SINGLE, HSIZE=AHB_SIZE_32B, 1 beats
# UVM_INFO ../src/env/ahb_scoreboard.sv(104) @ 285000: uvm_test_top.env.scb [ahb_scoreboard] MATCH #5: [AHB_WRITE] HADDR=0x000001d0 AHB_BURST_SINGLE 1 beats
# UVM_INFO ../src/env/ahb_coverage.sv(126) @ 285000: uvm_test_top.env.slave_cov [ahb_coverage] Sampled [AHB_WRITE]: burst=AHB_BURST_SINGLE size=AHB_SIZE_32B beats=1 error=0
# UVM_INFO ../src/mst/ahb_master_driver.sv(85) @ 285000: uvm_test_top.env.master_agent.drv [ahb_master_driver] Queueing [AHB_READ]: HADDR=0x000001d0, HBURST=AHB_BURST_SINGLE, HSIZE=AHB_SIZE_32B, 1 beats
# UVM_INFO ../src/mst/ahb_master_driver.sv(127) @ 285000: uvm_test_top.env.master_agent.drv [ahb_master_driver] Driving [AHB_READ]: HADDR=0x000001d0, HBURST=AHB_BURST_SINGLE, HSIZE=AHB_SIZE_32B, 1 beats               
# UVM_INFO ../src/mst/ahb_master_driver.sv(332) @ 335000: uvm_test_top.env.master_agent.drv [ahb_master_driver] Beat[0/1] addr=0x000001d0 trans=AHB_TRANS_NONSEQ resp=AHB_RESP_OKAY rdata=0x90f99531
# UVM_INFO ../src/mst/ahb_master_driver.sv(376) @ 335000: uvm_test_top.env.master_agent.drv [ahb_master_driver] Transaction complete: AHB_READ 0x000001d0, 1 beats, burst=AHB_BURST_SINGLE
# UVM_INFO ../src/slv/ahb_slave_driver.sv(184) @ 335000: uvm_test_top.env.slave_agent.drv [ahb_slave_driver] Beat AHB_READ addr=0x000001d0 resp=AHB_RESP_OKAY waits=2 rdata=0x90f99531
# UVM_INFO ../src/slv/ahb_slave_monitor.sv(197) @ 335000: uvm_test_top.env.slave_agent.mon [ahb_slave_monitor] Observed [AHB_READ]: HADDR=0x000001d0, HBURST=AHB_BURST_SINGLE, HSIZE=AHB_SIZE_32B, 1 beats
# UVM_INFO ../src/env/ahb_coverage.sv(126) @ 335000: uvm_test_top.env.slave_cov [ahb_coverage] Sampled [AHB_READ]: burst=AHB_BURST_SINGLE size=AHB_SIZE_32B beats=1 error=0
# UVM_INFO ../src/mst/ahb_master_monitor.sv(117) @ 335000: uvm_test_top.env.master_agent.mon [ahb_master_monitor] Beat[0] addr=0x000001d0 rdata=0x90f99531 resp=AHB_RESP_OKAY
# UVM_INFO ../src/mst/ahb_master_monitor.sv(220) @ 335000: uvm_test_top.env.master_agent.mon [ahb_master_monitor] Observed [AHB_READ]: HADDR=0x000001d0, HBURST=AHB_BURST_SINGLE, HSIZE=AHB_SIZE_32B, 1 beats
# UVM_INFO ../src/env/ahb_coverage.sv(126) @ 335000: uvm_test_top.env.master_cov [ahb_coverage] Sampled [AHB_READ]: burst=AHB_BURST_SINGLE size=AHB_SIZE_32B beats=1 error=0
# UVM_INFO ../src/env/ahb_scoreboard.sv(104) @ 335000: uvm_test_top.env.scb [ahb_scoreboard] MATCH #6: [AHB_READ] HADDR=0x000001d0 AHB_BURST_SINGLE 1 beats
# UVM_INFO ../src/mst_seq/ahb_read_after_write_seq.sv(99) @ 335000: uvm_test_top.env.master_agent.sqr@@seq [ahb_read_after_write_seq] RAW ok @0x000001d0: 0x90f99531
# UVM_INFO ../src/mst/ahb_master_driver.sv(85) @ 335000: uvm_test_top.env.master_agent.drv [ahb_master_driver] Queueing [AHB_WRITE]: HADDR=0x00000178, HBURST=AHB_BURST_SINGLE, HSIZE=AHB_SIZE_32B, 1 beats
# UVM_INFO ../src/mst/ahb_master_driver.sv(127) @ 335000: uvm_test_top.env.master_agent.drv [ahb_master_driver] Driving [AHB_WRITE]: HADDR=0x00000178, HBURST=AHB_BURST_SINGLE, HSIZE=AHB_SIZE_32B, 1 beats               
# UVM_INFO ../src/mst/ahb_master_driver.sv(332) @ 375000: uvm_test_top.env.master_agent.drv [ahb_master_driver] Beat[0/1] addr=0x00000178 trans=AHB_TRANS_NONSEQ resp=AHB_RESP_OKAY wdata=0xa65e348c
# UVM_INFO ../src/mst/ahb_master_driver.sv(376) @ 375000: uvm_test_top.env.master_agent.drv [ahb_master_driver] Transaction complete: AHB_WRITE 0x00000178, 1 beats, burst=AHB_BURST_SINGLE
# UVM_INFO ../src/slv/ahb_slave_driver.sv(184) @ 375000: uvm_test_top.env.slave_agent.drv [ahb_slave_driver] Beat AHB_WRITE addr=0x00000178 resp=AHB_RESP_OKAY waits=1 wdata=0xa65e348c
# UVM_INFO ../src/slv/ahb_slave_monitor.sv(197) @ 375000: uvm_test_top.env.slave_agent.mon [ahb_slave_monitor] Observed [AHB_WRITE]: HADDR=0x00000178, HBURST=AHB_BURST_SINGLE, HSIZE=AHB_SIZE_32B, 1 beats
# UVM_INFO ../src/env/ahb_coverage.sv(126) @ 375000: uvm_test_top.env.slave_cov [ahb_coverage] Sampled [AHB_WRITE]: burst=AHB_BURST_SINGLE size=AHB_SIZE_32B beats=1 error=0
# UVM_INFO ../src/mst/ahb_master_monitor.sv(117) @ 375000: uvm_test_top.env.master_agent.mon [ahb_master_monitor] Beat[0] addr=0x00000178 wdata=0xa65e348c resp=AHB_RESP_OKAY
# UVM_INFO ../src/mst/ahb_master_monitor.sv(220) @ 375000: uvm_test_top.env.master_agent.mon [ahb_master_monitor] Observed [AHB_WRITE]: HADDR=0x00000178, HBURST=AHB_BURST_SINGLE, HSIZE=AHB_SIZE_32B, 1 beats
# UVM_INFO ../src/env/ahb_coverage.sv(126) @ 375000: uvm_test_top.env.master_cov [ahb_coverage] Sampled [AHB_WRITE]: burst=AHB_BURST_SINGLE size=AHB_SIZE_32B beats=1 error=0
# UVM_INFO ../src/env/ahb_scoreboard.sv(104) @ 375000: uvm_test_top.env.scb [ahb_scoreboard] MATCH #7: [AHB_WRITE] HADDR=0x00000178 AHB_BURST_SINGLE 1 beats
# UVM_INFO ../src/mst/ahb_master_driver.sv(85) @ 375000: uvm_test_top.env.master_agent.drv [ahb_master_driver] Queueing [AHB_READ]: HADDR=0x00000178, HBURST=AHB_BURST_SINGLE, HSIZE=AHB_SIZE_32B, 1 beats
# UVM_INFO ../src/mst/ahb_master_driver.sv(127) @ 375000: uvm_test_top.env.master_agent.drv [ahb_master_driver] Driving [AHB_READ]: HADDR=0x00000178, HBURST=AHB_BURST_SINGLE, HSIZE=AHB_SIZE_32B, 1 beats               
# UVM_INFO ../src/mst/ahb_master_driver.sv(332) @ 425000: uvm_test_top.env.master_agent.drv [ahb_master_driver] Beat[0/1] addr=0x00000178 trans=AHB_TRANS_NONSEQ resp=AHB_RESP_OKAY rdata=0xa65e348c
# UVM_INFO ../src/mst/ahb_master_driver.sv(376) @ 425000: uvm_test_top.env.master_agent.drv [ahb_master_driver] Transaction complete: AHB_READ 0x00000178, 1 beats, burst=AHB_BURST_SINGLE
# UVM_INFO ../src/slv/ahb_slave_driver.sv(184) @ 425000: uvm_test_top.env.slave_agent.drv [ahb_slave_driver] Beat AHB_READ addr=0x00000178 resp=AHB_RESP_OKAY waits=2 rdata=0xa65e348c
# UVM_INFO ../src/mst/ahb_master_monitor.sv(117) @ 425000: uvm_test_top.env.master_agent.mon [ahb_master_monitor] Beat[0] addr=0x00000178 rdata=0xa65e348c resp=AHB_RESP_OKAY
# UVM_INFO ../src/mst/ahb_master_monitor.sv(220) @ 425000: uvm_test_top.env.master_agent.mon [ahb_master_monitor] Observed [AHB_READ]: HADDR=0x00000178, HBURST=AHB_BURST_SINGLE, HSIZE=AHB_SIZE_32B, 1 beats
# UVM_INFO ../src/env/ahb_coverage.sv(126) @ 425000: uvm_test_top.env.master_cov [ahb_coverage] Sampled [AHB_READ]: burst=AHB_BURST_SINGLE size=AHB_SIZE_32B beats=1 error=0
# UVM_INFO ../src/slv/ahb_slave_monitor.sv(197) @ 425000: uvm_test_top.env.slave_agent.mon [ahb_slave_monitor] Observed [AHB_READ]: HADDR=0x00000178, HBURST=AHB_BURST_SINGLE, HSIZE=AHB_SIZE_32B, 1 beats
# UVM_INFO ../src/env/ahb_scoreboard.sv(104) @ 425000: uvm_test_top.env.scb [ahb_scoreboard] MATCH #8: [AHB_READ] HADDR=0x00000178 AHB_BURST_SINGLE 1 beats
# UVM_INFO ../src/env/ahb_coverage.sv(126) @ 425000: uvm_test_top.env.slave_cov [ahb_coverage] Sampled [AHB_READ]: burst=AHB_BURST_SINGLE size=AHB_SIZE_32B beats=1 error=0
# UVM_INFO ../src/mst_seq/ahb_read_after_write_seq.sv(99) @ 425000: uvm_test_top.env.master_agent.sqr@@seq [ahb_read_after_write_seq] RAW ok @0x00000178: 0xa65e348c
# UVM_INFO ../src/mst/ahb_master_driver.sv(85) @ 425000: uvm_test_top.env.master_agent.drv [ahb_master_driver] Queueing [AHB_WRITE]: HADDR=0x0000001c, HBURST=AHB_BURST_SINGLE, HSIZE=AHB_SIZE_32B, 1 beats
# UVM_INFO ../src/mst/ahb_master_driver.sv(127) @ 425000: uvm_test_top.env.master_agent.drv [ahb_master_driver] Driving [AHB_WRITE]: HADDR=0x0000001c, HBURST=AHB_BURST_SINGLE, HSIZE=AHB_SIZE_32B, 1 beats               
# UVM_INFO ../src/mst/ahb_master_driver.sv(332) @ 455000: uvm_test_top.env.master_agent.drv [ahb_master_driver] Beat[0/1] addr=0x0000001c trans=AHB_TRANS_NONSEQ resp=AHB_RESP_OKAY wdata=0xf1556db1
# UVM_INFO ../src/mst/ahb_master_driver.sv(376) @ 455000: uvm_test_top.env.master_agent.drv [ahb_master_driver] Transaction complete: AHB_WRITE 0x0000001c, 1 beats, burst=AHB_BURST_SINGLE
# UVM_INFO ../src/slv/ahb_slave_driver.sv(184) @ 455000: uvm_test_top.env.slave_agent.drv [ahb_slave_driver] Beat AHB_WRITE addr=0x0000001c resp=AHB_RESP_OKAY waits=0 wdata=0xf1556db1
# UVM_INFO ../src/slv/ahb_slave_monitor.sv(197) @ 455000: uvm_test_top.env.slave_agent.mon [ahb_slave_monitor] Observed [AHB_WRITE]: HADDR=0x0000001c, HBURST=AHB_BURST_SINGLE, HSIZE=AHB_SIZE_32B, 1 beats
# UVM_INFO ../src/env/ahb_coverage.sv(126) @ 455000: uvm_test_top.env.slave_cov [ahb_coverage] Sampled [AHB_WRITE]: burst=AHB_BURST_SINGLE size=AHB_SIZE_32B beats=1 error=0
# UVM_INFO ../src/mst/ahb_master_monitor.sv(117) @ 455000: uvm_test_top.env.master_agent.mon [ahb_master_monitor] Beat[0] addr=0x0000001c wdata=0xf1556db1 resp=AHB_RESP_OKAY
# UVM_INFO ../src/mst/ahb_master_monitor.sv(220) @ 455000: uvm_test_top.env.master_agent.mon [ahb_master_monitor] Observed [AHB_WRITE]: HADDR=0x0000001c, HBURST=AHB_BURST_SINGLE, HSIZE=AHB_SIZE_32B, 1 beats
# UVM_INFO ../src/env/ahb_coverage.sv(126) @ 455000: uvm_test_top.env.master_cov [ahb_coverage] Sampled [AHB_WRITE]: burst=AHB_BURST_SINGLE size=AHB_SIZE_32B beats=1 error=0
# UVM_INFO ../src/env/ahb_scoreboard.sv(104) @ 455000: uvm_test_top.env.scb [ahb_scoreboard] MATCH #9: [AHB_WRITE] HADDR=0x0000001c AHB_BURST_SINGLE 1 beats
# UVM_INFO ../src/mst/ahb_master_driver.sv(85) @ 455000: uvm_test_top.env.master_agent.drv [ahb_master_driver] Queueing [AHB_READ]: HADDR=0x0000001c, HBURST=AHB_BURST_SINGLE, HSIZE=AHB_SIZE_32B, 1 beats
# UVM_INFO ../src/mst/ahb_master_driver.sv(127) @ 455000: uvm_test_top.env.master_agent.drv [ahb_master_driver] Driving [AHB_READ]: HADDR=0x0000001c, HBURST=AHB_BURST_SINGLE, HSIZE=AHB_SIZE_32B, 1 beats               
# UVM_INFO ../src/mst/ahb_master_driver.sv(332) @ 505000: uvm_test_top.env.master_agent.drv [ahb_master_driver] Beat[0/1] addr=0x0000001c trans=AHB_TRANS_NONSEQ resp=AHB_RESP_OKAY rdata=0xf1556db1
# UVM_INFO ../src/mst/ahb_master_driver.sv(376) @ 505000: uvm_test_top.env.master_agent.drv [ahb_master_driver] Transaction complete: AHB_READ 0x0000001c, 1 beats, burst=AHB_BURST_SINGLE
# UVM_INFO ../src/slv/ahb_slave_driver.sv(184) @ 505000: uvm_test_top.env.slave_agent.drv [ahb_slave_driver] Beat AHB_READ addr=0x0000001c resp=AHB_RESP_OKAY waits=2 rdata=0xf1556db1
# UVM_INFO ../src/mst/ahb_master_monitor.sv(117) @ 505000: uvm_test_top.env.master_agent.mon [ahb_master_monitor] Beat[0] addr=0x0000001c rdata=0xf1556db1 resp=AHB_RESP_OKAY
# UVM_INFO ../src/mst/ahb_master_monitor.sv(220) @ 505000: uvm_test_top.env.master_agent.mon [ahb_master_monitor] Observed [AHB_READ]: HADDR=0x0000001c, HBURST=AHB_BURST_SINGLE, HSIZE=AHB_SIZE_32B, 1 beats
# UVM_INFO ../src/env/ahb_coverage.sv(126) @ 505000: uvm_test_top.env.master_cov [ahb_coverage] Sampled [AHB_READ]: burst=AHB_BURST_SINGLE size=AHB_SIZE_32B beats=1 error=0
# UVM_INFO ../src/slv/ahb_slave_monitor.sv(197) @ 505000: uvm_test_top.env.slave_agent.mon [ahb_slave_monitor] Observed [AHB_READ]: HADDR=0x0000001c, HBURST=AHB_BURST_SINGLE, HSIZE=AHB_SIZE_32B, 1 beats
# UVM_INFO ../src/env/ahb_scoreboard.sv(104) @ 505000: uvm_test_top.env.scb [ahb_scoreboard] MATCH #10: [AHB_READ] HADDR=0x0000001c AHB_BURST_SINGLE 1 beats
# UVM_INFO ../src/env/ahb_coverage.sv(126) @ 505000: uvm_test_top.env.slave_cov [ahb_coverage] Sampled [AHB_READ]: burst=AHB_BURST_SINGLE size=AHB_SIZE_32B beats=1 error=0
# UVM_INFO ../src/mst_seq/ahb_read_after_write_seq.sv(99) @ 505000: uvm_test_top.env.master_agent.sqr@@seq [ahb_read_after_write_seq] RAW ok @0x0000001c: 0xf1556db1
# UVM_INFO ../src/mst/ahb_master_driver.sv(85) @ 505000: uvm_test_top.env.master_agent.drv [ahb_master_driver] Queueing [AHB_WRITE]: HADDR=0x00000330, HBURST=AHB_BURST_SINGLE, HSIZE=AHB_SIZE_32B, 1 beats
# UVM_INFO ../src/mst/ahb_master_driver.sv(127) @ 505000: uvm_test_top.env.master_agent.drv [ahb_master_driver] Driving [AHB_WRITE]: HADDR=0x00000330, HBURST=AHB_BURST_SINGLE, HSIZE=AHB_SIZE_32B, 1 beats               
# UVM_INFO ../src/mst/ahb_master_driver.sv(332) @ 545000: uvm_test_top.env.master_agent.drv [ahb_master_driver] Beat[0/1] addr=0x00000330 trans=AHB_TRANS_NONSEQ resp=AHB_RESP_OKAY wdata=0xc193c887
# UVM_INFO ../src/mst/ahb_master_driver.sv(376) @ 545000: uvm_test_top.env.master_agent.drv [ahb_master_driver] Transaction complete: AHB_WRITE 0x00000330, 1 beats, burst=AHB_BURST_SINGLE
# UVM_INFO ../src/slv/ahb_slave_driver.sv(184) @ 545000: uvm_test_top.env.slave_agent.drv [ahb_slave_driver] Beat AHB_WRITE addr=0x00000330 resp=AHB_RESP_OKAY waits=1 wdata=0xc193c887
# UVM_INFO ../src/mst/ahb_master_monitor.sv(117) @ 545000: uvm_test_top.env.master_agent.mon [ahb_master_monitor] Beat[0] addr=0x00000330 wdata=0xc193c887 resp=AHB_RESP_OKAY
# UVM_INFO ../src/mst/ahb_master_monitor.sv(220) @ 545000: uvm_test_top.env.master_agent.mon [ahb_master_monitor] Observed [AHB_WRITE]: HADDR=0x00000330, HBURST=AHB_BURST_SINGLE, HSIZE=AHB_SIZE_32B, 1 beats
# UVM_INFO ../src/env/ahb_coverage.sv(126) @ 545000: uvm_test_top.env.master_cov [ahb_coverage] Sampled [AHB_WRITE]: burst=AHB_BURST_SINGLE size=AHB_SIZE_32B beats=1 error=0
# UVM_INFO ../src/slv/ahb_slave_monitor.sv(197) @ 545000: uvm_test_top.env.slave_agent.mon [ahb_slave_monitor] Observed [AHB_WRITE]: HADDR=0x00000330, HBURST=AHB_BURST_SINGLE, HSIZE=AHB_SIZE_32B, 1 beats
# UVM_INFO ../src/env/ahb_scoreboard.sv(104) @ 545000: uvm_test_top.env.scb [ahb_scoreboard] MATCH #11: [AHB_WRITE] HADDR=0x00000330 AHB_BURST_SINGLE 1 beats
# UVM_INFO ../src/env/ahb_coverage.sv(126) @ 545000: uvm_test_top.env.slave_cov [ahb_coverage] Sampled [AHB_WRITE]: burst=AHB_BURST_SINGLE size=AHB_SIZE_32B beats=1 error=0
# UVM_INFO ../src/mst/ahb_master_driver.sv(85) @ 545000: uvm_test_top.env.master_agent.drv [ahb_master_driver] Queueing [AHB_READ]: HADDR=0x00000330, HBURST=AHB_BURST_SINGLE, HSIZE=AHB_SIZE_32B, 1 beats
# UVM_INFO ../src/mst/ahb_master_driver.sv(127) @ 545000: uvm_test_top.env.master_agent.drv [ahb_master_driver] Driving [AHB_READ]: HADDR=0x00000330, HBURST=AHB_BURST_SINGLE, HSIZE=AHB_SIZE_32B, 1 beats               
# UVM_INFO ../src/mst/ahb_master_driver.sv(332) @ 575000: uvm_test_top.env.master_agent.drv [ahb_master_driver] Beat[0/1] addr=0x00000330 trans=AHB_TRANS_NONSEQ resp=AHB_RESP_OKAY rdata=0xc193c887
# UVM_INFO ../src/mst/ahb_master_driver.sv(376) @ 575000: uvm_test_top.env.master_agent.drv [ahb_master_driver] Transaction complete: AHB_READ 0x00000330, 1 beats, burst=AHB_BURST_SINGLE
# UVM_INFO ../src/slv/ahb_slave_driver.sv(184) @ 575000: uvm_test_top.env.slave_agent.drv [ahb_slave_driver] Beat AHB_READ addr=0x00000330 resp=AHB_RESP_OKAY waits=0 rdata=0xc193c887
# UVM_INFO ../src/slv/ahb_slave_monitor.sv(197) @ 575000: uvm_test_top.env.slave_agent.mon [ahb_slave_monitor] Observed [AHB_READ]: HADDR=0x00000330, HBURST=AHB_BURST_SINGLE, HSIZE=AHB_SIZE_32B, 1 beats
# UVM_INFO ../src/env/ahb_coverage.sv(126) @ 575000: uvm_test_top.env.slave_cov [ahb_coverage] Sampled [AHB_READ]: burst=AHB_BURST_SINGLE size=AHB_SIZE_32B beats=1 error=0
# UVM_INFO ../src/mst/ahb_master_monitor.sv(117) @ 575000: uvm_test_top.env.master_agent.mon [ahb_master_monitor] Beat[0] addr=0x00000330 rdata=0xc193c887 resp=AHB_RESP_OKAY
# UVM_INFO ../src/mst/ahb_master_monitor.sv(220) @ 575000: uvm_test_top.env.master_agent.mon [ahb_master_monitor] Observed [AHB_READ]: HADDR=0x00000330, HBURST=AHB_BURST_SINGLE, HSIZE=AHB_SIZE_32B, 1 beats
# UVM_INFO ../src/env/ahb_coverage.sv(126) @ 575000: uvm_test_top.env.master_cov [ahb_coverage] Sampled [AHB_READ]: burst=AHB_BURST_SINGLE size=AHB_SIZE_32B beats=1 error=0
# UVM_INFO ../src/env/ahb_scoreboard.sv(104) @ 575000: uvm_test_top.env.scb [ahb_scoreboard] MATCH #12: [AHB_READ] HADDR=0x00000330 AHB_BURST_SINGLE 1 beats
# UVM_INFO ../src/mst_seq/ahb_read_after_write_seq.sv(99) @ 575000: uvm_test_top.env.master_agent.sqr@@seq [ahb_read_after_write_seq] RAW ok @0x00000330: 0xc193c887
# UVM_INFO ../src/mst/ahb_master_driver.sv(85) @ 575000: uvm_test_top.env.master_agent.drv [ahb_master_driver] Queueing [AHB_WRITE]: HADDR=0x0000013c, HBURST=AHB_BURST_SINGLE, HSIZE=AHB_SIZE_32B, 1 beats
# UVM_INFO ../src/mst/ahb_master_driver.sv(127) @ 575000: uvm_test_top.env.master_agent.drv [ahb_master_driver] Driving [AHB_WRITE]: HADDR=0x0000013c, HBURST=AHB_BURST_SINGLE, HSIZE=AHB_SIZE_32B, 1 beats               
# UVM_INFO ../src/mst/ahb_master_driver.sv(332) @ 605000: uvm_test_top.env.master_agent.drv [ahb_master_driver] Beat[0/1] addr=0x0000013c trans=AHB_TRANS_NONSEQ resp=AHB_RESP_OKAY wdata=0x515f5ec6
# UVM_INFO ../src/mst/ahb_master_driver.sv(376) @ 605000: uvm_test_top.env.master_agent.drv [ahb_master_driver] Transaction complete: AHB_WRITE 0x0000013c, 1 beats, burst=AHB_BURST_SINGLE
# UVM_INFO ../src/slv/ahb_slave_driver.sv(184) @ 605000: uvm_test_top.env.slave_agent.drv [ahb_slave_driver] Beat AHB_WRITE addr=0x0000013c resp=AHB_RESP_OKAY waits=0 wdata=0x515f5ec6
# UVM_INFO ../src/mst/ahb_master_monitor.sv(117) @ 605000: uvm_test_top.env.master_agent.mon [ahb_master_monitor] Beat[0] addr=0x0000013c wdata=0x515f5ec6 resp=AHB_RESP_OKAY
# UVM_INFO ../src/mst/ahb_master_monitor.sv(220) @ 605000: uvm_test_top.env.master_agent.mon [ahb_master_monitor] Observed [AHB_WRITE]: HADDR=0x0000013c, HBURST=AHB_BURST_SINGLE, HSIZE=AHB_SIZE_32B, 1 beats
# UVM_INFO ../src/env/ahb_coverage.sv(126) @ 605000: uvm_test_top.env.master_cov [ahb_coverage] Sampled [AHB_WRITE]: burst=AHB_BURST_SINGLE size=AHB_SIZE_32B beats=1 error=0
# UVM_INFO ../src/slv/ahb_slave_monitor.sv(197) @ 605000: uvm_test_top.env.slave_agent.mon [ahb_slave_monitor] Observed [AHB_WRITE]: HADDR=0x0000013c, HBURST=AHB_BURST_SINGLE, HSIZE=AHB_SIZE_32B, 1 beats
# UVM_INFO ../src/env/ahb_scoreboard.sv(104) @ 605000: uvm_test_top.env.scb [ahb_scoreboard] MATCH #13: [AHB_WRITE] HADDR=0x0000013c AHB_BURST_SINGLE 1 beats
# UVM_INFO ../src/env/ahb_coverage.sv(126) @ 605000: uvm_test_top.env.slave_cov [ahb_coverage] Sampled [AHB_WRITE]: burst=AHB_BURST_SINGLE size=AHB_SIZE_32B beats=1 error=0
# UVM_INFO ../src/mst/ahb_master_driver.sv(85) @ 605000: uvm_test_top.env.master_agent.drv [ahb_master_driver] Queueing [AHB_READ]: HADDR=0x0000013c, HBURST=AHB_BURST_SINGLE, HSIZE=AHB_SIZE_32B, 1 beats
# UVM_INFO ../src/mst/ahb_master_driver.sv(127) @ 605000: uvm_test_top.env.master_agent.drv [ahb_master_driver] Driving [AHB_READ]: HADDR=0x0000013c, HBURST=AHB_BURST_SINGLE, HSIZE=AHB_SIZE_32B, 1 beats               
# UVM_INFO ../src/mst/ahb_master_driver.sv(332) @ 645000: uvm_test_top.env.master_agent.drv [ahb_master_driver] Beat[0/1] addr=0x0000013c trans=AHB_TRANS_NONSEQ resp=AHB_RESP_OKAY rdata=0x515f5ec6
# UVM_INFO ../src/mst/ahb_master_driver.sv(376) @ 645000: uvm_test_top.env.master_agent.drv [ahb_master_driver] Transaction complete: AHB_READ 0x0000013c, 1 beats, burst=AHB_BURST_SINGLE
# UVM_INFO ../src/slv/ahb_slave_driver.sv(184) @ 645000: uvm_test_top.env.slave_agent.drv [ahb_slave_driver] Beat AHB_READ addr=0x0000013c resp=AHB_RESP_OKAY waits=1 rdata=0x515f5ec6
# UVM_INFO ../src/mst/ahb_master_monitor.sv(117) @ 645000: uvm_test_top.env.master_agent.mon [ahb_master_monitor] Beat[0] addr=0x0000013c rdata=0x515f5ec6 resp=AHB_RESP_OKAY
# UVM_INFO ../src/mst/ahb_master_monitor.sv(220) @ 645000: uvm_test_top.env.master_agent.mon [ahb_master_monitor] Observed [AHB_READ]: HADDR=0x0000013c, HBURST=AHB_BURST_SINGLE, HSIZE=AHB_SIZE_32B, 1 beats
# UVM_INFO ../src/env/ahb_coverage.sv(126) @ 645000: uvm_test_top.env.master_cov [ahb_coverage] Sampled [AHB_READ]: burst=AHB_BURST_SINGLE size=AHB_SIZE_32B beats=1 error=0
# UVM_INFO ../src/slv/ahb_slave_monitor.sv(197) @ 645000: uvm_test_top.env.slave_agent.mon [ahb_slave_monitor] Observed [AHB_READ]: HADDR=0x0000013c, HBURST=AHB_BURST_SINGLE, HSIZE=AHB_SIZE_32B, 1 beats
# UVM_INFO ../src/env/ahb_scoreboard.sv(104) @ 645000: uvm_test_top.env.scb [ahb_scoreboard] MATCH #14: [AHB_READ] HADDR=0x0000013c AHB_BURST_SINGLE 1 beats
# UVM_INFO ../src/env/ahb_coverage.sv(126) @ 645000: uvm_test_top.env.slave_cov [ahb_coverage] Sampled [AHB_READ]: burst=AHB_BURST_SINGLE size=AHB_SIZE_32B beats=1 error=0
# UVM_INFO ../src/mst_seq/ahb_read_after_write_seq.sv(99) @ 645000: uvm_test_top.env.master_agent.sqr@@seq [ahb_read_after_write_seq] RAW ok @0x0000013c: 0x515f5ec6
# UVM_INFO ../src/mst/ahb_master_driver.sv(85) @ 645000: uvm_test_top.env.master_agent.drv [ahb_master_driver] Queueing [AHB_WRITE]: HADDR=0x00000198, HBURST=AHB_BURST_SINGLE, HSIZE=AHB_SIZE_32B, 1 beats
# UVM_INFO ../src/mst/ahb_master_driver.sv(127) @ 645000: uvm_test_top.env.master_agent.drv [ahb_master_driver] Driving [AHB_WRITE]: HADDR=0x00000198, HBURST=AHB_BURST_SINGLE, HSIZE=AHB_SIZE_32B, 1 beats               
# UVM_INFO ../src/mst/ahb_master_driver.sv(332) @ 675000: uvm_test_top.env.master_agent.drv [ahb_master_driver] Beat[0/1] addr=0x00000198 trans=AHB_TRANS_NONSEQ resp=AHB_RESP_OKAY wdata=0xaa369ab3
# UVM_INFO ../src/mst/ahb_master_driver.sv(376) @ 675000: uvm_test_top.env.master_agent.drv [ahb_master_driver] Transaction complete: AHB_WRITE 0x00000198, 1 beats, burst=AHB_BURST_SINGLE
# UVM_INFO ../src/slv/ahb_slave_driver.sv(184) @ 675000: uvm_test_top.env.slave_agent.drv [ahb_slave_driver] Beat AHB_WRITE addr=0x00000198 resp=AHB_RESP_OKAY waits=0 wdata=0xaa369ab3
# UVM_INFO ../src/slv/ahb_slave_monitor.sv(197) @ 675000: uvm_test_top.env.slave_agent.mon [ahb_slave_monitor] Observed [AHB_WRITE]: HADDR=0x00000198, HBURST=AHB_BURST_SINGLE, HSIZE=AHB_SIZE_32B, 1 beats
# UVM_INFO ../src/env/ahb_coverage.sv(126) @ 675000: uvm_test_top.env.slave_cov [ahb_coverage] Sampled [AHB_WRITE]: burst=AHB_BURST_SINGLE size=AHB_SIZE_32B beats=1 error=0
# UVM_INFO ../src/mst/ahb_master_monitor.sv(117) @ 675000: uvm_test_top.env.master_agent.mon [ahb_master_monitor] Beat[0] addr=0x00000198 wdata=0xaa369ab3 resp=AHB_RESP_OKAY
# UVM_INFO ../src/mst/ahb_master_monitor.sv(220) @ 675000: uvm_test_top.env.master_agent.mon [ahb_master_monitor] Observed [AHB_WRITE]: HADDR=0x00000198, HBURST=AHB_BURST_SINGLE, HSIZE=AHB_SIZE_32B, 1 beats
# UVM_INFO ../src/env/ahb_coverage.sv(126) @ 675000: uvm_test_top.env.master_cov [ahb_coverage] Sampled [AHB_WRITE]: burst=AHB_BURST_SINGLE size=AHB_SIZE_32B beats=1 error=0
# UVM_INFO ../src/env/ahb_scoreboard.sv(104) @ 675000: uvm_test_top.env.scb [ahb_scoreboard] MATCH #15: [AHB_WRITE] HADDR=0x00000198 AHB_BURST_SINGLE 1 beats
# UVM_INFO ../src/mst/ahb_master_driver.sv(85) @ 675000: uvm_test_top.env.master_agent.drv [ahb_master_driver] Queueing [AHB_READ]: HADDR=0x00000198, HBURST=AHB_BURST_SINGLE, HSIZE=AHB_SIZE_32B, 1 beats
# UVM_INFO ../src/mst/ahb_master_driver.sv(127) @ 675000: uvm_test_top.env.master_agent.drv [ahb_master_driver] Driving [AHB_READ]: HADDR=0x00000198, HBURST=AHB_BURST_SINGLE, HSIZE=AHB_SIZE_32B, 1 beats               
# UVM_INFO ../src/mst/ahb_master_driver.sv(332) @ 715000: uvm_test_top.env.master_agent.drv [ahb_master_driver] Beat[0/1] addr=0x00000198 trans=AHB_TRANS_NONSEQ resp=AHB_RESP_OKAY rdata=0xaa369ab3
# UVM_INFO ../src/mst/ahb_master_driver.sv(376) @ 715000: uvm_test_top.env.master_agent.drv [ahb_master_driver] Transaction complete: AHB_READ 0x00000198, 1 beats, burst=AHB_BURST_SINGLE
# UVM_INFO ../src/slv/ahb_slave_driver.sv(184) @ 715000: uvm_test_top.env.slave_agent.drv [ahb_slave_driver] Beat AHB_READ addr=0x00000198 resp=AHB_RESP_OKAY waits=1 rdata=0xaa369ab3
# UVM_INFO ../src/slv/ahb_slave_monitor.sv(197) @ 715000: uvm_test_top.env.slave_agent.mon [ahb_slave_monitor] Observed [AHB_READ]: HADDR=0x00000198, HBURST=AHB_BURST_SINGLE, HSIZE=AHB_SIZE_32B, 1 beats
# UVM_INFO ../src/env/ahb_coverage.sv(126) @ 715000: uvm_test_top.env.slave_cov [ahb_coverage] Sampled [AHB_READ]: burst=AHB_BURST_SINGLE size=AHB_SIZE_32B beats=1 error=0
# UVM_INFO ../src/mst/ahb_master_monitor.sv(117) @ 715000: uvm_test_top.env.master_agent.mon [ahb_master_monitor] Beat[0] addr=0x00000198 rdata=0xaa369ab3 resp=AHB_RESP_OKAY
# UVM_INFO ../src/mst/ahb_master_monitor.sv(220) @ 715000: uvm_test_top.env.master_agent.mon [ahb_master_monitor] Observed [AHB_READ]: HADDR=0x00000198, HBURST=AHB_BURST_SINGLE, HSIZE=AHB_SIZE_32B, 1 beats
# UVM_INFO ../src/env/ahb_coverage.sv(126) @ 715000: uvm_test_top.env.master_cov [ahb_coverage] Sampled [AHB_READ]: burst=AHB_BURST_SINGLE size=AHB_SIZE_32B beats=1 error=0
# UVM_INFO ../src/env/ahb_scoreboard.sv(104) @ 715000: uvm_test_top.env.scb [ahb_scoreboard] MATCH #16: [AHB_READ] HADDR=0x00000198 AHB_BURST_SINGLE 1 beats
# UVM_INFO ../src/mst_seq/ahb_read_after_write_seq.sv(99) @ 715000: uvm_test_top.env.master_agent.sqr@@seq [ahb_read_after_write_seq] RAW ok @0x00000198: 0xaa369ab3
# UVM_INFO ../src/mst/ahb_master_driver.sv(85) @ 715000: uvm_test_top.env.master_agent.drv [ahb_master_driver] Queueing [AHB_WRITE]: HADDR=0x000002f8, HBURST=AHB_BURST_SINGLE, HSIZE=AHB_SIZE_32B, 1 beats
# UVM_INFO ../src/mst/ahb_master_driver.sv(127) @ 715000: uvm_test_top.env.master_agent.drv [ahb_master_driver] Driving [AHB_WRITE]: HADDR=0x000002f8, HBURST=AHB_BURST_SINGLE, HSIZE=AHB_SIZE_32B, 1 beats               
# UVM_INFO ../src/mst/ahb_master_driver.sv(332) @ 765000: uvm_test_top.env.master_agent.drv [ahb_master_driver] Beat[0/1] addr=0x000002f8 trans=AHB_TRANS_NONSEQ resp=AHB_RESP_OKAY wdata=0x1e593227
# UVM_INFO ../src/mst/ahb_master_driver.sv(376) @ 765000: uvm_test_top.env.master_agent.drv [ahb_master_driver] Transaction complete: AHB_WRITE 0x000002f8, 1 beats, burst=AHB_BURST_SINGLE
# UVM_INFO ../src/slv/ahb_slave_driver.sv(184) @ 765000: uvm_test_top.env.slave_agent.drv [ahb_slave_driver] Beat AHB_WRITE addr=0x000002f8 resp=AHB_RESP_OKAY waits=2 wdata=0x1e593227
# UVM_INFO ../src/mst/ahb_master_monitor.sv(117) @ 765000: uvm_test_top.env.master_agent.mon [ahb_master_monitor] Beat[0] addr=0x000002f8 wdata=0x1e593227 resp=AHB_RESP_OKAY
# UVM_INFO ../src/mst/ahb_master_monitor.sv(220) @ 765000: uvm_test_top.env.master_agent.mon [ahb_master_monitor] Observed [AHB_WRITE]: HADDR=0x000002f8, HBURST=AHB_BURST_SINGLE, HSIZE=AHB_SIZE_32B, 1 beats
# UVM_INFO ../src/env/ahb_coverage.sv(126) @ 765000: uvm_test_top.env.master_cov [ahb_coverage] Sampled [AHB_WRITE]: burst=AHB_BURST_SINGLE size=AHB_SIZE_32B beats=1 error=0
# UVM_INFO ../src/slv/ahb_slave_monitor.sv(197) @ 765000: uvm_test_top.env.slave_agent.mon [ahb_slave_monitor] Observed [AHB_WRITE]: HADDR=0x000002f8, HBURST=AHB_BURST_SINGLE, HSIZE=AHB_SIZE_32B, 1 beats
# UVM_INFO ../src/env/ahb_scoreboard.sv(104) @ 765000: uvm_test_top.env.scb [ahb_scoreboard] MATCH #17: [AHB_WRITE] HADDR=0x000002f8 AHB_BURST_SINGLE 1 beats
# UVM_INFO ../src/env/ahb_coverage.sv(126) @ 765000: uvm_test_top.env.slave_cov [ahb_coverage] Sampled [AHB_WRITE]: burst=AHB_BURST_SINGLE size=AHB_SIZE_32B beats=1 error=0
# UVM_INFO ../src/mst/ahb_master_driver.sv(85) @ 765000: uvm_test_top.env.master_agent.drv [ahb_master_driver] Queueing [AHB_READ]: HADDR=0x000002f8, HBURST=AHB_BURST_SINGLE, HSIZE=AHB_SIZE_32B, 1 beats
# UVM_INFO ../src/mst/ahb_master_driver.sv(127) @ 765000: uvm_test_top.env.master_agent.drv [ahb_master_driver] Driving [AHB_READ]: HADDR=0x000002f8, HBURST=AHB_BURST_SINGLE, HSIZE=AHB_SIZE_32B, 1 beats               
# UVM_INFO ../src/mst/ahb_master_driver.sv(332) @ 815000: uvm_test_top.env.master_agent.drv [ahb_master_driver] Beat[0/1] addr=0x000002f8 trans=AHB_TRANS_NONSEQ resp=AHB_RESP_OKAY rdata=0x1e593227
# UVM_INFO ../src/mst/ahb_master_driver.sv(376) @ 815000: uvm_test_top.env.master_agent.drv [ahb_master_driver] Transaction complete: AHB_READ 0x000002f8, 1 beats, burst=AHB_BURST_SINGLE
# UVM_INFO ../src/slv/ahb_slave_driver.sv(184) @ 815000: uvm_test_top.env.slave_agent.drv [ahb_slave_driver] Beat AHB_READ addr=0x000002f8 resp=AHB_RESP_OKAY waits=2 rdata=0x1e593227
# UVM_INFO ../src/slv/ahb_slave_monitor.sv(197) @ 815000: uvm_test_top.env.slave_agent.mon [ahb_slave_monitor] Observed [AHB_READ]: HADDR=0x000002f8, HBURST=AHB_BURST_SINGLE, HSIZE=AHB_SIZE_32B, 1 beats
# UVM_INFO ../src/env/ahb_coverage.sv(126) @ 815000: uvm_test_top.env.slave_cov [ahb_coverage] Sampled [AHB_READ]: burst=AHB_BURST_SINGLE size=AHB_SIZE_32B beats=1 error=0
# UVM_INFO ../src/mst/ahb_master_monitor.sv(117) @ 815000: uvm_test_top.env.master_agent.mon [ahb_master_monitor] Beat[0] addr=0x000002f8 rdata=0x1e593227 resp=AHB_RESP_OKAY
# UVM_INFO ../src/mst/ahb_master_monitor.sv(220) @ 815000: uvm_test_top.env.master_agent.mon [ahb_master_monitor] Observed [AHB_READ]: HADDR=0x000002f8, HBURST=AHB_BURST_SINGLE, HSIZE=AHB_SIZE_32B, 1 beats
# UVM_INFO ../src/env/ahb_coverage.sv(126) @ 815000: uvm_test_top.env.master_cov [ahb_coverage] Sampled [AHB_READ]: burst=AHB_BURST_SINGLE size=AHB_SIZE_32B beats=1 error=0
# UVM_INFO ../src/env/ahb_scoreboard.sv(104) @ 815000: uvm_test_top.env.scb [ahb_scoreboard] MATCH #18: [AHB_READ] HADDR=0x000002f8 AHB_BURST_SINGLE 1 beats
# UVM_INFO ../src/mst_seq/ahb_read_after_write_seq.sv(99) @ 815000: uvm_test_top.env.master_agent.sqr@@seq [ahb_read_after_write_seq] RAW ok @0x000002f8: 0x1e593227
# UVM_INFO ../src/mst/ahb_master_driver.sv(85) @ 815000: uvm_test_top.env.master_agent.drv [ahb_master_driver] Queueing [AHB_WRITE]: HADDR=0x000003c0, HBURST=AHB_BURST_SINGLE, HSIZE=AHB_SIZE_32B, 1 beats
# UVM_INFO ../src/mst/ahb_master_driver.sv(127) @ 815000: uvm_test_top.env.master_agent.drv [ahb_master_driver] Driving [AHB_WRITE]: HADDR=0x000003c0, HBURST=AHB_BURST_SINGLE, HSIZE=AHB_SIZE_32B, 1 beats               
# UVM_INFO ../src/mst/ahb_master_driver.sv(332) @ 845000: uvm_test_top.env.master_agent.drv [ahb_master_driver] Beat[0/1] addr=0x000003c0 trans=AHB_TRANS_NONSEQ resp=AHB_RESP_OKAY wdata=0xf9ed9c12
# UVM_INFO ../src/mst/ahb_master_driver.sv(376) @ 845000: uvm_test_top.env.master_agent.drv [ahb_master_driver] Transaction complete: AHB_WRITE 0x000003c0, 1 beats, burst=AHB_BURST_SINGLE
# UVM_INFO ../src/slv/ahb_slave_driver.sv(184) @ 845000: uvm_test_top.env.slave_agent.drv [ahb_slave_driver] Beat AHB_WRITE addr=0x000003c0 resp=AHB_RESP_OKAY waits=0 wdata=0xf9ed9c12
# UVM_INFO ../src/mst/ahb_master_monitor.sv(117) @ 845000: uvm_test_top.env.master_agent.mon [ahb_master_monitor] Beat[0] addr=0x000003c0 wdata=0xf9ed9c12 resp=AHB_RESP_OKAY
# UVM_INFO ../src/mst/ahb_master_monitor.sv(220) @ 845000: uvm_test_top.env.master_agent.mon [ahb_master_monitor] Observed [AHB_WRITE]: HADDR=0x000003c0, HBURST=AHB_BURST_SINGLE, HSIZE=AHB_SIZE_32B, 1 beats
# UVM_INFO ../src/env/ahb_coverage.sv(126) @ 845000: uvm_test_top.env.master_cov [ahb_coverage] Sampled [AHB_WRITE]: burst=AHB_BURST_SINGLE size=AHB_SIZE_32B beats=1 error=0
# UVM_INFO ../src/slv/ahb_slave_monitor.sv(197) @ 845000: uvm_test_top.env.slave_agent.mon [ahb_slave_monitor] Observed [AHB_WRITE]: HADDR=0x000003c0, HBURST=AHB_BURST_SINGLE, HSIZE=AHB_SIZE_32B, 1 beats
# UVM_INFO ../src/env/ahb_scoreboard.sv(104) @ 845000: uvm_test_top.env.scb [ahb_scoreboard] MATCH #19: [AHB_WRITE] HADDR=0x000003c0 AHB_BURST_SINGLE 1 beats
# UVM_INFO ../src/env/ahb_coverage.sv(126) @ 845000: uvm_test_top.env.slave_cov [ahb_coverage] Sampled [AHB_WRITE]: burst=AHB_BURST_SINGLE size=AHB_SIZE_32B beats=1 error=0
# UVM_INFO ../src/mst/ahb_master_driver.sv(85) @ 845000: uvm_test_top.env.master_agent.drv [ahb_master_driver] Queueing [AHB_READ]: HADDR=0x000003c0, HBURST=AHB_BURST_SINGLE, HSIZE=AHB_SIZE_32B, 1 beats
# UVM_INFO ../src/mst/ahb_master_driver.sv(127) @ 845000: uvm_test_top.env.master_agent.drv [ahb_master_driver] Driving [AHB_READ]: HADDR=0x000003c0, HBURST=AHB_BURST_SINGLE, HSIZE=AHB_SIZE_32B, 1 beats               
# UVM_INFO ../src/mst/ahb_master_driver.sv(332) @ 895000: uvm_test_top.env.master_agent.drv [ahb_master_driver] Beat[0/1] addr=0x000003c0 trans=AHB_TRANS_NONSEQ resp=AHB_RESP_OKAY rdata=0xf9ed9c12
# UVM_INFO ../src/mst/ahb_master_driver.sv(376) @ 895000: uvm_test_top.env.master_agent.drv [ahb_master_driver] Transaction complete: AHB_READ 0x000003c0, 1 beats, burst=AHB_BURST_SINGLE
# UVM_INFO ../src/slv/ahb_slave_driver.sv(184) @ 895000: uvm_test_top.env.slave_agent.drv [ahb_slave_driver] Beat AHB_READ addr=0x000003c0 resp=AHB_RESP_OKAY waits=2 rdata=0xf9ed9c12
# UVM_INFO ../src/slv/ahb_slave_monitor.sv(197) @ 895000: uvm_test_top.env.slave_agent.mon [ahb_slave_monitor] Observed [AHB_READ]: HADDR=0x000003c0, HBURST=AHB_BURST_SINGLE, HSIZE=AHB_SIZE_32B, 1 beats
# UVM_INFO ../src/env/ahb_coverage.sv(126) @ 895000: uvm_test_top.env.slave_cov [ahb_coverage] Sampled [AHB_READ]: burst=AHB_BURST_SINGLE size=AHB_SIZE_32B beats=1 error=0
# UVM_INFO ../src/mst/ahb_master_monitor.sv(117) @ 895000: uvm_test_top.env.master_agent.mon [ahb_master_monitor] Beat[0] addr=0x000003c0 rdata=0xf9ed9c12 resp=AHB_RESP_OKAY
# UVM_INFO ../src/mst/ahb_master_monitor.sv(220) @ 895000: uvm_test_top.env.master_agent.mon [ahb_master_monitor] Observed [AHB_READ]: HADDR=0x000003c0, HBURST=AHB_BURST_SINGLE, HSIZE=AHB_SIZE_32B, 1 beats
# UVM_INFO ../src/env/ahb_coverage.sv(126) @ 895000: uvm_test_top.env.master_cov [ahb_coverage] Sampled [AHB_READ]: burst=AHB_BURST_SINGLE size=AHB_SIZE_32B beats=1 error=0
# UVM_INFO ../src/env/ahb_scoreboard.sv(104) @ 895000: uvm_test_top.env.scb [ahb_scoreboard] MATCH #20: [AHB_READ] HADDR=0x000003c0 AHB_BURST_SINGLE 1 beats
# UVM_INFO ../src/mst_seq/ahb_read_after_write_seq.sv(99) @ 895000: uvm_test_top.env.master_agent.sqr@@seq [ahb_read_after_write_seq] RAW ok @0x000003c0: 0xf9ed9c12
# UVM_INFO ../src/mst/ahb_master_driver.sv(85) @ 895000: uvm_test_top.env.master_agent.drv [ahb_master_driver] Queueing [AHB_WRITE]: HADDR=0x00000224, HBURST=AHB_BURST_SINGLE, HSIZE=AHB_SIZE_32B, 1 beats
# UVM_INFO ../src/mst/ahb_master_driver.sv(127) @ 895000: uvm_test_top.env.master_agent.drv [ahb_master_driver] Driving [AHB_WRITE]: HADDR=0x00000224, HBURST=AHB_BURST_SINGLE, HSIZE=AHB_SIZE_32B, 1 beats               
# UVM_INFO ../src/mst/ahb_master_driver.sv(332) @ 925000: uvm_test_top.env.master_agent.drv [ahb_master_driver] Beat[0/1] addr=0x00000224 trans=AHB_TRANS_NONSEQ resp=AHB_RESP_OKAY wdata=0xd1cbe8af
# UVM_INFO ../src/mst/ahb_master_driver.sv(376) @ 925000: uvm_test_top.env.master_agent.drv [ahb_master_driver] Transaction complete: AHB_WRITE 0x00000224, 1 beats, burst=AHB_BURST_SINGLE
# UVM_INFO ../src/slv/ahb_slave_driver.sv(184) @ 925000: uvm_test_top.env.slave_agent.drv [ahb_slave_driver] Beat AHB_WRITE addr=0x00000224 resp=AHB_RESP_OKAY waits=0 wdata=0xd1cbe8af
# UVM_INFO ../src/mst/ahb_master_monitor.sv(117) @ 925000: uvm_test_top.env.master_agent.mon [ahb_master_monitor] Beat[0] addr=0x00000224 wdata=0xd1cbe8af resp=AHB_RESP_OKAY
# UVM_INFO ../src/mst/ahb_master_monitor.sv(220) @ 925000: uvm_test_top.env.master_agent.mon [ahb_master_monitor] Observed [AHB_WRITE]: HADDR=0x00000224, HBURST=AHB_BURST_SINGLE, HSIZE=AHB_SIZE_32B, 1 beats
# UVM_INFO ../src/env/ahb_coverage.sv(126) @ 925000: uvm_test_top.env.master_cov [ahb_coverage] Sampled [AHB_WRITE]: burst=AHB_BURST_SINGLE size=AHB_SIZE_32B beats=1 error=0
# UVM_INFO ../src/slv/ahb_slave_monitor.sv(197) @ 925000: uvm_test_top.env.slave_agent.mon [ahb_slave_monitor] Observed [AHB_WRITE]: HADDR=0x00000224, HBURST=AHB_BURST_SINGLE, HSIZE=AHB_SIZE_32B, 1 beats
# UVM_INFO ../src/env/ahb_scoreboard.sv(104) @ 925000: uvm_test_top.env.scb [ahb_scoreboard] MATCH #21: [AHB_WRITE] HADDR=0x00000224 AHB_BURST_SINGLE 1 beats
# UVM_INFO ../src/env/ahb_coverage.sv(126) @ 925000: uvm_test_top.env.slave_cov [ahb_coverage] Sampled [AHB_WRITE]: burst=AHB_BURST_SINGLE size=AHB_SIZE_32B beats=1 error=0
# UVM_INFO ../src/mst/ahb_master_driver.sv(85) @ 925000: uvm_test_top.env.master_agent.drv [ahb_master_driver] Queueing [AHB_READ]: HADDR=0x00000224, HBURST=AHB_BURST_SINGLE, HSIZE=AHB_SIZE_32B, 1 beats
# UVM_INFO ../src/mst/ahb_master_driver.sv(127) @ 925000: uvm_test_top.env.master_agent.drv [ahb_master_driver] Driving [AHB_READ]: HADDR=0x00000224, HBURST=AHB_BURST_SINGLE, HSIZE=AHB_SIZE_32B, 1 beats               
# UVM_INFO ../src/mst/ahb_master_driver.sv(332) @ 965000: uvm_test_top.env.master_agent.drv [ahb_master_driver] Beat[0/1] addr=0x00000224 trans=AHB_TRANS_NONSEQ resp=AHB_RESP_OKAY rdata=0xd1cbe8af
# UVM_INFO ../src/mst/ahb_master_driver.sv(376) @ 965000: uvm_test_top.env.master_agent.drv [ahb_master_driver] Transaction complete: AHB_READ 0x00000224, 1 beats, burst=AHB_BURST_SINGLE
# UVM_INFO ../src/slv/ahb_slave_driver.sv(184) @ 965000: uvm_test_top.env.slave_agent.drv [ahb_slave_driver] Beat AHB_READ addr=0x00000224 resp=AHB_RESP_OKAY waits=1 rdata=0xd1cbe8af
# UVM_INFO ../src/mst/ahb_master_monitor.sv(117) @ 965000: uvm_test_top.env.master_agent.mon [ahb_master_monitor] Beat[0] addr=0x00000224 rdata=0xd1cbe8af resp=AHB_RESP_OKAY
# UVM_INFO ../src/mst/ahb_master_monitor.sv(220) @ 965000: uvm_test_top.env.master_agent.mon [ahb_master_monitor] Observed [AHB_READ]: HADDR=0x00000224, HBURST=AHB_BURST_SINGLE, HSIZE=AHB_SIZE_32B, 1 beats
# UVM_INFO ../src/env/ahb_coverage.sv(126) @ 965000: uvm_test_top.env.master_cov [ahb_coverage] Sampled [AHB_READ]: burst=AHB_BURST_SINGLE size=AHB_SIZE_32B beats=1 error=0
# UVM_INFO ../src/slv/ahb_slave_monitor.sv(197) @ 965000: uvm_test_top.env.slave_agent.mon [ahb_slave_monitor] Observed [AHB_READ]: HADDR=0x00000224, HBURST=AHB_BURST_SINGLE, HSIZE=AHB_SIZE_32B, 1 beats
# UVM_INFO ../src/env/ahb_scoreboard.sv(104) @ 965000: uvm_test_top.env.scb [ahb_scoreboard] MATCH #22: [AHB_READ] HADDR=0x00000224 AHB_BURST_SINGLE 1 beats
# UVM_INFO ../src/env/ahb_coverage.sv(126) @ 965000: uvm_test_top.env.slave_cov [ahb_coverage] Sampled [AHB_READ]: burst=AHB_BURST_SINGLE size=AHB_SIZE_32B beats=1 error=0
# UVM_INFO ../src/mst_seq/ahb_read_after_write_seq.sv(99) @ 965000: uvm_test_top.env.master_agent.sqr@@seq [ahb_read_after_write_seq] RAW ok @0x00000224: 0xd1cbe8af
# UVM_INFO ../src/mst/ahb_master_driver.sv(85) @ 965000: uvm_test_top.env.master_agent.drv [ahb_master_driver] Queueing [AHB_WRITE]: HADDR=0x000002fc, HBURST=AHB_BURST_SINGLE, HSIZE=AHB_SIZE_32B, 1 beats
# UVM_INFO ../src/mst/ahb_master_driver.sv(127) @ 965000: uvm_test_top.env.master_agent.drv [ahb_master_driver] Driving [AHB_WRITE]: HADDR=0x000002fc, HBURST=AHB_BURST_SINGLE, HSIZE=AHB_SIZE_32B, 1 beats               
# UVM_INFO ../src/mst/ahb_master_driver.sv(332) @ 995000: uvm_test_top.env.master_agent.drv [ahb_master_driver] Beat[0/1] addr=0x000002fc trans=AHB_TRANS_NONSEQ resp=AHB_RESP_OKAY wdata=0xb08f5ca9
# UVM_INFO ../src/mst/ahb_master_driver.sv(376) @ 995000: uvm_test_top.env.master_agent.drv [ahb_master_driver] Transaction complete: AHB_WRITE 0x000002fc, 1 beats, burst=AHB_BURST_SINGLE
# UVM_INFO ../src/slv/ahb_slave_driver.sv(184) @ 995000: uvm_test_top.env.slave_agent.drv [ahb_slave_driver] Beat AHB_WRITE addr=0x000002fc resp=AHB_RESP_OKAY waits=0 wdata=0xb08f5ca9
# UVM_INFO ../src/slv/ahb_slave_monitor.sv(197) @ 995000: uvm_test_top.env.slave_agent.mon [ahb_slave_monitor] Observed [AHB_WRITE]: HADDR=0x000002fc, HBURST=AHB_BURST_SINGLE, HSIZE=AHB_SIZE_32B, 1 beats
# UVM_INFO ../src/env/ahb_coverage.sv(126) @ 995000: uvm_test_top.env.slave_cov [ahb_coverage] Sampled [AHB_WRITE]: burst=AHB_BURST_SINGLE size=AHB_SIZE_32B beats=1 error=0
# UVM_INFO ../src/mst/ahb_master_monitor.sv(117) @ 995000: uvm_test_top.env.master_agent.mon [ahb_master_monitor] Beat[0] addr=0x000002fc wdata=0xb08f5ca9 resp=AHB_RESP_OKAY
# UVM_INFO ../src/mst/ahb_master_monitor.sv(220) @ 995000: uvm_test_top.env.master_agent.mon [ahb_master_monitor] Observed [AHB_WRITE]: HADDR=0x000002fc, HBURST=AHB_BURST_SINGLE, HSIZE=AHB_SIZE_32B, 1 beats
# UVM_INFO ../src/env/ahb_coverage.sv(126) @ 995000: uvm_test_top.env.master_cov [ahb_coverage] Sampled [AHB_WRITE]: burst=AHB_BURST_SINGLE size=AHB_SIZE_32B beats=1 error=0
# UVM_INFO ../src/env/ahb_scoreboard.sv(104) @ 995000: uvm_test_top.env.scb [ahb_scoreboard] MATCH #23: [AHB_WRITE] HADDR=0x000002fc AHB_BURST_SINGLE 1 beats
# UVM_INFO ../src/mst/ahb_master_driver.sv(85) @ 995000: uvm_test_top.env.master_agent.drv [ahb_master_driver] Queueing [AHB_READ]: HADDR=0x000002fc, HBURST=AHB_BURST_SINGLE, HSIZE=AHB_SIZE_32B, 1 beats
# UVM_INFO ../src/mst/ahb_master_driver.sv(127) @ 995000: uvm_test_top.env.master_agent.drv [ahb_master_driver] Driving [AHB_READ]: HADDR=0x000002fc, HBURST=AHB_BURST_SINGLE, HSIZE=AHB_SIZE_32B, 1 beats               
# UVM_INFO ../src/mst/ahb_master_driver.sv(332) @ 1035000: uvm_test_top.env.master_agent.drv [ahb_master_driver] Beat[0/1] addr=0x000002fc trans=AHB_TRANS_NONSEQ resp=AHB_RESP_OKAY rdata=0xb08f5ca9
# UVM_INFO ../src/mst/ahb_master_driver.sv(376) @ 1035000: uvm_test_top.env.master_agent.drv [ahb_master_driver] Transaction complete: AHB_READ 0x000002fc, 1 beats, burst=AHB_BURST_SINGLE
# UVM_INFO ../src/slv/ahb_slave_driver.sv(184) @ 1035000: uvm_test_top.env.slave_agent.drv [ahb_slave_driver] Beat AHB_READ addr=0x000002fc resp=AHB_RESP_OKAY waits=1 rdata=0xb08f5ca9
# UVM_INFO ../src/slv/ahb_slave_monitor.sv(197) @ 1035000: uvm_test_top.env.slave_agent.mon [ahb_slave_monitor] Observed [AHB_READ]: HADDR=0x000002fc, HBURST=AHB_BURST_SINGLE, HSIZE=AHB_SIZE_32B, 1 beats
# UVM_INFO ../src/env/ahb_coverage.sv(126) @ 1035000: uvm_test_top.env.slave_cov [ahb_coverage] Sampled [AHB_READ]: burst=AHB_BURST_SINGLE size=AHB_SIZE_32B beats=1 error=0
# UVM_INFO ../src/mst/ahb_master_monitor.sv(117) @ 1035000: uvm_test_top.env.master_agent.mon [ahb_master_monitor] Beat[0] addr=0x000002fc rdata=0xb08f5ca9 resp=AHB_RESP_OKAY
# UVM_INFO ../src/mst/ahb_master_monitor.sv(220) @ 1035000: uvm_test_top.env.master_agent.mon [ahb_master_monitor] Observed [AHB_READ]: HADDR=0x000002fc, HBURST=AHB_BURST_SINGLE, HSIZE=AHB_SIZE_32B, 1 beats
# UVM_INFO ../src/env/ahb_coverage.sv(126) @ 1035000: uvm_test_top.env.master_cov [ahb_coverage] Sampled [AHB_READ]: burst=AHB_BURST_SINGLE size=AHB_SIZE_32B beats=1 error=0
# UVM_INFO ../src/env/ahb_scoreboard.sv(104) @ 1035000: uvm_test_top.env.scb [ahb_scoreboard] MATCH #24: [AHB_READ] HADDR=0x000002fc AHB_BURST_SINGLE 1 beats
# UVM_INFO ../src/mst_seq/ahb_read_after_write_seq.sv(99) @ 1035000: uvm_test_top.env.master_agent.sqr@@seq [ahb_read_after_write_seq] RAW ok @0x000002fc: 0xb08f5ca9
# UVM_INFO ../src/mst/ahb_master_driver.sv(85) @ 1035000: uvm_test_top.env.master_agent.drv [ahb_master_driver] Queueing [AHB_WRITE]: HADDR=0x00000110, HBURST=AHB_BURST_SINGLE, HSIZE=AHB_SIZE_32B, 1 beats
# UVM_INFO ../src/mst/ahb_master_driver.sv(127) @ 1035000: uvm_test_top.env.master_agent.drv [ahb_master_driver] Driving [AHB_WRITE]: HADDR=0x00000110, HBURST=AHB_BURST_SINGLE, HSIZE=AHB_SIZE_32B, 1 beats               
# UVM_INFO ../src/mst/ahb_master_driver.sv(332) @ 1085000: uvm_test_top.env.master_agent.drv [ahb_master_driver] Beat[0/1] addr=0x00000110 trans=AHB_TRANS_NONSEQ resp=AHB_RESP_OKAY wdata=0x1a954e63
# UVM_INFO ../src/mst/ahb_master_driver.sv(376) @ 1085000: uvm_test_top.env.master_agent.drv [ahb_master_driver] Transaction complete: AHB_WRITE 0x00000110, 1 beats, burst=AHB_BURST_SINGLE
# UVM_INFO ../src/slv/ahb_slave_driver.sv(184) @ 1085000: uvm_test_top.env.slave_agent.drv [ahb_slave_driver] Beat AHB_WRITE addr=0x00000110 resp=AHB_RESP_OKAY waits=2 wdata=0x1a954e63
# UVM_INFO ../src/mst/ahb_master_monitor.sv(117) @ 1085000: uvm_test_top.env.master_agent.mon [ahb_master_monitor] Beat[0] addr=0x00000110 wdata=0x1a954e63 resp=AHB_RESP_OKAY
# UVM_INFO ../src/mst/ahb_master_monitor.sv(220) @ 1085000: uvm_test_top.env.master_agent.mon [ahb_master_monitor] Observed [AHB_WRITE]: HADDR=0x00000110, HBURST=AHB_BURST_SINGLE, HSIZE=AHB_SIZE_32B, 1 beats
# UVM_INFO ../src/env/ahb_coverage.sv(126) @ 1085000: uvm_test_top.env.master_cov [ahb_coverage] Sampled [AHB_WRITE]: burst=AHB_BURST_SINGLE size=AHB_SIZE_32B beats=1 error=0
# UVM_INFO ../src/slv/ahb_slave_monitor.sv(197) @ 1085000: uvm_test_top.env.slave_agent.mon [ahb_slave_monitor] Observed [AHB_WRITE]: HADDR=0x00000110, HBURST=AHB_BURST_SINGLE, HSIZE=AHB_SIZE_32B, 1 beats
# UVM_INFO ../src/env/ahb_scoreboard.sv(104) @ 1085000: uvm_test_top.env.scb [ahb_scoreboard] MATCH #25: [AHB_WRITE] HADDR=0x00000110 AHB_BURST_SINGLE 1 beats
# UVM_INFO ../src/env/ahb_coverage.sv(126) @ 1085000: uvm_test_top.env.slave_cov [ahb_coverage] Sampled [AHB_WRITE]: burst=AHB_BURST_SINGLE size=AHB_SIZE_32B beats=1 error=0
# UVM_INFO ../src/mst/ahb_master_driver.sv(85) @ 1085000: uvm_test_top.env.master_agent.drv [ahb_master_driver] Queueing [AHB_READ]: HADDR=0x00000110, HBURST=AHB_BURST_SINGLE, HSIZE=AHB_SIZE_32B, 1 beats
# UVM_INFO ../src/mst/ahb_master_driver.sv(127) @ 1085000: uvm_test_top.env.master_agent.drv [ahb_master_driver] Driving [AHB_READ]: HADDR=0x00000110, HBURST=AHB_BURST_SINGLE, HSIZE=AHB_SIZE_32B, 1 beats               
# UVM_INFO ../src/mst/ahb_master_driver.sv(332) @ 1125000: uvm_test_top.env.master_agent.drv [ahb_master_driver] Beat[0/1] addr=0x00000110 trans=AHB_TRANS_NONSEQ resp=AHB_RESP_OKAY rdata=0x1a954e63
# UVM_INFO ../src/mst/ahb_master_driver.sv(376) @ 1125000: uvm_test_top.env.master_agent.drv [ahb_master_driver] Transaction complete: AHB_READ 0x00000110, 1 beats, burst=AHB_BURST_SINGLE
# UVM_INFO ../src/slv/ahb_slave_driver.sv(184) @ 1125000: uvm_test_top.env.slave_agent.drv [ahb_slave_driver] Beat AHB_READ addr=0x00000110 resp=AHB_RESP_OKAY waits=1 rdata=0x1a954e63
# UVM_INFO ../src/mst/ahb_master_monitor.sv(117) @ 1125000: uvm_test_top.env.master_agent.mon [ahb_master_monitor] Beat[0] addr=0x00000110 rdata=0x1a954e63 resp=AHB_RESP_OKAY
# UVM_INFO ../src/mst/ahb_master_monitor.sv(220) @ 1125000: uvm_test_top.env.master_agent.mon [ahb_master_monitor] Observed [AHB_READ]: HADDR=0x00000110, HBURST=AHB_BURST_SINGLE, HSIZE=AHB_SIZE_32B, 1 beats
# UVM_INFO ../src/env/ahb_coverage.sv(126) @ 1125000: uvm_test_top.env.master_cov [ahb_coverage] Sampled [AHB_READ]: burst=AHB_BURST_SINGLE size=AHB_SIZE_32B beats=1 error=0
# UVM_INFO ../src/slv/ahb_slave_monitor.sv(197) @ 1125000: uvm_test_top.env.slave_agent.mon [ahb_slave_monitor] Observed [AHB_READ]: HADDR=0x00000110, HBURST=AHB_BURST_SINGLE, HSIZE=AHB_SIZE_32B, 1 beats
# UVM_INFO ../src/env/ahb_scoreboard.sv(104) @ 1125000: uvm_test_top.env.scb [ahb_scoreboard] MATCH #26: [AHB_READ] HADDR=0x00000110 AHB_BURST_SINGLE 1 beats
# UVM_INFO ../src/env/ahb_coverage.sv(126) @ 1125000: uvm_test_top.env.slave_cov [ahb_coverage] Sampled [AHB_READ]: burst=AHB_BURST_SINGLE size=AHB_SIZE_32B beats=1 error=0
# UVM_INFO ../src/mst_seq/ahb_read_after_write_seq.sv(99) @ 1125000: uvm_test_top.env.master_agent.sqr@@seq [ahb_read_after_write_seq] RAW ok @0x00000110: 0x1a954e63
# UVM_INFO ../src/mst/ahb_master_driver.sv(85) @ 1125000: uvm_test_top.env.master_agent.drv [ahb_master_driver] Queueing [AHB_WRITE]: HADDR=0x000002e4, HBURST=AHB_BURST_SINGLE, HSIZE=AHB_SIZE_32B, 1 beats
# UVM_INFO ../src/mst/ahb_master_driver.sv(127) @ 1125000: uvm_test_top.env.master_agent.drv [ahb_master_driver] Driving [AHB_WRITE]: HADDR=0x000002e4, HBURST=AHB_BURST_SINGLE, HSIZE=AHB_SIZE_32B, 1 beats               
# UVM_INFO ../src/mst/ahb_master_driver.sv(332) @ 1165000: uvm_test_top.env.master_agent.drv [ahb_master_driver] Beat[0/1] addr=0x000002e4 trans=AHB_TRANS_NONSEQ resp=AHB_RESP_OKAY wdata=0x26d1ad4b
# UVM_INFO ../src/mst/ahb_master_driver.sv(376) @ 1165000: uvm_test_top.env.master_agent.drv [ahb_master_driver] Transaction complete: AHB_WRITE 0x000002e4, 1 beats, burst=AHB_BURST_SINGLE
# UVM_INFO ../src/slv/ahb_slave_driver.sv(184) @ 1165000: uvm_test_top.env.slave_agent.drv [ahb_slave_driver] Beat AHB_WRITE addr=0x000002e4 resp=AHB_RESP_OKAY waits=1 wdata=0x26d1ad4b
# UVM_INFO ../src/mst/ahb_master_monitor.sv(117) @ 1165000: uvm_test_top.env.master_agent.mon [ahb_master_monitor] Beat[0] addr=0x000002e4 wdata=0x26d1ad4b resp=AHB_RESP_OKAY
# UVM_INFO ../src/mst/ahb_master_monitor.sv(220) @ 1165000: uvm_test_top.env.master_agent.mon [ahb_master_monitor] Observed [AHB_WRITE]: HADDR=0x000002e4, HBURST=AHB_BURST_SINGLE, HSIZE=AHB_SIZE_32B, 1 beats
# UVM_INFO ../src/env/ahb_coverage.sv(126) @ 1165000: uvm_test_top.env.master_cov [ahb_coverage] Sampled [AHB_WRITE]: burst=AHB_BURST_SINGLE size=AHB_SIZE_32B beats=1 error=0
# UVM_INFO ../src/slv/ahb_slave_monitor.sv(197) @ 1165000: uvm_test_top.env.slave_agent.mon [ahb_slave_monitor] Observed [AHB_WRITE]: HADDR=0x000002e4, HBURST=AHB_BURST_SINGLE, HSIZE=AHB_SIZE_32B, 1 beats
# UVM_INFO ../src/env/ahb_scoreboard.sv(104) @ 1165000: uvm_test_top.env.scb [ahb_scoreboard] MATCH #27: [AHB_WRITE] HADDR=0x000002e4 AHB_BURST_SINGLE 1 beats
# UVM_INFO ../src/env/ahb_coverage.sv(126) @ 1165000: uvm_test_top.env.slave_cov [ahb_coverage] Sampled [AHB_WRITE]: burst=AHB_BURST_SINGLE size=AHB_SIZE_32B beats=1 error=0
# UVM_INFO ../src/mst/ahb_master_driver.sv(85) @ 1165000: uvm_test_top.env.master_agent.drv [ahb_master_driver] Queueing [AHB_READ]: HADDR=0x000002e4, HBURST=AHB_BURST_SINGLE, HSIZE=AHB_SIZE_32B, 1 beats
# UVM_INFO ../src/mst/ahb_master_driver.sv(127) @ 1165000: uvm_test_top.env.master_agent.drv [ahb_master_driver] Driving [AHB_READ]: HADDR=0x000002e4, HBURST=AHB_BURST_SINGLE, HSIZE=AHB_SIZE_32B, 1 beats               
# UVM_INFO ../src/mst/ahb_master_driver.sv(332) @ 1215000: uvm_test_top.env.master_agent.drv [ahb_master_driver] Beat[0/1] addr=0x000002e4 trans=AHB_TRANS_NONSEQ resp=AHB_RESP_OKAY rdata=0x26d1ad4b
# UVM_INFO ../src/mst/ahb_master_driver.sv(376) @ 1215000: uvm_test_top.env.master_agent.drv [ahb_master_driver] Transaction complete: AHB_READ 0x000002e4, 1 beats, burst=AHB_BURST_SINGLE
# UVM_INFO ../src/slv/ahb_slave_driver.sv(184) @ 1215000: uvm_test_top.env.slave_agent.drv [ahb_slave_driver] Beat AHB_READ addr=0x000002e4 resp=AHB_RESP_OKAY waits=2 rdata=0x26d1ad4b
# UVM_INFO ../src/slv/ahb_slave_monitor.sv(197) @ 1215000: uvm_test_top.env.slave_agent.mon [ahb_slave_monitor] Observed [AHB_READ]: HADDR=0x000002e4, HBURST=AHB_BURST_SINGLE, HSIZE=AHB_SIZE_32B, 1 beats
# UVM_INFO ../src/env/ahb_coverage.sv(126) @ 1215000: uvm_test_top.env.slave_cov [ahb_coverage] Sampled [AHB_READ]: burst=AHB_BURST_SINGLE size=AHB_SIZE_32B beats=1 error=0
# UVM_INFO ../src/mst/ahb_master_monitor.sv(117) @ 1215000: uvm_test_top.env.master_agent.mon [ahb_master_monitor] Beat[0] addr=0x000002e4 rdata=0x26d1ad4b resp=AHB_RESP_OKAY
# UVM_INFO ../src/mst/ahb_master_monitor.sv(220) @ 1215000: uvm_test_top.env.master_agent.mon [ahb_master_monitor] Observed [AHB_READ]: HADDR=0x000002e4, HBURST=AHB_BURST_SINGLE, HSIZE=AHB_SIZE_32B, 1 beats
# UVM_INFO ../src/env/ahb_coverage.sv(126) @ 1215000: uvm_test_top.env.master_cov [ahb_coverage] Sampled [AHB_READ]: burst=AHB_BURST_SINGLE size=AHB_SIZE_32B beats=1 error=0
# UVM_INFO ../src/env/ahb_scoreboard.sv(104) @ 1215000: uvm_test_top.env.scb [ahb_scoreboard] MATCH #28: [AHB_READ] HADDR=0x000002e4 AHB_BURST_SINGLE 1 beats
# UVM_INFO ../src/mst_seq/ahb_read_after_write_seq.sv(99) @ 1215000: uvm_test_top.env.master_agent.sqr@@seq [ahb_read_after_write_seq] RAW ok @0x000002e4: 0x26d1ad4b
# UVM_INFO ../src/mst/ahb_master_driver.sv(85) @ 1215000: uvm_test_top.env.master_agent.drv [ahb_master_driver] Queueing [AHB_WRITE]: HADDR=0x000001e4, HBURST=AHB_BURST_SINGLE, HSIZE=AHB_SIZE_32B, 1 beats
# UVM_INFO ../src/mst/ahb_master_driver.sv(127) @ 1215000: uvm_test_top.env.master_agent.drv [ahb_master_driver] Driving [AHB_WRITE]: HADDR=0x000001e4, HBURST=AHB_BURST_SINGLE, HSIZE=AHB_SIZE_32B, 1 beats               
# UVM_INFO ../src/mst/ahb_master_driver.sv(332) @ 1265000: uvm_test_top.env.master_agent.drv [ahb_master_driver] Beat[0/1] addr=0x000001e4 trans=AHB_TRANS_NONSEQ resp=AHB_RESP_OKAY wdata=0xc677e61c
# UVM_INFO ../src/mst/ahb_master_driver.sv(376) @ 1265000: uvm_test_top.env.master_agent.drv [ahb_master_driver] Transaction complete: AHB_WRITE 0x000001e4, 1 beats, burst=AHB_BURST_SINGLE
# UVM_INFO ../src/slv/ahb_slave_driver.sv(184) @ 1265000: uvm_test_top.env.slave_agent.drv [ahb_slave_driver] Beat AHB_WRITE addr=0x000001e4 resp=AHB_RESP_OKAY waits=2 wdata=0xc677e61c
# UVM_INFO ../src/mst/ahb_master_monitor.sv(117) @ 1265000: uvm_test_top.env.master_agent.mon [ahb_master_monitor] Beat[0] addr=0x000001e4 wdata=0xc677e61c resp=AHB_RESP_OKAY
# UVM_INFO ../src/mst/ahb_master_monitor.sv(220) @ 1265000: uvm_test_top.env.master_agent.mon [ahb_master_monitor] Observed [AHB_WRITE]: HADDR=0x000001e4, HBURST=AHB_BURST_SINGLE, HSIZE=AHB_SIZE_32B, 1 beats
# UVM_INFO ../src/env/ahb_coverage.sv(126) @ 1265000: uvm_test_top.env.master_cov [ahb_coverage] Sampled [AHB_WRITE]: burst=AHB_BURST_SINGLE size=AHB_SIZE_32B beats=1 error=0
# UVM_INFO ../src/slv/ahb_slave_monitor.sv(197) @ 1265000: uvm_test_top.env.slave_agent.mon [ahb_slave_monitor] Observed [AHB_WRITE]: HADDR=0x000001e4, HBURST=AHB_BURST_SINGLE, HSIZE=AHB_SIZE_32B, 1 beats
# UVM_INFO ../src/env/ahb_scoreboard.sv(104) @ 1265000: uvm_test_top.env.scb [ahb_scoreboard] MATCH #29: [AHB_WRITE] HADDR=0x000001e4 AHB_BURST_SINGLE 1 beats
# UVM_INFO ../src/env/ahb_coverage.sv(126) @ 1265000: uvm_test_top.env.slave_cov [ahb_coverage] Sampled [AHB_WRITE]: burst=AHB_BURST_SINGLE size=AHB_SIZE_32B beats=1 error=0
# UVM_INFO ../src/mst/ahb_master_driver.sv(85) @ 1265000: uvm_test_top.env.master_agent.drv [ahb_master_driver] Queueing [AHB_READ]: HADDR=0x000001e4, HBURST=AHB_BURST_SINGLE, HSIZE=AHB_SIZE_32B, 1 beats
# UVM_INFO ../src/mst/ahb_master_driver.sv(127) @ 1265000: uvm_test_top.env.master_agent.drv [ahb_master_driver] Driving [AHB_READ]: HADDR=0x000001e4, HBURST=AHB_BURST_SINGLE, HSIZE=AHB_SIZE_32B, 1 beats               
# UVM_INFO ../src/mst/ahb_master_driver.sv(332) @ 1315000: uvm_test_top.env.master_agent.drv [ahb_master_driver] Beat[0/1] addr=0x000001e4 trans=AHB_TRANS_NONSEQ resp=AHB_RESP_OKAY rdata=0xc677e61c
# UVM_INFO ../src/mst/ahb_master_driver.sv(376) @ 1315000: uvm_test_top.env.master_agent.drv [ahb_master_driver] Transaction complete: AHB_READ 0x000001e4, 1 beats, burst=AHB_BURST_SINGLE
# UVM_INFO ../src/slv/ahb_slave_driver.sv(184) @ 1315000: uvm_test_top.env.slave_agent.drv [ahb_slave_driver] Beat AHB_READ addr=0x000001e4 resp=AHB_RESP_OKAY waits=2 rdata=0xc677e61c
# UVM_INFO ../src/slv/ahb_slave_monitor.sv(197) @ 1315000: uvm_test_top.env.slave_agent.mon [ahb_slave_monitor] Observed [AHB_READ]: HADDR=0x000001e4, HBURST=AHB_BURST_SINGLE, HSIZE=AHB_SIZE_32B, 1 beats
# UVM_INFO ../src/env/ahb_coverage.sv(126) @ 1315000: uvm_test_top.env.slave_cov [ahb_coverage] Sampled [AHB_READ]: burst=AHB_BURST_SINGLE size=AHB_SIZE_32B beats=1 error=0
# UVM_INFO ../src/mst/ahb_master_monitor.sv(117) @ 1315000: uvm_test_top.env.master_agent.mon [ahb_master_monitor] Beat[0] addr=0x000001e4 rdata=0xc677e61c resp=AHB_RESP_OKAY
# UVM_INFO ../src/mst/ahb_master_monitor.sv(220) @ 1315000: uvm_test_top.env.master_agent.mon [ahb_master_monitor] Observed [AHB_READ]: HADDR=0x000001e4, HBURST=AHB_BURST_SINGLE, HSIZE=AHB_SIZE_32B, 1 beats
# UVM_INFO ../src/env/ahb_coverage.sv(126) @ 1315000: uvm_test_top.env.master_cov [ahb_coverage] Sampled [AHB_READ]: burst=AHB_BURST_SINGLE size=AHB_SIZE_32B beats=1 error=0
# UVM_INFO ../src/env/ahb_scoreboard.sv(104) @ 1315000: uvm_test_top.env.scb [ahb_scoreboard] MATCH #30: [AHB_READ] HADDR=0x000001e4 AHB_BURST_SINGLE 1 beats
# UVM_INFO ../src/mst_seq/ahb_read_after_write_seq.sv(99) @ 1315000: uvm_test_top.env.master_agent.sqr@@seq [ahb_read_after_write_seq] RAW ok @0x000001e4: 0xc677e61c
# UVM_INFO ../src/mst/ahb_master_driver.sv(85) @ 1315000: uvm_test_top.env.master_agent.drv [ahb_master_driver] Queueing [AHB_WRITE]: HADDR=0x000001e4, HBURST=AHB_BURST_SINGLE, HSIZE=AHB_SIZE_32B, 1 beats
# UVM_INFO ../src/mst/ahb_master_driver.sv(127) @ 1315000: uvm_test_top.env.master_agent.drv [ahb_master_driver] Driving [AHB_WRITE]: HADDR=0x000001e4, HBURST=AHB_BURST_SINGLE, HSIZE=AHB_SIZE_32B, 1 beats               
# UVM_INFO ../src/mst/ahb_master_driver.sv(332) @ 1345000: uvm_test_top.env.master_agent.drv [ahb_master_driver] Beat[0/1] addr=0x000001e4 trans=AHB_TRANS_NONSEQ resp=AHB_RESP_OKAY wdata=0x278b42d1
# UVM_INFO ../src/mst/ahb_master_driver.sv(376) @ 1345000: uvm_test_top.env.master_agent.drv [ahb_master_driver] Transaction complete: AHB_WRITE 0x000001e4, 1 beats, burst=AHB_BURST_SINGLE
# UVM_INFO ../src/slv/ahb_slave_driver.sv(184) @ 1345000: uvm_test_top.env.slave_agent.drv [ahb_slave_driver] Beat AHB_WRITE addr=0x000001e4 resp=AHB_RESP_OKAY waits=0 wdata=0x278b42d1
# UVM_INFO ../src/mst/ahb_master_monitor.sv(117) @ 1345000: uvm_test_top.env.master_agent.mon [ahb_master_monitor] Beat[0] addr=0x000001e4 wdata=0x278b42d1 resp=AHB_RESP_OKAY
# UVM_INFO ../src/mst/ahb_master_monitor.sv(220) @ 1345000: uvm_test_top.env.master_agent.mon [ahb_master_monitor] Observed [AHB_WRITE]: HADDR=0x000001e4, HBURST=AHB_BURST_SINGLE, HSIZE=AHB_SIZE_32B, 1 beats
# UVM_INFO ../src/env/ahb_coverage.sv(126) @ 1345000: uvm_test_top.env.master_cov [ahb_coverage] Sampled [AHB_WRITE]: burst=AHB_BURST_SINGLE size=AHB_SIZE_32B beats=1 error=0
# UVM_INFO ../src/slv/ahb_slave_monitor.sv(197) @ 1345000: uvm_test_top.env.slave_agent.mon [ahb_slave_monitor] Observed [AHB_WRITE]: HADDR=0x000001e4, HBURST=AHB_BURST_SINGLE, HSIZE=AHB_SIZE_32B, 1 beats
# UVM_INFO ../src/env/ahb_scoreboard.sv(104) @ 1345000: uvm_test_top.env.scb [ahb_scoreboard] MATCH #31: [AHB_WRITE] HADDR=0x000001e4 AHB_BURST_SINGLE 1 beats
# UVM_INFO ../src/env/ahb_coverage.sv(126) @ 1345000: uvm_test_top.env.slave_cov [ahb_coverage] Sampled [AHB_WRITE]: burst=AHB_BURST_SINGLE size=AHB_SIZE_32B beats=1 error=0
# UVM_INFO ../src/mst/ahb_master_driver.sv(85) @ 1345000: uvm_test_top.env.master_agent.drv [ahb_master_driver] Queueing [AHB_READ]: HADDR=0x000001e4, HBURST=AHB_BURST_SINGLE, HSIZE=AHB_SIZE_32B, 1 beats
# UVM_INFO ../src/mst/ahb_master_driver.sv(127) @ 1345000: uvm_test_top.env.master_agent.drv [ahb_master_driver] Driving [AHB_READ]: HADDR=0x000001e4, HBURST=AHB_BURST_SINGLE, HSIZE=AHB_SIZE_32B, 1 beats               
# UVM_INFO ../src/mst/ahb_master_driver.sv(332) @ 1395000: uvm_test_top.env.master_agent.drv [ahb_master_driver] Beat[0/1] addr=0x000001e4 trans=AHB_TRANS_NONSEQ resp=AHB_RESP_OKAY rdata=0x278b42d1
# UVM_INFO ../src/mst/ahb_master_driver.sv(376) @ 1395000: uvm_test_top.env.master_agent.drv [ahb_master_driver] Transaction complete: AHB_READ 0x000001e4, 1 beats, burst=AHB_BURST_SINGLE
# UVM_INFO ../src/slv/ahb_slave_driver.sv(184) @ 1395000: uvm_test_top.env.slave_agent.drv [ahb_slave_driver] Beat AHB_READ addr=0x000001e4 resp=AHB_RESP_OKAY waits=2 rdata=0x278b42d1
# UVM_INFO ../src/slv/ahb_slave_monitor.sv(197) @ 1395000: uvm_test_top.env.slave_agent.mon [ahb_slave_monitor] Observed [AHB_READ]: HADDR=0x000001e4, HBURST=AHB_BURST_SINGLE, HSIZE=AHB_SIZE_32B, 1 beats
# UVM_INFO ../src/env/ahb_coverage.sv(126) @ 1395000: uvm_test_top.env.slave_cov [ahb_coverage] Sampled [AHB_READ]: burst=AHB_BURST_SINGLE size=AHB_SIZE_32B beats=1 error=0
# UVM_INFO ../src/mst/ahb_master_monitor.sv(117) @ 1395000: uvm_test_top.env.master_agent.mon [ahb_master_monitor] Beat[0] addr=0x000001e4 rdata=0x278b42d1 resp=AHB_RESP_OKAY
# UVM_INFO ../src/mst/ahb_master_monitor.sv(220) @ 1395000: uvm_test_top.env.master_agent.mon [ahb_master_monitor] Observed [AHB_READ]: HADDR=0x000001e4, HBURST=AHB_BURST_SINGLE, HSIZE=AHB_SIZE_32B, 1 beats
# UVM_INFO ../src/env/ahb_coverage.sv(126) @ 1395000: uvm_test_top.env.master_cov [ahb_coverage] Sampled [AHB_READ]: burst=AHB_BURST_SINGLE size=AHB_SIZE_32B beats=1 error=0
# UVM_INFO ../src/env/ahb_scoreboard.sv(104) @ 1395000: uvm_test_top.env.scb [ahb_scoreboard] MATCH #32: [AHB_READ] HADDR=0x000001e4 AHB_BURST_SINGLE 1 beats
# UVM_INFO ../src/mst_seq/ahb_read_after_write_seq.sv(99) @ 1395000: uvm_test_top.env.master_agent.sqr@@seq [ahb_read_after_write_seq] RAW ok @0x000001e4: 0x278b42d1
# UVM_INFO ../src/mst/ahb_master_driver.sv(85) @ 1395000: uvm_test_top.env.master_agent.drv [ahb_master_driver] Queueing [AHB_WRITE]: HADDR=0x00000264, HBURST=AHB_BURST_SINGLE, HSIZE=AHB_SIZE_32B, 1 beats
# UVM_INFO ../src/mst/ahb_master_driver.sv(127) @ 1395000: uvm_test_top.env.master_agent.drv [ahb_master_driver] Driving [AHB_WRITE]: HADDR=0x00000264, HBURST=AHB_BURST_SINGLE, HSIZE=AHB_SIZE_32B, 1 beats               
# UVM_INFO ../src/mst/ahb_master_driver.sv(332) @ 1425000: uvm_test_top.env.master_agent.drv [ahb_master_driver] Beat[0/1] addr=0x00000264 trans=AHB_TRANS_NONSEQ resp=AHB_RESP_OKAY wdata=0x580abfaa
# UVM_INFO ../src/mst/ahb_master_driver.sv(376) @ 1425000: uvm_test_top.env.master_agent.drv [ahb_master_driver] Transaction complete: AHB_WRITE 0x00000264, 1 beats, burst=AHB_BURST_SINGLE
# UVM_INFO ../src/slv/ahb_slave_driver.sv(184) @ 1425000: uvm_test_top.env.slave_agent.drv [ahb_slave_driver] Beat AHB_WRITE addr=0x00000264 resp=AHB_RESP_OKAY waits=0 wdata=0x580abfaa
# UVM_INFO ../src/mst/ahb_master_monitor.sv(117) @ 1425000: uvm_test_top.env.master_agent.mon [ahb_master_monitor] Beat[0] addr=0x00000264 wdata=0x580abfaa resp=AHB_RESP_OKAY
# UVM_INFO ../src/mst/ahb_master_monitor.sv(220) @ 1425000: uvm_test_top.env.master_agent.mon [ahb_master_monitor] Observed [AHB_WRITE]: HADDR=0x00000264, HBURST=AHB_BURST_SINGLE, HSIZE=AHB_SIZE_32B, 1 beats
# UVM_INFO ../src/env/ahb_coverage.sv(126) @ 1425000: uvm_test_top.env.master_cov [ahb_coverage] Sampled [AHB_WRITE]: burst=AHB_BURST_SINGLE size=AHB_SIZE_32B beats=1 error=0
# UVM_INFO ../src/slv/ahb_slave_monitor.sv(197) @ 1425000: uvm_test_top.env.slave_agent.mon [ahb_slave_monitor] Observed [AHB_WRITE]: HADDR=0x00000264, HBURST=AHB_BURST_SINGLE, HSIZE=AHB_SIZE_32B, 1 beats
# UVM_INFO ../src/env/ahb_scoreboard.sv(104) @ 1425000: uvm_test_top.env.scb [ahb_scoreboard] MATCH #33: [AHB_WRITE] HADDR=0x00000264 AHB_BURST_SINGLE 1 beats
# UVM_INFO ../src/env/ahb_coverage.sv(126) @ 1425000: uvm_test_top.env.slave_cov [ahb_coverage] Sampled [AHB_WRITE]: burst=AHB_BURST_SINGLE size=AHB_SIZE_32B beats=1 error=0
# UVM_INFO ../src/mst/ahb_master_driver.sv(85) @ 1425000: uvm_test_top.env.master_agent.drv [ahb_master_driver] Queueing [AHB_READ]: HADDR=0x00000264, HBURST=AHB_BURST_SINGLE, HSIZE=AHB_SIZE_32B, 1 beats
# UVM_INFO ../src/mst/ahb_master_driver.sv(127) @ 1425000: uvm_test_top.env.master_agent.drv [ahb_master_driver] Driving [AHB_READ]: HADDR=0x00000264, HBURST=AHB_BURST_SINGLE, HSIZE=AHB_SIZE_32B, 1 beats               
# UVM_INFO ../src/mst/ahb_master_driver.sv(332) @ 1465000: uvm_test_top.env.master_agent.drv [ahb_master_driver] Beat[0/1] addr=0x00000264 trans=AHB_TRANS_NONSEQ resp=AHB_RESP_OKAY rdata=0x580abfaa
# UVM_INFO ../src/mst/ahb_master_driver.sv(376) @ 1465000: uvm_test_top.env.master_agent.drv [ahb_master_driver] Transaction complete: AHB_READ 0x00000264, 1 beats, burst=AHB_BURST_SINGLE
# UVM_INFO ../src/slv/ahb_slave_driver.sv(184) @ 1465000: uvm_test_top.env.slave_agent.drv [ahb_slave_driver] Beat AHB_READ addr=0x00000264 resp=AHB_RESP_OKAY waits=1 rdata=0x580abfaa
# UVM_INFO ../src/mst/ahb_master_monitor.sv(117) @ 1465000: uvm_test_top.env.master_agent.mon [ahb_master_monitor] Beat[0] addr=0x00000264 rdata=0x580abfaa resp=AHB_RESP_OKAY
# UVM_INFO ../src/mst/ahb_master_monitor.sv(220) @ 1465000: uvm_test_top.env.master_agent.mon [ahb_master_monitor] Observed [AHB_READ]: HADDR=0x00000264, HBURST=AHB_BURST_SINGLE, HSIZE=AHB_SIZE_32B, 1 beats
# UVM_INFO ../src/env/ahb_coverage.sv(126) @ 1465000: uvm_test_top.env.master_cov [ahb_coverage] Sampled [AHB_READ]: burst=AHB_BURST_SINGLE size=AHB_SIZE_32B beats=1 error=0
# UVM_INFO ../src/slv/ahb_slave_monitor.sv(197) @ 1465000: uvm_test_top.env.slave_agent.mon [ahb_slave_monitor] Observed [AHB_READ]: HADDR=0x00000264, HBURST=AHB_BURST_SINGLE, HSIZE=AHB_SIZE_32B, 1 beats
# UVM_INFO ../src/env/ahb_scoreboard.sv(104) @ 1465000: uvm_test_top.env.scb [ahb_scoreboard] MATCH #34: [AHB_READ] HADDR=0x00000264 AHB_BURST_SINGLE 1 beats
# UVM_INFO ../src/env/ahb_coverage.sv(126) @ 1465000: uvm_test_top.env.slave_cov [ahb_coverage] Sampled [AHB_READ]: burst=AHB_BURST_SINGLE size=AHB_SIZE_32B beats=1 error=0
# UVM_INFO ../src/mst_seq/ahb_read_after_write_seq.sv(99) @ 1465000: uvm_test_top.env.master_agent.sqr@@seq [ahb_read_after_write_seq] RAW ok @0x00000264: 0x580abfaa
# UVM_INFO ../src/mst/ahb_master_driver.sv(85) @ 1465000: uvm_test_top.env.master_agent.drv [ahb_master_driver] Queueing [AHB_WRITE]: HADDR=0x000003ec, HBURST=AHB_BURST_SINGLE, HSIZE=AHB_SIZE_32B, 1 beats
# UVM_INFO ../src/mst/ahb_master_driver.sv(127) @ 1465000: uvm_test_top.env.master_agent.drv [ahb_master_driver] Driving [AHB_WRITE]: HADDR=0x000003ec, HBURST=AHB_BURST_SINGLE, HSIZE=AHB_SIZE_32B, 1 beats               
# UVM_INFO ../src/mst/ahb_master_driver.sv(332) @ 1505000: uvm_test_top.env.master_agent.drv [ahb_master_driver] Beat[0/1] addr=0x000003ec trans=AHB_TRANS_NONSEQ resp=AHB_RESP_OKAY wdata=0x3b52ce82
# UVM_INFO ../src/mst/ahb_master_driver.sv(376) @ 1505000: uvm_test_top.env.master_agent.drv [ahb_master_driver] Transaction complete: AHB_WRITE 0x000003ec, 1 beats, burst=AHB_BURST_SINGLE
# UVM_INFO ../src/slv/ahb_slave_driver.sv(184) @ 1505000: uvm_test_top.env.slave_agent.drv [ahb_slave_driver] Beat AHB_WRITE addr=0x000003ec resp=AHB_RESP_OKAY waits=1 wdata=0x3b52ce82
# UVM_INFO ../src/mst/ahb_master_monitor.sv(117) @ 1505000: uvm_test_top.env.master_agent.mon [ahb_master_monitor] Beat[0] addr=0x000003ec wdata=0x3b52ce82 resp=AHB_RESP_OKAY
# UVM_INFO ../src/mst/ahb_master_monitor.sv(220) @ 1505000: uvm_test_top.env.master_agent.mon [ahb_master_monitor] Observed [AHB_WRITE]: HADDR=0x000003ec, HBURST=AHB_BURST_SINGLE, HSIZE=AHB_SIZE_32B, 1 beats
# UVM_INFO ../src/env/ahb_coverage.sv(126) @ 1505000: uvm_test_top.env.master_cov [ahb_coverage] Sampled [AHB_WRITE]: burst=AHB_BURST_SINGLE size=AHB_SIZE_32B beats=1 error=0
# UVM_INFO ../src/slv/ahb_slave_monitor.sv(197) @ 1505000: uvm_test_top.env.slave_agent.mon [ahb_slave_monitor] Observed [AHB_WRITE]: HADDR=0x000003ec, HBURST=AHB_BURST_SINGLE, HSIZE=AHB_SIZE_32B, 1 beats
# UVM_INFO ../src/env/ahb_scoreboard.sv(104) @ 1505000: uvm_test_top.env.scb [ahb_scoreboard] MATCH #35: [AHB_WRITE] HADDR=0x000003ec AHB_BURST_SINGLE 1 beats
# UVM_INFO ../src/env/ahb_coverage.sv(126) @ 1505000: uvm_test_top.env.slave_cov [ahb_coverage] Sampled [AHB_WRITE]: burst=AHB_BURST_SINGLE size=AHB_SIZE_32B beats=1 error=0
# UVM_INFO ../src/mst/ahb_master_driver.sv(85) @ 1505000: uvm_test_top.env.master_agent.drv [ahb_master_driver] Queueing [AHB_READ]: HADDR=0x000003ec, HBURST=AHB_BURST_SINGLE, HSIZE=AHB_SIZE_32B, 1 beats
# UVM_INFO ../src/mst/ahb_master_driver.sv(127) @ 1505000: uvm_test_top.env.master_agent.drv [ahb_master_driver] Driving [AHB_READ]: HADDR=0x000003ec, HBURST=AHB_BURST_SINGLE, HSIZE=AHB_SIZE_32B, 1 beats               
# UVM_INFO ../src/mst/ahb_master_driver.sv(332) @ 1535000: uvm_test_top.env.master_agent.drv [ahb_master_driver] Beat[0/1] addr=0x000003ec trans=AHB_TRANS_NONSEQ resp=AHB_RESP_OKAY rdata=0x3b52ce82
# UVM_INFO ../src/mst/ahb_master_driver.sv(376) @ 1535000: uvm_test_top.env.master_agent.drv [ahb_master_driver] Transaction complete: AHB_READ 0x000003ec, 1 beats, burst=AHB_BURST_SINGLE
# UVM_INFO ../src/slv/ahb_slave_driver.sv(184) @ 1535000: uvm_test_top.env.slave_agent.drv [ahb_slave_driver] Beat AHB_READ addr=0x000003ec resp=AHB_RESP_OKAY waits=0 rdata=0x3b52ce82
# UVM_INFO ../src/slv/ahb_slave_monitor.sv(197) @ 1535000: uvm_test_top.env.slave_agent.mon [ahb_slave_monitor] Observed [AHB_READ]: HADDR=0x000003ec, HBURST=AHB_BURST_SINGLE, HSIZE=AHB_SIZE_32B, 1 beats
# UVM_INFO ../src/env/ahb_coverage.sv(126) @ 1535000: uvm_test_top.env.slave_cov [ahb_coverage] Sampled [AHB_READ]: burst=AHB_BURST_SINGLE size=AHB_SIZE_32B beats=1 error=0
# UVM_INFO ../src/mst/ahb_master_monitor.sv(117) @ 1535000: uvm_test_top.env.master_agent.mon [ahb_master_monitor] Beat[0] addr=0x000003ec rdata=0x3b52ce82 resp=AHB_RESP_OKAY
# UVM_INFO ../src/mst/ahb_master_monitor.sv(220) @ 1535000: uvm_test_top.env.master_agent.mon [ahb_master_monitor] Observed [AHB_READ]: HADDR=0x000003ec, HBURST=AHB_BURST_SINGLE, HSIZE=AHB_SIZE_32B, 1 beats
# UVM_INFO ../src/env/ahb_coverage.sv(126) @ 1535000: uvm_test_top.env.master_cov [ahb_coverage] Sampled [AHB_READ]: burst=AHB_BURST_SINGLE size=AHB_SIZE_32B beats=1 error=0
# UVM_INFO ../src/env/ahb_scoreboard.sv(104) @ 1535000: uvm_test_top.env.scb [ahb_scoreboard] MATCH #36: [AHB_READ] HADDR=0x000003ec AHB_BURST_SINGLE 1 beats
# UVM_INFO ../src/mst_seq/ahb_read_after_write_seq.sv(99) @ 1535000: uvm_test_top.env.master_agent.sqr@@seq [ahb_read_after_write_seq] RAW ok @0x000003ec: 0x3b52ce82
# UVM_INFO ../src/mst/ahb_master_driver.sv(85) @ 1535000: uvm_test_top.env.master_agent.drv [ahb_master_driver] Queueing [AHB_WRITE]: HADDR=0x00000214, HBURST=AHB_BURST_SINGLE, HSIZE=AHB_SIZE_32B, 1 beats
# UVM_INFO ../src/mst/ahb_master_driver.sv(127) @ 1535000: uvm_test_top.env.master_agent.drv [ahb_master_driver] Driving [AHB_WRITE]: HADDR=0x00000214, HBURST=AHB_BURST_SINGLE, HSIZE=AHB_SIZE_32B, 1 beats               
# UVM_INFO ../src/mst/ahb_master_driver.sv(332) @ 1585000: uvm_test_top.env.master_agent.drv [ahb_master_driver] Beat[0/1] addr=0x00000214 trans=AHB_TRANS_NONSEQ resp=AHB_RESP_OKAY wdata=0x7846cc58
# UVM_INFO ../src/mst/ahb_master_driver.sv(376) @ 1585000: uvm_test_top.env.master_agent.drv [ahb_master_driver] Transaction complete: AHB_WRITE 0x00000214, 1 beats, burst=AHB_BURST_SINGLE
# UVM_INFO ../src/slv/ahb_slave_driver.sv(184) @ 1585000: uvm_test_top.env.slave_agent.drv [ahb_slave_driver] Beat AHB_WRITE addr=0x00000214 resp=AHB_RESP_OKAY waits=2 wdata=0x7846cc58
# UVM_INFO ../src/mst/ahb_master_monitor.sv(117) @ 1585000: uvm_test_top.env.master_agent.mon [ahb_master_monitor] Beat[0] addr=0x00000214 wdata=0x7846cc58 resp=AHB_RESP_OKAY
# UVM_INFO ../src/mst/ahb_master_monitor.sv(220) @ 1585000: uvm_test_top.env.master_agent.mon [ahb_master_monitor] Observed [AHB_WRITE]: HADDR=0x00000214, HBURST=AHB_BURST_SINGLE, HSIZE=AHB_SIZE_32B, 1 beats
# UVM_INFO ../src/env/ahb_coverage.sv(126) @ 1585000: uvm_test_top.env.master_cov [ahb_coverage] Sampled [AHB_WRITE]: burst=AHB_BURST_SINGLE size=AHB_SIZE_32B beats=1 error=0
# UVM_INFO ../src/slv/ahb_slave_monitor.sv(197) @ 1585000: uvm_test_top.env.slave_agent.mon [ahb_slave_monitor] Observed [AHB_WRITE]: HADDR=0x00000214, HBURST=AHB_BURST_SINGLE, HSIZE=AHB_SIZE_32B, 1 beats
# UVM_INFO ../src/env/ahb_scoreboard.sv(104) @ 1585000: uvm_test_top.env.scb [ahb_scoreboard] MATCH #37: [AHB_WRITE] HADDR=0x00000214 AHB_BURST_SINGLE 1 beats
# UVM_INFO ../src/env/ahb_coverage.sv(126) @ 1585000: uvm_test_top.env.slave_cov [ahb_coverage] Sampled [AHB_WRITE]: burst=AHB_BURST_SINGLE size=AHB_SIZE_32B beats=1 error=0
# UVM_INFO ../src/mst/ahb_master_driver.sv(85) @ 1585000: uvm_test_top.env.master_agent.drv [ahb_master_driver] Queueing [AHB_READ]: HADDR=0x00000214, HBURST=AHB_BURST_SINGLE, HSIZE=AHB_SIZE_32B, 1 beats
# UVM_INFO ../src/mst/ahb_master_driver.sv(127) @ 1585000: uvm_test_top.env.master_agent.drv [ahb_master_driver] Driving [AHB_READ]: HADDR=0x00000214, HBURST=AHB_BURST_SINGLE, HSIZE=AHB_SIZE_32B, 1 beats               
# UVM_INFO ../src/mst/ahb_master_driver.sv(332) @ 1635000: uvm_test_top.env.master_agent.drv [ahb_master_driver] Beat[0/1] addr=0x00000214 trans=AHB_TRANS_NONSEQ resp=AHB_RESP_OKAY rdata=0x7846cc58
# UVM_INFO ../src/mst/ahb_master_driver.sv(376) @ 1635000: uvm_test_top.env.master_agent.drv [ahb_master_driver] Transaction complete: AHB_READ 0x00000214, 1 beats, burst=AHB_BURST_SINGLE
# UVM_INFO ../src/slv/ahb_slave_driver.sv(184) @ 1635000: uvm_test_top.env.slave_agent.drv [ahb_slave_driver] Beat AHB_READ addr=0x00000214 resp=AHB_RESP_OKAY waits=2 rdata=0x7846cc58
# UVM_INFO ../src/slv/ahb_slave_monitor.sv(197) @ 1635000: uvm_test_top.env.slave_agent.mon [ahb_slave_monitor] Observed [AHB_READ]: HADDR=0x00000214, HBURST=AHB_BURST_SINGLE, HSIZE=AHB_SIZE_32B, 1 beats
# UVM_INFO ../src/env/ahb_coverage.sv(126) @ 1635000: uvm_test_top.env.slave_cov [ahb_coverage] Sampled [AHB_READ]: burst=AHB_BURST_SINGLE size=AHB_SIZE_32B beats=1 error=0
# UVM_INFO ../src/mst/ahb_master_monitor.sv(117) @ 1635000: uvm_test_top.env.master_agent.mon [ahb_master_monitor] Beat[0] addr=0x00000214 rdata=0x7846cc58 resp=AHB_RESP_OKAY
# UVM_INFO ../src/mst/ahb_master_monitor.sv(220) @ 1635000: uvm_test_top.env.master_agent.mon [ahb_master_monitor] Observed [AHB_READ]: HADDR=0x00000214, HBURST=AHB_BURST_SINGLE, HSIZE=AHB_SIZE_32B, 1 beats
# UVM_INFO ../src/env/ahb_coverage.sv(126) @ 1635000: uvm_test_top.env.master_cov [ahb_coverage] Sampled [AHB_READ]: burst=AHB_BURST_SINGLE size=AHB_SIZE_32B beats=1 error=0
# UVM_INFO ../src/env/ahb_scoreboard.sv(104) @ 1635000: uvm_test_top.env.scb [ahb_scoreboard] MATCH #38: [AHB_READ] HADDR=0x00000214 AHB_BURST_SINGLE 1 beats
# UVM_INFO ../src/mst_seq/ahb_read_after_write_seq.sv(99) @ 1635000: uvm_test_top.env.master_agent.sqr@@seq [ahb_read_after_write_seq] RAW ok @0x00000214: 0x7846cc58
# UVM_INFO ../src/mst/ahb_master_driver.sv(85) @ 1635000: uvm_test_top.env.master_agent.drv [ahb_master_driver] Queueing [AHB_WRITE]: HADDR=0x000000c4, HBURST=AHB_BURST_SINGLE, HSIZE=AHB_SIZE_32B, 1 beats
# UVM_INFO ../src/mst/ahb_master_driver.sv(127) @ 1635000: uvm_test_top.env.master_agent.drv [ahb_master_driver] Driving [AHB_WRITE]: HADDR=0x000000c4, HBURST=AHB_BURST_SINGLE, HSIZE=AHB_SIZE_32B, 1 beats               
# UVM_INFO ../src/mst/ahb_master_driver.sv(332) @ 1675000: uvm_test_top.env.master_agent.drv [ahb_master_driver] Beat[0/1] addr=0x000000c4 trans=AHB_TRANS_NONSEQ resp=AHB_RESP_OKAY wdata=0xc8edb86e
# UVM_INFO ../src/mst/ahb_master_driver.sv(376) @ 1675000: uvm_test_top.env.master_agent.drv [ahb_master_driver] Transaction complete: AHB_WRITE 0x000000c4, 1 beats, burst=AHB_BURST_SINGLE
# UVM_INFO ../src/slv/ahb_slave_driver.sv(184) @ 1675000: uvm_test_top.env.slave_agent.drv [ahb_slave_driver] Beat AHB_WRITE addr=0x000000c4 resp=AHB_RESP_OKAY waits=1 wdata=0xc8edb86e
# UVM_INFO ../src/slv/ahb_slave_monitor.sv(197) @ 1675000: uvm_test_top.env.slave_agent.mon [ahb_slave_monitor] Observed [AHB_WRITE]: HADDR=0x000000c4, HBURST=AHB_BURST_SINGLE, HSIZE=AHB_SIZE_32B, 1 beats
# UVM_INFO ../src/env/ahb_coverage.sv(126) @ 1675000: uvm_test_top.env.slave_cov [ahb_coverage] Sampled [AHB_WRITE]: burst=AHB_BURST_SINGLE size=AHB_SIZE_32B beats=1 error=0
# UVM_INFO ../src/mst/ahb_master_monitor.sv(117) @ 1675000: uvm_test_top.env.master_agent.mon [ahb_master_monitor] Beat[0] addr=0x000000c4 wdata=0xc8edb86e resp=AHB_RESP_OKAY
# UVM_INFO ../src/mst/ahb_master_monitor.sv(220) @ 1675000: uvm_test_top.env.master_agent.mon [ahb_master_monitor] Observed [AHB_WRITE]: HADDR=0x000000c4, HBURST=AHB_BURST_SINGLE, HSIZE=AHB_SIZE_32B, 1 beats
# UVM_INFO ../src/env/ahb_coverage.sv(126) @ 1675000: uvm_test_top.env.master_cov [ahb_coverage] Sampled [AHB_WRITE]: burst=AHB_BURST_SINGLE size=AHB_SIZE_32B beats=1 error=0
# UVM_INFO ../src/env/ahb_scoreboard.sv(104) @ 1675000: uvm_test_top.env.scb [ahb_scoreboard] MATCH #39: [AHB_WRITE] HADDR=0x000000c4 AHB_BURST_SINGLE 1 beats
# UVM_INFO ../src/mst/ahb_master_driver.sv(85) @ 1675000: uvm_test_top.env.master_agent.drv [ahb_master_driver] Queueing [AHB_READ]: HADDR=0x000000c4, HBURST=AHB_BURST_SINGLE, HSIZE=AHB_SIZE_32B, 1 beats
# UVM_INFO ../src/mst/ahb_master_driver.sv(127) @ 1675000: uvm_test_top.env.master_agent.drv [ahb_master_driver] Driving [AHB_READ]: HADDR=0x000000c4, HBURST=AHB_BURST_SINGLE, HSIZE=AHB_SIZE_32B, 1 beats               
# UVM_INFO ../src/mst/ahb_master_driver.sv(332) @ 1715000: uvm_test_top.env.master_agent.drv [ahb_master_driver] Beat[0/1] addr=0x000000c4 trans=AHB_TRANS_NONSEQ resp=AHB_RESP_OKAY rdata=0xc8edb86e
# UVM_INFO ../src/mst/ahb_master_driver.sv(376) @ 1715000: uvm_test_top.env.master_agent.drv [ahb_master_driver] Transaction complete: AHB_READ 0x000000c4, 1 beats, burst=AHB_BURST_SINGLE
# UVM_INFO ../src/slv/ahb_slave_driver.sv(184) @ 1715000: uvm_test_top.env.slave_agent.drv [ahb_slave_driver] Beat AHB_READ addr=0x000000c4 resp=AHB_RESP_OKAY waits=1 rdata=0xc8edb86e
# UVM_INFO ../src/slv/ahb_slave_monitor.sv(197) @ 1715000: uvm_test_top.env.slave_agent.mon [ahb_slave_monitor] Observed [AHB_READ]: HADDR=0x000000c4, HBURST=AHB_BURST_SINGLE, HSIZE=AHB_SIZE_32B, 1 beats
# UVM_INFO ../src/env/ahb_coverage.sv(126) @ 1715000: uvm_test_top.env.slave_cov [ahb_coverage] Sampled [AHB_READ]: burst=AHB_BURST_SINGLE size=AHB_SIZE_32B beats=1 error=0
# UVM_INFO ../src/mst/ahb_master_monitor.sv(117) @ 1715000: uvm_test_top.env.master_agent.mon [ahb_master_monitor] Beat[0] addr=0x000000c4 rdata=0xc8edb86e resp=AHB_RESP_OKAY
# UVM_INFO ../src/mst/ahb_master_monitor.sv(220) @ 1715000: uvm_test_top.env.master_agent.mon [ahb_master_monitor] Observed [AHB_READ]: HADDR=0x000000c4, HBURST=AHB_BURST_SINGLE, HSIZE=AHB_SIZE_32B, 1 beats
# UVM_INFO ../src/env/ahb_coverage.sv(126) @ 1715000: uvm_test_top.env.master_cov [ahb_coverage] Sampled [AHB_READ]: burst=AHB_BURST_SINGLE size=AHB_SIZE_32B beats=1 error=0
# UVM_INFO ../src/env/ahb_scoreboard.sv(104) @ 1715000: uvm_test_top.env.scb [ahb_scoreboard] MATCH #40: [AHB_READ] HADDR=0x000000c4 AHB_BURST_SINGLE 1 beats
# UVM_INFO ../src/mst_seq/ahb_read_after_write_seq.sv(99) @ 1715000: uvm_test_top.env.master_agent.sqr@@seq [ahb_read_after_write_seq] RAW ok @0x000000c4: 0xc8edb86e
# UVM_INFO ../src/mst_seq/ahb_read_after_write_seq.sv(106) @ 1715000: uvm_test_top.env.master_agent.sqr@@seq [ahb_read_after_write_seq] Read-after-write done: checked=20 mismatch=0
# UVM_INFO verilog_src/uvm-1.1d/src/base/uvm_objection.svh(1268) @ 1715200: reporter [TEST_DONE] 'run' phase is ready to proceed to the 'extract' phase
# UVM_INFO ../src/env/ahb_coverage.sv(136) @ 1715200: uvm_test_top.env.master_cov [ahb_coverage] [master_cov] functional coverage = 41.79%
# UVM_INFO ../src/env/ahb_scoreboard.sv(208) @ 1715200: uvm_test_top.env.scb [ahb_scoreboard] Passthrough : compared=40 matched=40 mismatched=0
# UVM_INFO ../src/env/ahb_scoreboard.sv(212) @ 1715200: uvm_test_top.env.scb [ahb_scoreboard] Ref-memory  : wr_bytes=80 rd_checked=80 rd_uninit=0 rd_mismatch=0
# UVM_INFO ../src/env/ahb_coverage.sv(136) @ 1715200: uvm_test_top.env.slave_cov [ahb_coverage] [slave_cov] functional coverage = 41.79%
# UVM_INFO ../src/test/ahb_base_test.sv(74) @ 1715200: uvm_test_top [ahb_read_after_write_test] 
# === TEST PASSED ===
# 
# 
# --- UVM Report Summary ---
# 
# ** Report counts by severity
# UVM_INFO :  488
# UVM_WARNING :    0
# UVM_ERROR :    0
# UVM_FATAL :    0
# ** Report counts by id
# [Questa UVM]     3
# [RNTST]     1
# [TB_TOP]     3
# [TEST_DONE]     1
# [UVMTOP]     1
# [ahb_coverage]    82
# [ahb_master_agent]     1
# [ahb_master_driver]   162
# [ahb_master_monitor]    81
# [ahb_read_after_write_seq]    22
# [ahb_read_after_write_test]     1
# [ahb_scoreboard]    42
# [ahb_slave_agent]     1
# [ahb_slave_driver]    41
# [ahb_slave_monitor]    41
# [ahb_vip_env]     5
# ** Note: $finish    : /cadtools/mentor/Questa_10.6b/questasim/linux_x86_64/../verilog_src/uvm-1.1d/src/base/uvm_root.svh(430)
#    Time: 1715200 ps  Iteration: 53  Instance: /tb_top
# Saving coverage database on exit...
# End time: 10:23:58 on Aug 05,2026, Elapsed time: 0:00:01
# Errors: 0, Warnings: 0
