# vsim -c -coverage -sv_seed 98151997 "+UVM_TESTNAME=ahb_busy_test" "+UVM_VERBOSITY=UVM_HIGH" "+DUMP_VCD" -l ./report/logs/ahb_busy_test_run_5_seed_98151997.log -do "coverage save -onexit ./report/coverage/ahb_busy_test_run_5_seed_98151997.ucdb; run -all; quit -f" opt_tb_top 
# Start time: 11:01:29 on Aug 05,2026
# //  Questa Sim-64
# //  Version 10.6b linux_x86_64 May 25 2017
# //
# //  Copyright 1991-2017 Mentor Graphics Corporation
# //  All Rights Reserved.
# //
# //  QuestaSim and its associated documentation contain trade
# //  secrets and commercial or financial information that are the property of
# //  Mentor Graphics Corporation and are privileged, confidential,
# //  and exempt from disclosure under the Freedom of Information Act,
# //  5 U.S.C. Section 552. Furthermore, this information
# //  is prohibited from disclosure under the Trade Secrets Act,
# //  18 U.S.C. Section 1905.
# //
# Loading sv_std.std
# Loading work.ahb_if(fast)
# Loading mtiUvm.uvm_pkg
# Loading work.ahb_pkg(fast)
# Loading work.ahb_seq_pkg(fast)
# Loading work.ahb_test_pkg(fast)
# Loading work.tb_top(fast)
# Loading work.ahb_if(fast)
# Loading work.ahb_sva(fast)
# Loading mtiUvm.questa_uvm_pkg(fast)
# Loading /cadtools/mentor/Questa_10.6b/questasim/uvm-1.1d/linux_x86_64/uvm_dpi.so
# coverage save -onexit ./report/coverage/ahb_busy_test_run_5_seed_98151997.ucdb
#  run -all
# ----------------------------------------------------------------
# UVM-1.1d
# (C) 2007-2013 Mentor Graphics Corporation
# (C) 2007-2013 Cadence Design Systems, Inc.
# (C) 2006-2013 Synopsys, Inc.
# (C) 2011-2013 Cypress Semiconductor Corp.
# ----------------------------------------------------------------
# 
#   ***********       IMPORTANT RELEASE NOTES         ************
# 
#   You are using a version of the UVM library that has been compiled
#   with `UVM_NO_DEPRECATED undefined.
#   See http://www.eda.org/svdb/view.php?id=3313 for more details.
# 
#   You are using a version of the UVM library that has been compiled
#   with `UVM_OBJECT_MUST_HAVE_CONSTRUCTOR undefined.
#   See http://www.eda.org/svdb/view.php?id=3770 for more details.
# 
#       (Specify +UVM_NO_RELNOTES to turn off this notice)
# 
# UVM_INFO verilog_src/questa_uvm_pkg-1.2/src/questa_uvm_pkg.sv(215) @ 0: reporter [Questa UVM] QUESTA_UVM-1.2.3
# UVM_INFO verilog_src/questa_uvm_pkg-1.2/src/questa_uvm_pkg.sv(217) @ 0: reporter [Questa UVM]  questa_uvm::init(+struct)
# UVM_INFO ../src/tb_top.sv(126) @ 0: reporter [TB_TOP] Virtual interface set in config_db
# UVM_INFO @ 0: reporter [RNTST] Running test ahb_busy_test...
# UVM_INFO ../src/tb_top.sv(140) @ 0: reporter [TB_TOP] Waveform VCD dumping enabled (ahb_lite_vip.vcd)
# UVM_INFO ../src/env/ahb_vip_env.sv(64) @ 0: uvm_test_top.env [ahb_vip_env] slave_vif not set - reusing master_vif (passthrough mode)
# UVM_INFO ../src/env/ahb_vip_env.sv(72) @ 0: uvm_test_top.env [ahb_vip_env] Scoreboard created
# UVM_INFO ../src/env/ahb_vip_env.sv(78) @ 0: uvm_test_top.env [ahb_vip_env] Coverage collectors created
# UVM_INFO ../src/mst/ahb_master_agent.sv(61) @ 0: uvm_test_top.env.master_agent [ahb_master_agent] ACTIVE mode - driver + sequencer created
# UVM_INFO ../src/slv/ahb_slave_agent.sv(64) @ 0: uvm_test_top.env.slave_agent [ahb_slave_agent] ACTIVE mode - driver + sequencer created (    auto responses)
# UVM_INFO ../src/env/ahb_vip_env.sv(92) @ 0: uvm_test_top.env [ahb_vip_env] Scoreboard connected: master_mon.ap -> scb, slave_mon.ap -> scb
# UVM_INFO ../src/env/ahb_vip_env.sv(99) @ 0: uvm_test_top.env [ahb_vip_env] Coverage connected: master_mon.ap -> master_cov, slave_mon.ap -> slave_cov
# UVM_INFO @ 0: reporter [UVMTOP] UVM testbench topology:
# ---------------------------------------------------------------
# Name                       Type                     Size  Value
# ---------------------------------------------------------------
# uvm_test_top               ahb_busy_test            -     @475 
#   env                      ahb_vip_env              -     @490 
#     master_agent           ahb_master_agent         -     @505 
#       drv                  ahb_master_driver        -     @570 
#         rsp_port           uvm_analysis_port        -     @585 
#         seq_item_port      uvm_seq_item_pull_port   -     @577 
#       mon                  ahb_master_monitor       -     @563 
#         ap                 uvm_analysis_port        -     @704 
#       sqr                  ahb_master_sequencer     -     @593 
#         rsp_export         uvm_analysis_export      -     @600 
#         seq_item_export    uvm_seq_item_pull_imp    -     @694 
#         arbitration_queue  array                    0     -    
#         lock_queue         array                    0     -    
#         num_last_reqs      integral                 32    'd1  
#         num_last_rsps      integral                 32    'd1  
#     master_cov             ahb_coverage             -     @526 
#       analysis_imp         uvm_analysis_imp         -     @533 
#     scb                    ahb_scoreboard           -     @519 
#       master_export        uvm_analysis_imp_master  -     @718 
#       slave_export         uvm_analysis_imp_slave   -     @726 
#     slave_agent            ahb_slave_agent          -     @512 
#       drv                  ahb_slave_driver         -     @748 
#         rsp_port           uvm_analysis_port        -     @763 
#         seq_item_port      uvm_seq_item_pull_port   -     @755 
#       mon                  ahb_slave_monitor        -     @741 
#         ap                 uvm_analysis_port        -     @882 
#       sqr                  ahb_slave_sequencer      -     @771 
#         rsp_export         uvm_analysis_export      -     @778 
#         seq_item_export    uvm_seq_item_pull_imp    -     @872 
#         arbitration_queue  array                    0     -    
#         lock_queue         array                    0     -    
#         num_last_reqs      integral                 32    'd1  
#         num_last_rsps      integral                 32    'd1  
#     slave_cov              ahb_coverage             -     @541 
#       analysis_imp         uvm_analysis_imp         -     @548 
# ---------------------------------------------------------------
# 
# UVM_INFO verilog_src/questa_uvm_pkg-1.2/src/questa_uvm_pkg.sv(277) @ 0: reporter [Questa UVM] End Of Elaboration
# UVM_INFO ../src/mst_seq/ahb_busy_seq.sv(54) @ 0: uvm_test_top.env.master_agent.sqr@@seq [ahb_busy_seq] Starting BUSY traffic: 16 bursts from 0x0000c000
# UVM_INFO ../src/mst_seq/ahb_busy_seq.sv(105) @ 0: uvm_test_top.env.master_agent.sqr@@seq [ahb_busy_seq] AHB_BURST_WRAP8 AHB_SIZE_8B @0x0000c01d, 8 beats, retract=0
# UVM_INFO ../src/mst/ahb_master_driver.sv(183) @ 5000: uvm_test_top.env.master_agent.drv [ahb_master_driver] Flushed pending transactions (reset)
# UVM_INFO ../src/tb_top.sv(48) @ 95000: reporter [TB_TOP] Reset de-asserted
# UVM_INFO ../src/slv/ahb_slave_driver.sv(63) @ 95000: uvm_test_top.env.slave_agent.drv [ahb_slave_driver] Reset deasserted - slave driver active (    auto mode)
# UVM_INFO ../src/mst/ahb_master_driver.sv(72) @ 95000: uvm_test_top.env.master_agent.drv [ahb_master_driver] Reset deasserted - master driver active
# UVM_INFO ../src/mst/ahb_master_monitor.sv(75) @ 95000: uvm_test_top.env.master_agent.mon [ahb_master_monitor] Reset deasserted - master monitor active
# UVM_INFO ../src/slv/ahb_slave_monitor.sv(69) @ 95000: uvm_test_top.env.slave_agent.mon [ahb_slave_monitor] Reset deasserted - slave monitor active
# UVM_INFO ../src/mst/ahb_master_driver.sv(85) @ 95000: uvm_test_top.env.master_agent.drv [ahb_master_driver] Queueing [AHB_WRITE]: HADDR=0x0000c01d, HBURST=AHB_BURST_WRAP8, HSIZE=AHB_SIZE_8B, 8 beats
# UVM_INFO ../src/mst/ahb_master_driver.sv(127) @ 95000: uvm_test_top.env.master_agent.drv [ahb_master_driver] Driving [AHB_WRITE]: HADDR=0x0000c01d, HBURST=AHB_BURST_WRAP8, HSIZE=AHB_SIZE_8B, 8 beats               
# UVM_INFO ../src/mst/ahb_master_driver.sv(332) @ 115000: uvm_test_top.env.master_agent.drv [ahb_master_driver] Beat[0/8] addr=0x0000c01d trans=AHB_TRANS_NONSEQ resp=AHB_RESP_OKAY wdata=0x95552ade
# UVM_INFO ../src/slv/ahb_slave_driver.sv(184) @ 115000: uvm_test_top.env.slave_agent.drv [ahb_slave_driver] Beat AHB_WRITE addr=0x0000c01d resp=AHB_RESP_OKAY waits=0 wdata=0x95552ade
# UVM_INFO ../src/mst/ahb_master_monitor.sv(117) @ 115000: uvm_test_top.env.master_agent.mon [ahb_master_monitor] Beat[0] addr=0x0000c01d wdata=0x95552ade resp=AHB_RESP_OKAY
# UVM_INFO ../src/mst/ahb_master_driver.sv(332) @ 165000: uvm_test_top.env.master_agent.drv [ahb_master_driver] Beat[1/8] addr=0x0000c01e trans=AHB_TRANS_SEQ resp=AHB_RESP_OKAY wdata=0x7ec81bec
# UVM_INFO ../src/slv/ahb_slave_driver.sv(184) @ 165000: uvm_test_top.env.slave_agent.drv [ahb_slave_driver] Beat AHB_WRITE addr=0x0000c01e resp=AHB_RESP_OKAY waits=1 wdata=0x7ec81bec
# UVM_INFO ../src/mst/ahb_master_monitor.sv(117) @ 165000: uvm_test_top.env.master_agent.mon [ahb_master_monitor] Beat[1] addr=0x0000c01e wdata=0x7ec81bec resp=AHB_RESP_OKAY
# UVM_INFO ../src/mst/ahb_master_driver.sv(332) @ 195000: uvm_test_top.env.master_agent.drv [ahb_master_driver] Beat[2/8] addr=0x0000c01f trans=AHB_TRANS_SEQ resp=AHB_RESP_OKAY wdata=0x09d585fe
# UVM_INFO ../src/slv/ahb_slave_driver.sv(184) @ 195000: uvm_test_top.env.slave_agent.drv [ahb_slave_driver] Beat AHB_WRITE addr=0x0000c01f resp=AHB_RESP_OKAY waits=1 wdata=0x09d585fe
# UVM_INFO ../src/mst/ahb_master_monitor.sv(117) @ 195000: uvm_test_top.env.master_agent.mon [ahb_master_monitor] Beat[2] addr=0x0000c01f wdata=0x09d585fe resp=AHB_RESP_OKAY
# UVM_INFO ../src/mst/ahb_master_driver.sv(332) @ 225000: uvm_test_top.env.master_agent.drv [ahb_master_driver] Beat[3/8] addr=0x0000c018 trans=AHB_TRANS_SEQ resp=AHB_RESP_OKAY wdata=0x1c0457bd
# UVM_INFO ../src/slv/ahb_slave_driver.sv(184) @ 225000: uvm_test_top.env.slave_agent.drv [ahb_slave_driver] Beat AHB_WRITE addr=0x0000c018 resp=AHB_RESP_OKAY waits=0 wdata=0x1c0457bd
# UVM_INFO ../src/mst/ahb_master_monitor.sv(117) @ 225000: uvm_test_top.env.master_agent.mon [ahb_master_monitor] Beat[3] addr=0x0000c018 wdata=0x1c0457bd resp=AHB_RESP_OKAY
# UVM_INFO ../src/mst/ahb_master_driver.sv(332) @ 265000: uvm_test_top.env.master_agent.drv [ahb_master_driver] Beat[4/8] addr=0x0000c019 trans=AHB_TRANS_SEQ resp=AHB_RESP_OKAY wdata=0xa099ba40
# UVM_INFO ../src/slv/ahb_slave_driver.sv(184) @ 265000: uvm_test_top.env.slave_agent.drv [ahb_slave_driver] Beat AHB_WRITE addr=0x0000c019 resp=AHB_RESP_OKAY waits=2 wdata=0xa099ba40
# UVM_INFO ../src/mst/ahb_master_monitor.sv(117) @ 265000: uvm_test_top.env.master_agent.mon [ahb_master_monitor] Beat[4] addr=0x0000c019 wdata=0xa099ba40 resp=AHB_RESP_OKAY
# UVM_INFO ../src/mst/ahb_master_driver.sv(332) @ 295000: uvm_test_top.env.master_agent.drv [ahb_master_driver] Beat[5/8] addr=0x0000c01a trans=AHB_TRANS_SEQ resp=AHB_RESP_OKAY wdata=0x17a191e1
# UVM_INFO ../src/slv/ahb_slave_driver.sv(184) @ 295000: uvm_test_top.env.slave_agent.drv [ahb_slave_driver] Beat AHB_WRITE addr=0x0000c01a resp=AHB_RESP_OKAY waits=1 wdata=0x17a191e1
# UVM_INFO ../src/mst/ahb_master_monitor.sv(117) @ 295000: uvm_test_top.env.master_agent.mon [ahb_master_monitor] Beat[5] addr=0x0000c01a wdata=0x17a191e1 resp=AHB_RESP_OKAY
# UVM_INFO ../src/mst/ahb_master_driver.sv(332) @ 335000: uvm_test_top.env.master_agent.drv [ahb_master_driver] Beat[6/8] addr=0x0000c01b trans=AHB_TRANS_SEQ resp=AHB_RESP_OKAY wdata=0x1f30012d
# UVM_INFO ../src/slv/ahb_slave_driver.sv(184) @ 335000: uvm_test_top.env.slave_agent.drv [ahb_slave_driver] Beat AHB_WRITE addr=0x0000c01b resp=AHB_RESP_OKAY waits=0 wdata=0x1f30012d
# UVM_INFO ../src/mst/ahb_master_monitor.sv(117) @ 335000: uvm_test_top.env.master_agent.mon [ahb_master_monitor] Beat[6] addr=0x0000c01b wdata=0x1f30012d resp=AHB_RESP_OKAY
# UVM_INFO ../src/mst/ahb_master_driver.sv(332) @ 375000: uvm_test_top.env.master_agent.drv [ahb_master_driver] Beat[7/8] addr=0x0000c01c trans=AHB_TRANS_SEQ resp=AHB_RESP_OKAY wdata=0xb4c2af1e
# UVM_INFO ../src/mst/ahb_master_driver.sv(376) @ 375000: uvm_test_top.env.master_agent.drv [ahb_master_driver] Transaction complete: AHB_WRITE 0x0000c01d, 8 beats, burst=AHB_BURST_WRAP8
# UVM_INFO ../src/slv/ahb_slave_driver.sv(184) @ 375000: uvm_test_top.env.slave_agent.drv [ahb_slave_driver] Beat AHB_WRITE addr=0x0000c01c resp=AHB_RESP_OKAY waits=0 wdata=0xb4c2af1e
# UVM_INFO ../src/slv/ahb_slave_monitor.sv(197) @ 375000: uvm_test_top.env.slave_agent.mon [ahb_slave_monitor] Observed [AHB_WRITE]: HADDR=0x0000c01d, HBURST=AHB_BURST_WRAP8, HSIZE=AHB_SIZE_8B, 8 beats
# UVM_INFO ../src/env/ahb_coverage.sv(126) @ 375000: uvm_test_top.env.slave_cov [ahb_coverage] Sampled [AHB_WRITE]: burst=AHB_BURST_WRAP8 size=AHB_SIZE_8B beats=8 error=0
# UVM_INFO ../src/mst/ahb_master_monitor.sv(117) @ 375000: uvm_test_top.env.master_agent.mon [ahb_master_monitor] Beat[7] addr=0x0000c01c wdata=0xb4c2af1e resp=AHB_RESP_OKAY
# UVM_INFO ../src/mst/ahb_master_monitor.sv(220) @ 375000: uvm_test_top.env.master_agent.mon [ahb_master_monitor] Observed [AHB_WRITE]: HADDR=0x0000c01d, HBURST=AHB_BURST_WRAP8, HSIZE=AHB_SIZE_8B, 8 beats
# UVM_INFO ../src/env/ahb_coverage.sv(126) @ 375000: uvm_test_top.env.master_cov [ahb_coverage] Sampled [AHB_WRITE]: burst=AHB_BURST_WRAP8 size=AHB_SIZE_8B beats=8 error=0
# UVM_INFO ../src/env/ahb_scoreboard.sv(104) @ 375000: uvm_test_top.env.scb [ahb_scoreboard] MATCH #1: [AHB_WRITE] HADDR=0x0000c01d AHB_BURST_WRAP8 8 beats
# UVM_INFO ../src/mst/ahb_master_driver.sv(85) @ 375000: uvm_test_top.env.master_agent.drv [ahb_master_driver] Queueing [AHB_READ]: HADDR=0x0000c01d, HBURST=AHB_BURST_WRAP8, HSIZE=AHB_SIZE_8B, 8 beats
# UVM_INFO ../src/mst/ahb_master_driver.sv(127) @ 375000: uvm_test_top.env.master_agent.drv [ahb_master_driver] Driving [AHB_READ]: HADDR=0x0000c01d, HBURST=AHB_BURST_WRAP8, HSIZE=AHB_SIZE_8B, 8 beats               
# UVM_INFO ../src/mst/ahb_master_driver.sv(332) @ 425000: uvm_test_top.env.master_agent.drv [ahb_master_driver] Beat[0/8] addr=0x0000c01d trans=AHB_TRANS_NONSEQ resp=AHB_RESP_OKAY rdata=0x95552ade
# UVM_INFO ../src/slv/ahb_slave_driver.sv(184) @ 425000: uvm_test_top.env.slave_agent.drv [ahb_slave_driver] Beat AHB_READ addr=0x0000c01d resp=AHB_RESP_OKAY waits=2 rdata=0x95552ade
# UVM_INFO ../src/mst/ahb_master_monitor.sv(117) @ 425000: uvm_test_top.env.master_agent.mon [ahb_master_monitor] Beat[0] addr=0x0000c01d rdata=0x95552ade resp=AHB_RESP_OKAY
# UVM_INFO ../src/mst/ahb_master_driver.sv(332) @ 445000: uvm_test_top.env.master_agent.drv [ahb_master_driver] Beat[1/8] addr=0x0000c01e trans=AHB_TRANS_SEQ resp=AHB_RESP_OKAY rdata=0x7ec81bec
# UVM_INFO ../src/slv/ahb_slave_driver.sv(184) @ 445000: uvm_test_top.env.slave_agent.drv [ahb_slave_driver] Beat AHB_READ addr=0x0000c01e resp=AHB_RESP_OKAY waits=1 rdata=0x7ec81bec
# UVM_INFO ../src/mst/ahb_master_monitor.sv(117) @ 445000: uvm_test_top.env.master_agent.mon [ahb_master_monitor] Beat[1] addr=0x0000c01e rdata=0x7ec81bec resp=AHB_RESP_OKAY
# UVM_INFO ../src/mst/ahb_master_driver.sv(332) @ 465000: uvm_test_top.env.master_agent.drv [ahb_master_driver] Beat[2/8] addr=0x0000c01f trans=AHB_TRANS_SEQ resp=AHB_RESP_OKAY rdata=0x09d585fe
# UVM_INFO ../src/slv/ahb_slave_driver.sv(184) @ 465000: uvm_test_top.env.slave_agent.drv [ahb_slave_driver] Beat AHB_READ addr=0x0000c01f resp=AHB_RESP_OKAY waits=1 rdata=0x09d585fe
# UVM_INFO ../src/mst/ahb_master_monitor.sv(117) @ 465000: uvm_test_top.env.master_agent.mon [ahb_master_monitor] Beat[2] addr=0x0000c01f rdata=0x09d585fe resp=AHB_RESP_OKAY
# UVM_INFO ../src/mst/ahb_master_driver.sv(332) @ 495000: uvm_test_top.env.master_agent.drv [ahb_master_driver] Beat[3/8] addr=0x0000c018 trans=AHB_TRANS_SEQ resp=AHB_RESP_OKAY rdata=0x1c0457bd
# UVM_INFO ../src/slv/ahb_slave_driver.sv(184) @ 495000: uvm_test_top.env.slave_agent.drv [ahb_slave_driver] Beat AHB_READ addr=0x0000c018 resp=AHB_RESP_OKAY waits=2 rdata=0x1c0457bd
# UVM_INFO ../src/mst/ahb_master_monitor.sv(117) @ 495000: uvm_test_top.env.master_agent.mon [ahb_master_monitor] Beat[3] addr=0x0000c018 rdata=0x1c0457bd resp=AHB_RESP_OKAY
# UVM_INFO ../src/mst/ahb_master_driver.sv(332) @ 525000: uvm_test_top.env.master_agent.drv [ahb_master_driver] Beat[4/8] addr=0x0000c019 trans=AHB_TRANS_SEQ resp=AHB_RESP_OKAY rdata=0xa099ba40
# UVM_INFO ../src/slv/ahb_slave_driver.sv(184) @ 525000: uvm_test_top.env.slave_agent.drv [ahb_slave_driver] Beat AHB_READ addr=0x0000c019 resp=AHB_RESP_OKAY waits=2 rdata=0xa099ba40
# UVM_INFO ../src/mst/ahb_master_monitor.sv(117) @ 525000: uvm_test_top.env.master_agent.mon [ahb_master_monitor] Beat[4] addr=0x0000c019 rdata=0xa099ba40 resp=AHB_RESP_OKAY
# UVM_INFO ../src/mst/ahb_master_driver.sv(332) @ 545000: uvm_test_top.env.master_agent.drv [ahb_master_driver] Beat[5/8] addr=0x0000c01a trans=AHB_TRANS_SEQ resp=AHB_RESP_OKAY rdata=0x17a191e1
# UVM_INFO ../src/slv/ahb_slave_driver.sv(184) @ 545000: uvm_test_top.env.slave_agent.drv [ahb_slave_driver] Beat AHB_READ addr=0x0000c01a resp=AHB_RESP_OKAY waits=1 rdata=0x17a191e1
# UVM_INFO ../src/mst/ahb_master_monitor.sv(117) @ 545000: uvm_test_top.env.master_agent.mon [ahb_master_monitor] Beat[5] addr=0x0000c01a rdata=0x17a191e1 resp=AHB_RESP_OKAY
# UVM_INFO ../src/mst/ahb_master_driver.sv(332) @ 575000: uvm_test_top.env.master_agent.drv [ahb_master_driver] Beat[6/8] addr=0x0000c01b trans=AHB_TRANS_SEQ resp=AHB_RESP_OKAY rdata=0x1f30012d
# UVM_INFO ../src/slv/ahb_slave_driver.sv(184) @ 575000: uvm_test_top.env.slave_agent.drv [ahb_slave_driver] Beat AHB_READ addr=0x0000c01b resp=AHB_RESP_OKAY waits=2 rdata=0x1f30012d
# UVM_INFO ../src/mst/ahb_master_monitor.sv(117) @ 575000: uvm_test_top.env.master_agent.mon [ahb_master_monitor] Beat[6] addr=0x0000c01b rdata=0x1f30012d resp=AHB_RESP_OKAY
# UVM_INFO ../src/mst/ahb_master_driver.sv(332) @ 595000: uvm_test_top.env.master_agent.drv [ahb_master_driver] Beat[7/8] addr=0x0000c01c trans=AHB_TRANS_SEQ resp=AHB_RESP_OKAY rdata=0xb4c2af1e
# UVM_INFO ../src/mst/ahb_master_driver.sv(376) @ 595000: uvm_test_top.env.master_agent.drv [ahb_master_driver] Transaction complete: AHB_READ 0x0000c01d, 8 beats, burst=AHB_BURST_WRAP8
# UVM_INFO ../src/slv/ahb_slave_driver.sv(184) @ 595000: uvm_test_top.env.slave_agent.drv [ahb_slave_driver] Beat AHB_READ addr=0x0000c01c resp=AHB_RESP_OKAY waits=1 rdata=0xb4c2af1e
# UVM_INFO ../src/slv/ahb_slave_monitor.sv(197) @ 595000: uvm_test_top.env.slave_agent.mon [ahb_slave_monitor] Observed [AHB_READ]: HADDR=0x0000c01d, HBURST=AHB_BURST_WRAP8, HSIZE=AHB_SIZE_8B, 8 beats
# UVM_INFO ../src/env/ahb_coverage.sv(126) @ 595000: uvm_test_top.env.slave_cov [ahb_coverage] Sampled [AHB_READ]: burst=AHB_BURST_WRAP8 size=AHB_SIZE_8B beats=8 error=0
# UVM_INFO ../src/mst/ahb_master_monitor.sv(117) @ 595000: uvm_test_top.env.master_agent.mon [ahb_master_monitor] Beat[7] addr=0x0000c01c rdata=0xb4c2af1e resp=AHB_RESP_OKAY
# UVM_INFO ../src/mst/ahb_master_monitor.sv(220) @ 595000: uvm_test_top.env.master_agent.mon [ahb_master_monitor] Observed [AHB_READ]: HADDR=0x0000c01d, HBURST=AHB_BURST_WRAP8, HSIZE=AHB_SIZE_8B, 8 beats
# UVM_INFO ../src/env/ahb_coverage.sv(126) @ 595000: uvm_test_top.env.master_cov [ahb_coverage] Sampled [AHB_READ]: burst=AHB_BURST_WRAP8 size=AHB_SIZE_8B beats=8 error=0
# UVM_INFO ../src/env/ahb_scoreboard.sv(104) @ 595000: uvm_test_top.env.scb [ahb_scoreboard] MATCH #2: [AHB_READ] HADDR=0x0000c01d AHB_BURST_WRAP8 8 beats
# UVM_INFO ../src/mst_seq/ahb_base_seq.sv(157) @ 595000: uvm_test_top.env.master_agent.sqr@@seq [ahb_busy_seq] AHB_BURST_WRAP8 AHB_SIZE_8B beat 0 @0x0000c01d ok
# UVM_INFO ../src/mst_seq/ahb_base_seq.sv(157) @ 595000: uvm_test_top.env.master_agent.sqr@@seq [ahb_busy_seq] AHB_BURST_WRAP8 AHB_SIZE_8B beat 1 @0x0000c01e ok
# UVM_INFO ../src/mst_seq/ahb_base_seq.sv(157) @ 595000: uvm_test_top.env.master_agent.sqr@@seq [ahb_busy_seq] AHB_BURST_WRAP8 AHB_SIZE_8B beat 2 @0x0000c01f ok
# UVM_INFO ../src/mst_seq/ahb_base_seq.sv(157) @ 595000: uvm_test_top.env.master_agent.sqr@@seq [ahb_busy_seq] AHB_BURST_WRAP8 AHB_SIZE_8B beat 3 @0x0000c018 ok
# UVM_INFO ../src/mst_seq/ahb_base_seq.sv(157) @ 595000: uvm_test_top.env.master_agent.sqr@@seq [ahb_busy_seq] AHB_BURST_WRAP8 AHB_SIZE_8B beat 4 @0x0000c019 ok
# UVM_INFO ../src/mst_seq/ahb_base_seq.sv(157) @ 595000: uvm_test_top.env.master_agent.sqr@@seq [ahb_busy_seq] AHB_BURST_WRAP8 AHB_SIZE_8B beat 5 @0x0000c01a ok
# UVM_INFO ../src/mst_seq/ahb_base_seq.sv(157) @ 595000: uvm_test_top.env.master_agent.sqr@@seq [ahb_busy_seq] AHB_BURST_WRAP8 AHB_SIZE_8B beat 6 @0x0000c01b ok
# UVM_INFO ../src/mst_seq/ahb_base_seq.sv(157) @ 595000: uvm_test_top.env.master_agent.sqr@@seq [ahb_busy_seq] AHB_BURST_WRAP8 AHB_SIZE_8B beat 7 @0x0000c01c ok
# UVM_INFO ../src/mst_seq/ahb_busy_seq.sv(105) @ 595000: uvm_test_top.env.master_agent.sqr@@seq [ahb_busy_seq] AHB_BURST_INCR4 AHB_SIZE_8B @0x0000c05e, 4 beats, retract=0
# UVM_INFO ../src/mst/ahb_master_driver.sv(85) @ 595000: uvm_test_top.env.master_agent.drv [ahb_master_driver] Queueing [AHB_WRITE]: HADDR=0x0000c05e, HBURST=AHB_BURST_INCR4, HSIZE=AHB_SIZE_8B, 4 beats
# UVM_INFO ../src/mst/ahb_master_driver.sv(127) @ 595000: uvm_test_top.env.master_agent.drv [ahb_master_driver] Driving [AHB_WRITE]: HADDR=0x0000c05e, HBURST=AHB_BURST_INCR4, HSIZE=AHB_SIZE_8B, 4 beats               
# UVM_INFO ../src/mst/ahb_master_driver.sv(332) @ 645000: uvm_test_top.env.master_agent.drv [ahb_master_driver] Beat[0/4] addr=0x0000c05e trans=AHB_TRANS_NONSEQ resp=AHB_RESP_OKAY wdata=0x54b11614
# UVM_INFO ../src/slv/ahb_slave_driver.sv(184) @ 645000: uvm_test_top.env.slave_agent.drv [ahb_slave_driver] Beat AHB_WRITE addr=0x0000c05e resp=AHB_RESP_OKAY waits=2 wdata=0x54b11614
# UVM_INFO ../src/mst/ahb_master_monitor.sv(117) @ 645000: uvm_test_top.env.master_agent.mon [ahb_master_monitor] Beat[0] addr=0x0000c05e wdata=0x54b11614 resp=AHB_RESP_OKAY
# UVM_INFO ../src/mst/ahb_master_driver.sv(332) @ 685000: uvm_test_top.env.master_agent.drv [ahb_master_driver] Beat[1/4] addr=0x0000c05f trans=AHB_TRANS_SEQ resp=AHB_RESP_OKAY wdata=0xe8a5eb58
# UVM_INFO ../src/slv/ahb_slave_driver.sv(184) @ 685000: uvm_test_top.env.slave_agent.drv [ahb_slave_driver] Beat AHB_WRITE addr=0x0000c05f resp=AHB_RESP_OKAY waits=1 wdata=0xe8a5eb58
# UVM_INFO ../src/mst/ahb_master_monitor.sv(117) @ 685000: uvm_test_top.env.master_agent.mon [ahb_master_monitor] Beat[1] addr=0x0000c05f wdata=0xe8a5eb58 resp=AHB_RESP_OKAY
# UVM_INFO ../src/mst/ahb_master_driver.sv(332) @ 705000: uvm_test_top.env.master_agent.drv [ahb_master_driver] Beat[2/4] addr=0x0000c060 trans=AHB_TRANS_SEQ resp=AHB_RESP_OKAY wdata=0x16e859d5
# UVM_INFO ../src/slv/ahb_slave_driver.sv(184) @ 705000: uvm_test_top.env.slave_agent.drv [ahb_slave_driver] Beat AHB_WRITE addr=0x0000c060 resp=AHB_RESP_OKAY waits=0 wdata=0x16e859d5
# UVM_INFO ../src/mst/ahb_master_monitor.sv(117) @ 705000: uvm_test_top.env.master_agent.mon [ahb_master_monitor] Beat[2] addr=0x0000c060 wdata=0x16e859d5 resp=AHB_RESP_OKAY
# UVM_INFO ../src/mst/ahb_master_driver.sv(332) @ 745000: uvm_test_top.env.master_agent.drv [ahb_master_driver] Beat[3/4] addr=0x0000c061 trans=AHB_TRANS_SEQ resp=AHB_RESP_OKAY wdata=0x52f80bd5
# UVM_INFO ../src/mst/ahb_master_driver.sv(376) @ 745000: uvm_test_top.env.master_agent.drv [ahb_master_driver] Transaction complete: AHB_WRITE 0x0000c05e, 4 beats, burst=AHB_BURST_INCR4
# UVM_INFO ../src/slv/ahb_slave_driver.sv(184) @ 745000: uvm_test_top.env.slave_agent.drv [ahb_slave_driver] Beat AHB_WRITE addr=0x0000c061 resp=AHB_RESP_OKAY waits=0 wdata=0x52f80bd5
# UVM_INFO ../src/mst/ahb_master_monitor.sv(117) @ 745000: uvm_test_top.env.master_agent.mon [ahb_master_monitor] Beat[3] addr=0x0000c061 wdata=0x52f80bd5 resp=AHB_RESP_OKAY
# UVM_INFO ../src/mst/ahb_master_monitor.sv(220) @ 745000: uvm_test_top.env.master_agent.mon [ahb_master_monitor] Observed [AHB_WRITE]: HADDR=0x0000c05e, HBURST=AHB_BURST_INCR4, HSIZE=AHB_SIZE_8B, 4 beats
# UVM_INFO ../src/env/ahb_coverage.sv(126) @ 745000: uvm_test_top.env.master_cov [ahb_coverage] Sampled [AHB_WRITE]: burst=AHB_BURST_INCR4 size=AHB_SIZE_8B beats=4 error=0
# UVM_INFO ../src/slv/ahb_slave_monitor.sv(197) @ 745000: uvm_test_top.env.slave_agent.mon [ahb_slave_monitor] Observed [AHB_WRITE]: HADDR=0x0000c05e, HBURST=AHB_BURST_INCR4, HSIZE=AHB_SIZE_8B, 4 beats
# UVM_INFO ../src/env/ahb_scoreboard.sv(104) @ 745000: uvm_test_top.env.scb [ahb_scoreboard] MATCH #3: [AHB_WRITE] HADDR=0x0000c05e AHB_BURST_INCR4 4 beats
# UVM_INFO ../src/env/ahb_coverage.sv(126) @ 745000: uvm_test_top.env.slave_cov [ahb_coverage] Sampled [AHB_WRITE]: burst=AHB_BURST_INCR4 size=AHB_SIZE_8B beats=4 error=0
# UVM_INFO ../src/mst/ahb_master_driver.sv(85) @ 745000: uvm_test_top.env.master_agent.drv [ahb_master_driver] Queueing [AHB_READ]: HADDR=0x0000c05e, HBURST=AHB_BURST_INCR4, HSIZE=AHB_SIZE_8B, 4 beats
# UVM_INFO ../src/mst/ahb_master_driver.sv(127) @ 745000: uvm_test_top.env.master_agent.drv [ahb_master_driver] Driving [AHB_READ]: HADDR=0x0000c05e, HBURST=AHB_BURST_INCR4, HSIZE=AHB_SIZE_8B, 4 beats               
# UVM_INFO ../src/mst/ahb_master_driver.sv(332) @ 785000: uvm_test_top.env.master_agent.drv [ahb_master_driver] Beat[0/4] addr=0x0000c05e trans=AHB_TRANS_NONSEQ resp=AHB_RESP_OKAY rdata=0x54b11614
# UVM_INFO ../src/slv/ahb_slave_driver.sv(184) @ 785000: uvm_test_top.env.slave_agent.drv [ahb_slave_driver] Beat AHB_READ addr=0x0000c05e resp=AHB_RESP_OKAY waits=1 rdata=0x54b11614
# UVM_INFO ../src/mst/ahb_master_monitor.sv(117) @ 785000: uvm_test_top.env.master_agent.mon [ahb_master_monitor] Beat[0] addr=0x0000c05e rdata=0x54b11614 resp=AHB_RESP_OKAY
# UVM_INFO ../src/mst/ahb_master_driver.sv(332) @ 795000: uvm_test_top.env.master_agent.drv [ahb_master_driver] Beat[1/4] addr=0x0000c05f trans=AHB_TRANS_SEQ resp=AHB_RESP_OKAY rdata=0xe8a5eb58
# UVM_INFO ../src/slv/ahb_slave_driver.sv(184) @ 795000: uvm_test_top.env.slave_agent.drv [ahb_slave_driver] Beat AHB_READ addr=0x0000c05f resp=AHB_RESP_OKAY waits=0 rdata=0xe8a5eb58
# UVM_INFO ../src/mst/ahb_master_monitor.sv(117) @ 795000: uvm_test_top.env.master_agent.mon [ahb_master_monitor] Beat[1] addr=0x0000c05f rdata=0xe8a5eb58 resp=AHB_RESP_OKAY
# UVM_INFO ../src/mst/ahb_master_driver.sv(332) @ 815000: uvm_test_top.env.master_agent.drv [ahb_master_driver] Beat[2/4] addr=0x0000c060 trans=AHB_TRANS_SEQ resp=AHB_RESP_OKAY rdata=0x16e859d5
# UVM_INFO ../src/slv/ahb_slave_driver.sv(184) @ 815000: uvm_test_top.env.slave_agent.drv [ahb_slave_driver] Beat AHB_READ addr=0x0000c060 resp=AHB_RESP_OKAY waits=1 rdata=0x16e859d5
# UVM_INFO ../src/mst/ahb_master_monitor.sv(117) @ 815000: uvm_test_top.env.master_agent.mon [ahb_master_monitor] Beat[2] addr=0x0000c060 rdata=0x16e859d5 resp=AHB_RESP_OKAY
# UVM_INFO ../src/mst/ahb_master_driver.sv(332) @ 835000: uvm_test_top.env.master_agent.drv [ahb_master_driver] Beat[3/4] addr=0x0000c061 trans=AHB_TRANS_SEQ resp=AHB_RESP_OKAY rdata=0x52f80bd5
# UVM_INFO ../src/mst/ahb_master_driver.sv(376) @ 835000: uvm_test_top.env.master_agent.drv [ahb_master_driver] Transaction complete: AHB_READ 0x0000c05e, 4 beats, burst=AHB_BURST_INCR4
# UVM_INFO ../src/slv/ahb_slave_driver.sv(184) @ 835000: uvm_test_top.env.slave_agent.drv [ahb_slave_driver] Beat AHB_READ addr=0x0000c061 resp=AHB_RESP_OKAY waits=1 rdata=0x52f80bd5
# UVM_INFO ../src/slv/ahb_slave_monitor.sv(197) @ 835000: uvm_test_top.env.slave_agent.mon [ahb_slave_monitor] Observed [AHB_READ]: HADDR=0x0000c05e, HBURST=AHB_BURST_INCR4, HSIZE=AHB_SIZE_8B, 4 beats
# UVM_INFO ../src/env/ahb_coverage.sv(126) @ 835000: uvm_test_top.env.slave_cov [ahb_coverage] Sampled [AHB_READ]: burst=AHB_BURST_INCR4 size=AHB_SIZE_8B beats=4 error=0
# UVM_INFO ../src/mst/ahb_master_monitor.sv(117) @ 835000: uvm_test_top.env.master_agent.mon [ahb_master_monitor] Beat[3] addr=0x0000c061 rdata=0x52f80bd5 resp=AHB_RESP_OKAY
# UVM_INFO ../src/mst/ahb_master_monitor.sv(220) @ 835000: uvm_test_top.env.master_agent.mon [ahb_master_monitor] Observed [AHB_READ]: HADDR=0x0000c05e, HBURST=AHB_BURST_INCR4, HSIZE=AHB_SIZE_8B, 4 beats
# UVM_INFO ../src/env/ahb_coverage.sv(126) @ 835000: uvm_test_top.env.master_cov [ahb_coverage] Sampled [AHB_READ]: burst=AHB_BURST_INCR4 size=AHB_SIZE_8B beats=4 error=0
# UVM_INFO ../src/env/ahb_scoreboard.sv(104) @ 835000: uvm_test_top.env.scb [ahb_scoreboard] MATCH #4: [AHB_READ] HADDR=0x0000c05e AHB_BURST_INCR4 4 beats
# UVM_INFO ../src/mst_seq/ahb_base_seq.sv(157) @ 835000: uvm_test_top.env.master_agent.sqr@@seq [ahb_busy_seq] AHB_BURST_INCR4 AHB_SIZE_8B beat 0 @0x0000c05e ok
# UVM_INFO ../src/mst_seq/ahb_base_seq.sv(157) @ 835000: uvm_test_top.env.master_agent.sqr@@seq [ahb_busy_seq] AHB_BURST_INCR4 AHB_SIZE_8B beat 1 @0x0000c05f ok
# UVM_INFO ../src/mst_seq/ahb_base_seq.sv(157) @ 835000: uvm_test_top.env.master_agent.sqr@@seq [ahb_busy_seq] AHB_BURST_INCR4 AHB_SIZE_8B beat 2 @0x0000c060 ok
# UVM_INFO ../src/mst_seq/ahb_base_seq.sv(157) @ 835000: uvm_test_top.env.master_agent.sqr@@seq [ahb_busy_seq] AHB_BURST_INCR4 AHB_SIZE_8B beat 3 @0x0000c061 ok
# UVM_INFO ../src/mst_seq/ahb_busy_seq.sv(105) @ 835000: uvm_test_top.env.master_agent.sqr@@seq [ahb_busy_seq] AHB_BURST_WRAP8 AHB_SIZE_32B @0x0000c098, 8 beats, retract=1
# UVM_INFO ../src/mst/ahb_master_driver.sv(85) @ 835000: uvm_test_top.env.master_agent.drv [ahb_master_driver] Queueing [AHB_WRITE]: HADDR=0x0000c098, HBURST=AHB_BURST_WRAP8, HSIZE=AHB_SIZE_32B, 8 beats
# UVM_INFO ../src/mst/ahb_master_driver.sv(127) @ 835000: uvm_test_top.env.master_agent.drv [ahb_master_driver] Driving [AHB_WRITE]: HADDR=0x0000c098, HBURST=AHB_BURST_WRAP8, HSIZE=AHB_SIZE_32B, 8 beats               
# UVM_INFO ../src/mst/ahb_master_driver.sv(332) @ 885000: uvm_test_top.env.master_agent.drv [ahb_master_driver] Beat[0/8] addr=0x0000c098 trans=AHB_TRANS_NONSEQ resp=AHB_RESP_OKAY wdata=0x564ac58c
# UVM_INFO ../src/slv/ahb_slave_driver.sv(184) @ 885000: uvm_test_top.env.slave_agent.drv [ahb_slave_driver] Beat AHB_WRITE addr=0x0000c098 resp=AHB_RESP_OKAY waits=2 wdata=0x564ac58c
# UVM_INFO ../src/mst/ahb_master_monitor.sv(117) @ 885000: uvm_test_top.env.master_agent.mon [ahb_master_monitor] Beat[0] addr=0x0000c098 wdata=0x564ac58c resp=AHB_RESP_OKAY
# UVM_INFO ../src/mst/ahb_master_driver.sv(332) @ 905000: uvm_test_top.env.master_agent.drv [ahb_master_driver] Beat[1/8] addr=0x0000c09c trans=AHB_TRANS_SEQ resp=AHB_RESP_OKAY wdata=0x9ba950e6
# UVM_INFO ../src/slv/ahb_slave_driver.sv(184) @ 905000: uvm_test_top.env.slave_agent.drv [ahb_slave_driver] Beat AHB_WRITE addr=0x0000c09c resp=AHB_RESP_OKAY waits=1 wdata=0x9ba950e6
# UVM_INFO ../src/mst/ahb_master_monitor.sv(117) @ 905000: uvm_test_top.env.master_agent.mon [ahb_master_monitor] Beat[1] addr=0x0000c09c wdata=0x9ba950e6 resp=AHB_RESP_OKAY
# UVM_INFO ../src/mst/ahb_master_driver.sv(332) @ 935000: uvm_test_top.env.master_agent.drv [ahb_master_driver] Beat[2/8] addr=0x0000c080 trans=AHB_TRANS_SEQ resp=AHB_RESP_OKAY wdata=0x01610c3e
# UVM_INFO ../src/slv/ahb_slave_driver.sv(184) @ 935000: uvm_test_top.env.slave_agent.drv [ahb_slave_driver] Beat AHB_WRITE addr=0x0000c080 resp=AHB_RESP_OKAY waits=2 wdata=0x01610c3e
# UVM_INFO ../src/mst/ahb_master_monitor.sv(117) @ 935000: uvm_test_top.env.master_agent.mon [ahb_master_monitor] Beat[2] addr=0x0000c080 wdata=0x01610c3e resp=AHB_RESP_OKAY
# UVM_INFO ../src/mst/ahb_master_driver.sv(332) @ 965000: uvm_test_top.env.master_agent.drv [ahb_master_driver] Beat[3/8] addr=0x0000c084 trans=AHB_TRANS_SEQ resp=AHB_RESP_OKAY wdata=0x9fbbe444
# UVM_INFO ../src/slv/ahb_slave_driver.sv(184) @ 965000: uvm_test_top.env.slave_agent.drv [ahb_slave_driver] Beat AHB_WRITE addr=0x0000c084 resp=AHB_RESP_OKAY waits=2 wdata=0x9fbbe444
# UVM_INFO ../src/mst/ahb_master_monitor.sv(117) @ 965000: uvm_test_top.env.master_agent.mon [ahb_master_monitor] Beat[3] addr=0x0000c084 wdata=0x9fbbe444 resp=AHB_RESP_OKAY
# UVM_INFO ../src/mst/ahb_master_driver.sv(332) @ 975000: uvm_test_top.env.master_agent.drv [ahb_master_driver] Beat[4/8] addr=0x0000c088 trans=AHB_TRANS_SEQ resp=AHB_RESP_OKAY wdata=0xa0110438
# UVM_INFO ../src/slv/ahb_slave_driver.sv(184) @ 975000: uvm_test_top.env.slave_agent.drv [ahb_slave_driver] Beat AHB_WRITE addr=0x0000c088 resp=AHB_RESP_OKAY waits=0 wdata=0xa0110438
# UVM_INFO ../src/mst/ahb_master_monitor.sv(117) @ 975000: uvm_test_top.env.master_agent.mon [ahb_master_monitor] Beat[4] addr=0x0000c088 wdata=0xa0110438 resp=AHB_RESP_OKAY
# UVM_INFO ../src/mst/ahb_master_driver.sv(332) @ 1005000: uvm_test_top.env.master_agent.drv [ahb_master_driver] Beat[5/8] addr=0x0000c08c trans=AHB_TRANS_SEQ resp=AHB_RESP_OKAY wdata=0x31a8463a
# UVM_INFO ../src/slv/ahb_slave_driver.sv(184) @ 1005000: uvm_test_top.env.slave_agent.drv [ahb_slave_driver] Beat AHB_WRITE addr=0x0000c08c resp=AHB_RESP_OKAY waits=1 wdata=0x31a8463a
# UVM_INFO ../src/mst/ahb_master_monitor.sv(117) @ 1005000: uvm_test_top.env.master_agent.mon [ahb_master_monitor] Beat[5] addr=0x0000c08c wdata=0x31a8463a resp=AHB_RESP_OKAY
# UVM_INFO ../src/mst/ahb_master_driver.sv(332) @ 1025000: uvm_test_top.env.master_agent.drv [ahb_master_driver] Beat[6/8] addr=0x0000c090 trans=AHB_TRANS_SEQ resp=AHB_RESP_OKAY wdata=0x3edcf777
# UVM_INFO ../src/slv/ahb_slave_driver.sv(184) @ 1025000: uvm_test_top.env.slave_agent.drv [ahb_slave_driver] Beat AHB_WRITE addr=0x0000c090 resp=AHB_RESP_OKAY waits=1 wdata=0x3edcf777
# UVM_INFO ../src/mst/ahb_master_monitor.sv(117) @ 1025000: uvm_test_top.env.master_agent.mon [ahb_master_monitor] Beat[6] addr=0x0000c090 wdata=0x3edcf777 resp=AHB_RESP_OKAY
# UVM_INFO ../src/mst/ahb_master_driver.sv(332) @ 1035000: uvm_test_top.env.master_agent.drv [ahb_master_driver] Beat[7/8] addr=0x0000c094 trans=AHB_TRANS_SEQ resp=AHB_RESP_OKAY wdata=0x4b53246e
# UVM_INFO ../src/mst/ahb_master_driver.sv(376) @ 1035000: uvm_test_top.env.master_agent.drv [ahb_master_driver] Transaction complete: AHB_WRITE 0x0000c098, 8 beats, burst=AHB_BURST_WRAP8
# UVM_INFO ../src/slv/ahb_slave_driver.sv(184) @ 1035000: uvm_test_top.env.slave_agent.drv [ahb_slave_driver] Beat AHB_WRITE addr=0x0000c094 resp=AHB_RESP_OKAY waits=0 wdata=0x4b53246e
# UVM_INFO ../src/slv/ahb_slave_monitor.sv(197) @ 1035000: uvm_test_top.env.slave_agent.mon [ahb_slave_monitor] Observed [AHB_WRITE]: HADDR=0x0000c098, HBURST=AHB_BURST_WRAP8, HSIZE=AHB_SIZE_32B, 8 beats
# UVM_INFO ../src/env/ahb_coverage.sv(126) @ 1035000: uvm_test_top.env.slave_cov [ahb_coverage] Sampled [AHB_WRITE]: burst=AHB_BURST_WRAP8 size=AHB_SIZE_32B beats=8 error=0
# UVM_INFO ../src/mst/ahb_master_monitor.sv(117) @ 1035000: uvm_test_top.env.master_agent.mon [ahb_master_monitor] Beat[7] addr=0x0000c094 wdata=0x4b53246e resp=AHB_RESP_OKAY
# UVM_INFO ../src/mst/ahb_master_monitor.sv(220) @ 1035000: uvm_test_top.env.master_agent.mon [ahb_master_monitor] Observed [AHB_WRITE]: HADDR=0x0000c098, HBURST=AHB_BURST_WRAP8, HSIZE=AHB_SIZE_32B, 8 beats
# UVM_INFO ../src/env/ahb_coverage.sv(126) @ 1035000: uvm_test_top.env.master_cov [ahb_coverage] Sampled [AHB_WRITE]: burst=AHB_BURST_WRAP8 size=AHB_SIZE_32B beats=8 error=0
# UVM_INFO ../src/env/ahb_scoreboard.sv(104) @ 1035000: uvm_test_top.env.scb [ahb_scoreboard] MATCH #5: [AHB_WRITE] HADDR=0x0000c098 AHB_BURST_WRAP8 8 beats
# UVM_INFO ../src/mst/ahb_master_driver.sv(85) @ 1035000: uvm_test_top.env.master_agent.drv [ahb_master_driver] Queueing [AHB_READ]: HADDR=0x0000c098, HBURST=AHB_BURST_WRAP8, HSIZE=AHB_SIZE_32B, 8 beats
# UVM_INFO ../src/mst/ahb_master_driver.sv(127) @ 1035000: uvm_test_top.env.master_agent.drv [ahb_master_driver] Driving [AHB_READ]: HADDR=0x0000c098, HBURST=AHB_BURST_WRAP8, HSIZE=AHB_SIZE_32B, 8 beats               
# UVM_INFO ../src/mst/ahb_master_driver.sv(332) @ 1085000: uvm_test_top.env.master_agent.drv [ahb_master_driver] Beat[0/8] addr=0x0000c098 trans=AHB_TRANS_NONSEQ resp=AHB_RESP_OKAY rdata=0x564ac58c
# UVM_INFO ../src/slv/ahb_slave_driver.sv(184) @ 1085000: uvm_test_top.env.slave_agent.drv [ahb_slave_driver] Beat AHB_READ addr=0x0000c098 resp=AHB_RESP_OKAY waits=2 rdata=0x564ac58c
# UVM_INFO ../src/mst/ahb_master_monitor.sv(117) @ 1085000: uvm_test_top.env.master_agent.mon [ahb_master_monitor] Beat[0] addr=0x0000c098 rdata=0x564ac58c resp=AHB_RESP_OKAY
# UVM_INFO ../src/mst/ahb_master_driver.sv(332) @ 1095000: uvm_test_top.env.master_agent.drv [ahb_master_driver] Beat[1/8] addr=0x0000c09c trans=AHB_TRANS_SEQ resp=AHB_RESP_OKAY rdata=0x9ba950e6
# UVM_INFO ../src/slv/ahb_slave_driver.sv(184) @ 1095000: uvm_test_top.env.slave_agent.drv [ahb_slave_driver] Beat AHB_READ addr=0x0000c09c resp=AHB_RESP_OKAY waits=0 rdata=0x9ba950e6
# UVM_INFO ../src/mst/ahb_master_monitor.sv(117) @ 1095000: uvm_test_top.env.master_agent.mon [ahb_master_monitor] Beat[1] addr=0x0000c09c rdata=0x9ba950e6 resp=AHB_RESP_OKAY
# UVM_INFO ../src/mst/ahb_master_driver.sv(332) @ 1125000: uvm_test_top.env.master_agent.drv [ahb_master_driver] Beat[2/8] addr=0x0000c080 trans=AHB_TRANS_SEQ resp=AHB_RESP_OKAY rdata=0x01610c3e
# UVM_INFO ../src/slv/ahb_slave_driver.sv(184) @ 1125000: uvm_test_top.env.slave_agent.drv [ahb_slave_driver] Beat AHB_READ addr=0x0000c080 resp=AHB_RESP_OKAY waits=2 rdata=0x01610c3e
# UVM_INFO ../src/mst/ahb_master_monitor.sv(117) @ 1125000: uvm_test_top.env.master_agent.mon [ahb_master_monitor] Beat[2] addr=0x0000c080 rdata=0x01610c3e resp=AHB_RESP_OKAY
# UVM_INFO ../src/mst/ahb_master_driver.sv(332) @ 1135000: uvm_test_top.env.master_agent.drv [ahb_master_driver] Beat[3/8] addr=0x0000c084 trans=AHB_TRANS_SEQ resp=AHB_RESP_OKAY rdata=0x9fbbe444
# UVM_INFO ../src/slv/ahb_slave_driver.sv(184) @ 1135000: uvm_test_top.env.slave_agent.drv [ahb_slave_driver] Beat AHB_READ addr=0x0000c084 resp=AHB_RESP_OKAY waits=0 rdata=0x9fbbe444
# UVM_INFO ../src/mst/ahb_master_monitor.sv(117) @ 1135000: uvm_test_top.env.master_agent.mon [ahb_master_monitor] Beat[3] addr=0x0000c084 rdata=0x9fbbe444 resp=AHB_RESP_OKAY
# UVM_INFO ../src/mst/ahb_master_driver.sv(332) @ 1155000: uvm_test_top.env.master_agent.drv [ahb_master_driver] Beat[4/8] addr=0x0000c088 trans=AHB_TRANS_SEQ resp=AHB_RESP_OKAY rdata=0xa0110438
# UVM_INFO ../src/slv/ahb_slave_driver.sv(184) @ 1155000: uvm_test_top.env.slave_agent.drv [ahb_slave_driver] Beat AHB_READ addr=0x0000c088 resp=AHB_RESP_OKAY waits=1 rdata=0xa0110438
# UVM_INFO ../src/mst/ahb_master_monitor.sv(117) @ 1155000: uvm_test_top.env.master_agent.mon [ahb_master_monitor] Beat[4] addr=0x0000c088 rdata=0xa0110438 resp=AHB_RESP_OKAY
# UVM_INFO ../src/mst/ahb_master_driver.sv(332) @ 1185000: uvm_test_top.env.master_agent.drv [ahb_master_driver] Beat[5/8] addr=0x0000c08c trans=AHB_TRANS_SEQ resp=AHB_RESP_OKAY rdata=0x31a8463a
# UVM_INFO ../src/slv/ahb_slave_driver.sv(184) @ 1185000: uvm_test_top.env.slave_agent.drv [ahb_slave_driver] Beat AHB_READ addr=0x0000c08c resp=AHB_RESP_OKAY waits=2 rdata=0x31a8463a
# UVM_INFO ../src/mst/ahb_master_monitor.sv(117) @ 1185000: uvm_test_top.env.master_agent.mon [ahb_master_monitor] Beat[5] addr=0x0000c08c rdata=0x31a8463a resp=AHB_RESP_OKAY
# UVM_INFO ../src/mst/ahb_master_driver.sv(332) @ 1215000: uvm_test_top.env.master_agent.drv [ahb_master_driver] Beat[6/8] addr=0x0000c090 trans=AHB_TRANS_SEQ resp=AHB_RESP_OKAY rdata=0x3edcf777
# UVM_INFO ../src/slv/ahb_slave_driver.sv(184) @ 1215000: uvm_test_top.env.slave_agent.drv [ahb_slave_driver] Beat AHB_READ addr=0x0000c090 resp=AHB_RESP_OKAY waits=2 rdata=0x3edcf777
# UVM_INFO ../src/mst/ahb_master_monitor.sv(117) @ 1215000: uvm_test_top.env.master_agent.mon [ahb_master_monitor] Beat[6] addr=0x0000c090 rdata=0x3edcf777 resp=AHB_RESP_OKAY
# UVM_INFO ../src/mst/ahb_master_driver.sv(332) @ 1225000: uvm_test_top.env.master_agent.drv [ahb_master_driver] Beat[7/8] addr=0x0000c094 trans=AHB_TRANS_SEQ resp=AHB_RESP_OKAY rdata=0x4b53246e
# UVM_INFO ../src/mst/ahb_master_driver.sv(376) @ 1225000: uvm_test_top.env.master_agent.drv [ahb_master_driver] Transaction complete: AHB_READ 0x0000c098, 8 beats, burst=AHB_BURST_WRAP8
# UVM_INFO ../src/slv/ahb_slave_driver.sv(184) @ 1225000: uvm_test_top.env.slave_agent.drv [ahb_slave_driver] Beat AHB_READ addr=0x0000c094 resp=AHB_RESP_OKAY waits=0 rdata=0x4b53246e
# UVM_INFO ../src/mst/ahb_master_monitor.sv(117) @ 1225000: uvm_test_top.env.master_agent.mon [ahb_master_monitor] Beat[7] addr=0x0000c094 rdata=0x4b53246e resp=AHB_RESP_OKAY
# UVM_INFO ../src/mst/ahb_master_monitor.sv(220) @ 1225000: uvm_test_top.env.master_agent.mon [ahb_master_monitor] Observed [AHB_READ]: HADDR=0x0000c098, HBURST=AHB_BURST_WRAP8, HSIZE=AHB_SIZE_32B, 8 beats
# UVM_INFO ../src/env/ahb_coverage.sv(126) @ 1225000: uvm_test_top.env.master_cov [ahb_coverage] Sampled [AHB_READ]: burst=AHB_BURST_WRAP8 size=AHB_SIZE_32B beats=8 error=0
# UVM_INFO ../src/slv/ahb_slave_monitor.sv(197) @ 1225000: uvm_test_top.env.slave_agent.mon [ahb_slave_monitor] Observed [AHB_READ]: HADDR=0x0000c098, HBURST=AHB_BURST_WRAP8, HSIZE=AHB_SIZE_32B, 8 beats
# UVM_INFO ../src/env/ahb_scoreboard.sv(104) @ 1225000: uvm_test_top.env.scb [ahb_scoreboard] MATCH #6: [AHB_READ] HADDR=0x0000c098 AHB_BURST_WRAP8 8 beats
# UVM_INFO ../src/env/ahb_coverage.sv(126) @ 1225000: uvm_test_top.env.slave_cov [ahb_coverage] Sampled [AHB_READ]: burst=AHB_BURST_WRAP8 size=AHB_SIZE_32B beats=8 error=0
# UVM_INFO ../src/mst_seq/ahb_base_seq.sv(157) @ 1225000: uvm_test_top.env.master_agent.sqr@@seq [ahb_busy_seq] AHB_BURST_WRAP8 AHB_SIZE_32B beat 0 @0x0000c098 ok
# UVM_INFO ../src/mst_seq/ahb_base_seq.sv(157) @ 1225000: uvm_test_top.env.master_agent.sqr@@seq [ahb_busy_seq] AHB_BURST_WRAP8 AHB_SIZE_32B beat 1 @0x0000c09c ok
# UVM_INFO ../src/mst_seq/ahb_base_seq.sv(157) @ 1225000: uvm_test_top.env.master_agent.sqr@@seq [ahb_busy_seq] AHB_BURST_WRAP8 AHB_SIZE_32B beat 2 @0x0000c080 ok
# UVM_INFO ../src/mst_seq/ahb_base_seq.sv(157) @ 1225000: uvm_test_top.env.master_agent.sqr@@seq [ahb_busy_seq] AHB_BURST_WRAP8 AHB_SIZE_32B beat 3 @0x0000c084 ok
# UVM_INFO ../src/mst_seq/ahb_base_seq.sv(157) @ 1225000: uvm_test_top.env.master_agent.sqr@@seq [ahb_busy_seq] AHB_BURST_WRAP8 AHB_SIZE_32B beat 4 @0x0000c088 ok
# UVM_INFO ../src/mst_seq/ahb_base_seq.sv(157) @ 1225000: uvm_test_top.env.master_agent.sqr@@seq [ahb_busy_seq] AHB_BURST_WRAP8 AHB_SIZE_32B beat 5 @0x0000c08c ok
# UVM_INFO ../src/mst_seq/ahb_base_seq.sv(157) @ 1225000: uvm_test_top.env.master_agent.sqr@@seq [ahb_busy_seq] AHB_BURST_WRAP8 AHB_SIZE_32B beat 6 @0x0000c090 ok
# UVM_INFO ../src/mst_seq/ahb_base_seq.sv(157) @ 1225000: uvm_test_top.env.master_agent.sqr@@seq [ahb_busy_seq] AHB_BURST_WRAP8 AHB_SIZE_32B beat 7 @0x0000c094 ok
# UVM_INFO ../src/mst_seq/ahb_busy_seq.sv(105) @ 1225000: uvm_test_top.env.master_agent.sqr@@seq [ahb_busy_seq] AHB_BURST_INCR AHB_SIZE_8B @0x0000c0d2, 12 beats, retract=1
# UVM_INFO ../src/mst/ahb_master_driver.sv(85) @ 1225000: uvm_test_top.env.master_agent.drv [ahb_master_driver] Queueing [AHB_WRITE]: HADDR=0x0000c0d2, HBURST=AHB_BURST_INCR, HSIZE=AHB_SIZE_8B, 12 beats
# UVM_INFO ../src/mst/ahb_master_driver.sv(127) @ 1225000: uvm_test_top.env.master_agent.drv [ahb_master_driver] Driving [AHB_WRITE]: HADDR=0x0000c0d2, HBURST=AHB_BURST_INCR, HSIZE=AHB_SIZE_8B, 12 beats               
# UVM_INFO ../src/mst/ahb_master_driver.sv(332) @ 1275000: uvm_test_top.env.master_agent.drv [ahb_master_driver] Beat[0/12] addr=0x0000c0d2 trans=AHB_TRANS_NONSEQ resp=AHB_RESP_OKAY wdata=0x88ae7872
# UVM_INFO ../src/slv/ahb_slave_driver.sv(184) @ 1275000: uvm_test_top.env.slave_agent.drv [ahb_slave_driver] Beat AHB_WRITE addr=0x0000c0d2 resp=AHB_RESP_OKAY waits=2 wdata=0x88ae7872
# UVM_INFO ../src/mst/ahb_master_monitor.sv(117) @ 1275000: uvm_test_top.env.master_agent.mon [ahb_master_monitor] Beat[0] addr=0x0000c0d2 wdata=0x88ae7872 resp=AHB_RESP_OKAY
# UVM_INFO ../src/mst/ahb_master_driver.sv(332) @ 1295000: uvm_test_top.env.master_agent.drv [ahb_master_driver] Beat[1/12] addr=0x0000c0d3 trans=AHB_TRANS_SEQ resp=AHB_RESP_OKAY wdata=0xdd9157ff
# UVM_INFO ../src/slv/ahb_slave_driver.sv(184) @ 1295000: uvm_test_top.env.slave_agent.drv [ahb_slave_driver] Beat AHB_WRITE addr=0x0000c0d3 resp=AHB_RESP_OKAY waits=1 wdata=0xdd9157ff
# UVM_INFO ../src/mst/ahb_master_monitor.sv(117) @ 1295000: uvm_test_top.env.master_agent.mon [ahb_master_monitor] Beat[1] addr=0x0000c0d3 wdata=0xdd9157ff resp=AHB_RESP_OKAY
# UVM_INFO ../src/mst/ahb_master_driver.sv(332) @ 1315000: uvm_test_top.env.master_agent.drv [ahb_master_driver] Beat[2/12] addr=0x0000c0d4 trans=AHB_TRANS_SEQ resp=AHB_RESP_OKAY wdata=0xa923d74e
# UVM_INFO ../src/slv/ahb_slave_driver.sv(184) @ 1315000: uvm_test_top.env.slave_agent.drv [ahb_slave_driver] Beat AHB_WRITE addr=0x0000c0d4 resp=AHB_RESP_OKAY waits=1 wdata=0xa923d74e
# UVM_INFO ../src/mst/ahb_master_monitor.sv(117) @ 1315000: uvm_test_top.env.master_agent.mon [ahb_master_monitor] Beat[2] addr=0x0000c0d4 wdata=0xa923d74e resp=AHB_RESP_OKAY
# UVM_INFO ../src/mst/ahb_master_driver.sv(332) @ 1345000: uvm_test_top.env.master_agent.drv [ahb_master_driver] Beat[3/12] addr=0x0000c0d5 trans=AHB_TRANS_SEQ resp=AHB_RESP_OKAY wdata=0xf792320c
# UVM_INFO ../src/slv/ahb_slave_driver.sv(184) @ 1345000: uvm_test_top.env.slave_agent.drv [ahb_slave_driver] Beat AHB_WRITE addr=0x0000c0d5 resp=AHB_RESP_OKAY waits=2 wdata=0xf792320c
# UVM_INFO ../src/mst/ahb_master_monitor.sv(117) @ 1345000: uvm_test_top.env.master_agent.mon [ahb_master_monitor] Beat[3] addr=0x0000c0d5 wdata=0xf792320c resp=AHB_RESP_OKAY
# UVM_INFO ../src/mst/ahb_master_driver.sv(332) @ 1365000: uvm_test_top.env.master_agent.drv [ahb_master_driver] Beat[4/12] addr=0x0000c0d6 trans=AHB_TRANS_SEQ resp=AHB_RESP_OKAY wdata=0xfb5a5300
# UVM_INFO ../src/slv/ahb_slave_driver.sv(184) @ 1365000: uvm_test_top.env.slave_agent.drv [ahb_slave_driver] Beat AHB_WRITE addr=0x0000c0d6 resp=AHB_RESP_OKAY waits=1 wdata=0xfb5a5300
# UVM_INFO ../src/mst/ahb_master_monitor.sv(117) @ 1365000: uvm_test_top.env.master_agent.mon [ahb_master_monitor] Beat[4] addr=0x0000c0d6 wdata=0xfb5a5300 resp=AHB_RESP_OKAY
# UVM_INFO ../src/mst/ahb_master_driver.sv(332) @ 1385000: uvm_test_top.env.master_agent.drv [ahb_master_driver] Beat[5/12] addr=0x0000c0d7 trans=AHB_TRANS_SEQ resp=AHB_RESP_OKAY wdata=0x023059ae
# UVM_INFO ../src/slv/ahb_slave_driver.sv(184) @ 1385000: uvm_test_top.env.slave_agent.drv [ahb_slave_driver] Beat AHB_WRITE addr=0x0000c0d7 resp=AHB_RESP_OKAY waits=1 wdata=0x023059ae
# UVM_INFO ../src/mst/ahb_master_monitor.sv(117) @ 1385000: uvm_test_top.env.master_agent.mon [ahb_master_monitor] Beat[5] addr=0x0000c0d7 wdata=0x023059ae resp=AHB_RESP_OKAY
# UVM_INFO ../src/mst/ahb_master_driver.sv(332) @ 1415000: uvm_test_top.env.master_agent.drv [ahb_master_driver] Beat[6/12] addr=0x0000c0d8 trans=AHB_TRANS_SEQ resp=AHB_RESP_OKAY wdata=0x15d3bc79
# UVM_INFO ../src/slv/ahb_slave_driver.sv(184) @ 1415000: uvm_test_top.env.slave_agent.drv [ahb_slave_driver] Beat AHB_WRITE addr=0x0000c0d8 resp=AHB_RESP_OKAY waits=2 wdata=0x15d3bc79
# UVM_INFO ../src/mst/ahb_master_monitor.sv(117) @ 1415000: uvm_test_top.env.master_agent.mon [ahb_master_monitor] Beat[6] addr=0x0000c0d8 wdata=0x15d3bc79 resp=AHB_RESP_OKAY
# UVM_INFO ../src/mst/ahb_master_driver.sv(332) @ 1445000: uvm_test_top.env.master_agent.drv [ahb_master_driver] Beat[7/12] addr=0x0000c0d9 trans=AHB_TRANS_SEQ resp=AHB_RESP_OKAY wdata=0xc286c001
# UVM_INFO ../src/slv/ahb_slave_driver.sv(184) @ 1445000: uvm_test_top.env.slave_agent.drv [ahb_slave_driver] Beat AHB_WRITE addr=0x0000c0d9 resp=AHB_RESP_OKAY waits=2 wdata=0xc286c001
# UVM_INFO ../src/mst/ahb_master_monitor.sv(117) @ 1445000: uvm_test_top.env.master_agent.mon [ahb_master_monitor] Beat[7] addr=0x0000c0d9 wdata=0xc286c001 resp=AHB_RESP_OKAY
# UVM_INFO ../src/mst/ahb_master_driver.sv(332) @ 1475000: uvm_test_top.env.master_agent.drv [ahb_master_driver] Beat[8/12] addr=0x0000c0da trans=AHB_TRANS_SEQ resp=AHB_RESP_OKAY wdata=0xcbfa1cb2
# UVM_INFO ../src/slv/ahb_slave_driver.sv(184) @ 1475000: uvm_test_top.env.slave_agent.drv [ahb_slave_driver] Beat AHB_WRITE addr=0x0000c0da resp=AHB_RESP_OKAY waits=2 wdata=0xcbfa1cb2
# UVM_INFO ../src/mst/ahb_master_monitor.sv(117) @ 1475000: uvm_test_top.env.master_agent.mon [ahb_master_monitor] Beat[8] addr=0x0000c0da wdata=0xcbfa1cb2 resp=AHB_RESP_OKAY
# UVM_INFO ../src/mst/ahb_master_driver.sv(332) @ 1505000: uvm_test_top.env.master_agent.drv [ahb_master_driver] Beat[9/12] addr=0x0000c0db trans=AHB_TRANS_SEQ resp=AHB_RESP_OKAY wdata=0x6bdd006b
# UVM_INFO ../src/slv/ahb_slave_driver.sv(184) @ 1505000: uvm_test_top.env.slave_agent.drv [ahb_slave_driver] Beat AHB_WRITE addr=0x0000c0db resp=AHB_RESP_OKAY waits=2 wdata=0x6bdd006b
# UVM_INFO ../src/mst/ahb_master_monitor.sv(117) @ 1505000: uvm_test_top.env.master_agent.mon [ahb_master_monitor] Beat[9] addr=0x0000c0db wdata=0x6bdd006b resp=AHB_RESP_OKAY
# UVM_INFO ../src/mst/ahb_master_driver.sv(332) @ 1525000: uvm_test_top.env.master_agent.drv [ahb_master_driver] Beat[10/12] addr=0x0000c0dc trans=AHB_TRANS_SEQ resp=AHB_RESP_OKAY wdata=0xa0d94ded
# UVM_INFO ../src/slv/ahb_slave_driver.sv(184) @ 1525000: uvm_test_top.env.slave_agent.drv [ahb_slave_driver] Beat AHB_WRITE addr=0x0000c0dc resp=AHB_RESP_OKAY waits=1 wdata=0xa0d94ded
# UVM_INFO ../src/mst/ahb_master_monitor.sv(117) @ 1525000: uvm_test_top.env.master_agent.mon [ahb_master_monitor] Beat[10] addr=0x0000c0dc wdata=0xa0d94ded resp=AHB_RESP_OKAY
# UVM_INFO ../src/mst/ahb_master_driver.sv(332) @ 1555000: uvm_test_top.env.master_agent.drv [ahb_master_driver] Beat[11/12] addr=0x0000c0dd trans=AHB_TRANS_SEQ resp=AHB_RESP_OKAY wdata=0x412204a4
# UVM_INFO ../src/mst/ahb_master_driver.sv(376) @ 1555000: uvm_test_top.env.master_agent.drv [ahb_master_driver] Transaction complete: AHB_WRITE 0x0000c0d2, 12 beats, burst=AHB_BURST_INCR
# UVM_INFO ../src/slv/ahb_slave_driver.sv(184) @ 1555000: uvm_test_top.env.slave_agent.drv [ahb_slave_driver] Beat AHB_WRITE addr=0x0000c0dd resp=AHB_RESP_OKAY waits=2 wdata=0x412204a4
# UVM_INFO ../src/slv/ahb_slave_monitor.sv(197) @ 1555000: uvm_test_top.env.slave_agent.mon [ahb_slave_monitor] Observed [AHB_WRITE]: HADDR=0x0000c0d2, HBURST=AHB_BURST_INCR, HSIZE=AHB_SIZE_8B, 12 beats
# UVM_INFO ../src/env/ahb_coverage.sv(126) @ 1555000: uvm_test_top.env.slave_cov [ahb_coverage] Sampled [AHB_WRITE]: burst=AHB_BURST_INCR size=AHB_SIZE_8B beats=12 error=0
# UVM_INFO ../src/mst/ahb_master_monitor.sv(117) @ 1555000: uvm_test_top.env.master_agent.mon [ahb_master_monitor] Beat[11] addr=0x0000c0dd wdata=0x412204a4 resp=AHB_RESP_OKAY
# UVM_INFO ../src/mst/ahb_master_monitor.sv(220) @ 1555000: uvm_test_top.env.master_agent.mon [ahb_master_monitor] Observed [AHB_WRITE]: HADDR=0x0000c0d2, HBURST=AHB_BURST_INCR, HSIZE=AHB_SIZE_8B, 12 beats
# UVM_INFO ../src/env/ahb_coverage.sv(126) @ 1555000: uvm_test_top.env.master_cov [ahb_coverage] Sampled [AHB_WRITE]: burst=AHB_BURST_INCR size=AHB_SIZE_8B beats=12 error=0
# UVM_INFO ../src/env/ahb_scoreboard.sv(104) @ 1555000: uvm_test_top.env.scb [ahb_scoreboard] MATCH #7: [AHB_WRITE] HADDR=0x0000c0d2 AHB_BURST_INCR 12 beats
# UVM_INFO ../src/mst/ahb_master_driver.sv(85) @ 1555000: uvm_test_top.env.master_agent.drv [ahb_master_driver] Queueing [AHB_READ]: HADDR=0x0000c0d2, HBURST=AHB_BURST_INCR, HSIZE=AHB_SIZE_8B, 12 beats
# UVM_INFO ../src/mst/ahb_master_driver.sv(127) @ 1555000: uvm_test_top.env.master_agent.drv [ahb_master_driver] Driving [AHB_READ]: HADDR=0x0000c0d2, HBURST=AHB_BURST_INCR, HSIZE=AHB_SIZE_8B, 12 beats               
# UVM_INFO ../src/mst/ahb_master_driver.sv(332) @ 1585000: uvm_test_top.env.master_agent.drv [ahb_master_driver] Beat[0/12] addr=0x0000c0d2 trans=AHB_TRANS_NONSEQ resp=AHB_RESP_OKAY rdata=0x88ae7872
# UVM_INFO ../src/slv/ahb_slave_driver.sv(184) @ 1585000: uvm_test_top.env.slave_agent.drv [ahb_slave_driver] Beat AHB_READ addr=0x0000c0d2 resp=AHB_RESP_OKAY waits=0 rdata=0x88ae7872
# UVM_INFO ../src/mst/ahb_master_monitor.sv(117) @ 1585000: uvm_test_top.env.master_agent.mon [ahb_master_monitor] Beat[0] addr=0x0000c0d2 rdata=0x88ae7872 resp=AHB_RESP_OKAY
# UVM_INFO ../src/mst/ahb_master_driver.sv(332) @ 1595000: uvm_test_top.env.master_agent.drv [ahb_master_driver] Beat[1/12] addr=0x0000c0d3 trans=AHB_TRANS_SEQ resp=AHB_RESP_OKAY rdata=0xdd9157ff
# UVM_INFO ../src/slv/ahb_slave_driver.sv(184) @ 1595000: uvm_test_top.env.slave_agent.drv [ahb_slave_driver] Beat AHB_READ addr=0x0000c0d3 resp=AHB_RESP_OKAY waits=0 rdata=0xdd9157ff
# UVM_INFO ../src/mst/ahb_master_monitor.sv(117) @ 1595000: uvm_test_top.env.master_agent.mon [ahb_master_monitor] Beat[1] addr=0x0000c0d3 rdata=0xdd9157ff resp=AHB_RESP_OKAY
# UVM_INFO ../src/mst/ahb_master_driver.sv(332) @ 1615000: uvm_test_top.env.master_agent.drv [ahb_master_driver] Beat[2/12] addr=0x0000c0d4 trans=AHB_TRANS_SEQ resp=AHB_RESP_OKAY rdata=0xa923d74e
# UVM_INFO ../src/slv/ahb_slave_driver.sv(184) @ 1615000: uvm_test_top.env.slave_agent.drv [ahb_slave_driver] Beat AHB_READ addr=0x0000c0d4 resp=AHB_RESP_OKAY waits=1 rdata=0xa923d74e
# UVM_INFO ../src/mst/ahb_master_monitor.sv(117) @ 1615000: uvm_test_top.env.master_agent.mon [ahb_master_monitor] Beat[2] addr=0x0000c0d4 rdata=0xa923d74e resp=AHB_RESP_OKAY
# UVM_INFO ../src/mst/ahb_master_driver.sv(332) @ 1635000: uvm_test_top.env.master_agent.drv [ahb_master_driver] Beat[3/12] addr=0x0000c0d5 trans=AHB_TRANS_SEQ resp=AHB_RESP_OKAY rdata=0xf792320c
# UVM_INFO ../src/slv/ahb_slave_driver.sv(184) @ 1635000: uvm_test_top.env.slave_agent.drv [ahb_slave_driver] Beat AHB_READ addr=0x0000c0d5 resp=AHB_RESP_OKAY waits=1 rdata=0xf792320c
# UVM_INFO ../src/mst/ahb_master_monitor.sv(117) @ 1635000: uvm_test_top.env.master_agent.mon [ahb_master_monitor] Beat[3] addr=0x0000c0d5 rdata=0xf792320c resp=AHB_RESP_OKAY
# UVM_INFO ../src/mst/ahb_master_driver.sv(332) @ 1645000: uvm_test_top.env.master_agent.drv [ahb_master_driver] Beat[4/12] addr=0x0000c0d6 trans=AHB_TRANS_SEQ resp=AHB_RESP_OKAY rdata=0xfb5a5300
# UVM_INFO ../src/slv/ahb_slave_driver.sv(184) @ 1645000: uvm_test_top.env.slave_agent.drv [ahb_slave_driver] Beat AHB_READ addr=0x0000c0d6 resp=AHB_RESP_OKAY waits=0 rdata=0xfb5a5300
# UVM_INFO ../src/mst/ahb_master_monitor.sv(117) @ 1645000: uvm_test_top.env.master_agent.mon [ahb_master_monitor] Beat[4] addr=0x0000c0d6 rdata=0xfb5a5300 resp=AHB_RESP_OKAY
# UVM_INFO ../src/mst/ahb_master_driver.sv(332) @ 1665000: uvm_test_top.env.master_agent.drv [ahb_master_driver] Beat[5/12] addr=0x0000c0d7 trans=AHB_TRANS_SEQ resp=AHB_RESP_OKAY rdata=0x023059ae
# UVM_INFO ../src/slv/ahb_slave_driver.sv(184) @ 1665000: uvm_test_top.env.slave_agent.drv [ahb_slave_driver] Beat AHB_READ addr=0x0000c0d7 resp=AHB_RESP_OKAY waits=1 rdata=0x023059ae
# UVM_INFO ../src/mst/ahb_master_monitor.sv(117) @ 1665000: uvm_test_top.env.master_agent.mon [ahb_master_monitor] Beat[5] addr=0x0000c0d7 rdata=0x023059ae resp=AHB_RESP_OKAY
# UVM_INFO ../src/mst/ahb_master_driver.sv(332) @ 1695000: uvm_test_top.env.master_agent.drv [ahb_master_driver] Beat[6/12] addr=0x0000c0d8 trans=AHB_TRANS_SEQ resp=AHB_RESP_OKAY rdata=0x15d3bc79
# UVM_INFO ../src/slv/ahb_slave_driver.sv(184) @ 1695000: uvm_test_top.env.slave_agent.drv [ahb_slave_driver] Beat AHB_READ addr=0x0000c0d8 resp=AHB_RESP_OKAY waits=2 rdata=0x15d3bc79
# UVM_INFO ../src/mst/ahb_master_monitor.sv(117) @ 1695000: uvm_test_top.env.master_agent.mon [ahb_master_monitor] Beat[6] addr=0x0000c0d8 rdata=0x15d3bc79 resp=AHB_RESP_OKAY
# UVM_INFO ../src/mst/ahb_master_driver.sv(332) @ 1715000: uvm_test_top.env.master_agent.drv [ahb_master_driver] Beat[7/12] addr=0x0000c0d9 trans=AHB_TRANS_SEQ resp=AHB_RESP_OKAY rdata=0xc286c001
# UVM_INFO ../src/slv/ahb_slave_driver.sv(184) @ 1715000: uvm_test_top.env.slave_agent.drv [ahb_slave_driver] Beat AHB_READ addr=0x0000c0d9 resp=AHB_RESP_OKAY waits=1 rdata=0xc286c001
# UVM_INFO ../src/mst/ahb_master_monitor.sv(117) @ 1715000: uvm_test_top.env.master_agent.mon [ahb_master_monitor] Beat[7] addr=0x0000c0d9 rdata=0xc286c001 resp=AHB_RESP_OKAY
# UVM_INFO ../src/mst/ahb_master_driver.sv(332) @ 1745000: uvm_test_top.env.master_agent.drv [ahb_master_driver] Beat[8/12] addr=0x0000c0da trans=AHB_TRANS_SEQ resp=AHB_RESP_OKAY rdata=0xcbfa1cb2
# UVM_INFO ../src/slv/ahb_slave_driver.sv(184) @ 1745000: uvm_test_top.env.slave_agent.drv [ahb_slave_driver] Beat AHB_READ addr=0x0000c0da resp=AHB_RESP_OKAY waits=2 rdata=0xcbfa1cb2
# UVM_INFO ../src/mst/ahb_master_monitor.sv(117) @ 1745000: uvm_test_top.env.master_agent.mon [ahb_master_monitor] Beat[8] addr=0x0000c0da rdata=0xcbfa1cb2 resp=AHB_RESP_OKAY
# UVM_INFO ../src/mst/ahb_master_driver.sv(332) @ 1775000: uvm_test_top.env.master_agent.drv [ahb_master_driver] Beat[9/12] addr=0x0000c0db trans=AHB_TRANS_SEQ resp=AHB_RESP_OKAY rdata=0x6bdd006b
# UVM_INFO ../src/slv/ahb_slave_driver.sv(184) @ 1775000: uvm_test_top.env.slave_agent.drv [ahb_slave_driver] Beat AHB_READ addr=0x0000c0db resp=AHB_RESP_OKAY waits=2 rdata=0x6bdd006b
# UVM_INFO ../src/mst/ahb_master_monitor.sv(117) @ 1775000: uvm_test_top.env.master_agent.mon [ahb_master_monitor] Beat[9] addr=0x0000c0db rdata=0x6bdd006b resp=AHB_RESP_OKAY
# UVM_INFO ../src/mst/ahb_master_driver.sv(332) @ 1785000: uvm_test_top.env.master_agent.drv [ahb_master_driver] Beat[10/12] addr=0x0000c0dc trans=AHB_TRANS_SEQ resp=AHB_RESP_OKAY rdata=0xa0d94ded
# UVM_INFO ../src/slv/ahb_slave_driver.sv(184) @ 1785000: uvm_test_top.env.slave_agent.drv [ahb_slave_driver] Beat AHB_READ addr=0x0000c0dc resp=AHB_RESP_OKAY waits=0 rdata=0xa0d94ded
# UVM_INFO ../src/mst/ahb_master_monitor.sv(117) @ 1785000: uvm_test_top.env.master_agent.mon [ahb_master_monitor] Beat[10] addr=0x0000c0dc rdata=0xa0d94ded resp=AHB_RESP_OKAY
# UVM_INFO ../src/mst/ahb_master_driver.sv(332) @ 1805000: uvm_test_top.env.master_agent.drv [ahb_master_driver] Beat[11/12] addr=0x0000c0dd trans=AHB_TRANS_SEQ resp=AHB_RESP_OKAY rdata=0x412204a4
# UVM_INFO ../src/mst/ahb_master_driver.sv(376) @ 1805000: uvm_test_top.env.master_agent.drv [ahb_master_driver] Transaction complete: AHB_READ 0x0000c0d2, 12 beats, burst=AHB_BURST_INCR
# UVM_INFO ../src/slv/ahb_slave_driver.sv(184) @ 1805000: uvm_test_top.env.slave_agent.drv [ahb_slave_driver] Beat AHB_READ addr=0x0000c0dd resp=AHB_RESP_OKAY waits=1 rdata=0x412204a4
# UVM_INFO ../src/mst/ahb_master_monitor.sv(117) @ 1805000: uvm_test_top.env.master_agent.mon [ahb_master_monitor] Beat[11] addr=0x0000c0dd rdata=0x412204a4 resp=AHB_RESP_OKAY
# UVM_INFO ../src/mst/ahb_master_monitor.sv(220) @ 1805000: uvm_test_top.env.master_agent.mon [ahb_master_monitor] Observed [AHB_READ]: HADDR=0x0000c0d2, HBURST=AHB_BURST_INCR, HSIZE=AHB_SIZE_8B, 12 beats
# UVM_INFO ../src/env/ahb_coverage.sv(126) @ 1805000: uvm_test_top.env.master_cov [ahb_coverage] Sampled [AHB_READ]: burst=AHB_BURST_INCR size=AHB_SIZE_8B beats=12 error=0
# UVM_INFO ../src/slv/ahb_slave_monitor.sv(197) @ 1805000: uvm_test_top.env.slave_agent.mon [ahb_slave_monitor] Observed [AHB_READ]: HADDR=0x0000c0d2, HBURST=AHB_BURST_INCR, HSIZE=AHB_SIZE_8B, 12 beats
# UVM_INFO ../src/env/ahb_scoreboard.sv(104) @ 1805000: uvm_test_top.env.scb [ahb_scoreboard] MATCH #8: [AHB_READ] HADDR=0x0000c0d2 AHB_BURST_INCR 12 beats
# UVM_INFO ../src/env/ahb_coverage.sv(126) @ 1805000: uvm_test_top.env.slave_cov [ahb_coverage] Sampled [AHB_READ]: burst=AHB_BURST_INCR size=AHB_SIZE_8B beats=12 error=0
# UVM_INFO ../src/mst_seq/ahb_base_seq.sv(157) @ 1805000: uvm_test_top.env.master_agent.sqr@@seq [ahb_busy_seq] AHB_BURST_INCR AHB_SIZE_8B beat 0 @0x0000c0d2 ok
# UVM_INFO ../src/mst_seq/ahb_base_seq.sv(157) @ 1805000: uvm_test_top.env.master_agent.sqr@@seq [ahb_busy_seq] AHB_BURST_INCR AHB_SIZE_8B beat 1 @0x0000c0d3 ok
# UVM_INFO ../src/mst_seq/ahb_base_seq.sv(157) @ 1805000: uvm_test_top.env.master_agent.sqr@@seq [ahb_busy_seq] AHB_BURST_INCR AHB_SIZE_8B beat 2 @0x0000c0d4 ok
# UVM_INFO ../src/mst_seq/ahb_base_seq.sv(157) @ 1805000: uvm_test_top.env.master_agent.sqr@@seq [ahb_busy_seq] AHB_BURST_INCR AHB_SIZE_8B beat 3 @0x0000c0d5 ok
# UVM_INFO ../src/mst_seq/ahb_base_seq.sv(157) @ 1805000: uvm_test_top.env.master_agent.sqr@@seq [ahb_busy_seq] AHB_BURST_INCR AHB_SIZE_8B beat 4 @0x0000c0d6 ok
# UVM_INFO ../src/mst_seq/ahb_base_seq.sv(157) @ 1805000: uvm_test_top.env.master_agent.sqr@@seq [ahb_busy_seq] AHB_BURST_INCR AHB_SIZE_8B beat 5 @0x0000c0d7 ok
# UVM_INFO ../src/mst_seq/ahb_base_seq.sv(157) @ 1805000: uvm_test_top.env.master_agent.sqr@@seq [ahb_busy_seq] AHB_BURST_INCR AHB_SIZE_8B beat 6 @0x0000c0d8 ok
# UVM_INFO ../src/mst_seq/ahb_base_seq.sv(157) @ 1805000: uvm_test_top.env.master_agent.sqr@@seq [ahb_busy_seq] AHB_BURST_INCR AHB_SIZE_8B beat 7 @0x0000c0d9 ok
# UVM_INFO ../src/mst_seq/ahb_base_seq.sv(157) @ 1805000: uvm_test_top.env.master_agent.sqr@@seq [ahb_busy_seq] AHB_BURST_INCR AHB_SIZE_8B beat 8 @0x0000c0da ok
# UVM_INFO ../src/mst_seq/ahb_base_seq.sv(157) @ 1805000: uvm_test_top.env.master_agent.sqr@@seq [ahb_busy_seq] AHB_BURST_INCR AHB_SIZE_8B beat 9 @0x0000c0db ok
# UVM_INFO ../src/mst_seq/ahb_base_seq.sv(157) @ 1805000: uvm_test_top.env.master_agent.sqr@@seq [ahb_busy_seq] AHB_BURST_INCR AHB_SIZE_8B beat 10 @0x0000c0dc ok
# UVM_INFO ../src/mst_seq/ahb_base_seq.sv(157) @ 1805000: uvm_test_top.env.master_agent.sqr@@seq [ahb_busy_seq] AHB_BURST_INCR AHB_SIZE_8B beat 11 @0x0000c0dd ok
# UVM_INFO ../src/mst_seq/ahb_busy_seq.sv(105) @ 1805000: uvm_test_top.env.master_agent.sqr@@seq [ahb_busy_seq] AHB_BURST_INCR4 AHB_SIZE_8B @0x0000c124, 4 beats, retract=0
# UVM_INFO ../src/mst/ahb_master_driver.sv(85) @ 1805000: uvm_test_top.env.master_agent.drv [ahb_master_driver] Queueing [AHB_WRITE]: HADDR=0x0000c124, HBURST=AHB_BURST_INCR4, HSIZE=AHB_SIZE_8B, 4 beats
# UVM_INFO ../src/mst/ahb_master_driver.sv(127) @ 1805000: uvm_test_top.env.master_agent.drv [ahb_master_driver] Driving [AHB_WRITE]: HADDR=0x0000c124, HBURST=AHB_BURST_INCR4, HSIZE=AHB_SIZE_8B, 4 beats               
# UVM_INFO ../src/mst/ahb_master_driver.sv(332) @ 1855000: uvm_test_top.env.master_agent.drv [ahb_master_driver] Beat[0/4] addr=0x0000c124 trans=AHB_TRANS_NONSEQ resp=AHB_RESP_OKAY wdata=0xb516577f
# UVM_INFO ../src/slv/ahb_slave_driver.sv(184) @ 1855000: uvm_test_top.env.slave_agent.drv [ahb_slave_driver] Beat AHB_WRITE addr=0x0000c124 resp=AHB_RESP_OKAY waits=2 wdata=0xb516577f
# UVM_INFO ../src/mst/ahb_master_monitor.sv(117) @ 1855000: uvm_test_top.env.master_agent.mon [ahb_master_monitor] Beat[0] addr=0x0000c124 wdata=0xb516577f resp=AHB_RESP_OKAY
# UVM_INFO ../src/mst/ahb_master_driver.sv(332) @ 1895000: uvm_test_top.env.master_agent.drv [ahb_master_driver] Beat[1/4] addr=0x0000c125 trans=AHB_TRANS_SEQ resp=AHB_RESP_OKAY wdata=0xc8cc3dac
# UVM_INFO ../src/slv/ahb_slave_driver.sv(184) @ 1895000: uvm_test_top.env.slave_agent.drv [ahb_slave_driver] Beat AHB_WRITE addr=0x0000c125 resp=AHB_RESP_OKAY waits=0 wdata=0xc8cc3dac
# UVM_INFO ../src/mst/ahb_master_monitor.sv(117) @ 1895000: uvm_test_top.env.master_agent.mon [ahb_master_monitor] Beat[1] addr=0x0000c125 wdata=0xc8cc3dac resp=AHB_RESP_OKAY
# UVM_INFO ../src/mst/ahb_master_driver.sv(332) @ 1945000: uvm_test_top.env.master_agent.drv [ahb_master_driver] Beat[2/4] addr=0x0000c126 trans=AHB_TRANS_SEQ resp=AHB_RESP_OKAY wdata=0xa3a8ecd9
# UVM_INFO ../src/slv/ahb_slave_driver.sv(184) @ 1945000: uvm_test_top.env.slave_agent.drv [ahb_slave_driver] Beat AHB_WRITE addr=0x0000c126 resp=AHB_RESP_OKAY waits=2 wdata=0xa3a8ecd9
# UVM_INFO ../src/mst/ahb_master_monitor.sv(117) @ 1945000: uvm_test_top.env.master_agent.mon [ahb_master_monitor] Beat[2] addr=0x0000c126 wdata=0xa3a8ecd9 resp=AHB_RESP_OKAY
# UVM_INFO ../src/mst/ahb_master_driver.sv(332) @ 1985000: uvm_test_top.env.master_agent.drv [ahb_master_driver] Beat[3/4] addr=0x0000c127 trans=AHB_TRANS_SEQ resp=AHB_RESP_OKAY wdata=0x37d95272
# UVM_INFO ../src/mst/ahb_master_driver.sv(376) @ 1985000: uvm_test_top.env.master_agent.drv [ahb_master_driver] Transaction complete: AHB_WRITE 0x0000c124, 4 beats, burst=AHB_BURST_INCR4
# UVM_INFO ../src/slv/ahb_slave_driver.sv(184) @ 1985000: uvm_test_top.env.slave_agent.drv [ahb_slave_driver] Beat AHB_WRITE addr=0x0000c127 resp=AHB_RESP_OKAY waits=2 wdata=0x37d95272
# UVM_INFO ../src/mst/ahb_master_monitor.sv(117) @ 1985000: uvm_test_top.env.master_agent.mon [ahb_master_monitor] Beat[3] addr=0x0000c127 wdata=0x37d95272 resp=AHB_RESP_OKAY
# UVM_INFO ../src/mst/ahb_master_monitor.sv(220) @ 1985000: uvm_test_top.env.master_agent.mon [ahb_master_monitor] Observed [AHB_WRITE]: HADDR=0x0000c124, HBURST=AHB_BURST_INCR4, HSIZE=AHB_SIZE_8B, 4 beats
# UVM_INFO ../src/env/ahb_coverage.sv(126) @ 1985000: uvm_test_top.env.master_cov [ahb_coverage] Sampled [AHB_WRITE]: burst=AHB_BURST_INCR4 size=AHB_SIZE_8B beats=4 error=0
# UVM_INFO ../src/slv/ahb_slave_monitor.sv(197) @ 1985000: uvm_test_top.env.slave_agent.mon [ahb_slave_monitor] Observed [AHB_WRITE]: HADDR=0x0000c124, HBURST=AHB_BURST_INCR4, HSIZE=AHB_SIZE_8B, 4 beats
# UVM_INFO ../src/env/ahb_scoreboard.sv(104) @ 1985000: uvm_test_top.env.scb [ahb_scoreboard] MATCH #9: [AHB_WRITE] HADDR=0x0000c124 AHB_BURST_INCR4 4 beats
# UVM_INFO ../src/env/ahb_coverage.sv(126) @ 1985000: uvm_test_top.env.slave_cov [ahb_coverage] Sampled [AHB_WRITE]: burst=AHB_BURST_INCR4 size=AHB_SIZE_8B beats=4 error=0
# UVM_INFO ../src/mst/ahb_master_driver.sv(85) @ 1985000: uvm_test_top.env.master_agent.drv [ahb_master_driver] Queueing [AHB_READ]: HADDR=0x0000c124, HBURST=AHB_BURST_INCR4, HSIZE=AHB_SIZE_8B, 4 beats
# UVM_INFO ../src/mst/ahb_master_driver.sv(127) @ 1985000: uvm_test_top.env.master_agent.drv [ahb_master_driver] Driving [AHB_READ]: HADDR=0x0000c124, HBURST=AHB_BURST_INCR4, HSIZE=AHB_SIZE_8B, 4 beats               
# UVM_INFO ../src/mst/ahb_master_driver.sv(332) @ 2025000: uvm_test_top.env.master_agent.drv [ahb_master_driver] Beat[0/4] addr=0x0000c124 trans=AHB_TRANS_NONSEQ resp=AHB_RESP_OKAY rdata=0xb516577f
# UVM_INFO ../src/slv/ahb_slave_driver.sv(184) @ 2025000: uvm_test_top.env.slave_agent.drv [ahb_slave_driver] Beat AHB_READ addr=0x0000c124 resp=AHB_RESP_OKAY waits=1 rdata=0xb516577f
# UVM_INFO ../src/mst/ahb_master_monitor.sv(117) @ 2025000: uvm_test_top.env.master_agent.mon [ahb_master_monitor] Beat[0] addr=0x0000c124 rdata=0xb516577f resp=AHB_RESP_OKAY
# UVM_INFO ../src/mst/ahb_master_driver.sv(332) @ 2035000: uvm_test_top.env.master_agent.drv [ahb_master_driver] Beat[1/4] addr=0x0000c125 trans=AHB_TRANS_SEQ resp=AHB_RESP_OKAY rdata=0xc8cc3dac
# UVM_INFO ../src/slv/ahb_slave_driver.sv(184) @ 2035000: uvm_test_top.env.slave_agent.drv [ahb_slave_driver] Beat AHB_READ addr=0x0000c125 resp=AHB_RESP_OKAY waits=0 rdata=0xc8cc3dac
# UVM_INFO ../src/mst/ahb_master_monitor.sv(117) @ 2035000: uvm_test_top.env.master_agent.mon [ahb_master_monitor] Beat[1] addr=0x0000c125 rdata=0xc8cc3dac resp=AHB_RESP_OKAY
# UVM_INFO ../src/mst/ahb_master_driver.sv(332) @ 2055000: uvm_test_top.env.master_agent.drv [ahb_master_driver] Beat[2/4] addr=0x0000c126 trans=AHB_TRANS_SEQ resp=AHB_RESP_OKAY rdata=0xa3a8ecd9
# UVM_INFO ../src/slv/ahb_slave_driver.sv(184) @ 2055000: uvm_test_top.env.slave_agent.drv [ahb_slave_driver] Beat AHB_READ addr=0x0000c126 resp=AHB_RESP_OKAY waits=1 rdata=0xa3a8ecd9
# UVM_INFO ../src/mst/ahb_master_monitor.sv(117) @ 2055000: uvm_test_top.env.master_agent.mon [ahb_master_monitor] Beat[2] addr=0x0000c126 rdata=0xa3a8ecd9 resp=AHB_RESP_OKAY
# UVM_INFO ../src/mst/ahb_master_driver.sv(332) @ 2065000: uvm_test_top.env.master_agent.drv [ahb_master_driver] Beat[3/4] addr=0x0000c127 trans=AHB_TRANS_SEQ resp=AHB_RESP_OKAY rdata=0x37d95272
# UVM_INFO ../src/mst/ahb_master_driver.sv(376) @ 2065000: uvm_test_top.env.master_agent.drv [ahb_master_driver] Transaction complete: AHB_READ 0x0000c124, 4 beats, burst=AHB_BURST_INCR4
# UVM_INFO ../src/slv/ahb_slave_driver.sv(184) @ 2065000: uvm_test_top.env.slave_agent.drv [ahb_slave_driver] Beat AHB_READ addr=0x0000c127 resp=AHB_RESP_OKAY waits=0 rdata=0x37d95272
# UVM_INFO ../src/mst/ahb_master_monitor.sv(117) @ 2065000: uvm_test_top.env.master_agent.mon [ahb_master_monitor] Beat[3] addr=0x0000c127 rdata=0x37d95272 resp=AHB_RESP_OKAY
# UVM_INFO ../src/mst/ahb_master_monitor.sv(220) @ 2065000: uvm_test_top.env.master_agent.mon [ahb_master_monitor] Observed [AHB_READ]: HADDR=0x0000c124, HBURST=AHB_BURST_INCR4, HSIZE=AHB_SIZE_8B, 4 beats
# UVM_INFO ../src/env/ahb_coverage.sv(126) @ 2065000: uvm_test_top.env.master_cov [ahb_coverage] Sampled [AHB_READ]: burst=AHB_BURST_INCR4 size=AHB_SIZE_8B beats=4 error=0
# UVM_INFO ../src/slv/ahb_slave_monitor.sv(197) @ 2065000: uvm_test_top.env.slave_agent.mon [ahb_slave_monitor] Observed [AHB_READ]: HADDR=0x0000c124, HBURST=AHB_BURST_INCR4, HSIZE=AHB_SIZE_8B, 4 beats
# UVM_INFO ../src/env/ahb_scoreboard.sv(104) @ 2065000: uvm_test_top.env.scb [ahb_scoreboard] MATCH #10: [AHB_READ] HADDR=0x0000c124 AHB_BURST_INCR4 4 beats
# UVM_INFO ../src/env/ahb_coverage.sv(126) @ 2065000: uvm_test_top.env.slave_cov [ahb_coverage] Sampled [AHB_READ]: burst=AHB_BURST_INCR4 size=AHB_SIZE_8B beats=4 error=0
# UVM_INFO ../src/mst_seq/ahb_base_seq.sv(157) @ 2065000: uvm_test_top.env.master_agent.sqr@@seq [ahb_busy_seq] AHB_BURST_INCR4 AHB_SIZE_8B beat 0 @0x0000c124 ok
# UVM_INFO ../src/mst_seq/ahb_base_seq.sv(157) @ 2065000: uvm_test_top.env.master_agent.sqr@@seq [ahb_busy_seq] AHB_BURST_INCR4 AHB_SIZE_8B beat 1 @0x0000c125 ok
# UVM_INFO ../src/mst_seq/ahb_base_seq.sv(157) @ 2065000: uvm_test_top.env.master_agent.sqr@@seq [ahb_busy_seq] AHB_BURST_INCR4 AHB_SIZE_8B beat 2 @0x0000c126 ok
# UVM_INFO ../src/mst_seq/ahb_base_seq.sv(157) @ 2065000: uvm_test_top.env.master_agent.sqr@@seq [ahb_busy_seq] AHB_BURST_INCR4 AHB_SIZE_8B beat 3 @0x0000c127 ok
# UVM_INFO ../src/mst_seq/ahb_busy_seq.sv(105) @ 2065000: uvm_test_top.env.master_agent.sqr@@seq [ahb_busy_seq] AHB_BURST_WRAP16 AHB_SIZE_32B @0x0000c148, 16 beats, retract=0
# UVM_INFO ../src/mst/ahb_master_driver.sv(85) @ 2065000: uvm_test_top.env.master_agent.drv [ahb_master_driver] Queueing [AHB_WRITE]: HADDR=0x0000c148, HBURST=AHB_BURST_WRAP16, HSIZE=AHB_SIZE_32B, 16 beats
# UVM_INFO ../src/mst/ahb_master_driver.sv(127) @ 2065000: uvm_test_top.env.master_agent.drv [ahb_master_driver] Driving [AHB_WRITE]: HADDR=0x0000c148, HBURST=AHB_BURST_WRAP16, HSIZE=AHB_SIZE_32B, 16 beats               
# UVM_INFO ../src/mst/ahb_master_driver.sv(332) @ 2105000: uvm_test_top.env.master_agent.drv [ahb_master_driver] Beat[0/16] addr=0x0000c148 trans=AHB_TRANS_NONSEQ resp=AHB_RESP_OKAY wdata=0xd0eca4af
# UVM_INFO ../src/slv/ahb_slave_driver.sv(184) @ 2105000: uvm_test_top.env.slave_agent.drv [ahb_slave_driver] Beat AHB_WRITE addr=0x0000c148 resp=AHB_RESP_OKAY waits=1 wdata=0xd0eca4af
# UVM_INFO ../src/mst/ahb_master_monitor.sv(117) @ 2105000: uvm_test_top.env.master_agent.mon [ahb_master_monitor] Beat[0] addr=0x0000c148 wdata=0xd0eca4af resp=AHB_RESP_OKAY
# UVM_INFO ../src/mst/ahb_master_driver.sv(332) @ 2155000: uvm_test_top.env.master_agent.drv [ahb_master_driver] Beat[1/16] addr=0x0000c14c trans=AHB_TRANS_SEQ resp=AHB_RESP_OKAY wdata=0x2fa73973
# UVM_INFO ../src/slv/ahb_slave_driver.sv(184) @ 2155000: uvm_test_top.env.slave_agent.drv [ahb_slave_driver] Beat AHB_WRITE addr=0x0000c14c resp=AHB_RESP_OKAY waits=1 wdata=0x2fa73973
# UVM_INFO ../src/mst/ahb_master_monitor.sv(117) @ 2155000: uvm_test_top.env.master_agent.mon [ahb_master_monitor] Beat[1] addr=0x0000c14c wdata=0x2fa73973 resp=AHB_RESP_OKAY
# UVM_INFO ../src/mst/ahb_master_driver.sv(332) @ 2195000: uvm_test_top.env.master_agent.drv [ahb_master_driver] Beat[2/16] addr=0x0000c150 trans=AHB_TRANS_SEQ resp=AHB_RESP_OKAY wdata=0xd23bca25
# UVM_INFO ../src/slv/ahb_slave_driver.sv(184) @ 2195000: uvm_test_top.env.slave_agent.drv [ahb_slave_driver] Beat AHB_WRITE addr=0x0000c150 resp=AHB_RESP_OKAY waits=2 wdata=0xd23bca25
# UVM_INFO ../src/mst/ahb_master_monitor.sv(117) @ 2195000: uvm_test_top.env.master_agent.mon [ahb_master_monitor] Beat[2] addr=0x0000c150 wdata=0xd23bca25 resp=AHB_RESP_OKAY
# UVM_INFO ../src/mst/ahb_master_driver.sv(332) @ 2255000: uvm_test_top.env.master_agent.drv [ahb_master_driver] Beat[3/16] addr=0x0000c154 trans=AHB_TRANS_SEQ resp=AHB_RESP_OKAY wdata=0xdadcc10e
# UVM_INFO ../src/slv/ahb_slave_driver.sv(184) @ 2255000: uvm_test_top.env.slave_agent.drv [ahb_slave_driver] Beat AHB_WRITE addr=0x0000c154 resp=AHB_RESP_OKAY waits=2 wdata=0xdadcc10e
# UVM_INFO ../src/mst/ahb_master_monitor.sv(117) @ 2255000: uvm_test_top.env.master_agent.mon [ahb_master_monitor] Beat[3] addr=0x0000c154 wdata=0xdadcc10e resp=AHB_RESP_OKAY
# UVM_INFO ../src/mst/ahb_master_driver.sv(332) @ 2275000: uvm_test_top.env.master_agent.drv [ahb_master_driver] Beat[4/16] addr=0x0000c158 trans=AHB_TRANS_SEQ resp=AHB_RESP_OKAY wdata=0x46fd4433
# UVM_INFO ../src/slv/ahb_slave_driver.sv(184) @ 2275000: uvm_test_top.env.slave_agent.drv [ahb_slave_driver] Beat AHB_WRITE addr=0x0000c158 resp=AHB_RESP_OKAY waits=0 wdata=0x46fd4433
# UVM_INFO ../src/mst/ahb_master_monitor.sv(117) @ 2275000: uvm_test_top.env.master_agent.mon [ahb_master_monitor] Beat[4] addr=0x0000c158 wdata=0x46fd4433 resp=AHB_RESP_OKAY
# UVM_INFO ../src/mst/ahb_master_driver.sv(332) @ 2335000: uvm_test_top.env.master_agent.drv [ahb_master_driver] Beat[5/16] addr=0x0000c15c trans=AHB_TRANS_SEQ resp=AHB_RESP_OKAY wdata=0xad623ccb
# UVM_INFO ../src/slv/ahb_slave_driver.sv(184) @ 2335000: uvm_test_top.env.slave_agent.drv [ahb_slave_driver] Beat AHB_WRITE addr=0x0000c15c resp=AHB_RESP_OKAY waits=2 wdata=0xad623ccb
# UVM_INFO ../src/mst/ahb_master_monitor.sv(117) @ 2335000: uvm_test_top.env.master_agent.mon [ahb_master_monitor] Beat[5] addr=0x0000c15c wdata=0xad623ccb resp=AHB_RESP_OKAY
# UVM_INFO ../src/mst/ahb_master_driver.sv(332) @ 2365000: uvm_test_top.env.master_agent.drv [ahb_master_driver] Beat[6/16] addr=0x0000c160 trans=AHB_TRANS_SEQ resp=AHB_RESP_OKAY wdata=0xefc4fb8d
# UVM_INFO ../src/slv/ahb_slave_driver.sv(184) @ 2365000: uvm_test_top.env.slave_agent.drv [ahb_slave_driver] Beat AHB_WRITE addr=0x0000c160 resp=AHB_RESP_OKAY waits=0 wdata=0xefc4fb8d
# UVM_INFO ../src/mst/ahb_master_monitor.sv(117) @ 2365000: uvm_test_top.env.master_agent.mon [ahb_master_monitor] Beat[6] addr=0x0000c160 wdata=0xefc4fb8d resp=AHB_RESP_OKAY
# UVM_INFO ../src/mst/ahb_master_driver.sv(332) @ 2385000: uvm_test_top.env.master_agent.drv [ahb_master_driver] Beat[7/16] addr=0x0000c164 trans=AHB_TRANS_SEQ resp=AHB_RESP_OKAY wdata=0x159cca90
# UVM_INFO ../src/slv/ahb_slave_driver.sv(184) @ 2385000: uvm_test_top.env.slave_agent.drv [ahb_slave_driver] Beat AHB_WRITE addr=0x0000c164 resp=AHB_RESP_OKAY waits=0 wdata=0x159cca90
# UVM_INFO ../src/mst/ahb_master_monitor.sv(117) @ 2385000: uvm_test_top.env.master_agent.mon [ahb_master_monitor] Beat[7] addr=0x0000c164 wdata=0x159cca90 resp=AHB_RESP_OKAY
# UVM_INFO ../src/mst/ahb_master_driver.sv(332) @ 2415000: uvm_test_top.env.master_agent.drv [ahb_master_driver] Beat[8/16] addr=0x0000c168 trans=AHB_TRANS_SEQ resp=AHB_RESP_OKAY wdata=0x906bc8ea
# UVM_INFO ../src/slv/ahb_slave_driver.sv(184) @ 2415000: uvm_test_top.env.slave_agent.drv [ahb_slave_driver] Beat AHB_WRITE addr=0x0000c168 resp=AHB_RESP_OKAY waits=1 wdata=0x906bc8ea
# UVM_INFO ../src/mst/ahb_master_monitor.sv(117) @ 2415000: uvm_test_top.env.master_agent.mon [ahb_master_monitor] Beat[8] addr=0x0000c168 wdata=0x906bc8ea resp=AHB_RESP_OKAY
# UVM_INFO ../src/mst/ahb_master_driver.sv(332) @ 2455000: uvm_test_top.env.master_agent.drv [ahb_master_driver] Beat[9/16] addr=0x0000c16c trans=AHB_TRANS_SEQ resp=AHB_RESP_OKAY wdata=0x3c39dd67
# UVM_INFO ../src/slv/ahb_slave_driver.sv(184) @ 2455000: uvm_test_top.env.slave_agent.drv [ahb_slave_driver] Beat AHB_WRITE addr=0x0000c16c resp=AHB_RESP_OKAY waits=1 wdata=0x3c39dd67
# UVM_INFO ../src/mst/ahb_master_monitor.sv(117) @ 2455000: uvm_test_top.env.master_agent.mon [ahb_master_monitor] Beat[9] addr=0x0000c16c wdata=0x3c39dd67 resp=AHB_RESP_OKAY
# UVM_INFO ../src/mst/ahb_master_driver.sv(332) @ 2515000: uvm_test_top.env.master_agent.drv [ahb_master_driver] Beat[10/16] addr=0x0000c170 trans=AHB_TRANS_SEQ resp=AHB_RESP_OKAY wdata=0x8e50f9cc
# UVM_INFO ../src/slv/ahb_slave_driver.sv(184) @ 2515000: uvm_test_top.env.slave_agent.drv [ahb_slave_driver] Beat AHB_WRITE addr=0x0000c170 resp=AHB_RESP_OKAY waits=2 wdata=0x8e50f9cc
# UVM_INFO ../src/mst/ahb_master_monitor.sv(117) @ 2515000: uvm_test_top.env.master_agent.mon [ahb_master_monitor] Beat[10] addr=0x0000c170 wdata=0x8e50f9cc resp=AHB_RESP_OKAY
# UVM_INFO ../src/mst/ahb_master_driver.sv(332) @ 2555000: uvm_test_top.env.master_agent.drv [ahb_master_driver] Beat[11/16] addr=0x0000c174 trans=AHB_TRANS_SEQ resp=AHB_RESP_OKAY wdata=0x667af985
# UVM_INFO ../src/slv/ahb_slave_driver.sv(184) @ 2555000: uvm_test_top.env.slave_agent.drv [ahb_slave_driver] Beat AHB_WRITE addr=0x0000c174 resp=AHB_RESP_OKAY waits=1 wdata=0x667af985
# UVM_INFO ../src/mst/ahb_master_monitor.sv(117) @ 2555000: uvm_test_top.env.master_agent.mon [ahb_master_monitor] Beat[11] addr=0x0000c174 wdata=0x667af985 resp=AHB_RESP_OKAY
# UVM_INFO ../src/mst/ahb_master_driver.sv(332) @ 2585000: uvm_test_top.env.master_agent.drv [ahb_master_driver] Beat[12/16] addr=0x0000c178 trans=AHB_TRANS_SEQ resp=AHB_RESP_OKAY wdata=0xc7f3868c
# UVM_INFO ../src/slv/ahb_slave_driver.sv(184) @ 2585000: uvm_test_top.env.slave_agent.drv [ahb_slave_driver] Beat AHB_WRITE addr=0x0000c178 resp=AHB_RESP_OKAY waits=1 wdata=0xc7f3868c
# UVM_INFO ../src/mst/ahb_master_monitor.sv(117) @ 2585000: uvm_test_top.env.master_agent.mon [ahb_master_monitor] Beat[12] addr=0x0000c178 wdata=0xc7f3868c resp=AHB_RESP_OKAY
# UVM_INFO ../src/mst/ahb_master_driver.sv(332) @ 2625000: uvm_test_top.env.master_agent.drv [ahb_master_driver] Beat[13/16] addr=0x0000c17c trans=AHB_TRANS_SEQ resp=AHB_RESP_OKAY wdata=0x19dc0093
# UVM_INFO ../src/slv/ahb_slave_driver.sv(184) @ 2625000: uvm_test_top.env.slave_agent.drv [ahb_slave_driver] Beat AHB_WRITE addr=0x0000c17c resp=AHB_RESP_OKAY waits=2 wdata=0x19dc0093
# UVM_INFO ../src/mst/ahb_master_monitor.sv(117) @ 2625000: uvm_test_top.env.master_agent.mon [ahb_master_monitor] Beat[13] addr=0x0000c17c wdata=0x19dc0093 resp=AHB_RESP_OKAY
# UVM_INFO ../src/mst/ahb_master_driver.sv(332) @ 2665000: uvm_test_top.env.master_agent.drv [ahb_master_driver] Beat[14/16] addr=0x0000c140 trans=AHB_TRANS_SEQ resp=AHB_RESP_OKAY wdata=0x695559c4
# UVM_INFO ../src/slv/ahb_slave_driver.sv(184) @ 2665000: uvm_test_top.env.slave_agent.drv [ahb_slave_driver] Beat AHB_WRITE addr=0x0000c140 resp=AHB_RESP_OKAY waits=1 wdata=0x695559c4
# UVM_INFO ../src/mst/ahb_master_monitor.sv(117) @ 2665000: uvm_test_top.env.master_agent.mon [ahb_master_monitor] Beat[14] addr=0x0000c140 wdata=0x695559c4 resp=AHB_RESP_OKAY
# UVM_INFO ../src/mst/ahb_master_driver.sv(332) @ 2705000: uvm_test_top.env.master_agent.drv [ahb_master_driver] Beat[15/16] addr=0x0000c144 trans=AHB_TRANS_SEQ resp=AHB_RESP_OKAY wdata=0x8189a2ef
# UVM_INFO ../src/mst/ahb_master_driver.sv(376) @ 2705000: uvm_test_top.env.master_agent.drv [ahb_master_driver] Transaction complete: AHB_WRITE 0x0000c148, 16 beats, burst=AHB_BURST_WRAP16
# UVM_INFO ../src/slv/ahb_slave_driver.sv(184) @ 2705000: uvm_test_top.env.slave_agent.drv [ahb_slave_driver] Beat AHB_WRITE addr=0x0000c144 resp=AHB_RESP_OKAY waits=1 wdata=0x8189a2ef
# UVM_INFO ../src/mst/ahb_master_monitor.sv(117) @ 2705000: uvm_test_top.env.master_agent.mon [ahb_master_monitor] Beat[15] addr=0x0000c144 wdata=0x8189a2ef resp=AHB_RESP_OKAY
# UVM_INFO ../src/mst/ahb_master_monitor.sv(220) @ 2705000: uvm_test_top.env.master_agent.mon [ahb_master_monitor] Observed [AHB_WRITE]: HADDR=0x0000c148, HBURST=AHB_BURST_WRAP16, HSIZE=AHB_SIZE_32B, 16 beats
# UVM_INFO ../src/env/ahb_coverage.sv(126) @ 2705000: uvm_test_top.env.master_cov [ahb_coverage] Sampled [AHB_WRITE]: burst=AHB_BURST_WRAP16 size=AHB_SIZE_32B beats=16 error=0
# UVM_INFO ../src/slv/ahb_slave_monitor.sv(197) @ 2705000: uvm_test_top.env.slave_agent.mon [ahb_slave_monitor] Observed [AHB_WRITE]: HADDR=0x0000c148, HBURST=AHB_BURST_WRAP16, HSIZE=AHB_SIZE_32B, 16 beats
# UVM_INFO ../src/env/ahb_scoreboard.sv(104) @ 2705000: uvm_test_top.env.scb [ahb_scoreboard] MATCH #11: [AHB_WRITE] HADDR=0x0000c148 AHB_BURST_WRAP16 16 beats
# UVM_INFO ../src/env/ahb_coverage.sv(126) @ 2705000: uvm_test_top.env.slave_cov [ahb_coverage] Sampled [AHB_WRITE]: burst=AHB_BURST_WRAP16 size=AHB_SIZE_32B beats=16 error=0
# UVM_INFO ../src/mst/ahb_master_driver.sv(85) @ 2705000: uvm_test_top.env.master_agent.drv [ahb_master_driver] Queueing [AHB_READ]: HADDR=0x0000c148, HBURST=AHB_BURST_WRAP16, HSIZE=AHB_SIZE_32B, 16 beats
# UVM_INFO ../src/mst/ahb_master_driver.sv(127) @ 2705000: uvm_test_top.env.master_agent.drv [ahb_master_driver] Driving [AHB_READ]: HADDR=0x0000c148, HBURST=AHB_BURST_WRAP16, HSIZE=AHB_SIZE_32B, 16 beats               
# UVM_INFO ../src/mst/ahb_master_driver.sv(332) @ 2735000: uvm_test_top.env.master_agent.drv [ahb_master_driver] Beat[0/16] addr=0x0000c148 trans=AHB_TRANS_NONSEQ resp=AHB_RESP_OKAY rdata=0xd0eca4af
# UVM_INFO ../src/slv/ahb_slave_driver.sv(184) @ 2735000: uvm_test_top.env.slave_agent.drv [ahb_slave_driver] Beat AHB_READ addr=0x0000c148 resp=AHB_RESP_OKAY waits=0 rdata=0xd0eca4af
# UVM_INFO ../src/mst/ahb_master_monitor.sv(117) @ 2735000: uvm_test_top.env.master_agent.mon [ahb_master_monitor] Beat[0] addr=0x0000c148 rdata=0xd0eca4af resp=AHB_RESP_OKAY
# UVM_INFO ../src/mst/ahb_master_driver.sv(332) @ 2755000: uvm_test_top.env.master_agent.drv [ahb_master_driver] Beat[1/16] addr=0x0000c14c trans=AHB_TRANS_SEQ resp=AHB_RESP_OKAY rdata=0x2fa73973
# UVM_INFO ../src/slv/ahb_slave_driver.sv(184) @ 2755000: uvm_test_top.env.slave_agent.drv [ahb_slave_driver] Beat AHB_READ addr=0x0000c14c resp=AHB_RESP_OKAY waits=1 rdata=0x2fa73973
# UVM_INFO ../src/mst/ahb_master_monitor.sv(117) @ 2755000: uvm_test_top.env.master_agent.mon [ahb_master_monitor] Beat[1] addr=0x0000c14c rdata=0x2fa73973 resp=AHB_RESP_OKAY
# UVM_INFO ../src/mst/ahb_master_driver.sv(332) @ 2785000: uvm_test_top.env.master_agent.drv [ahb_master_driver] Beat[2/16] addr=0x0000c150 trans=AHB_TRANS_SEQ resp=AHB_RESP_OKAY rdata=0xd23bca25
# UVM_INFO ../src/slv/ahb_slave_driver.sv(184) @ 2785000: uvm_test_top.env.slave_agent.drv [ahb_slave_driver] Beat AHB_READ addr=0x0000c150 resp=AHB_RESP_OKAY waits=2 rdata=0xd23bca25
# UVM_INFO ../src/mst/ahb_master_monitor.sv(117) @ 2785000: uvm_test_top.env.master_agent.mon [ahb_master_monitor] Beat[2] addr=0x0000c150 rdata=0xd23bca25 resp=AHB_RESP_OKAY
# UVM_INFO ../src/mst/ahb_master_driver.sv(332) @ 2795000: uvm_test_top.env.master_agent.drv [ahb_master_driver] Beat[3/16] addr=0x0000c154 trans=AHB_TRANS_SEQ resp=AHB_RESP_OKAY rdata=0xdadcc10e
# UVM_INFO ../src/slv/ahb_slave_driver.sv(184) @ 2795000: uvm_test_top.env.slave_agent.drv [ahb_slave_driver] Beat AHB_READ addr=0x0000c154 resp=AHB_RESP_OKAY waits=0 rdata=0xdadcc10e
# UVM_INFO ../src/mst/ahb_master_monitor.sv(117) @ 2795000: uvm_test_top.env.master_agent.mon [ahb_master_monitor] Beat[3] addr=0x0000c154 rdata=0xdadcc10e resp=AHB_RESP_OKAY
# UVM_INFO ../src/mst/ahb_master_driver.sv(332) @ 2805000: uvm_test_top.env.master_agent.drv [ahb_master_driver] Beat[4/16] addr=0x0000c158 trans=AHB_TRANS_SEQ resp=AHB_RESP_OKAY rdata=0x46fd4433
# UVM_INFO ../src/slv/ahb_slave_driver.sv(184) @ 2805000: uvm_test_top.env.slave_agent.drv [ahb_slave_driver] Beat AHB_READ addr=0x0000c158 resp=AHB_RESP_OKAY waits=0 rdata=0x46fd4433
# UVM_INFO ../src/mst/ahb_master_monitor.sv(117) @ 2805000: uvm_test_top.env.master_agent.mon [ahb_master_monitor] Beat[4] addr=0x0000c158 rdata=0x46fd4433 resp=AHB_RESP_OKAY
# UVM_INFO ../src/mst/ahb_master_driver.sv(332) @ 2825000: uvm_test_top.env.master_agent.drv [ahb_master_driver] Beat[5/16] addr=0x0000c15c trans=AHB_TRANS_SEQ resp=AHB_RESP_OKAY rdata=0xad623ccb
# UVM_INFO ../src/slv/ahb_slave_driver.sv(184) @ 2825000: uvm_test_top.env.slave_agent.drv [ahb_slave_driver] Beat AHB_READ addr=0x0000c15c resp=AHB_RESP_OKAY waits=1 rdata=0xad623ccb
# UVM_INFO ../src/mst/ahb_master_monitor.sv(117) @ 2825000: uvm_test_top.env.master_agent.mon [ahb_master_monitor] Beat[5] addr=0x0000c15c rdata=0xad623ccb resp=AHB_RESP_OKAY
# UVM_INFO ../src/mst/ahb_master_driver.sv(332) @ 2845000: uvm_test_top.env.master_agent.drv [ahb_master_driver] Beat[6/16] addr=0x0000c160 trans=AHB_TRANS_SEQ resp=AHB_RESP_OKAY rdata=0xefc4fb8d
# UVM_INFO ../src/slv/ahb_slave_driver.sv(184) @ 2845000: uvm_test_top.env.slave_agent.drv [ahb_slave_driver] Beat AHB_READ addr=0x0000c160 resp=AHB_RESP_OKAY waits=1 rdata=0xefc4fb8d
# UVM_INFO ../src/mst/ahb_master_monitor.sv(117) @ 2845000: uvm_test_top.env.master_agent.mon [ahb_master_monitor] Beat[6] addr=0x0000c160 rdata=0xefc4fb8d resp=AHB_RESP_OKAY
# UVM_INFO ../src/mst/ahb_master_driver.sv(332) @ 2875000: uvm_test_top.env.master_agent.drv [ahb_master_driver] Beat[7/16] addr=0x0000c164 trans=AHB_TRANS_SEQ resp=AHB_RESP_OKAY rdata=0x159cca90
# UVM_INFO ../src/slv/ahb_slave_driver.sv(184) @ 2875000: uvm_test_top.env.slave_agent.drv [ahb_slave_driver] Beat AHB_READ addr=0x0000c164 resp=AHB_RESP_OKAY waits=2 rdata=0x159cca90
# UVM_INFO ../src/mst/ahb_master_monitor.sv(117) @ 2875000: uvm_test_top.env.master_agent.mon [ahb_master_monitor] Beat[7] addr=0x0000c164 rdata=0x159cca90 resp=AHB_RESP_OKAY
# UVM_INFO ../src/mst/ahb_master_driver.sv(332) @ 2885000: uvm_test_top.env.master_agent.drv [ahb_master_driver] Beat[8/16] addr=0x0000c168 trans=AHB_TRANS_SEQ resp=AHB_RESP_OKAY rdata=0x906bc8ea
# UVM_INFO ../src/slv/ahb_slave_driver.sv(184) @ 2885000: uvm_test_top.env.slave_agent.drv [ahb_slave_driver] Beat AHB_READ addr=0x0000c168 resp=AHB_RESP_OKAY waits=0 rdata=0x906bc8ea
# UVM_INFO ../src/mst/ahb_master_monitor.sv(117) @ 2885000: uvm_test_top.env.master_agent.mon [ahb_master_monitor] Beat[8] addr=0x0000c168 rdata=0x906bc8ea resp=AHB_RESP_OKAY
# UVM_INFO ../src/mst/ahb_master_driver.sv(332) @ 2915000: uvm_test_top.env.master_agent.drv [ahb_master_driver] Beat[9/16] addr=0x0000c16c trans=AHB_TRANS_SEQ resp=AHB_RESP_OKAY rdata=0x3c39dd67
# UVM_INFO ../src/slv/ahb_slave_driver.sv(184) @ 2915000: uvm_test_top.env.slave_agent.drv [ahb_slave_driver] Beat AHB_READ addr=0x0000c16c resp=AHB_RESP_OKAY waits=2 rdata=0x3c39dd67
# UVM_INFO ../src/mst/ahb_master_monitor.sv(117) @ 2915000: uvm_test_top.env.master_agent.mon [ahb_master_monitor] Beat[9] addr=0x0000c16c rdata=0x3c39dd67 resp=AHB_RESP_OKAY
# UVM_INFO ../src/mst/ahb_master_driver.sv(332) @ 2935000: uvm_test_top.env.master_agent.drv [ahb_master_driver] Beat[10/16] addr=0x0000c170 trans=AHB_TRANS_SEQ resp=AHB_RESP_OKAY rdata=0x8e50f9cc
# UVM_INFO ../src/slv/ahb_slave_driver.sv(184) @ 2935000: uvm_test_top.env.slave_agent.drv [ahb_slave_driver] Beat AHB_READ addr=0x0000c170 resp=AHB_RESP_OKAY waits=1 rdata=0x8e50f9cc
# UVM_INFO ../src/mst/ahb_master_monitor.sv(117) @ 2935000: uvm_test_top.env.master_agent.mon [ahb_master_monitor] Beat[10] addr=0x0000c170 rdata=0x8e50f9cc resp=AHB_RESP_OKAY
# UVM_INFO ../src/mst/ahb_master_driver.sv(332) @ 2955000: uvm_test_top.env.master_agent.drv [ahb_master_driver] Beat[11/16] addr=0x0000c174 trans=AHB_TRANS_SEQ resp=AHB_RESP_OKAY rdata=0x667af985
# UVM_INFO ../src/slv/ahb_slave_driver.sv(184) @ 2955000: uvm_test_top.env.slave_agent.drv [ahb_slave_driver] Beat AHB_READ addr=0x0000c174 resp=AHB_RESP_OKAY waits=1 rdata=0x667af985
# UVM_INFO ../src/mst/ahb_master_monitor.sv(117) @ 2955000: uvm_test_top.env.master_agent.mon [ahb_master_monitor] Beat[11] addr=0x0000c174 rdata=0x667af985 resp=AHB_RESP_OKAY
# UVM_INFO ../src/mst/ahb_master_driver.sv(332) @ 2975000: uvm_test_top.env.master_agent.drv [ahb_master_driver] Beat[12/16] addr=0x0000c178 trans=AHB_TRANS_SEQ resp=AHB_RESP_OKAY rdata=0xc7f3868c
# UVM_INFO ../src/slv/ahb_slave_driver.sv(184) @ 2975000: uvm_test_top.env.slave_agent.drv [ahb_slave_driver] Beat AHB_READ addr=0x0000c178 resp=AHB_RESP_OKAY waits=1 rdata=0xc7f3868c
# UVM_INFO ../src/mst/ahb_master_monitor.sv(117) @ 2975000: uvm_test_top.env.master_agent.mon [ahb_master_monitor] Beat[12] addr=0x0000c178 rdata=0xc7f3868c resp=AHB_RESP_OKAY
# UVM_INFO ../src/mst/ahb_master_driver.sv(332) @ 2995000: uvm_test_top.env.master_agent.drv [ahb_master_driver] Beat[13/16] addr=0x0000c17c trans=AHB_TRANS_SEQ resp=AHB_RESP_OKAY rdata=0x19dc0093
# UVM_INFO ../src/slv/ahb_slave_driver.sv(184) @ 2995000: uvm_test_top.env.slave_agent.drv [ahb_slave_driver] Beat AHB_READ addr=0x0000c17c resp=AHB_RESP_OKAY waits=1 rdata=0x19dc0093
# UVM_INFO ../src/mst/ahb_master_monitor.sv(117) @ 2995000: uvm_test_top.env.master_agent.mon [ahb_master_monitor] Beat[13] addr=0x0000c17c rdata=0x19dc0093 resp=AHB_RESP_OKAY
# UVM_INFO ../src/mst/ahb_master_driver.sv(332) @ 3005000: uvm_test_top.env.master_agent.drv [ahb_master_driver] Beat[14/16] addr=0x0000c140 trans=AHB_TRANS_SEQ resp=AHB_RESP_OKAY rdata=0x695559c4
# UVM_INFO ../src/slv/ahb_slave_driver.sv(184) @ 3005000: uvm_test_top.env.slave_agent.drv [ahb_slave_driver] Beat AHB_READ addr=0x0000c140 resp=AHB_RESP_OKAY waits=0 rdata=0x695559c4
# UVM_INFO ../src/mst/ahb_master_monitor.sv(117) @ 3005000: uvm_test_top.env.master_agent.mon [ahb_master_monitor] Beat[14] addr=0x0000c140 rdata=0x695559c4 resp=AHB_RESP_OKAY
# UVM_INFO ../src/mst/ahb_master_driver.sv(332) @ 3015000: uvm_test_top.env.master_agent.drv [ahb_master_driver] Beat[15/16] addr=0x0000c144 trans=AHB_TRANS_SEQ resp=AHB_RESP_OKAY rdata=0x8189a2ef
# UVM_INFO ../src/mst/ahb_master_driver.sv(376) @ 3015000: uvm_test_top.env.master_agent.drv [ahb_master_driver] Transaction complete: AHB_READ 0x0000c148, 16 beats, burst=AHB_BURST_WRAP16
# UVM_INFO ../src/slv/ahb_slave_driver.sv(184) @ 3015000: uvm_test_top.env.slave_agent.drv [ahb_slave_driver] Beat AHB_READ addr=0x0000c144 resp=AHB_RESP_OKAY waits=0 rdata=0x8189a2ef
# UVM_INFO ../src/slv/ahb_slave_monitor.sv(197) @ 3015000: uvm_test_top.env.slave_agent.mon [ahb_slave_monitor] Observed [AHB_READ]: HADDR=0x0000c148, HBURST=AHB_BURST_WRAP16, HSIZE=AHB_SIZE_32B, 16 beats
# UVM_INFO ../src/env/ahb_coverage.sv(126) @ 3015000: uvm_test_top.env.slave_cov [ahb_coverage] Sampled [AHB_READ]: burst=AHB_BURST_WRAP16 size=AHB_SIZE_32B beats=16 error=0
# UVM_INFO ../src/mst/ahb_master_monitor.sv(117) @ 3015000: uvm_test_top.env.master_agent.mon [ahb_master_monitor] Beat[15] addr=0x0000c144 rdata=0x8189a2ef resp=AHB_RESP_OKAY
# UVM_INFO ../src/mst/ahb_master_monitor.sv(220) @ 3015000: uvm_test_top.env.master_agent.mon [ahb_master_monitor] Observed [AHB_READ]: HADDR=0x0000c148, HBURST=AHB_BURST_WRAP16, HSIZE=AHB_SIZE_32B, 16 beats
# UVM_INFO ../src/env/ahb_coverage.sv(126) @ 3015000: uvm_test_top.env.master_cov [ahb_coverage] Sampled [AHB_READ]: burst=AHB_BURST_WRAP16 size=AHB_SIZE_32B beats=16 error=0
# UVM_INFO ../src/env/ahb_scoreboard.sv(104) @ 3015000: uvm_test_top.env.scb [ahb_scoreboard] MATCH #12: [AHB_READ] HADDR=0x0000c148 AHB_BURST_WRAP16 16 beats
# UVM_INFO ../src/mst_seq/ahb_base_seq.sv(157) @ 3015000: uvm_test_top.env.master_agent.sqr@@seq [ahb_busy_seq] AHB_BURST_WRAP16 AHB_SIZE_32B beat 0 @0x0000c148 ok
# UVM_INFO ../src/mst_seq/ahb_base_seq.sv(157) @ 3015000: uvm_test_top.env.master_agent.sqr@@seq [ahb_busy_seq] AHB_BURST_WRAP16 AHB_SIZE_32B beat 1 @0x0000c14c ok
# UVM_INFO ../src/mst_seq/ahb_base_seq.sv(157) @ 3015000: uvm_test_top.env.master_agent.sqr@@seq [ahb_busy_seq] AHB_BURST_WRAP16 AHB_SIZE_32B beat 2 @0x0000c150 ok
# UVM_INFO ../src/mst_seq/ahb_base_seq.sv(157) @ 3015000: uvm_test_top.env.master_agent.sqr@@seq [ahb_busy_seq] AHB_BURST_WRAP16 AHB_SIZE_32B beat 3 @0x0000c154 ok
# UVM_INFO ../src/mst_seq/ahb_base_seq.sv(157) @ 3015000: uvm_test_top.env.master_agent.sqr@@seq [ahb_busy_seq] AHB_BURST_WRAP16 AHB_SIZE_32B beat 4 @0x0000c158 ok
# UVM_INFO ../src/mst_seq/ahb_base_seq.sv(157) @ 3015000: uvm_test_top.env.master_agent.sqr@@seq [ahb_busy_seq] AHB_BURST_WRAP16 AHB_SIZE_32B beat 5 @0x0000c15c ok
# UVM_INFO ../src/mst_seq/ahb_base_seq.sv(157) @ 3015000: uvm_test_top.env.master_agent.sqr@@seq [ahb_busy_seq] AHB_BURST_WRAP16 AHB_SIZE_32B beat 6 @0x0000c160 ok
# UVM_INFO ../src/mst_seq/ahb_base_seq.sv(157) @ 3015000: uvm_test_top.env.master_agent.sqr@@seq [ahb_busy_seq] AHB_BURST_WRAP16 AHB_SIZE_32B beat 7 @0x0000c164 ok
# UVM_INFO ../src/mst_seq/ahb_base_seq.sv(157) @ 3015000: uvm_test_top.env.master_agent.sqr@@seq [ahb_busy_seq] AHB_BURST_WRAP16 AHB_SIZE_32B beat 8 @0x0000c168 ok
# UVM_INFO ../src/mst_seq/ahb_base_seq.sv(157) @ 3015000: uvm_test_top.env.master_agent.sqr@@seq [ahb_busy_seq] AHB_BURST_WRAP16 AHB_SIZE_32B beat 9 @0x0000c16c ok
# UVM_INFO ../src/mst_seq/ahb_base_seq.sv(157) @ 3015000: uvm_test_top.env.master_agent.sqr@@seq [ahb_busy_seq] AHB_BURST_WRAP16 AHB_SIZE_32B beat 10 @0x0000c170 ok
# UVM_INFO ../src/mst_seq/ahb_base_seq.sv(157) @ 3015000: uvm_test_top.env.master_agent.sqr@@seq [ahb_busy_seq] AHB_BURST_WRAP16 AHB_SIZE_32B beat 11 @0x0000c174 ok
# UVM_INFO ../src/mst_seq/ahb_base_seq.sv(157) @ 3015000: uvm_test_top.env.master_agent.sqr@@seq [ahb_busy_seq] AHB_BURST_WRAP16 AHB_SIZE_32B beat 12 @0x0000c178 ok
# UVM_INFO ../src/mst_seq/ahb_base_seq.sv(157) @ 3015000: uvm_test_top.env.master_agent.sqr@@seq [ahb_busy_seq] AHB_BURST_WRAP16 AHB_SIZE_32B beat 13 @0x0000c17c ok
# UVM_INFO ../src/mst_seq/ahb_base_seq.sv(157) @ 3015000: uvm_test_top.env.master_agent.sqr@@seq [ahb_busy_seq] AHB_BURST_WRAP16 AHB_SIZE_32B beat 14 @0x0000c140 ok
# UVM_INFO ../src/mst_seq/ahb_base_seq.sv(157) @ 3015000: uvm_test_top.env.master_agent.sqr@@seq [ahb_busy_seq] AHB_BURST_WRAP16 AHB_SIZE_32B beat 15 @0x0000c144 ok
# UVM_INFO ../src/mst_seq/ahb_busy_seq.sv(105) @ 3015000: uvm_test_top.env.master_agent.sqr@@seq [ahb_busy_seq] AHB_BURST_WRAP16 AHB_SIZE_8B @0x0000c196, 16 beats, retract=1
# UVM_INFO ../src/mst/ahb_master_driver.sv(85) @ 3015000: uvm_test_top.env.master_agent.drv [ahb_master_driver] Queueing [AHB_WRITE]: HADDR=0x0000c196, HBURST=AHB_BURST_WRAP16, HSIZE=AHB_SIZE_8B, 16 beats
# UVM_INFO ../src/mst/ahb_master_driver.sv(127) @ 3015000: uvm_test_top.env.master_agent.drv [ahb_master_driver] Driving [AHB_WRITE]: HADDR=0x0000c196, HBURST=AHB_BURST_WRAP16, HSIZE=AHB_SIZE_8B, 16 beats               
# UVM_INFO ../src/mst/ahb_master_driver.sv(332) @ 3045000: uvm_test_top.env.master_agent.drv [ahb_master_driver] Beat[0/16] addr=0x0000c196 trans=AHB_TRANS_NONSEQ resp=AHB_RESP_OKAY wdata=0xe9805e0c
# UVM_INFO ../src/slv/ahb_slave_driver.sv(184) @ 3045000: uvm_test_top.env.slave_agent.drv [ahb_slave_driver] Beat AHB_WRITE addr=0x0000c196 resp=AHB_RESP_OKAY waits=0 wdata=0xe9805e0c
# UVM_INFO ../src/mst/ahb_master_monitor.sv(117) @ 3045000: uvm_test_top.env.master_agent.mon [ahb_master_monitor] Beat[0] addr=0x0000c196 wdata=0xe9805e0c resp=AHB_RESP_OKAY
# UVM_INFO ../src/mst/ahb_master_driver.sv(332) @ 3075000: uvm_test_top.env.master_agent.drv [ahb_master_driver] Beat[1/16] addr=0x0000c197 trans=AHB_TRANS_SEQ resp=AHB_RESP_OKAY wdata=0x81c2ea28
# UVM_INFO ../src/slv/ahb_slave_driver.sv(184) @ 3075000: uvm_test_top.env.slave_agent.drv [ahb_slave_driver] Beat AHB_WRITE addr=0x0000c197 resp=AHB_RESP_OKAY waits=0 wdata=0x81c2ea28
# UVM_INFO ../src/mst/ahb_master_monitor.sv(117) @ 3075000: uvm_test_top.env.master_agent.mon [ahb_master_monitor] Beat[1] addr=0x0000c197 wdata=0x81c2ea28 resp=AHB_RESP_OKAY
# UVM_INFO ../src/mst/ahb_master_driver.sv(332) @ 3125000: uvm_test_top.env.master_agent.drv [ahb_master_driver] Beat[2/16] addr=0x0000c198 trans=AHB_TRANS_SEQ resp=AHB_RESP_OKAY wdata=0x2bbfa2fb
# UVM_INFO ../src/slv/ahb_slave_driver.sv(184) @ 3125000: uvm_test_top.env.slave_agent.drv [ahb_slave_driver] Beat AHB_WRITE addr=0x0000c198 resp=AHB_RESP_OKAY waits=2 wdata=0x2bbfa2fb
# UVM_INFO ../src/mst/ahb_master_monitor.sv(117) @ 3125000: uvm_test_top.env.master_agent.mon [ahb_master_monitor] Beat[2] addr=0x0000c198 wdata=0x2bbfa2fb resp=AHB_RESP_OKAY
# UVM_INFO ../src/mst/ahb_master_driver.sv(332) @ 3145000: uvm_test_top.env.master_agent.drv [ahb_master_driver] Beat[3/16] addr=0x0000c199 trans=AHB_TRANS_SEQ resp=AHB_RESP_OKAY wdata=0xa032102e
# UVM_INFO ../src/slv/ahb_slave_driver.sv(184) @ 3145000: uvm_test_top.env.slave_agent.drv [ahb_slave_driver] Beat AHB_WRITE addr=0x0000c199 resp=AHB_RESP_OKAY waits=1 wdata=0xa032102e
# UVM_INFO ../src/mst/ahb_master_monitor.sv(117) @ 3145000: uvm_test_top.env.master_agent.mon [ahb_master_monitor] Beat[3] addr=0x0000c199 wdata=0xa032102e resp=AHB_RESP_OKAY
# UVM_INFO ../src/mst/ahb_master_driver.sv(332) @ 3165000: uvm_test_top.env.master_agent.drv [ahb_master_driver] Beat[4/16] addr=0x0000c19a trans=AHB_TRANS_SEQ resp=AHB_RESP_OKAY wdata=0xfe245946
# UVM_INFO ../src/slv/ahb_slave_driver.sv(184) @ 3165000: uvm_test_top.env.slave_agent.drv [ahb_slave_driver] Beat AHB_WRITE addr=0x0000c19a resp=AHB_RESP_OKAY waits=1 wdata=0xfe245946
# UVM_INFO ../src/mst/ahb_master_monitor.sv(117) @ 3165000: uvm_test_top.env.master_agent.mon [ahb_master_monitor] Beat[4] addr=0x0000c19a wdata=0xfe245946 resp=AHB_RESP_OKAY
# UVM_INFO ../src/mst/ahb_master_driver.sv(332) @ 3195000: uvm_test_top.env.master_agent.drv [ahb_master_driver] Beat[5/16] addr=0x0000c19b trans=AHB_TRANS_SEQ resp=AHB_RESP_OKAY wdata=0x4c3e5fa2
# UVM_INFO ../src/slv/ahb_slave_driver.sv(184) @ 3195000: uvm_test_top.env.slave_agent.drv [ahb_slave_driver] Beat AHB_WRITE addr=0x0000c19b resp=AHB_RESP_OKAY waits=2 wdata=0x4c3e5fa2
# UVM_INFO ../src/mst/ahb_master_monitor.sv(117) @ 3195000: uvm_test_top.env.master_agent.mon [ahb_master_monitor] Beat[5] addr=0x0000c19b wdata=0x4c3e5fa2 resp=AHB_RESP_OKAY
# UVM_INFO ../src/mst/ahb_master_driver.sv(332) @ 3215000: uvm_test_top.env.master_agent.drv [ahb_master_driver] Beat[6/16] addr=0x0000c19c trans=AHB_TRANS_SEQ resp=AHB_RESP_OKAY wdata=0x9b33fc52
# UVM_INFO ../src/slv/ahb_slave_driver.sv(184) @ 3215000: uvm_test_top.env.slave_agent.drv [ahb_slave_driver] Beat AHB_WRITE addr=0x0000c19c resp=AHB_RESP_OKAY waits=1 wdata=0x9b33fc52
# UVM_INFO ../src/mst/ahb_master_monitor.sv(117) @ 3215000: uvm_test_top.env.master_agent.mon [ahb_master_monitor] Beat[6] addr=0x0000c19c wdata=0x9b33fc52 resp=AHB_RESP_OKAY
# UVM_INFO ../src/mst/ahb_master_driver.sv(332) @ 3245000: uvm_test_top.env.master_agent.drv [ahb_master_driver] Beat[7/16] addr=0x0000c19d trans=AHB_TRANS_SEQ resp=AHB_RESP_OKAY wdata=0x01bd5368
# UVM_INFO ../src/slv/ahb_slave_driver.sv(184) @ 3245000: uvm_test_top.env.slave_agent.drv [ahb_slave_driver] Beat AHB_WRITE addr=0x0000c19d resp=AHB_RESP_OKAY waits=2 wdata=0x01bd5368
# UVM_INFO ../src/mst/ahb_master_monitor.sv(117) @ 3245000: uvm_test_top.env.master_agent.mon [ahb_master_monitor] Beat[7] addr=0x0000c19d wdata=0x01bd5368 resp=AHB_RESP_OKAY
# UVM_INFO ../src/mst/ahb_master_driver.sv(332) @ 3255000: uvm_test_top.env.master_agent.drv [ahb_master_driver] Beat[8/16] addr=0x0000c19e trans=AHB_TRANS_SEQ resp=AHB_RESP_OKAY wdata=0xf52ef5aa
# UVM_INFO ../src/slv/ahb_slave_driver.sv(184) @ 3255000: uvm_test_top.env.slave_agent.drv [ahb_slave_driver] Beat AHB_WRITE addr=0x0000c19e resp=AHB_RESP_OKAY waits=0 wdata=0xf52ef5aa
# UVM_INFO ../src/mst/ahb_master_monitor.sv(117) @ 3255000: uvm_test_top.env.master_agent.mon [ahb_master_monitor] Beat[8] addr=0x0000c19e wdata=0xf52ef5aa resp=AHB_RESP_OKAY
# UVM_INFO ../src/mst/ahb_master_driver.sv(332) @ 3285000: uvm_test_top.env.master_agent.drv [ahb_master_driver] Beat[9/16] addr=0x0000c19f trans=AHB_TRANS_SEQ resp=AHB_RESP_OKAY wdata=0x9ef71fe5
# UVM_INFO ../src/slv/ahb_slave_driver.sv(184) @ 3285000: uvm_test_top.env.slave_agent.drv [ahb_slave_driver] Beat AHB_WRITE addr=0x0000c19f resp=AHB_RESP_OKAY waits=1 wdata=0x9ef71fe5
# UVM_INFO ../src/mst/ahb_master_monitor.sv(117) @ 3285000: uvm_test_top.env.master_agent.mon [ahb_master_monitor] Beat[9] addr=0x0000c19f wdata=0x9ef71fe5 resp=AHB_RESP_OKAY
# UVM_INFO ../src/mst/ahb_master_driver.sv(332) @ 3295000: uvm_test_top.env.master_agent.drv [ahb_master_driver] Beat[10/16] addr=0x0000c190 trans=AHB_TRANS_SEQ resp=AHB_RESP_OKAY wdata=0x0c7e0fee
# UVM_INFO ../src/slv/ahb_slave_driver.sv(184) @ 3295000: uvm_test_top.env.slave_agent.drv [ahb_slave_driver] Beat AHB_WRITE addr=0x0000c190 resp=AHB_RESP_OKAY waits=0 wdata=0x0c7e0fee
# UVM_INFO ../src/mst/ahb_master_monitor.sv(117) @ 3295000: uvm_test_top.env.master_agent.mon [ahb_master_monitor] Beat[10] addr=0x0000c190 wdata=0x0c7e0fee resp=AHB_RESP_OKAY
# UVM_INFO ../src/mst/ahb_master_driver.sv(332) @ 3335000: uvm_test_top.env.master_agent.drv [ahb_master_driver] Beat[11/16] addr=0x0000c191 trans=AHB_TRANS_SEQ resp=AHB_RESP_OKAY wdata=0x416a0e38
# UVM_INFO ../src/slv/ahb_slave_driver.sv(184) @ 3335000: uvm_test_top.env.slave_agent.drv [ahb_slave_driver] Beat AHB_WRITE addr=0x0000c191 resp=AHB_RESP_OKAY waits=0 wdata=0x416a0e38
