# vsim -c -coverage -sv_seed 4718225 "+UVM_TESTNAME=ahb_incr_burst_test" "+UVM_VERBOSITY=UVM_HIGH" "+DUMP_VCD" -l ./report/logs/ahb_incr_burst_test_run_5_seed_4718225.log -do "coverage save -onexit ./report/coverage/ahb_incr_burst_test_run_5_seed_4718225.ucdb; run -all; quit -f" opt_tb_top 
# Start time: 08:41:34 on Aug 03,2026
# //  Questa Sim-64
# //  Version 10.6b linux_x86_64 May 25 2017
# //
# //  Copyright 1991-2017 Mentor Graphics Corporation
# //  All Rights Reserved.
# //
# //  QuestaSim and its associated documentation contain trade
# //  secrets and commercial or financial information that are the property of
# //  Mentor Graphics Corporation and are privileged, confidential,
# //  and exempt from disclosure under the Freedom of Information Act,
# //  5 U.S.C. Section 552. Furthermore, this information
# //  is prohibited from disclosure under the Trade Secrets Act,
# //  18 U.S.C. Section 1905.
# //
# Loading sv_std.std
# Loading work.ahb_if(fast)
# Loading mtiUvm.uvm_pkg
# Loading work.ahb_pkg(fast)
# Loading work.ahb_seq_pkg(fast)
# Loading work.ahb_test_pkg(fast)
# Loading work.tb_top(fast)
# Loading work.ahb_if(fast)
# Loading work.ahb_sva(fast)
# Loading mtiUvm.questa_uvm_pkg(fast)
# Loading /cadtools/mentor/Questa_10.6b/questasim/uvm-1.1d/linux_x86_64/uvm_dpi.so
# coverage save -onexit ./report/coverage/ahb_incr_burst_test_run_5_seed_4718225.ucdb
#  run -all
# ----------------------------------------------------------------
# UVM-1.1d
# (C) 2007-2013 Mentor Graphics Corporation
# (C) 2007-2013 Cadence Design Systems, Inc.
# (C) 2006-2013 Synopsys, Inc.
# (C) 2011-2013 Cypress Semiconductor Corp.
# ----------------------------------------------------------------
# 
#   ***********       IMPORTANT RELEASE NOTES         ************
# 
#   You are using a version of the UVM library that has been compiled
#   with `UVM_NO_DEPRECATED undefined.
#   See http://www.eda.org/svdb/view.php?id=3313 for more details.
# 
#   You are using a version of the UVM library that has been compiled
#   with `UVM_OBJECT_MUST_HAVE_CONSTRUCTOR undefined.
#   See http://www.eda.org/svdb/view.php?id=3770 for more details.
# 
#       (Specify +UVM_NO_RELNOTES to turn off this notice)
# 
# UVM_INFO verilog_src/questa_uvm_pkg-1.2/src/questa_uvm_pkg.sv(215) @ 0: reporter [Questa UVM] QUESTA_UVM-1.2.3
# UVM_INFO verilog_src/questa_uvm_pkg-1.2/src/questa_uvm_pkg.sv(217) @ 0: reporter [Questa UVM]  questa_uvm::init(+struct)
# UVM_INFO ../src/tb_top.sv(126) @ 0: reporter [TB_TOP] Virtual interface set in config_db
# UVM_INFO @ 0: reporter [RNTST] Running test ahb_incr_burst_test...
# UVM_INFO ../src/tb_top.sv(140) @ 0: reporter [TB_TOP] Waveform VCD dumping enabled (ahb_lite_vip.vcd)
# UVM_INFO ../src/env/ahb_vip_env.sv(64) @ 0: uvm_test_top.env [ahb_vip_env] slave_vif not set - reusing master_vif (passthrough mode)
# UVM_INFO ../src/env/ahb_vip_env.sv(72) @ 0: uvm_test_top.env [ahb_vip_env] Scoreboard created
# UVM_INFO ../src/env/ahb_vip_env.sv(78) @ 0: uvm_test_top.env [ahb_vip_env] Coverage collectors created
# UVM_INFO ../src/mst/ahb_master_agent.sv(61) @ 0: uvm_test_top.env.master_agent [ahb_master_agent] ACTIVE mode - driver + sequencer created
# UVM_INFO ../src/slv/ahb_slave_agent.sv(64) @ 0: uvm_test_top.env.slave_agent [ahb_slave_agent] ACTIVE mode - driver + sequencer created (    auto responses)
# UVM_INFO ../src/env/ahb_vip_env.sv(92) @ 0: uvm_test_top.env [ahb_vip_env] Scoreboard connected: master_mon.ap -> scb, slave_mon.ap -> scb
# UVM_INFO ../src/env/ahb_vip_env.sv(99) @ 0: uvm_test_top.env [ahb_vip_env] Coverage connected: master_mon.ap -> master_cov, slave_mon.ap -> slave_cov
# UVM_INFO @ 0: reporter [UVMTOP] UVM testbench topology:
# ---------------------------------------------------------------
# Name                       Type                     Size  Value
# ---------------------------------------------------------------
# uvm_test_top               ahb_incr_burst_test      -     @475 
#   env                      ahb_vip_env              -     @490 
#     master_agent           ahb_master_agent         -     @505 
#       drv                  ahb_master_driver        -     @570 
#         rsp_port           uvm_analysis_port        -     @585 
#         seq_item_port      uvm_seq_item_pull_port   -     @577 
#       mon                  ahb_master_monitor       -     @563 
#         ap                 uvm_analysis_port        -     @704 
#       sqr                  ahb_master_sequencer     -     @593 
#         rsp_export         uvm_analysis_export      -     @600 
#         seq_item_export    uvm_seq_item_pull_imp    -     @694 
#         arbitration_queue  array                    0     -    
#         lock_queue         array                    0     -    
#         num_last_reqs      integral                 32    'd1  
#         num_last_rsps      integral                 32    'd1  
#     master_cov             ahb_coverage             -     @526 
#       analysis_imp         uvm_analysis_imp         -     @533 
#     scb                    ahb_scoreboard           -     @519 
#       master_export        uvm_analysis_imp_master  -     @718 
#       slave_export         uvm_analysis_imp_slave   -     @726 
#     slave_agent            ahb_slave_agent          -     @512 
#       drv                  ahb_slave_driver         -     @748 
#         rsp_port           uvm_analysis_port        -     @763 
#         seq_item_port      uvm_seq_item_pull_port   -     @755 
#       mon                  ahb_slave_monitor        -     @741 
#         ap                 uvm_analysis_port        -     @882 
#       sqr                  ahb_slave_sequencer      -     @771 
#         rsp_export         uvm_analysis_export      -     @778 
#         seq_item_export    uvm_seq_item_pull_imp    -     @872 
#         arbitration_queue  array                    0     -    
#         lock_queue         array                    0     -    
#         num_last_reqs      integral                 32    'd1  
#         num_last_rsps      integral                 32    'd1  
#     slave_cov              ahb_coverage             -     @541 
#       analysis_imp         uvm_analysis_imp         -     @548 
# ---------------------------------------------------------------
# 
# UVM_INFO verilog_src/questa_uvm_pkg-1.2/src/questa_uvm_pkg.sv(277) @ 0: reporter [Questa UVM] End Of Elaboration
# UVM_INFO ../src/mst_seq/ahb_incr_burst_seq.sv(51) @ 0: uvm_test_top.env.master_agent.sqr@@seq [ahb_incr_burst_seq] Starting INCR bursts: 16 iterations from 0x00003000
# UVM_INFO ../src/mst/ahb_master_driver.sv(181) @ 5000: uvm_test_top.env.master_agent.drv [ahb_master_driver] Flushed pending transactions (reset)
# UVM_INFO ../src/tb_top.sv(48) @ 95000: reporter [TB_TOP] Reset de-asserted
# UVM_INFO ../src/slv/ahb_slave_driver.sv(59) @ 95000: uvm_test_top.env.slave_agent.drv [ahb_slave_driver] Reset deasserted - slave driver active (    auto mode)
# UVM_INFO ../src/mst/ahb_master_driver.sv(68) @ 95000: uvm_test_top.env.master_agent.drv [ahb_master_driver] Reset deasserted - master driver active
# UVM_INFO ../src/mst/ahb_master_monitor.sv(75) @ 95000: uvm_test_top.env.master_agent.mon [ahb_master_monitor] Reset deasserted - master monitor active
# UVM_INFO ../src/slv/ahb_slave_monitor.sv(69) @ 95000: uvm_test_top.env.slave_agent.mon [ahb_slave_monitor] Reset deasserted - slave monitor active
# UVM_INFO ../src/mst/ahb_master_driver.sv(82) @ 95000: uvm_test_top.env.master_agent.drv [ahb_master_driver] Queueing [AHB_WRITE]: HADDR=0xfffffff0, HBURST=AHB_BURST_INCR4, HSIZE=AHB_SIZE_32B, 4 beats
# UVM_INFO ../src/mst/ahb_master_driver.sv(124) @ 95000: uvm_test_top.env.master_agent.drv [ahb_master_driver] Driving [AHB_WRITE]: HADDR=0xfffffff0, HBURST=AHB_BURST_INCR4, HSIZE=AHB_SIZE_32B, 4 beats               
# UVM_INFO ../src/mst/ahb_master_driver.sv(309) @ 125000: uvm_test_top.env.master_agent.drv [ahb_master_driver] Beat[0/4] addr=0xfffffff0 trans=AHB_TRANS_NONSEQ resp=AHB_RESP_OKAY wdata=0x4adb4d75
# UVM_INFO ../src/slv/ahb_slave_driver.sv(174) @ 125000: uvm_test_top.env.slave_agent.drv [ahb_slave_driver] Beat AHB_WRITE addr=0xfffffff0 resp=AHB_RESP_OKAY waits=1 wdata=0x4adb4d75
# UVM_INFO ../src/mst/ahb_master_monitor.sv(117) @ 125000: uvm_test_top.env.master_agent.mon [ahb_master_monitor] Beat[0] addr=0xfffffff0 wdata=0x4adb4d75 resp=AHB_RESP_OKAY
# UVM_INFO ../src/mst/ahb_master_driver.sv(309) @ 145000: uvm_test_top.env.master_agent.drv [ahb_master_driver] Beat[1/4] addr=0xfffffff4 trans=AHB_TRANS_SEQ resp=AHB_RESP_OKAY wdata=0x2b017f12
# UVM_INFO ../src/slv/ahb_slave_driver.sv(174) @ 145000: uvm_test_top.env.slave_agent.drv [ahb_slave_driver] Beat AHB_WRITE addr=0xfffffff4 resp=AHB_RESP_OKAY waits=1 wdata=0x2b017f12
# UVM_INFO ../src/mst/ahb_master_monitor.sv(117) @ 145000: uvm_test_top.env.master_agent.mon [ahb_master_monitor] Beat[1] addr=0xfffffff4 wdata=0x2b017f12 resp=AHB_RESP_OKAY
# UVM_INFO ../src/mst/ahb_master_driver.sv(309) @ 165000: uvm_test_top.env.master_agent.drv [ahb_master_driver] Beat[2/4] addr=0xfffffff8 trans=AHB_TRANS_SEQ resp=AHB_RESP_OKAY wdata=0xc16db4c1
# UVM_INFO ../src/slv/ahb_slave_driver.sv(174) @ 165000: uvm_test_top.env.slave_agent.drv [ahb_slave_driver] Beat AHB_WRITE addr=0xfffffff8 resp=AHB_RESP_OKAY waits=1 wdata=0xc16db4c1
# UVM_INFO ../src/mst/ahb_master_monitor.sv(117) @ 165000: uvm_test_top.env.master_agent.mon [ahb_master_monitor] Beat[2] addr=0xfffffff8 wdata=0xc16db4c1 resp=AHB_RESP_OKAY
# UVM_INFO ../src/mst/ahb_master_driver.sv(309) @ 185000: uvm_test_top.env.master_agent.drv [ahb_master_driver] Beat[3/4] addr=0xfffffffc trans=AHB_TRANS_SEQ resp=AHB_RESP_OKAY wdata=0x5c1980d8
# UVM_INFO ../src/mst/ahb_master_driver.sv(353) @ 185000: uvm_test_top.env.master_agent.drv [ahb_master_driver] Transaction complete: AHB_WRITE 0xfffffff0, 4 beats, burst=AHB_BURST_INCR4
# UVM_INFO ../src/slv/ahb_slave_driver.sv(174) @ 185000: uvm_test_top.env.slave_agent.drv [ahb_slave_driver] Beat AHB_WRITE addr=0xfffffffc resp=AHB_RESP_OKAY waits=1 wdata=0x5c1980d8
# UVM_INFO ../src/mst/ahb_master_monitor.sv(117) @ 185000: uvm_test_top.env.master_agent.mon [ahb_master_monitor] Beat[3] addr=0xfffffffc wdata=0x5c1980d8 resp=AHB_RESP_OKAY
# UVM_INFO ../src/mst/ahb_master_monitor.sv(222) @ 185000: uvm_test_top.env.master_agent.mon [ahb_master_monitor] Observed [AHB_WRITE]: HADDR=0xfffffff0, HBURST=AHB_BURST_INCR4, HSIZE=AHB_SIZE_32B, 4 beats
# UVM_INFO ../src/env/ahb_coverage.sv(127) @ 185000: uvm_test_top.env.master_cov [ahb_coverage] Sampled [AHB_WRITE]: burst=AHB_BURST_INCR4 size=AHB_SIZE_32B beats=4 error=0
# UVM_INFO ../src/slv/ahb_slave_monitor.sv(197) @ 185000: uvm_test_top.env.slave_agent.mon [ahb_slave_monitor] Observed [AHB_WRITE]: HADDR=0xfffffff0, HBURST=AHB_BURST_INCR4, HSIZE=AHB_SIZE_32B, 4 beats
# UVM_INFO ../src/env/ahb_scoreboard.sv(104) @ 185000: uvm_test_top.env.scb [ahb_scoreboard] MATCH #1: [AHB_WRITE] HADDR=0xfffffff0 AHB_BURST_INCR4 4 beats
# UVM_INFO ../src/env/ahb_coverage.sv(127) @ 185000: uvm_test_top.env.slave_cov [ahb_coverage] Sampled [AHB_WRITE]: burst=AHB_BURST_INCR4 size=AHB_SIZE_32B beats=4 error=0
# UVM_INFO ../src/mst/ahb_master_driver.sv(82) @ 185000: uvm_test_top.env.master_agent.drv [ahb_master_driver] Queueing [AHB_READ]: HADDR=0xfffffff0, HBURST=AHB_BURST_INCR4, HSIZE=AHB_SIZE_32B, 4 beats
# UVM_INFO ../src/mst/ahb_master_driver.sv(124) @ 185000: uvm_test_top.env.master_agent.drv [ahb_master_driver] Driving [AHB_READ]: HADDR=0xfffffff0, HBURST=AHB_BURST_INCR4, HSIZE=AHB_SIZE_32B, 4 beats               
# UVM_INFO ../src/mst/ahb_master_driver.sv(309) @ 235000: uvm_test_top.env.master_agent.drv [ahb_master_driver] Beat[0/4] addr=0xfffffff0 trans=AHB_TRANS_NONSEQ resp=AHB_RESP_OKAY rdata=0x4adb4d75
# UVM_INFO ../src/slv/ahb_slave_driver.sv(174) @ 235000: uvm_test_top.env.slave_agent.drv [ahb_slave_driver] Beat AHB_READ addr=0xfffffff0 resp=AHB_RESP_OKAY waits=2 rdata=0x4adb4d75
# UVM_INFO ../src/mst/ahb_master_monitor.sv(117) @ 235000: uvm_test_top.env.master_agent.mon [ahb_master_monitor] Beat[0] addr=0xfffffff0 rdata=0x4adb4d75 resp=AHB_RESP_OKAY
# UVM_INFO ../src/mst/ahb_master_driver.sv(309) @ 245000: uvm_test_top.env.master_agent.drv [ahb_master_driver] Beat[1/4] addr=0xfffffff4 trans=AHB_TRANS_SEQ resp=AHB_RESP_OKAY rdata=0x2b017f12
# UVM_INFO ../src/slv/ahb_slave_driver.sv(174) @ 245000: uvm_test_top.env.slave_agent.drv [ahb_slave_driver] Beat AHB_READ addr=0xfffffff4 resp=AHB_RESP_OKAY waits=0 rdata=0x2b017f12
# UVM_INFO ../src/mst/ahb_master_monitor.sv(117) @ 245000: uvm_test_top.env.master_agent.mon [ahb_master_monitor] Beat[1] addr=0xfffffff4 rdata=0x2b017f12 resp=AHB_RESP_OKAY
# UVM_INFO ../src/mst/ahb_master_driver.sv(309) @ 255000: uvm_test_top.env.master_agent.drv [ahb_master_driver] Beat[2/4] addr=0xfffffff8 trans=AHB_TRANS_SEQ resp=AHB_RESP_OKAY rdata=0xc16db4c1
# UVM_INFO ../src/slv/ahb_slave_driver.sv(174) @ 255000: uvm_test_top.env.slave_agent.drv [ahb_slave_driver] Beat AHB_READ addr=0xfffffff8 resp=AHB_RESP_OKAY waits=0 rdata=0xc16db4c1
# UVM_INFO ../src/mst/ahb_master_monitor.sv(117) @ 255000: uvm_test_top.env.master_agent.mon [ahb_master_monitor] Beat[2] addr=0xfffffff8 rdata=0xc16db4c1 resp=AHB_RESP_OKAY
# UVM_INFO ../src/mst/ahb_master_driver.sv(309) @ 265000: uvm_test_top.env.master_agent.drv [ahb_master_driver] Beat[3/4] addr=0xfffffffc trans=AHB_TRANS_SEQ resp=AHB_RESP_OKAY rdata=0x5c1980d8
# UVM_INFO ../src/mst/ahb_master_driver.sv(353) @ 265000: uvm_test_top.env.master_agent.drv [ahb_master_driver] Transaction complete: AHB_READ 0xfffffff0, 4 beats, burst=AHB_BURST_INCR4
# UVM_INFO ../src/slv/ahb_slave_driver.sv(174) @ 265000: uvm_test_top.env.slave_agent.drv [ahb_slave_driver] Beat AHB_READ addr=0xfffffffc resp=AHB_RESP_OKAY waits=0 rdata=0x5c1980d8
# UVM_INFO ../src/mst/ahb_master_monitor.sv(117) @ 265000: uvm_test_top.env.master_agent.mon [ahb_master_monitor] Beat[3] addr=0xfffffffc rdata=0x5c1980d8 resp=AHB_RESP_OKAY
# UVM_INFO ../src/mst/ahb_master_monitor.sv(222) @ 265000: uvm_test_top.env.master_agent.mon [ahb_master_monitor] Observed [AHB_READ]: HADDR=0xfffffff0, HBURST=AHB_BURST_INCR4, HSIZE=AHB_SIZE_32B, 4 beats
# UVM_INFO ../src/env/ahb_coverage.sv(127) @ 265000: uvm_test_top.env.master_cov [ahb_coverage] Sampled [AHB_READ]: burst=AHB_BURST_INCR4 size=AHB_SIZE_32B beats=4 error=0
# UVM_INFO ../src/slv/ahb_slave_monitor.sv(197) @ 265000: uvm_test_top.env.slave_agent.mon [ahb_slave_monitor] Observed [AHB_READ]: HADDR=0xfffffff0, HBURST=AHB_BURST_INCR4, HSIZE=AHB_SIZE_32B, 4 beats
# UVM_INFO ../src/env/ahb_scoreboard.sv(104) @ 265000: uvm_test_top.env.scb [ahb_scoreboard] MATCH #2: [AHB_READ] HADDR=0xfffffff0 AHB_BURST_INCR4 4 beats
# UVM_INFO ../src/env/ahb_coverage.sv(127) @ 265000: uvm_test_top.env.slave_cov [ahb_coverage] Sampled [AHB_READ]: burst=AHB_BURST_INCR4 size=AHB_SIZE_32B beats=4 error=0
# UVM_INFO ../src/mst_seq/ahb_base_seq.sv(138) @ 265000: uvm_test_top.env.master_agent.sqr@@seq [ahb_incr_burst_seq] AHB_BURST_INCR4 AHB_SIZE_32B beat 0 @0xfffffff0 ok
# UVM_INFO ../src/mst_seq/ahb_base_seq.sv(138) @ 265000: uvm_test_top.env.master_agent.sqr@@seq [ahb_incr_burst_seq] AHB_BURST_INCR4 AHB_SIZE_32B beat 1 @0xfffffff4 ok
# UVM_INFO ../src/mst_seq/ahb_base_seq.sv(138) @ 265000: uvm_test_top.env.master_agent.sqr@@seq [ahb_incr_burst_seq] AHB_BURST_INCR4 AHB_SIZE_32B beat 2 @0xfffffff8 ok
# UVM_INFO ../src/mst_seq/ahb_base_seq.sv(138) @ 265000: uvm_test_top.env.master_agent.sqr@@seq [ahb_incr_burst_seq] AHB_BURST_INCR4 AHB_SIZE_32B beat 3 @0xfffffffc ok
# UVM_INFO ../src/mst/ahb_master_driver.sv(82) @ 265000: uvm_test_top.env.master_agent.drv [ahb_master_driver] Queueing [AHB_WRITE]: HADDR=0x00003040, HBURST=AHB_BURST_INCR4, HSIZE=AHB_SIZE_32B, 4 beats
# UVM_INFO ../src/mst/ahb_master_driver.sv(124) @ 265000: uvm_test_top.env.master_agent.drv [ahb_master_driver] Driving [AHB_WRITE]: HADDR=0x00003040, HBURST=AHB_BURST_INCR4, HSIZE=AHB_SIZE_32B, 4 beats               
# UVM_INFO ../src/mst/ahb_master_driver.sv(309) @ 315000: uvm_test_top.env.master_agent.drv [ahb_master_driver] Beat[0/4] addr=0x00003040 trans=AHB_TRANS_NONSEQ resp=AHB_RESP_OKAY wdata=0xfc1734fe
# UVM_INFO ../src/slv/ahb_slave_driver.sv(174) @ 315000: uvm_test_top.env.slave_agent.drv [ahb_slave_driver] Beat AHB_WRITE addr=0x00003040 resp=AHB_RESP_OKAY waits=2 wdata=0xfc1734fe
# UVM_INFO ../src/mst/ahb_master_monitor.sv(117) @ 315000: uvm_test_top.env.master_agent.mon [ahb_master_monitor] Beat[0] addr=0x00003040 wdata=0xfc1734fe resp=AHB_RESP_OKAY
# UVM_INFO ../src/mst/ahb_master_driver.sv(309) @ 325000: uvm_test_top.env.master_agent.drv [ahb_master_driver] Beat[1/4] addr=0x00003044 trans=AHB_TRANS_SEQ resp=AHB_RESP_OKAY wdata=0x41234156
# UVM_INFO ../src/slv/ahb_slave_driver.sv(174) @ 325000: uvm_test_top.env.slave_agent.drv [ahb_slave_driver] Beat AHB_WRITE addr=0x00003044 resp=AHB_RESP_OKAY waits=0 wdata=0x41234156
# UVM_INFO ../src/mst/ahb_master_monitor.sv(117) @ 325000: uvm_test_top.env.master_agent.mon [ahb_master_monitor] Beat[1] addr=0x00003044 wdata=0x41234156 resp=AHB_RESP_OKAY
# UVM_INFO ../src/mst/ahb_master_driver.sv(309) @ 335000: uvm_test_top.env.master_agent.drv [ahb_master_driver] Beat[2/4] addr=0x00003048 trans=AHB_TRANS_SEQ resp=AHB_RESP_OKAY wdata=0x1261ba32
# UVM_INFO ../src/slv/ahb_slave_driver.sv(174) @ 335000: uvm_test_top.env.slave_agent.drv [ahb_slave_driver] Beat AHB_WRITE addr=0x00003048 resp=AHB_RESP_OKAY waits=0 wdata=0x1261ba32
# UVM_INFO ../src/mst/ahb_master_monitor.sv(117) @ 335000: uvm_test_top.env.master_agent.mon [ahb_master_monitor] Beat[2] addr=0x00003048 wdata=0x1261ba32 resp=AHB_RESP_OKAY
# UVM_INFO ../src/mst/ahb_master_driver.sv(309) @ 355000: uvm_test_top.env.master_agent.drv [ahb_master_driver] Beat[3/4] addr=0x0000304c trans=AHB_TRANS_SEQ resp=AHB_RESP_OKAY wdata=0x74043d9e
# UVM_INFO ../src/mst/ahb_master_driver.sv(353) @ 355000: uvm_test_top.env.master_agent.drv [ahb_master_driver] Transaction complete: AHB_WRITE 0x00003040, 4 beats, burst=AHB_BURST_INCR4
# UVM_INFO ../src/slv/ahb_slave_driver.sv(174) @ 355000: uvm_test_top.env.slave_agent.drv [ahb_slave_driver] Beat AHB_WRITE addr=0x0000304c resp=AHB_RESP_OKAY waits=1 wdata=0x74043d9e
# UVM_INFO ../src/slv/ahb_slave_monitor.sv(197) @ 355000: uvm_test_top.env.slave_agent.mon [ahb_slave_monitor] Observed [AHB_WRITE]: HADDR=0x00003040, HBURST=AHB_BURST_INCR4, HSIZE=AHB_SIZE_32B, 4 beats
# UVM_INFO ../src/env/ahb_coverage.sv(127) @ 355000: uvm_test_top.env.slave_cov [ahb_coverage] Sampled [AHB_WRITE]: burst=AHB_BURST_INCR4 size=AHB_SIZE_32B beats=4 error=0
# UVM_INFO ../src/mst/ahb_master_monitor.sv(117) @ 355000: uvm_test_top.env.master_agent.mon [ahb_master_monitor] Beat[3] addr=0x0000304c wdata=0x74043d9e resp=AHB_RESP_OKAY
# UVM_INFO ../src/mst/ahb_master_monitor.sv(222) @ 355000: uvm_test_top.env.master_agent.mon [ahb_master_monitor] Observed [AHB_WRITE]: HADDR=0x00003040, HBURST=AHB_BURST_INCR4, HSIZE=AHB_SIZE_32B, 4 beats
# UVM_INFO ../src/env/ahb_coverage.sv(127) @ 355000: uvm_test_top.env.master_cov [ahb_coverage] Sampled [AHB_WRITE]: burst=AHB_BURST_INCR4 size=AHB_SIZE_32B beats=4 error=0
# UVM_INFO ../src/env/ahb_scoreboard.sv(104) @ 355000: uvm_test_top.env.scb [ahb_scoreboard] MATCH #3: [AHB_WRITE] HADDR=0x00003040 AHB_BURST_INCR4 4 beats
# UVM_INFO ../src/mst/ahb_master_driver.sv(82) @ 355000: uvm_test_top.env.master_agent.drv [ahb_master_driver] Queueing [AHB_READ]: HADDR=0x00003040, HBURST=AHB_BURST_INCR4, HSIZE=AHB_SIZE_32B, 4 beats
# UVM_INFO ../src/mst/ahb_master_driver.sv(124) @ 355000: uvm_test_top.env.master_agent.drv [ahb_master_driver] Driving [AHB_READ]: HADDR=0x00003040, HBURST=AHB_BURST_INCR4, HSIZE=AHB_SIZE_32B, 4 beats               
# UVM_INFO ../src/mst/ahb_master_driver.sv(309) @ 385000: uvm_test_top.env.master_agent.drv [ahb_master_driver] Beat[0/4] addr=0x00003040 trans=AHB_TRANS_NONSEQ resp=AHB_RESP_OKAY rdata=0xfc1734fe
# UVM_INFO ../src/slv/ahb_slave_driver.sv(174) @ 385000: uvm_test_top.env.slave_agent.drv [ahb_slave_driver] Beat AHB_READ addr=0x00003040 resp=AHB_RESP_OKAY waits=0 rdata=0xfc1734fe
# UVM_INFO ../src/mst/ahb_master_monitor.sv(117) @ 385000: uvm_test_top.env.master_agent.mon [ahb_master_monitor] Beat[0] addr=0x00003040 rdata=0xfc1734fe resp=AHB_RESP_OKAY
# UVM_INFO ../src/mst/ahb_master_driver.sv(309) @ 405000: uvm_test_top.env.master_agent.drv [ahb_master_driver] Beat[1/4] addr=0x00003044 trans=AHB_TRANS_SEQ resp=AHB_RESP_OKAY rdata=0x41234156
# UVM_INFO ../src/slv/ahb_slave_driver.sv(174) @ 405000: uvm_test_top.env.slave_agent.drv [ahb_slave_driver] Beat AHB_READ addr=0x00003044 resp=AHB_RESP_OKAY waits=1 rdata=0x41234156
# UVM_INFO ../src/mst/ahb_master_monitor.sv(117) @ 405000: uvm_test_top.env.master_agent.mon [ahb_master_monitor] Beat[1] addr=0x00003044 rdata=0x41234156 resp=AHB_RESP_OKAY
# UVM_INFO ../src/mst/ahb_master_driver.sv(309) @ 435000: uvm_test_top.env.master_agent.drv [ahb_master_driver] Beat[2/4] addr=0x00003048 trans=AHB_TRANS_SEQ resp=AHB_RESP_OKAY rdata=0x1261ba32
# UVM_INFO ../src/slv/ahb_slave_driver.sv(174) @ 435000: uvm_test_top.env.slave_agent.drv [ahb_slave_driver] Beat AHB_READ addr=0x00003048 resp=AHB_RESP_OKAY waits=2 rdata=0x1261ba32
# UVM_INFO ../src/mst/ahb_master_monitor.sv(117) @ 435000: uvm_test_top.env.master_agent.mon [ahb_master_monitor] Beat[2] addr=0x00003048 rdata=0x1261ba32 resp=AHB_RESP_OKAY
# UVM_INFO ../src/mst/ahb_master_driver.sv(309) @ 445000: uvm_test_top.env.master_agent.drv [ahb_master_driver] Beat[3/4] addr=0x0000304c trans=AHB_TRANS_SEQ resp=AHB_RESP_OKAY rdata=0x74043d9e
# UVM_INFO ../src/mst/ahb_master_driver.sv(353) @ 445000: uvm_test_top.env.master_agent.drv [ahb_master_driver] Transaction complete: AHB_READ 0x00003040, 4 beats, burst=AHB_BURST_INCR4
# UVM_INFO ../src/slv/ahb_slave_driver.sv(174) @ 445000: uvm_test_top.env.slave_agent.drv [ahb_slave_driver] Beat AHB_READ addr=0x0000304c resp=AHB_RESP_OKAY waits=0 rdata=0x74043d9e
# UVM_INFO ../src/mst/ahb_master_monitor.sv(117) @ 445000: uvm_test_top.env.master_agent.mon [ahb_master_monitor] Beat[3] addr=0x0000304c rdata=0x74043d9e resp=AHB_RESP_OKAY
# UVM_INFO ../src/mst/ahb_master_monitor.sv(222) @ 445000: uvm_test_top.env.master_agent.mon [ahb_master_monitor] Observed [AHB_READ]: HADDR=0x00003040, HBURST=AHB_BURST_INCR4, HSIZE=AHB_SIZE_32B, 4 beats
# UVM_INFO ../src/env/ahb_coverage.sv(127) @ 445000: uvm_test_top.env.master_cov [ahb_coverage] Sampled [AHB_READ]: burst=AHB_BURST_INCR4 size=AHB_SIZE_32B beats=4 error=0
# UVM_INFO ../src/slv/ahb_slave_monitor.sv(197) @ 445000: uvm_test_top.env.slave_agent.mon [ahb_slave_monitor] Observed [AHB_READ]: HADDR=0x00003040, HBURST=AHB_BURST_INCR4, HSIZE=AHB_SIZE_32B, 4 beats
# UVM_INFO ../src/env/ahb_scoreboard.sv(104) @ 445000: uvm_test_top.env.scb [ahb_scoreboard] MATCH #4: [AHB_READ] HADDR=0x00003040 AHB_BURST_INCR4 4 beats
# UVM_INFO ../src/env/ahb_coverage.sv(127) @ 445000: uvm_test_top.env.slave_cov [ahb_coverage] Sampled [AHB_READ]: burst=AHB_BURST_INCR4 size=AHB_SIZE_32B beats=4 error=0
# UVM_INFO ../src/mst_seq/ahb_base_seq.sv(138) @ 445000: uvm_test_top.env.master_agent.sqr@@seq [ahb_incr_burst_seq] AHB_BURST_INCR4 AHB_SIZE_32B beat 0 @0x00003040 ok
# UVM_INFO ../src/mst_seq/ahb_base_seq.sv(138) @ 445000: uvm_test_top.env.master_agent.sqr@@seq [ahb_incr_burst_seq] AHB_BURST_INCR4 AHB_SIZE_32B beat 1 @0x00003044 ok
# UVM_INFO ../src/mst_seq/ahb_base_seq.sv(138) @ 445000: uvm_test_top.env.master_agent.sqr@@seq [ahb_incr_burst_seq] AHB_BURST_INCR4 AHB_SIZE_32B beat 2 @0x00003048 ok
# UVM_INFO ../src/mst_seq/ahb_base_seq.sv(138) @ 445000: uvm_test_top.env.master_agent.sqr@@seq [ahb_incr_burst_seq] AHB_BURST_INCR4 AHB_SIZE_32B beat 3 @0x0000304c ok
# UVM_INFO ../src/mst/ahb_master_driver.sv(82) @ 445000: uvm_test_top.env.master_agent.drv [ahb_master_driver] Queueing [AHB_WRITE]: HADDR=0x000030a4, HBURST=AHB_BURST_INCR8, HSIZE=AHB_SIZE_8B, 8 beats
# UVM_INFO ../src/mst/ahb_master_driver.sv(124) @ 445000: uvm_test_top.env.master_agent.drv [ahb_master_driver] Driving [AHB_WRITE]: HADDR=0x000030a4, HBURST=AHB_BURST_INCR8, HSIZE=AHB_SIZE_8B, 8 beats               
# UVM_INFO ../src/mst/ahb_master_driver.sv(309) @ 495000: uvm_test_top.env.master_agent.drv [ahb_master_driver] Beat[0/8] addr=0x000030a4 trans=AHB_TRANS_NONSEQ resp=AHB_RESP_OKAY wdata=0xbb23a4d3
# UVM_INFO ../src/slv/ahb_slave_driver.sv(174) @ 495000: uvm_test_top.env.slave_agent.drv [ahb_slave_driver] Beat AHB_WRITE addr=0x000030a4 resp=AHB_RESP_OKAY waits=2 wdata=0xbb23a4d3
# UVM_INFO ../src/mst/ahb_master_monitor.sv(117) @ 495000: uvm_test_top.env.master_agent.mon [ahb_master_monitor] Beat[0] addr=0x000030a4 wdata=0xbb23a4d3 resp=AHB_RESP_OKAY
# UVM_INFO ../src/mst/ahb_master_driver.sv(309) @ 505000: uvm_test_top.env.master_agent.drv [ahb_master_driver] Beat[1/8] addr=0x000030a5 trans=AHB_TRANS_SEQ resp=AHB_RESP_OKAY wdata=0xca3f011e
# UVM_INFO ../src/slv/ahb_slave_driver.sv(174) @ 505000: uvm_test_top.env.slave_agent.drv [ahb_slave_driver] Beat AHB_WRITE addr=0x000030a5 resp=AHB_RESP_OKAY waits=0 wdata=0xca3f011e
# UVM_INFO ../src/mst/ahb_master_monitor.sv(117) @ 505000: uvm_test_top.env.master_agent.mon [ahb_master_monitor] Beat[1] addr=0x000030a5 wdata=0xca3f011e resp=AHB_RESP_OKAY
# UVM_INFO ../src/mst/ahb_master_driver.sv(309) @ 525000: uvm_test_top.env.master_agent.drv [ahb_master_driver] Beat[2/8] addr=0x000030a6 trans=AHB_TRANS_SEQ resp=AHB_RESP_OKAY wdata=0x10f96eff
# UVM_INFO ../src/slv/ahb_slave_driver.sv(174) @ 525000: uvm_test_top.env.slave_agent.drv [ahb_slave_driver] Beat AHB_WRITE addr=0x000030a6 resp=AHB_RESP_OKAY waits=1 wdata=0x10f96eff
# UVM_INFO ../src/mst/ahb_master_monitor.sv(117) @ 525000: uvm_test_top.env.master_agent.mon [ahb_master_monitor] Beat[2] addr=0x000030a6 wdata=0x10f96eff resp=AHB_RESP_OKAY
# UVM_INFO ../src/mst/ahb_master_driver.sv(309) @ 545000: uvm_test_top.env.master_agent.drv [ahb_master_driver] Beat[3/8] addr=0x000030a7 trans=AHB_TRANS_SEQ resp=AHB_RESP_OKAY wdata=0x087d0b0b
# UVM_INFO ../src/slv/ahb_slave_driver.sv(174) @ 545000: uvm_test_top.env.slave_agent.drv [ahb_slave_driver] Beat AHB_WRITE addr=0x000030a7 resp=AHB_RESP_OKAY waits=1 wdata=0x087d0b0b
# UVM_INFO ../src/mst/ahb_master_monitor.sv(117) @ 545000: uvm_test_top.env.master_agent.mon [ahb_master_monitor] Beat[3] addr=0x000030a7 wdata=0x087d0b0b resp=AHB_RESP_OKAY
# UVM_INFO ../src/mst/ahb_master_driver.sv(309) @ 575000: uvm_test_top.env.master_agent.drv [ahb_master_driver] Beat[4/8] addr=0x000030a8 trans=AHB_TRANS_SEQ resp=AHB_RESP_OKAY wdata=0x2e5520f1
# UVM_INFO ../src/slv/ahb_slave_driver.sv(174) @ 575000: uvm_test_top.env.slave_agent.drv [ahb_slave_driver] Beat AHB_WRITE addr=0x000030a8 resp=AHB_RESP_OKAY waits=2 wdata=0x2e5520f1
# UVM_INFO ../src/mst/ahb_master_monitor.sv(117) @ 575000: uvm_test_top.env.master_agent.mon [ahb_master_monitor] Beat[4] addr=0x000030a8 wdata=0x2e5520f1 resp=AHB_RESP_OKAY
# UVM_INFO ../src/mst/ahb_master_driver.sv(309) @ 585000: uvm_test_top.env.master_agent.drv [ahb_master_driver] Beat[5/8] addr=0x000030a9 trans=AHB_TRANS_SEQ resp=AHB_RESP_OKAY wdata=0x8fe4aaef
# UVM_INFO ../src/slv/ahb_slave_driver.sv(174) @ 585000: uvm_test_top.env.slave_agent.drv [ahb_slave_driver] Beat AHB_WRITE addr=0x000030a9 resp=AHB_RESP_OKAY waits=0 wdata=0x8fe4aaef
# UVM_INFO ../src/mst/ahb_master_monitor.sv(117) @ 585000: uvm_test_top.env.master_agent.mon [ahb_master_monitor] Beat[5] addr=0x000030a9 wdata=0x8fe4aaef resp=AHB_RESP_OKAY
# UVM_INFO ../src/mst/ahb_master_driver.sv(309) @ 595000: uvm_test_top.env.master_agent.drv [ahb_master_driver] Beat[6/8] addr=0x000030aa trans=AHB_TRANS_SEQ resp=AHB_RESP_OKAY wdata=0xa6596886
# UVM_INFO ../src/slv/ahb_slave_driver.sv(174) @ 595000: uvm_test_top.env.slave_agent.drv [ahb_slave_driver] Beat AHB_WRITE addr=0x000030aa resp=AHB_RESP_OKAY waits=0 wdata=0xa6596886
# UVM_INFO ../src/mst/ahb_master_monitor.sv(117) @ 595000: uvm_test_top.env.master_agent.mon [ahb_master_monitor] Beat[6] addr=0x000030aa wdata=0xa6596886 resp=AHB_RESP_OKAY
# UVM_INFO ../src/mst/ahb_master_driver.sv(309) @ 615000: uvm_test_top.env.master_agent.drv [ahb_master_driver] Beat[7/8] addr=0x000030ab trans=AHB_TRANS_SEQ resp=AHB_RESP_OKAY wdata=0x62d94420
# UVM_INFO ../src/mst/ahb_master_driver.sv(353) @ 615000: uvm_test_top.env.master_agent.drv [ahb_master_driver] Transaction complete: AHB_WRITE 0x000030a4, 8 beats, burst=AHB_BURST_INCR8
# UVM_INFO ../src/slv/ahb_slave_driver.sv(174) @ 615000: uvm_test_top.env.slave_agent.drv [ahb_slave_driver] Beat AHB_WRITE addr=0x000030ab resp=AHB_RESP_OKAY waits=1 wdata=0x62d94420
# UVM_INFO ../src/slv/ahb_slave_monitor.sv(197) @ 615000: uvm_test_top.env.slave_agent.mon [ahb_slave_monitor] Observed [AHB_WRITE]: HADDR=0x000030a4, HBURST=AHB_BURST_INCR8, HSIZE=AHB_SIZE_8B, 8 beats
# UVM_INFO ../src/env/ahb_coverage.sv(127) @ 615000: uvm_test_top.env.slave_cov [ahb_coverage] Sampled [AHB_WRITE]: burst=AHB_BURST_INCR8 size=AHB_SIZE_8B beats=8 error=0
# UVM_INFO ../src/mst/ahb_master_monitor.sv(117) @ 615000: uvm_test_top.env.master_agent.mon [ahb_master_monitor] Beat[7] addr=0x000030ab wdata=0x62d94420 resp=AHB_RESP_OKAY
# UVM_INFO ../src/mst/ahb_master_monitor.sv(222) @ 615000: uvm_test_top.env.master_agent.mon [ahb_master_monitor] Observed [AHB_WRITE]: HADDR=0x000030a4, HBURST=AHB_BURST_INCR8, HSIZE=AHB_SIZE_8B, 8 beats
# UVM_INFO ../src/env/ahb_coverage.sv(127) @ 615000: uvm_test_top.env.master_cov [ahb_coverage] Sampled [AHB_WRITE]: burst=AHB_BURST_INCR8 size=AHB_SIZE_8B beats=8 error=0
# UVM_INFO ../src/env/ahb_scoreboard.sv(104) @ 615000: uvm_test_top.env.scb [ahb_scoreboard] MATCH #5: [AHB_WRITE] HADDR=0x000030a4 AHB_BURST_INCR8 8 beats
# UVM_INFO ../src/mst/ahb_master_driver.sv(82) @ 615000: uvm_test_top.env.master_agent.drv [ahb_master_driver] Queueing [AHB_READ]: HADDR=0x000030a4, HBURST=AHB_BURST_INCR8, HSIZE=AHB_SIZE_8B, 8 beats
# UVM_INFO ../src/mst/ahb_master_driver.sv(124) @ 615000: uvm_test_top.env.master_agent.drv [ahb_master_driver] Driving [AHB_READ]: HADDR=0x000030a4, HBURST=AHB_BURST_INCR8, HSIZE=AHB_SIZE_8B, 8 beats               
# UVM_INFO ../src/mst/ahb_master_driver.sv(309) @ 665000: uvm_test_top.env.master_agent.drv [ahb_master_driver] Beat[0/8] addr=0x000030a4 trans=AHB_TRANS_NONSEQ resp=AHB_RESP_OKAY rdata=0xbb23a4d3
# UVM_INFO ../src/slv/ahb_slave_driver.sv(174) @ 665000: uvm_test_top.env.slave_agent.drv [ahb_slave_driver] Beat AHB_READ addr=0x000030a4 resp=AHB_RESP_OKAY waits=2 rdata=0xbb23a4d3
# UVM_INFO ../src/mst/ahb_master_monitor.sv(117) @ 665000: uvm_test_top.env.master_agent.mon [ahb_master_monitor] Beat[0] addr=0x000030a4 rdata=0xbb23a4d3 resp=AHB_RESP_OKAY
# UVM_INFO ../src/mst/ahb_master_driver.sv(309) @ 675000: uvm_test_top.env.master_agent.drv [ahb_master_driver] Beat[1/8] addr=0x000030a5 trans=AHB_TRANS_SEQ resp=AHB_RESP_OKAY rdata=0xca3f011e
# UVM_INFO ../src/slv/ahb_slave_driver.sv(174) @ 675000: uvm_test_top.env.slave_agent.drv [ahb_slave_driver] Beat AHB_READ addr=0x000030a5 resp=AHB_RESP_OKAY waits=0 rdata=0xca3f011e
# UVM_INFO ../src/mst/ahb_master_monitor.sv(117) @ 675000: uvm_test_top.env.master_agent.mon [ahb_master_monitor] Beat[1] addr=0x000030a5 rdata=0xca3f011e resp=AHB_RESP_OKAY
# UVM_INFO ../src/mst/ahb_master_driver.sv(309) @ 705000: uvm_test_top.env.master_agent.drv [ahb_master_driver] Beat[2/8] addr=0x000030a6 trans=AHB_TRANS_SEQ resp=AHB_RESP_OKAY rdata=0x10f96eff
# UVM_INFO ../src/slv/ahb_slave_driver.sv(174) @ 705000: uvm_test_top.env.slave_agent.drv [ahb_slave_driver] Beat AHB_READ addr=0x000030a6 resp=AHB_RESP_OKAY waits=2 rdata=0x10f96eff
# UVM_INFO ../src/mst/ahb_master_monitor.sv(117) @ 705000: uvm_test_top.env.master_agent.mon [ahb_master_monitor] Beat[2] addr=0x000030a6 rdata=0x10f96eff resp=AHB_RESP_OKAY
# UVM_INFO ../src/mst/ahb_master_driver.sv(309) @ 715000: uvm_test_top.env.master_agent.drv [ahb_master_driver] Beat[3/8] addr=0x000030a7 trans=AHB_TRANS_SEQ resp=AHB_RESP_OKAY rdata=0x087d0b0b
# UVM_INFO ../src/slv/ahb_slave_driver.sv(174) @ 715000: uvm_test_top.env.slave_agent.drv [ahb_slave_driver] Beat AHB_READ addr=0x000030a7 resp=AHB_RESP_OKAY waits=0 rdata=0x087d0b0b
# UVM_INFO ../src/mst/ahb_master_monitor.sv(117) @ 715000: uvm_test_top.env.master_agent.mon [ahb_master_monitor] Beat[3] addr=0x000030a7 rdata=0x087d0b0b resp=AHB_RESP_OKAY
# UVM_INFO ../src/mst/ahb_master_driver.sv(309) @ 725000: uvm_test_top.env.master_agent.drv [ahb_master_driver] Beat[4/8] addr=0x000030a8 trans=AHB_TRANS_SEQ resp=AHB_RESP_OKAY rdata=0x2e5520f1
# UVM_INFO ../src/slv/ahb_slave_driver.sv(174) @ 725000: uvm_test_top.env.slave_agent.drv [ahb_slave_driver] Beat AHB_READ addr=0x000030a8 resp=AHB_RESP_OKAY waits=0 rdata=0x2e5520f1
# UVM_INFO ../src/mst/ahb_master_monitor.sv(117) @ 725000: uvm_test_top.env.master_agent.mon [ahb_master_monitor] Beat[4] addr=0x000030a8 rdata=0x2e5520f1 resp=AHB_RESP_OKAY
# UVM_INFO ../src/mst/ahb_master_driver.sv(309) @ 745000: uvm_test_top.env.master_agent.drv [ahb_master_driver] Beat[5/8] addr=0x000030a9 trans=AHB_TRANS_SEQ resp=AHB_RESP_OKAY rdata=0x8fe4aaef
# UVM_INFO ../src/slv/ahb_slave_driver.sv(174) @ 745000: uvm_test_top.env.slave_agent.drv [ahb_slave_driver] Beat AHB_READ addr=0x000030a9 resp=AHB_RESP_OKAY waits=1 rdata=0x8fe4aaef
# UVM_INFO ../src/mst/ahb_master_monitor.sv(117) @ 745000: uvm_test_top.env.master_agent.mon [ahb_master_monitor] Beat[5] addr=0x000030a9 rdata=0x8fe4aaef resp=AHB_RESP_OKAY
# UVM_INFO ../src/mst/ahb_master_driver.sv(309) @ 775000: uvm_test_top.env.master_agent.drv [ahb_master_driver] Beat[6/8] addr=0x000030aa trans=AHB_TRANS_SEQ resp=AHB_RESP_OKAY rdata=0xa6596886
# UVM_INFO ../src/slv/ahb_slave_driver.sv(174) @ 775000: uvm_test_top.env.slave_agent.drv [ahb_slave_driver] Beat AHB_READ addr=0x000030aa resp=AHB_RESP_OKAY waits=2 rdata=0xa6596886
# UVM_INFO ../src/mst/ahb_master_monitor.sv(117) @ 775000: uvm_test_top.env.master_agent.mon [ahb_master_monitor] Beat[6] addr=0x000030aa rdata=0xa6596886 resp=AHB_RESP_OKAY
# UVM_INFO ../src/mst/ahb_master_driver.sv(309) @ 785000: uvm_test_top.env.master_agent.drv [ahb_master_driver] Beat[7/8] addr=0x000030ab trans=AHB_TRANS_SEQ resp=AHB_RESP_OKAY rdata=0x62d94420
# UVM_INFO ../src/mst/ahb_master_driver.sv(353) @ 785000: uvm_test_top.env.master_agent.drv [ahb_master_driver] Transaction complete: AHB_READ 0x000030a4, 8 beats, burst=AHB_BURST_INCR8
# UVM_INFO ../src/slv/ahb_slave_driver.sv(174) @ 785000: uvm_test_top.env.slave_agent.drv [ahb_slave_driver] Beat AHB_READ addr=0x000030ab resp=AHB_RESP_OKAY waits=0 rdata=0x62d94420
# UVM_INFO ../src/mst/ahb_master_monitor.sv(117) @ 785000: uvm_test_top.env.master_agent.mon [ahb_master_monitor] Beat[7] addr=0x000030ab rdata=0x62d94420 resp=AHB_RESP_OKAY
# UVM_INFO ../src/mst/ahb_master_monitor.sv(222) @ 785000: uvm_test_top.env.master_agent.mon [ahb_master_monitor] Observed [AHB_READ]: HADDR=0x000030a4, HBURST=AHB_BURST_INCR8, HSIZE=AHB_SIZE_8B, 8 beats
# UVM_INFO ../src/env/ahb_coverage.sv(127) @ 785000: uvm_test_top.env.master_cov [ahb_coverage] Sampled [AHB_READ]: burst=AHB_BURST_INCR8 size=AHB_SIZE_8B beats=8 error=0
# UVM_INFO ../src/slv/ahb_slave_monitor.sv(197) @ 785000: uvm_test_top.env.slave_agent.mon [ahb_slave_monitor] Observed [AHB_READ]: HADDR=0x000030a4, HBURST=AHB_BURST_INCR8, HSIZE=AHB_SIZE_8B, 8 beats
# UVM_INFO ../src/env/ahb_scoreboard.sv(104) @ 785000: uvm_test_top.env.scb [ahb_scoreboard] MATCH #6: [AHB_READ] HADDR=0x000030a4 AHB_BURST_INCR8 8 beats
# UVM_INFO ../src/env/ahb_coverage.sv(127) @ 785000: uvm_test_top.env.slave_cov [ahb_coverage] Sampled [AHB_READ]: burst=AHB_BURST_INCR8 size=AHB_SIZE_8B beats=8 error=0
# UVM_INFO ../src/mst_seq/ahb_base_seq.sv(138) @ 785000: uvm_test_top.env.master_agent.sqr@@seq [ahb_incr_burst_seq] AHB_BURST_INCR8 AHB_SIZE_8B beat 0 @0x000030a4 ok
# UVM_INFO ../src/mst_seq/ahb_base_seq.sv(138) @ 785000: uvm_test_top.env.master_agent.sqr@@seq [ahb_incr_burst_seq] AHB_BURST_INCR8 AHB_SIZE_8B beat 1 @0x000030a5 ok
# UVM_INFO ../src/mst_seq/ahb_base_seq.sv(138) @ 785000: uvm_test_top.env.master_agent.sqr@@seq [ahb_incr_burst_seq] AHB_BURST_INCR8 AHB_SIZE_8B beat 2 @0x000030a6 ok
# UVM_INFO ../src/mst_seq/ahb_base_seq.sv(138) @ 785000: uvm_test_top.env.master_agent.sqr@@seq [ahb_incr_burst_seq] AHB_BURST_INCR8 AHB_SIZE_8B beat 3 @0x000030a7 ok
# UVM_INFO ../src/mst_seq/ahb_base_seq.sv(138) @ 785000: uvm_test_top.env.master_agent.sqr@@seq [ahb_incr_burst_seq] AHB_BURST_INCR8 AHB_SIZE_8B beat 4 @0x000030a8 ok
# UVM_INFO ../src/mst_seq/ahb_base_seq.sv(138) @ 785000: uvm_test_top.env.master_agent.sqr@@seq [ahb_incr_burst_seq] AHB_BURST_INCR8 AHB_SIZE_8B beat 5 @0x000030a9 ok
# UVM_INFO ../src/mst_seq/ahb_base_seq.sv(138) @ 785000: uvm_test_top.env.master_agent.sqr@@seq [ahb_incr_burst_seq] AHB_BURST_INCR8 AHB_SIZE_8B beat 6 @0x000030aa ok
# UVM_INFO ../src/mst_seq/ahb_base_seq.sv(138) @ 785000: uvm_test_top.env.master_agent.sqr@@seq [ahb_incr_burst_seq] AHB_BURST_INCR8 AHB_SIZE_8B beat 7 @0x000030ab ok
# UVM_INFO ../src/mst/ahb_master_driver.sv(82) @ 785000: uvm_test_top.env.master_agent.drv [ahb_master_driver] Queueing [AHB_WRITE]: HADDR=0x000030f8, HBURST=AHB_BURST_INCR4, HSIZE=AHB_SIZE_16B, 4 beats
# UVM_INFO ../src/mst/ahb_master_driver.sv(124) @ 785000: uvm_test_top.env.master_agent.drv [ahb_master_driver] Driving [AHB_WRITE]: HADDR=0x000030f8, HBURST=AHB_BURST_INCR4, HSIZE=AHB_SIZE_16B, 4 beats               
# UVM_INFO ../src/mst/ahb_master_driver.sv(309) @ 825000: uvm_test_top.env.master_agent.drv [ahb_master_driver] Beat[0/4] addr=0x000030f8 trans=AHB_TRANS_NONSEQ resp=AHB_RESP_OKAY wdata=0xe1b43e5b
# UVM_INFO ../src/slv/ahb_slave_driver.sv(174) @ 825000: uvm_test_top.env.slave_agent.drv [ahb_slave_driver] Beat AHB_WRITE addr=0x000030f8 resp=AHB_RESP_OKAY waits=1 wdata=0xe1b43e5b
# UVM_INFO ../src/mst/ahb_master_monitor.sv(117) @ 825000: uvm_test_top.env.master_agent.mon [ahb_master_monitor] Beat[0] addr=0x000030f8 wdata=0xe1b43e5b resp=AHB_RESP_OKAY
# UVM_INFO ../src/mst/ahb_master_driver.sv(309) @ 835000: uvm_test_top.env.master_agent.drv [ahb_master_driver] Beat[1/4] addr=0x000030fa trans=AHB_TRANS_SEQ resp=AHB_RESP_OKAY wdata=0x45086e15
# UVM_INFO ../src/slv/ahb_slave_driver.sv(174) @ 835000: uvm_test_top.env.slave_agent.drv [ahb_slave_driver] Beat AHB_WRITE addr=0x000030fa resp=AHB_RESP_OKAY waits=0 wdata=0x45086e15
# UVM_INFO ../src/mst/ahb_master_monitor.sv(117) @ 835000: uvm_test_top.env.master_agent.mon [ahb_master_monitor] Beat[1] addr=0x000030fa wdata=0x45086e15 resp=AHB_RESP_OKAY
# UVM_INFO ../src/mst/ahb_master_driver.sv(309) @ 865000: uvm_test_top.env.master_agent.drv [ahb_master_driver] Beat[2/4] addr=0x000030fc trans=AHB_TRANS_SEQ resp=AHB_RESP_OKAY wdata=0x4846bfda
# UVM_INFO ../src/slv/ahb_slave_driver.sv(174) @ 865000: uvm_test_top.env.slave_agent.drv [ahb_slave_driver] Beat AHB_WRITE addr=0x000030fc resp=AHB_RESP_OKAY waits=2 wdata=0x4846bfda
# UVM_INFO ../src/mst/ahb_master_monitor.sv(117) @ 865000: uvm_test_top.env.master_agent.mon [ahb_master_monitor] Beat[2] addr=0x000030fc wdata=0x4846bfda resp=AHB_RESP_OKAY
# UVM_INFO ../src/mst/ahb_master_driver.sv(309) @ 875000: uvm_test_top.env.master_agent.drv [ahb_master_driver] Beat[3/4] addr=0x000030fe trans=AHB_TRANS_SEQ resp=AHB_RESP_OKAY wdata=0x1df43bcc
# UVM_INFO ../src/mst/ahb_master_driver.sv(353) @ 875000: uvm_test_top.env.master_agent.drv [ahb_master_driver] Transaction complete: AHB_WRITE 0x000030f8, 4 beats, burst=AHB_BURST_INCR4
# UVM_INFO ../src/slv/ahb_slave_driver.sv(174) @ 875000: uvm_test_top.env.slave_agent.drv [ahb_slave_driver] Beat AHB_WRITE addr=0x000030fe resp=AHB_RESP_OKAY waits=0 wdata=0x1df43bcc
# UVM_INFO ../src/slv/ahb_slave_monitor.sv(197) @ 875000: uvm_test_top.env.slave_agent.mon [ahb_slave_monitor] Observed [AHB_WRITE]: HADDR=0x000030f8, HBURST=AHB_BURST_INCR4, HSIZE=AHB_SIZE_16B, 4 beats
# UVM_INFO ../src/env/ahb_coverage.sv(127) @ 875000: uvm_test_top.env.slave_cov [ahb_coverage] Sampled [AHB_WRITE]: burst=AHB_BURST_INCR4 size=AHB_SIZE_16B beats=4 error=0
# UVM_INFO ../src/mst/ahb_master_monitor.sv(117) @ 875000: uvm_test_top.env.master_agent.mon [ahb_master_monitor] Beat[3] addr=0x000030fe wdata=0x1df43bcc resp=AHB_RESP_OKAY
# UVM_INFO ../src/mst/ahb_master_monitor.sv(222) @ 875000: uvm_test_top.env.master_agent.mon [ahb_master_monitor] Observed [AHB_WRITE]: HADDR=0x000030f8, HBURST=AHB_BURST_INCR4, HSIZE=AHB_SIZE_16B, 4 beats
# UVM_INFO ../src/env/ahb_coverage.sv(127) @ 875000: uvm_test_top.env.master_cov [ahb_coverage] Sampled [AHB_WRITE]: burst=AHB_BURST_INCR4 size=AHB_SIZE_16B beats=4 error=0
# UVM_INFO ../src/env/ahb_scoreboard.sv(104) @ 875000: uvm_test_top.env.scb [ahb_scoreboard] MATCH #7: [AHB_WRITE] HADDR=0x000030f8 AHB_BURST_INCR4 4 beats
# UVM_INFO ../src/mst/ahb_master_driver.sv(82) @ 875000: uvm_test_top.env.master_agent.drv [ahb_master_driver] Queueing [AHB_READ]: HADDR=0x000030f8, HBURST=AHB_BURST_INCR4, HSIZE=AHB_SIZE_16B, 4 beats
# UVM_INFO ../src/mst/ahb_master_driver.sv(124) @ 875000: uvm_test_top.env.master_agent.drv [ahb_master_driver] Driving [AHB_READ]: HADDR=0x000030f8, HBURST=AHB_BURST_INCR4, HSIZE=AHB_SIZE_16B, 4 beats               
# UVM_INFO ../src/mst/ahb_master_driver.sv(309) @ 915000: uvm_test_top.env.master_agent.drv [ahb_master_driver] Beat[0/4] addr=0x000030f8 trans=AHB_TRANS_NONSEQ resp=AHB_RESP_OKAY rdata=0xe1b43e5b
# UVM_INFO ../src/slv/ahb_slave_driver.sv(174) @ 915000: uvm_test_top.env.slave_agent.drv [ahb_slave_driver] Beat AHB_READ addr=0x000030f8 resp=AHB_RESP_OKAY waits=1 rdata=0xe1b43e5b
# UVM_INFO ../src/mst/ahb_master_monitor.sv(117) @ 915000: uvm_test_top.env.master_agent.mon [ahb_master_monitor] Beat[0] addr=0x000030f8 rdata=0xe1b43e5b resp=AHB_RESP_OKAY
# UVM_INFO ../src/mst/ahb_master_driver.sv(309) @ 925000: uvm_test_top.env.master_agent.drv [ahb_master_driver] Beat[1/4] addr=0x000030fa trans=AHB_TRANS_SEQ resp=AHB_RESP_OKAY rdata=0x45086e15
# UVM_INFO ../src/slv/ahb_slave_driver.sv(174) @ 925000: uvm_test_top.env.slave_agent.drv [ahb_slave_driver] Beat AHB_READ addr=0x000030fa resp=AHB_RESP_OKAY waits=0 rdata=0x45086e15
# UVM_INFO ../src/mst/ahb_master_monitor.sv(117) @ 925000: uvm_test_top.env.master_agent.mon [ahb_master_monitor] Beat[1] addr=0x000030fa rdata=0x45086e15 resp=AHB_RESP_OKAY
# UVM_INFO ../src/mst/ahb_master_driver.sv(309) @ 955000: uvm_test_top.env.master_agent.drv [ahb_master_driver] Beat[2/4] addr=0x000030fc trans=AHB_TRANS_SEQ resp=AHB_RESP_OKAY rdata=0x4846bfda
# UVM_INFO ../src/slv/ahb_slave_driver.sv(174) @ 955000: uvm_test_top.env.slave_agent.drv [ahb_slave_driver] Beat AHB_READ addr=0x000030fc resp=AHB_RESP_OKAY waits=2 rdata=0x4846bfda
# UVM_INFO ../src/mst/ahb_master_monitor.sv(117) @ 955000: uvm_test_top.env.master_agent.mon [ahb_master_monitor] Beat[2] addr=0x000030fc rdata=0x4846bfda resp=AHB_RESP_OKAY
# UVM_INFO ../src/mst/ahb_master_driver.sv(309) @ 975000: uvm_test_top.env.master_agent.drv [ahb_master_driver] Beat[3/4] addr=0x000030fe trans=AHB_TRANS_SEQ resp=AHB_RESP_OKAY rdata=0x1df43bcc
# UVM_INFO ../src/mst/ahb_master_driver.sv(353) @ 975000: uvm_test_top.env.master_agent.drv [ahb_master_driver] Transaction complete: AHB_READ 0x000030f8, 4 beats, burst=AHB_BURST_INCR4
# UVM_INFO ../src/slv/ahb_slave_driver.sv(174) @ 975000: uvm_test_top.env.slave_agent.drv [ahb_slave_driver] Beat AHB_READ addr=0x000030fe resp=AHB_RESP_OKAY waits=1 rdata=0x1df43bcc
# UVM_INFO ../src/slv/ahb_slave_monitor.sv(197) @ 975000: uvm_test_top.env.slave_agent.mon [ahb_slave_monitor] Observed [AHB_READ]: HADDR=0x000030f8, HBURST=AHB_BURST_INCR4, HSIZE=AHB_SIZE_16B, 4 beats
# UVM_INFO ../src/env/ahb_coverage.sv(127) @ 975000: uvm_test_top.env.slave_cov [ahb_coverage] Sampled [AHB_READ]: burst=AHB_BURST_INCR4 size=AHB_SIZE_16B beats=4 error=0
# UVM_INFO ../src/mst/ahb_master_monitor.sv(117) @ 975000: uvm_test_top.env.master_agent.mon [ahb_master_monitor] Beat[3] addr=0x000030fe rdata=0x1df43bcc resp=AHB_RESP_OKAY
# UVM_INFO ../src/mst/ahb_master_monitor.sv(222) @ 975000: uvm_test_top.env.master_agent.mon [ahb_master_monitor] Observed [AHB_READ]: HADDR=0x000030f8, HBURST=AHB_BURST_INCR4, HSIZE=AHB_SIZE_16B, 4 beats
# UVM_INFO ../src/env/ahb_coverage.sv(127) @ 975000: uvm_test_top.env.master_cov [ahb_coverage] Sampled [AHB_READ]: burst=AHB_BURST_INCR4 size=AHB_SIZE_16B beats=4 error=0
# UVM_INFO ../src/env/ahb_scoreboard.sv(104) @ 975000: uvm_test_top.env.scb [ahb_scoreboard] MATCH #8: [AHB_READ] HADDR=0x000030f8 AHB_BURST_INCR4 4 beats
# UVM_INFO ../src/mst_seq/ahb_base_seq.sv(138) @ 975000: uvm_test_top.env.master_agent.sqr@@seq [ahb_incr_burst_seq] AHB_BURST_INCR4 AHB_SIZE_16B beat 0 @0x000030f8 ok
# UVM_INFO ../src/mst_seq/ahb_base_seq.sv(138) @ 975000: uvm_test_top.env.master_agent.sqr@@seq [ahb_incr_burst_seq] AHB_BURST_INCR4 AHB_SIZE_16B beat 1 @0x000030fa ok
# UVM_INFO ../src/mst_seq/ahb_base_seq.sv(138) @ 975000: uvm_test_top.env.master_agent.sqr@@seq [ahb_incr_burst_seq] AHB_BURST_INCR4 AHB_SIZE_16B beat 2 @0x000030fc ok
# UVM_INFO ../src/mst_seq/ahb_base_seq.sv(138) @ 975000: uvm_test_top.env.master_agent.sqr@@seq [ahb_incr_burst_seq] AHB_BURST_INCR4 AHB_SIZE_16B beat 3 @0x000030fe ok
# UVM_INFO ../src/mst/ahb_master_driver.sv(82) @ 975000: uvm_test_top.env.master_agent.drv [ahb_master_driver] Queueing [AHB_WRITE]: HADDR=0x00003124, HBURST=AHB_BURST_INCR4, HSIZE=AHB_SIZE_32B, 4 beats
# UVM_INFO ../src/mst/ahb_master_driver.sv(124) @ 975000: uvm_test_top.env.master_agent.drv [ahb_master_driver] Driving [AHB_WRITE]: HADDR=0x00003124, HBURST=AHB_BURST_INCR4, HSIZE=AHB_SIZE_32B, 4 beats               
# UVM_INFO ../src/mst/ahb_master_driver.sv(309) @ 1005000: uvm_test_top.env.master_agent.drv [ahb_master_driver] Beat[0/4] addr=0x00003124 trans=AHB_TRANS_NONSEQ resp=AHB_RESP_OKAY wdata=0xe81cb010
# UVM_INFO ../src/slv/ahb_slave_driver.sv(174) @ 1005000: uvm_test_top.env.slave_agent.drv [ahb_slave_driver] Beat AHB_WRITE addr=0x00003124 resp=AHB_RESP_OKAY waits=0 wdata=0xe81cb010
# UVM_INFO ../src/mst/ahb_master_monitor.sv(117) @ 1005000: uvm_test_top.env.master_agent.mon [ahb_master_monitor] Beat[0] addr=0x00003124 wdata=0xe81cb010 resp=AHB_RESP_OKAY
# UVM_INFO ../src/mst/ahb_master_driver.sv(309) @ 1035000: uvm_test_top.env.master_agent.drv [ahb_master_driver] Beat[1/4] addr=0x00003128 trans=AHB_TRANS_SEQ resp=AHB_RESP_OKAY wdata=0x63ae0381
# UVM_INFO ../src/slv/ahb_slave_driver.sv(174) @ 1035000: uvm_test_top.env.slave_agent.drv [ahb_slave_driver] Beat AHB_WRITE addr=0x00003128 resp=AHB_RESP_OKAY waits=2 wdata=0x63ae0381
# UVM_INFO ../src/mst/ahb_master_monitor.sv(117) @ 1035000: uvm_test_top.env.master_agent.mon [ahb_master_monitor] Beat[1] addr=0x00003128 wdata=0x63ae0381 resp=AHB_RESP_OKAY
# UVM_INFO ../src/mst/ahb_master_driver.sv(309) @ 1065000: uvm_test_top.env.master_agent.drv [ahb_master_driver] Beat[2/4] addr=0x0000312c trans=AHB_TRANS_SEQ resp=AHB_RESP_OKAY wdata=0x788587cd
# UVM_INFO ../src/slv/ahb_slave_driver.sv(174) @ 1065000: uvm_test_top.env.slave_agent.drv [ahb_slave_driver] Beat AHB_WRITE addr=0x0000312c resp=AHB_RESP_OKAY waits=2 wdata=0x788587cd
# UVM_INFO ../src/mst/ahb_master_monitor.sv(117) @ 1065000: uvm_test_top.env.master_agent.mon [ahb_master_monitor] Beat[2] addr=0x0000312c wdata=0x788587cd resp=AHB_RESP_OKAY
# UVM_INFO ../src/mst/ahb_master_driver.sv(309) @ 1085000: uvm_test_top.env.master_agent.drv [ahb_master_driver] Beat[3/4] addr=0x00003130 trans=AHB_TRANS_SEQ resp=AHB_RESP_OKAY wdata=0xc5a7e830
# UVM_INFO ../src/mst/ahb_master_driver.sv(353) @ 1085000: uvm_test_top.env.master_agent.drv [ahb_master_driver] Transaction complete: AHB_WRITE 0x00003124, 4 beats, burst=AHB_BURST_INCR4
# UVM_INFO ../src/slv/ahb_slave_driver.sv(174) @ 1085000: uvm_test_top.env.slave_agent.drv [ahb_slave_driver] Beat AHB_WRITE addr=0x00003130 resp=AHB_RESP_OKAY waits=1 wdata=0xc5a7e830
# UVM_INFO ../src/mst/ahb_master_monitor.sv(117) @ 1085000: uvm_test_top.env.master_agent.mon [ahb_master_monitor] Beat[3] addr=0x00003130 wdata=0xc5a7e830 resp=AHB_RESP_OKAY
# UVM_INFO ../src/mst/ahb_master_monitor.sv(222) @ 1085000: uvm_test_top.env.master_agent.mon [ahb_master_monitor] Observed [AHB_WRITE]: HADDR=0x00003124, HBURST=AHB_BURST_INCR4, HSIZE=AHB_SIZE_32B, 4 beats
# UVM_INFO ../src/env/ahb_coverage.sv(127) @ 1085000: uvm_test_top.env.master_cov [ahb_coverage] Sampled [AHB_WRITE]: burst=AHB_BURST_INCR4 size=AHB_SIZE_32B beats=4 error=0
# UVM_INFO ../src/slv/ahb_slave_monitor.sv(197) @ 1085000: uvm_test_top.env.slave_agent.mon [ahb_slave_monitor] Observed [AHB_WRITE]: HADDR=0x00003124, HBURST=AHB_BURST_INCR4, HSIZE=AHB_SIZE_32B, 4 beats
# UVM_INFO ../src/env/ahb_scoreboard.sv(104) @ 1085000: uvm_test_top.env.scb [ahb_scoreboard] MATCH #9: [AHB_WRITE] HADDR=0x00003124 AHB_BURST_INCR4 4 beats
# UVM_INFO ../src/env/ahb_coverage.sv(127) @ 1085000: uvm_test_top.env.slave_cov [ahb_coverage] Sampled [AHB_WRITE]: burst=AHB_BURST_INCR4 size=AHB_SIZE_32B beats=4 error=0
# UVM_INFO ../src/mst/ahb_master_driver.sv(82) @ 1085000: uvm_test_top.env.master_agent.drv [ahb_master_driver] Queueing [AHB_READ]: HADDR=0x00003124, HBURST=AHB_BURST_INCR4, HSIZE=AHB_SIZE_32B, 4 beats
# UVM_INFO ../src/mst/ahb_master_driver.sv(124) @ 1085000: uvm_test_top.env.master_agent.drv [ahb_master_driver] Driving [AHB_READ]: HADDR=0x00003124, HBURST=AHB_BURST_INCR4, HSIZE=AHB_SIZE_32B, 4 beats               
# UVM_INFO ../src/mst/ahb_master_driver.sv(309) @ 1135000: uvm_test_top.env.master_agent.drv [ahb_master_driver] Beat[0/4] addr=0x00003124 trans=AHB_TRANS_NONSEQ resp=AHB_RESP_OKAY rdata=0xe81cb010
# UVM_INFO ../src/slv/ahb_slave_driver.sv(174) @ 1135000: uvm_test_top.env.slave_agent.drv [ahb_slave_driver] Beat AHB_READ addr=0x00003124 resp=AHB_RESP_OKAY waits=2 rdata=0xe81cb010
# UVM_INFO ../src/mst/ahb_master_monitor.sv(117) @ 1135000: uvm_test_top.env.master_agent.mon [ahb_master_monitor] Beat[0] addr=0x00003124 rdata=0xe81cb010 resp=AHB_RESP_OKAY
# UVM_INFO ../src/mst/ahb_master_driver.sv(309) @ 1165000: uvm_test_top.env.master_agent.drv [ahb_master_driver] Beat[1/4] addr=0x00003128 trans=AHB_TRANS_SEQ resp=AHB_RESP_OKAY rdata=0x63ae0381
# UVM_INFO ../src/slv/ahb_slave_driver.sv(174) @ 1165000: uvm_test_top.env.slave_agent.drv [ahb_slave_driver] Beat AHB_READ addr=0x00003128 resp=AHB_RESP_OKAY waits=2 rdata=0x63ae0381
# UVM_INFO ../src/mst/ahb_master_monitor.sv(117) @ 1165000: uvm_test_top.env.master_agent.mon [ahb_master_monitor] Beat[1] addr=0x00003128 rdata=0x63ae0381 resp=AHB_RESP_OKAY
# UVM_INFO ../src/mst/ahb_master_driver.sv(309) @ 1195000: uvm_test_top.env.master_agent.drv [ahb_master_driver] Beat[2/4] addr=0x0000312c trans=AHB_TRANS_SEQ resp=AHB_RESP_OKAY rdata=0x788587cd
# UVM_INFO ../src/slv/ahb_slave_driver.sv(174) @ 1195000: uvm_test_top.env.slave_agent.drv [ahb_slave_driver] Beat AHB_READ addr=0x0000312c resp=AHB_RESP_OKAY waits=2 rdata=0x788587cd
# UVM_INFO ../src/mst/ahb_master_monitor.sv(117) @ 1195000: uvm_test_top.env.master_agent.mon [ahb_master_monitor] Beat[2] addr=0x0000312c rdata=0x788587cd resp=AHB_RESP_OKAY
# UVM_INFO ../src/mst/ahb_master_driver.sv(309) @ 1215000: uvm_test_top.env.master_agent.drv [ahb_master_driver] Beat[3/4] addr=0x00003130 trans=AHB_TRANS_SEQ resp=AHB_RESP_OKAY rdata=0xc5a7e830
# UVM_INFO ../src/mst/ahb_master_driver.sv(353) @ 1215000: uvm_test_top.env.master_agent.drv [ahb_master_driver] Transaction complete: AHB_READ 0x00003124, 4 beats, burst=AHB_BURST_INCR4
# UVM_INFO ../src/slv/ahb_slave_driver.sv(174) @ 1215000: uvm_test_top.env.slave_agent.drv [ahb_slave_driver] Beat AHB_READ addr=0x00003130 resp=AHB_RESP_OKAY waits=1 rdata=0xc5a7e830
# UVM_INFO ../src/slv/ahb_slave_monitor.sv(197) @ 1215000: uvm_test_top.env.slave_agent.mon [ahb_slave_monitor] Observed [AHB_READ]: HADDR=0x00003124, HBURST=AHB_BURST_INCR4, HSIZE=AHB_SIZE_32B, 4 beats
# UVM_INFO ../src/env/ahb_coverage.sv(127) @ 1215000: uvm_test_top.env.slave_cov [ahb_coverage] Sampled [AHB_READ]: burst=AHB_BURST_INCR4 size=AHB_SIZE_32B beats=4 error=0
# UVM_INFO ../src/mst/ahb_master_monitor.sv(117) @ 1215000: uvm_test_top.env.master_agent.mon [ahb_master_monitor] Beat[3] addr=0x00003130 rdata=0xc5a7e830 resp=AHB_RESP_OKAY
# UVM_INFO ../src/mst/ahb_master_monitor.sv(222) @ 1215000: uvm_test_top.env.master_agent.mon [ahb_master_monitor] Observed [AHB_READ]: HADDR=0x00003124, HBURST=AHB_BURST_INCR4, HSIZE=AHB_SIZE_32B, 4 beats
# UVM_INFO ../src/env/ahb_coverage.sv(127) @ 1215000: uvm_test_top.env.master_cov [ahb_coverage] Sampled [AHB_READ]: burst=AHB_BURST_INCR4 size=AHB_SIZE_32B beats=4 error=0
# UVM_INFO ../src/env/ahb_scoreboard.sv(104) @ 1215000: uvm_test_top.env.scb [ahb_scoreboard] MATCH #10: [AHB_READ] HADDR=0x00003124 AHB_BURST_INCR4 4 beats
# UVM_INFO ../src/mst_seq/ahb_base_seq.sv(138) @ 1215000: uvm_test_top.env.master_agent.sqr@@seq [ahb_incr_burst_seq] AHB_BURST_INCR4 AHB_SIZE_32B beat 0 @0x00003124 ok
# UVM_INFO ../src/mst_seq/ahb_base_seq.sv(138) @ 1215000: uvm_test_top.env.master_agent.sqr@@seq [ahb_incr_burst_seq] AHB_BURST_INCR4 AHB_SIZE_32B beat 1 @0x00003128 ok
# UVM_INFO ../src/mst_seq/ahb_base_seq.sv(138) @ 1215000: uvm_test_top.env.master_agent.sqr@@seq [ahb_incr_burst_seq] AHB_BURST_INCR4 AHB_SIZE_32B beat 2 @0x0000312c ok
# UVM_INFO ../src/mst_seq/ahb_base_seq.sv(138) @ 1215000: uvm_test_top.env.master_agent.sqr@@seq [ahb_incr_burst_seq] AHB_BURST_INCR4 AHB_SIZE_32B beat 3 @0x00003130 ok
# UVM_INFO ../src/mst/ahb_master_driver.sv(82) @ 1215000: uvm_test_top.env.master_agent.drv [ahb_master_driver] Queueing [AHB_WRITE]: HADDR=0x00003165, HBURST=AHB_BURST_INCR8, HSIZE=AHB_SIZE_8B, 8 beats
# UVM_INFO ../src/mst/ahb_master_driver.sv(124) @ 1215000: uvm_test_top.env.master_agent.drv [ahb_master_driver] Driving [AHB_WRITE]: HADDR=0x00003165, HBURST=AHB_BURST_INCR8, HSIZE=AHB_SIZE_8B, 8 beats               
# UVM_INFO ../src/mst/ahb_master_driver.sv(309) @ 1245000: uvm_test_top.env.master_agent.drv [ahb_master_driver] Beat[0/8] addr=0x00003165 trans=AHB_TRANS_NONSEQ resp=AHB_RESP_OKAY wdata=0x2b9e2a4d
# UVM_INFO ../src/slv/ahb_slave_driver.sv(174) @ 1245000: uvm_test_top.env.slave_agent.drv [ahb_slave_driver] Beat AHB_WRITE addr=0x00003165 resp=AHB_RESP_OKAY waits=0 wdata=0x2b9e2a4d
# UVM_INFO ../src/mst/ahb_master_monitor.sv(117) @ 1245000: uvm_test_top.env.master_agent.mon [ahb_master_monitor] Beat[0] addr=0x00003165 wdata=0x2b9e2a4d resp=AHB_RESP_OKAY
# UVM_INFO ../src/mst/ahb_master_driver.sv(309) @ 1275000: uvm_test_top.env.master_agent.drv [ahb_master_driver] Beat[1/8] addr=0x00003166 trans=AHB_TRANS_SEQ resp=AHB_RESP_OKAY wdata=0xe76ffd35
# UVM_INFO ../src/slv/ahb_slave_driver.sv(174) @ 1275000: uvm_test_top.env.slave_agent.drv [ahb_slave_driver] Beat AHB_WRITE addr=0x00003166 resp=AHB_RESP_OKAY waits=2 wdata=0xe76ffd35
# UVM_INFO ../src/mst/ahb_master_monitor.sv(117) @ 1275000: uvm_test_top.env.master_agent.mon [ahb_master_monitor] Beat[1] addr=0x00003166 wdata=0xe76ffd35 resp=AHB_RESP_OKAY
# UVM_INFO ../src/mst/ahb_master_driver.sv(309) @ 1305000: uvm_test_top.env.master_agent.drv [ahb_master_driver] Beat[2/8] addr=0x00003167 trans=AHB_TRANS_SEQ resp=AHB_RESP_OKAY wdata=0xa3214b0c
# UVM_INFO ../src/slv/ahb_slave_driver.sv(174) @ 1305000: uvm_test_top.env.slave_agent.drv [ahb_slave_driver] Beat AHB_WRITE addr=0x00003167 resp=AHB_RESP_OKAY waits=2 wdata=0xa3214b0c
# UVM_INFO ../src/mst/ahb_master_monitor.sv(117) @ 1305000: uvm_test_top.env.master_agent.mon [ahb_master_monitor] Beat[2] addr=0x00003167 wdata=0xa3214b0c resp=AHB_RESP_OKAY
# UVM_INFO ../src/mst/ahb_master_driver.sv(309) @ 1315000: uvm_test_top.env.master_agent.drv [ahb_master_driver] Beat[3/8] addr=0x00003168 trans=AHB_TRANS_SEQ resp=AHB_RESP_OKAY wdata=0xa5d4cf40
# UVM_INFO ../src/slv/ahb_slave_driver.sv(174) @ 1315000: uvm_test_top.env.slave_agent.drv [ahb_slave_driver] Beat AHB_WRITE addr=0x00003168 resp=AHB_RESP_OKAY waits=0 wdata=0xa5d4cf40
# UVM_INFO ../src/mst/ahb_master_monitor.sv(117) @ 1315000: uvm_test_top.env.master_agent.mon [ahb_master_monitor] Beat[3] addr=0x00003168 wdata=0xa5d4cf40 resp=AHB_RESP_OKAY
# UVM_INFO ../src/mst/ahb_master_driver.sv(309) @ 1335000: uvm_test_top.env.master_agent.drv [ahb_master_driver] Beat[4/8] addr=0x00003169 trans=AHB_TRANS_SEQ resp=AHB_RESP_OKAY wdata=0xe5fe955b
# UVM_INFO ../src/slv/ahb_slave_driver.sv(174) @ 1335000: uvm_test_top.env.slave_agent.drv [ahb_slave_driver] Beat AHB_WRITE addr=0x00003169 resp=AHB_RESP_OKAY waits=1 wdata=0xe5fe955b
# UVM_INFO ../src/mst/ahb_master_monitor.sv(117) @ 1335000: uvm_test_top.env.master_agent.mon [ahb_master_monitor] Beat[4] addr=0x00003169 wdata=0xe5fe955b resp=AHB_RESP_OKAY
# UVM_INFO ../src/mst/ahb_master_driver.sv(309) @ 1365000: uvm_test_top.env.master_agent.drv [ahb_master_driver] Beat[5/8] addr=0x0000316a trans=AHB_TRANS_SEQ resp=AHB_RESP_OKAY wdata=0xb86065ab
# UVM_INFO ../src/slv/ahb_slave_driver.sv(174) @ 1365000: uvm_test_top.env.slave_agent.drv [ahb_slave_driver] Beat AHB_WRITE addr=0x0000316a resp=AHB_RESP_OKAY waits=2 wdata=0xb86065ab
# UVM_INFO ../src/mst/ahb_master_monitor.sv(117) @ 1365000: uvm_test_top.env.master_agent.mon [ahb_master_monitor] Beat[5] addr=0x0000316a wdata=0xb86065ab resp=AHB_RESP_OKAY
# UVM_INFO ../src/mst/ahb_master_driver.sv(309) @ 1395000: uvm_test_top.env.master_agent.drv [ahb_master_driver] Beat[6/8] addr=0x0000316b trans=AHB_TRANS_SEQ resp=AHB_RESP_OKAY wdata=0xd8aaf1cd
# UVM_INFO ../src/slv/ahb_slave_driver.sv(174) @ 1395000: uvm_test_top.env.slave_agent.drv [ahb_slave_driver] Beat AHB_WRITE addr=0x0000316b resp=AHB_RESP_OKAY waits=2 wdata=0xd8aaf1cd
# UVM_INFO ../src/mst/ahb_master_monitor.sv(117) @ 1395000: uvm_test_top.env.master_agent.mon [ahb_master_monitor] Beat[6] addr=0x0000316b wdata=0xd8aaf1cd resp=AHB_RESP_OKAY
# UVM_INFO ../src/mst/ahb_master_driver.sv(309) @ 1405000: uvm_test_top.env.master_agent.drv [ahb_master_driver] Beat[7/8] addr=0x0000316c trans=AHB_TRANS_SEQ resp=AHB_RESP_OKAY wdata=0xd6ad3094
# UVM_INFO ../src/mst/ahb_master_driver.sv(353) @ 1405000: uvm_test_top.env.master_agent.drv [ahb_master_driver] Transaction complete: AHB_WRITE 0x00003165, 8 beats, burst=AHB_BURST_INCR8
# UVM_INFO ../src/slv/ahb_slave_driver.sv(174) @ 1405000: uvm_test_top.env.slave_agent.drv [ahb_slave_driver] Beat AHB_WRITE addr=0x0000316c resp=AHB_RESP_OKAY waits=0 wdata=0xd6ad3094
# UVM_INFO ../src/mst/ahb_master_monitor.sv(117) @ 1405000: uvm_test_top.env.master_agent.mon [ahb_master_monitor] Beat[7] addr=0x0000316c wdata=0xd6ad3094 resp=AHB_RESP_OKAY
# UVM_INFO ../src/mst/ahb_master_monitor.sv(222) @ 1405000: uvm_test_top.env.master_agent.mon [ahb_master_monitor] Observed [AHB_WRITE]: HADDR=0x00003165, HBURST=AHB_BURST_INCR8, HSIZE=AHB_SIZE_8B, 8 beats
# UVM_INFO ../src/env/ahb_coverage.sv(127) @ 1405000: uvm_test_top.env.master_cov [ahb_coverage] Sampled [AHB_WRITE]: burst=AHB_BURST_INCR8 size=AHB_SIZE_8B beats=8 error=0
# UVM_INFO ../src/slv/ahb_slave_monitor.sv(197) @ 1405000: uvm_test_top.env.slave_agent.mon [ahb_slave_monitor] Observed [AHB_WRITE]: HADDR=0x00003165, HBURST=AHB_BURST_INCR8, HSIZE=AHB_SIZE_8B, 8 beats
# UVM_INFO ../src/env/ahb_scoreboard.sv(104) @ 1405000: uvm_test_top.env.scb [ahb_scoreboard] MATCH #11: [AHB_WRITE] HADDR=0x00003165 AHB_BURST_INCR8 8 beats
# UVM_INFO ../src/env/ahb_coverage.sv(127) @ 1405000: uvm_test_top.env.slave_cov [ahb_coverage] Sampled [AHB_WRITE]: burst=AHB_BURST_INCR8 size=AHB_SIZE_8B beats=8 error=0
# UVM_INFO ../src/mst/ahb_master_driver.sv(82) @ 1405000: uvm_test_top.env.master_agent.drv [ahb_master_driver] Queueing [AHB_READ]: HADDR=0x00003165, HBURST=AHB_BURST_INCR8, HSIZE=AHB_SIZE_8B, 8 beats
# UVM_INFO ../src/mst/ahb_master_driver.sv(124) @ 1405000: uvm_test_top.env.master_agent.drv [ahb_master_driver] Driving [AHB_READ]: HADDR=0x00003165, HBURST=AHB_BURST_INCR8, HSIZE=AHB_SIZE_8B, 8 beats               
# UVM_INFO ../src/mst/ahb_master_driver.sv(309) @ 1435000: uvm_test_top.env.master_agent.drv [ahb_master_driver] Beat[0/8] addr=0x00003165 trans=AHB_TRANS_NONSEQ resp=AHB_RESP_OKAY rdata=0x2b9e2a4d
# UVM_INFO ../src/slv/ahb_slave_driver.sv(174) @ 1435000: uvm_test_top.env.slave_agent.drv [ahb_slave_driver] Beat AHB_READ addr=0x00003165 resp=AHB_RESP_OKAY waits=0 rdata=0x2b9e2a4d
# UVM_INFO ../src/mst/ahb_master_monitor.sv(117) @ 1435000: uvm_test_top.env.master_agent.mon [ahb_master_monitor] Beat[0] addr=0x00003165 rdata=0x2b9e2a4d resp=AHB_RESP_OKAY
# UVM_INFO ../src/mst/ahb_master_driver.sv(309) @ 1455000: uvm_test_top.env.master_agent.drv [ahb_master_driver] Beat[1/8] addr=0x00003166 trans=AHB_TRANS_SEQ resp=AHB_RESP_OKAY rdata=0xe76ffd35
# UVM_INFO ../src/slv/ahb_slave_driver.sv(174) @ 1455000: uvm_test_top.env.slave_agent.drv [ahb_slave_driver] Beat AHB_READ addr=0x00003166 resp=AHB_RESP_OKAY waits=1 rdata=0xe76ffd35
# UVM_INFO ../src/mst/ahb_master_monitor.sv(117) @ 1455000: uvm_test_top.env.master_agent.mon [ahb_master_monitor] Beat[1] addr=0x00003166 rdata=0xe76ffd35 resp=AHB_RESP_OKAY
# UVM_INFO ../src/mst/ahb_master_driver.sv(309) @ 1475000: uvm_test_top.env.master_agent.drv [ahb_master_driver] Beat[2/8] addr=0x00003167 trans=AHB_TRANS_SEQ resp=AHB_RESP_OKAY rdata=0xa3214b0c
# UVM_INFO ../src/slv/ahb_slave_driver.sv(174) @ 1475000: uvm_test_top.env.slave_agent.drv [ahb_slave_driver] Beat AHB_READ addr=0x00003167 resp=AHB_RESP_OKAY waits=1 rdata=0xa3214b0c
# UVM_INFO ../src/mst/ahb_master_monitor.sv(117) @ 1475000: uvm_test_top.env.master_agent.mon [ahb_master_monitor] Beat[2] addr=0x00003167 rdata=0xa3214b0c resp=AHB_RESP_OKAY
# UVM_INFO ../src/mst/ahb_master_driver.sv(309) @ 1485000: uvm_test_top.env.master_agent.drv [ahb_master_driver] Beat[3/8] addr=0x00003168 trans=AHB_TRANS_SEQ resp=AHB_RESP_OKAY rdata=0xa5d4cf40
# UVM_INFO ../src/slv/ahb_slave_driver.sv(174) @ 1485000: uvm_test_top.env.slave_agent.drv [ahb_slave_driver] Beat AHB_READ addr=0x00003168 resp=AHB_RESP_OKAY waits=0 rdata=0xa5d4cf40
# UVM_INFO ../src/mst/ahb_master_monitor.sv(117) @ 1485000: uvm_test_top.env.master_agent.mon [ahb_master_monitor] Beat[3] addr=0x00003168 rdata=0xa5d4cf40 resp=AHB_RESP_OKAY
# UVM_INFO ../src/mst/ahb_master_driver.sv(309) @ 1505000: uvm_test_top.env.master_agent.drv [ahb_master_driver] Beat[4/8] addr=0x00003169 trans=AHB_TRANS_SEQ resp=AHB_RESP_OKAY rdata=0xe5fe955b
# UVM_INFO ../src/slv/ahb_slave_driver.sv(174) @ 1505000: uvm_test_top.env.slave_agent.drv [ahb_slave_driver] Beat AHB_READ addr=0x00003169 resp=AHB_RESP_OKAY waits=1 rdata=0xe5fe955b
# UVM_INFO ../src/mst/ahb_master_monitor.sv(117) @ 1505000: uvm_test_top.env.master_agent.mon [ahb_master_monitor] Beat[4] addr=0x00003169 rdata=0xe5fe955b resp=AHB_RESP_OKAY
# UVM_INFO ../src/mst/ahb_master_driver.sv(309) @ 1515000: uvm_test_top.env.master_agent.drv [ahb_master_driver] Beat[5/8] addr=0x0000316a trans=AHB_TRANS_SEQ resp=AHB_RESP_OKAY rdata=0xb86065ab
# UVM_INFO ../src/slv/ahb_slave_driver.sv(174) @ 1515000: uvm_test_top.env.slave_agent.drv [ahb_slave_driver] Beat AHB_READ addr=0x0000316a resp=AHB_RESP_OKAY waits=0 rdata=0xb86065ab
# UVM_INFO ../src/mst/ahb_master_monitor.sv(117) @ 1515000: uvm_test_top.env.master_agent.mon [ahb_master_monitor] Beat[5] addr=0x0000316a rdata=0xb86065ab resp=AHB_RESP_OKAY
# UVM_INFO ../src/mst/ahb_master_driver.sv(309) @ 1545000: uvm_test_top.env.master_agent.drv [ahb_master_driver] Beat[6/8] addr=0x0000316b trans=AHB_TRANS_SEQ resp=AHB_RESP_OKAY rdata=0xd8aaf1cd
# UVM_INFO ../src/slv/ahb_slave_driver.sv(174) @ 1545000: uvm_test_top.env.slave_agent.drv [ahb_slave_driver] Beat AHB_READ addr=0x0000316b resp=AHB_RESP_OKAY waits=2 rdata=0xd8aaf1cd
# UVM_INFO ../src/mst/ahb_master_monitor.sv(117) @ 1545000: uvm_test_top.env.master_agent.mon [ahb_master_monitor] Beat[6] addr=0x0000316b rdata=0xd8aaf1cd resp=AHB_RESP_OKAY
# UVM_INFO ../src/mst/ahb_master_driver.sv(309) @ 1575000: uvm_test_top.env.master_agent.drv [ahb_master_driver] Beat[7/8] addr=0x0000316c trans=AHB_TRANS_SEQ resp=AHB_RESP_OKAY rdata=0xd6ad3094
# UVM_INFO ../src/mst/ahb_master_driver.sv(353) @ 1575000: uvm_test_top.env.master_agent.drv [ahb_master_driver] Transaction complete: AHB_READ 0x00003165, 8 beats, burst=AHB_BURST_INCR8
# UVM_INFO ../src/slv/ahb_slave_driver.sv(174) @ 1575000: uvm_test_top.env.slave_agent.drv [ahb_slave_driver] Beat AHB_READ addr=0x0000316c resp=AHB_RESP_OKAY waits=2 rdata=0xd6ad3094
# UVM_INFO ../src/slv/ahb_slave_monitor.sv(197) @ 1575000: uvm_test_top.env.slave_agent.mon [ahb_slave_monitor] Observed [AHB_READ]: HADDR=0x00003165, HBURST=AHB_BURST_INCR8, HSIZE=AHB_SIZE_8B, 8 beats
# UVM_INFO ../src/env/ahb_coverage.sv(127) @ 1575000: uvm_test_top.env.slave_cov [ahb_coverage] Sampled [AHB_READ]: burst=AHB_BURST_INCR8 size=AHB_SIZE_8B beats=8 error=0
# UVM_INFO ../src/mst/ahb_master_monitor.sv(117) @ 1575000: uvm_test_top.env.master_agent.mon [ahb_master_monitor] Beat[7] addr=0x0000316c rdata=0xd6ad3094 resp=AHB_RESP_OKAY
# UVM_INFO ../src/mst/ahb_master_monitor.sv(222) @ 1575000: uvm_test_top.env.master_agent.mon [ahb_master_monitor] Observed [AHB_READ]: HADDR=0x00003165, HBURST=AHB_BURST_INCR8, HSIZE=AHB_SIZE_8B, 8 beats
# UVM_INFO ../src/env/ahb_coverage.sv(127) @ 1575000: uvm_test_top.env.master_cov [ahb_coverage] Sampled [AHB_READ]: burst=AHB_BURST_INCR8 size=AHB_SIZE_8B beats=8 error=0
# UVM_INFO ../src/env/ahb_scoreboard.sv(104) @ 1575000: uvm_test_top.env.scb [ahb_scoreboard] MATCH #12: [AHB_READ] HADDR=0x00003165 AHB_BURST_INCR8 8 beats
# UVM_INFO ../src/mst_seq/ahb_base_seq.sv(138) @ 1575000: uvm_test_top.env.master_agent.sqr@@seq [ahb_incr_burst_seq] AHB_BURST_INCR8 AHB_SIZE_8B beat 0 @0x00003165 ok
# UVM_INFO ../src/mst_seq/ahb_base_seq.sv(138) @ 1575000: uvm_test_top.env.master_agent.sqr@@seq [ahb_incr_burst_seq] AHB_BURST_INCR8 AHB_SIZE_8B beat 1 @0x00003166 ok
# UVM_INFO ../src/mst_seq/ahb_base_seq.sv(138) @ 1575000: uvm_test_top.env.master_agent.sqr@@seq [ahb_incr_burst_seq] AHB_BURST_INCR8 AHB_SIZE_8B beat 2 @0x00003167 ok
# UVM_INFO ../src/mst_seq/ahb_base_seq.sv(138) @ 1575000: uvm_test_top.env.master_agent.sqr@@seq [ahb_incr_burst_seq] AHB_BURST_INCR8 AHB_SIZE_8B beat 3 @0x00003168 ok
# UVM_INFO ../src/mst_seq/ahb_base_seq.sv(138) @ 1575000: uvm_test_top.env.master_agent.sqr@@seq [ahb_incr_burst_seq] AHB_BURST_INCR8 AHB_SIZE_8B beat 4 @0x00003169 ok
# UVM_INFO ../src/mst_seq/ahb_base_seq.sv(138) @ 1575000: uvm_test_top.env.master_agent.sqr@@seq [ahb_incr_burst_seq] AHB_BURST_INCR8 AHB_SIZE_8B beat 5 @0x0000316a ok
# UVM_INFO ../src/mst_seq/ahb_base_seq.sv(138) @ 1575000: uvm_test_top.env.master_agent.sqr@@seq [ahb_incr_burst_seq] AHB_BURST_INCR8 AHB_SIZE_8B beat 6 @0x0000316b ok
# UVM_INFO ../src/mst_seq/ahb_base_seq.sv(138) @ 1575000: uvm_test_top.env.master_agent.sqr@@seq [ahb_incr_burst_seq] AHB_BURST_INCR8 AHB_SIZE_8B beat 7 @0x0000316c ok
# UVM_INFO ../src/mst/ahb_master_driver.sv(82) @ 1575000: uvm_test_top.env.master_agent.drv [ahb_master_driver] Queueing [AHB_WRITE]: HADDR=0x00003188, HBURST=AHB_BURST_INCR8, HSIZE=AHB_SIZE_32B, 8 beats
# UVM_INFO ../src/mst/ahb_master_driver.sv(124) @ 1575000: uvm_test_top.env.master_agent.drv [ahb_master_driver] Driving [AHB_WRITE]: HADDR=0x00003188, HBURST=AHB_BURST_INCR8, HSIZE=AHB_SIZE_32B, 8 beats               
# UVM_INFO ../src/mst/ahb_master_driver.sv(309) @ 1605000: uvm_test_top.env.master_agent.drv [ahb_master_driver] Beat[0/8] addr=0x00003188 trans=AHB_TRANS_NONSEQ resp=AHB_RESP_OKAY wdata=0x5912446f
# UVM_INFO ../src/slv/ahb_slave_driver.sv(174) @ 1605000: uvm_test_top.env.slave_agent.drv [ahb_slave_driver] Beat AHB_WRITE addr=0x00003188 resp=AHB_RESP_OKAY waits=0 wdata=0x5912446f
# UVM_INFO ../src/mst/ahb_master_monitor.sv(117) @ 1605000: uvm_test_top.env.master_agent.mon [ahb_master_monitor] Beat[0] addr=0x00003188 wdata=0x5912446f resp=AHB_RESP_OKAY
# UVM_INFO ../src/mst/ahb_master_driver.sv(309) @ 1615000: uvm_test_top.env.master_agent.drv [ahb_master_driver] Beat[1/8] addr=0x0000318c trans=AHB_TRANS_SEQ resp=AHB_RESP_OKAY wdata=0x9c76f181
# UVM_INFO ../src/slv/ahb_slave_driver.sv(174) @ 1615000: uvm_test_top.env.slave_agent.drv [ahb_slave_driver] Beat AHB_WRITE addr=0x0000318c resp=AHB_RESP_OKAY waits=0 wdata=0x9c76f181
# UVM_INFO ../src/mst/ahb_master_monitor.sv(117) @ 1615000: uvm_test_top.env.master_agent.mon [ahb_master_monitor] Beat[1] addr=0x0000318c wdata=0x9c76f181 resp=AHB_RESP_OKAY
# UVM_INFO ../src/mst/ahb_master_driver.sv(309) @ 1635000: uvm_test_top.env.master_agent.drv [ahb_master_driver] Beat[2/8] addr=0x00003190 trans=AHB_TRANS_SEQ resp=AHB_RESP_OKAY wdata=0x5edf8261
# UVM_INFO ../src/slv/ahb_slave_driver.sv(174) @ 1635000: uvm_test_top.env.slave_agent.drv [ahb_slave_driver] Beat AHB_WRITE addr=0x00003190 resp=AHB_RESP_OKAY waits=1 wdata=0x5edf8261
# UVM_INFO ../src/mst/ahb_master_monitor.sv(117) @ 1635000: uvm_test_top.env.master_agent.mon [ahb_master_monitor] Beat[2] addr=0x00003190 wdata=0x5edf8261 resp=AHB_RESP_OKAY
# UVM_INFO ../src/mst/ahb_master_driver.sv(309) @ 1645000: uvm_test_top.env.master_agent.drv [ahb_master_driver] Beat[3/8] addr=0x00003194 trans=AHB_TRANS_SEQ resp=AHB_RESP_OKAY wdata=0x82cab090
# UVM_INFO ../src/slv/ahb_slave_driver.sv(174) @ 1645000: uvm_test_top.env.slave_agent.drv [ahb_slave_driver] Beat AHB_WRITE addr=0x00003194 resp=AHB_RESP_OKAY waits=0 wdata=0x82cab090
# UVM_INFO ../src/mst/ahb_master_monitor.sv(117) @ 1645000: uvm_test_top.env.master_agent.mon [ahb_master_monitor] Beat[3] addr=0x00003194 wdata=0x82cab090 resp=AHB_RESP_OKAY
# UVM_INFO ../src/mst/ahb_master_driver.sv(309) @ 1655000: uvm_test_top.env.master_agent.drv [ahb_master_driver] Beat[4/8] addr=0x00003198 trans=AHB_TRANS_SEQ resp=AHB_RESP_OKAY wdata=0x9a5d72e5
# UVM_INFO ../src/slv/ahb_slave_driver.sv(174) @ 1655000: uvm_test_top.env.slave_agent.drv [ahb_slave_driver] Beat AHB_WRITE addr=0x00003198 resp=AHB_RESP_OKAY waits=0 wdata=0x9a5d72e5
# UVM_INFO ../src/mst/ahb_master_monitor.sv(117) @ 1655000: uvm_test_top.env.master_agent.mon [ahb_master_monitor] Beat[4] addr=0x00003198 wdata=0x9a5d72e5 resp=AHB_RESP_OKAY
# UVM_INFO ../src/mst/ahb_master_driver.sv(309) @ 1665000: uvm_test_top.env.master_agent.drv [ahb_master_driver] Beat[5/8] addr=0x0000319c trans=AHB_TRANS_SEQ resp=AHB_RESP_OKAY wdata=0xef15d3a3
# UVM_INFO ../src/slv/ahb_slave_driver.sv(174) @ 1665000: uvm_test_top.env.slave_agent.drv [ahb_slave_driver] Beat AHB_WRITE addr=0x0000319c resp=AHB_RESP_OKAY waits=0 wdata=0xef15d3a3
# UVM_INFO ../src/mst/ahb_master_monitor.sv(117) @ 1665000: uvm_test_top.env.master_agent.mon [ahb_master_monitor] Beat[5] addr=0x0000319c wdata=0xef15d3a3 resp=AHB_RESP_OKAY
# UVM_INFO ../src/mst/ahb_master_driver.sv(309) @ 1685000: uvm_test_top.env.master_agent.drv [ahb_master_driver] Beat[6/8] addr=0x000031a0 trans=AHB_TRANS_SEQ resp=AHB_RESP_OKAY wdata=0xda588703
# UVM_INFO ../src/slv/ahb_slave_driver.sv(174) @ 1685000: uvm_test_top.env.slave_agent.drv [ahb_slave_driver] Beat AHB_WRITE addr=0x000031a0 resp=AHB_RESP_OKAY waits=1 wdata=0xda588703
# UVM_INFO ../src/mst/ahb_master_monitor.sv(117) @ 1685000: uvm_test_top.env.master_agent.mon [ahb_master_monitor] Beat[6] addr=0x000031a0 wdata=0xda588703 resp=AHB_RESP_OKAY
# UVM_INFO ../src/mst/ahb_master_driver.sv(309) @ 1695000: uvm_test_top.env.master_agent.drv [ahb_master_driver] Beat[7/8] addr=0x000031a4 trans=AHB_TRANS_SEQ resp=AHB_RESP_OKAY wdata=0x6373b0f9
# UVM_INFO ../src/mst/ahb_master_driver.sv(353) @ 1695000: uvm_test_top.env.master_agent.drv [ahb_master_driver] Transaction complete: AHB_WRITE 0x00003188, 8 beats, burst=AHB_BURST_INCR8
# UVM_INFO ../src/slv/ahb_slave_driver.sv(174) @ 1695000: uvm_test_top.env.slave_agent.drv [ahb_slave_driver] Beat AHB_WRITE addr=0x000031a4 resp=AHB_RESP_OKAY waits=0 wdata=0x6373b0f9
# UVM_INFO ../src/slv/ahb_slave_monitor.sv(197) @ 1695000: uvm_test_top.env.slave_agent.mon [ahb_slave_monitor] Observed [AHB_WRITE]: HADDR=0x00003188, HBURST=AHB_BURST_INCR8, HSIZE=AHB_SIZE_32B, 8 beats
# UVM_INFO ../src/env/ahb_coverage.sv(127) @ 1695000: uvm_test_top.env.slave_cov [ahb_coverage] Sampled [AHB_WRITE]: burst=AHB_BURST_INCR8 size=AHB_SIZE_32B beats=8 error=0
# UVM_INFO ../src/mst/ahb_master_monitor.sv(117) @ 1695000: uvm_test_top.env.master_agent.mon [ahb_master_monitor] Beat[7] addr=0x000031a4 wdata=0x6373b0f9 resp=AHB_RESP_OKAY
# UVM_INFO ../src/mst/ahb_master_monitor.sv(222) @ 1695000: uvm_test_top.env.master_agent.mon [ahb_master_monitor] Observed [AHB_WRITE]: HADDR=0x00003188, HBURST=AHB_BURST_INCR8, HSIZE=AHB_SIZE_32B, 8 beats
# UVM_INFO ../src/env/ahb_coverage.sv(127) @ 1695000: uvm_test_top.env.master_cov [ahb_coverage] Sampled [AHB_WRITE]: burst=AHB_BURST_INCR8 size=AHB_SIZE_32B beats=8 error=0
# UVM_INFO ../src/env/ahb_scoreboard.sv(104) @ 1695000: uvm_test_top.env.scb [ahb_scoreboard] MATCH #13: [AHB_WRITE] HADDR=0x00003188 AHB_BURST_INCR8 8 beats
# UVM_INFO ../src/mst/ahb_master_driver.sv(82) @ 1695000: uvm_test_top.env.master_agent.drv [ahb_master_driver] Queueing [AHB_READ]: HADDR=0x00003188, HBURST=AHB_BURST_INCR8, HSIZE=AHB_SIZE_32B, 8 beats
# UVM_INFO ../src/mst/ahb_master_driver.sv(124) @ 1695000: uvm_test_top.env.master_agent.drv [ahb_master_driver] Driving [AHB_READ]: HADDR=0x00003188, HBURST=AHB_BURST_INCR8, HSIZE=AHB_SIZE_32B, 8 beats               
# UVM_INFO ../src/mst/ahb_master_driver.sv(309) @ 1745000: uvm_test_top.env.master_agent.drv [ahb_master_driver] Beat[0/8] addr=0x00003188 trans=AHB_TRANS_NONSEQ resp=AHB_RESP_OKAY rdata=0x5912446f
# UVM_INFO ../src/slv/ahb_slave_driver.sv(174) @ 1745000: uvm_test_top.env.slave_agent.drv [ahb_slave_driver] Beat AHB_READ addr=0x00003188 resp=AHB_RESP_OKAY waits=2 rdata=0x5912446f
# UVM_INFO ../src/mst/ahb_master_monitor.sv(117) @ 1745000: uvm_test_top.env.master_agent.mon [ahb_master_monitor] Beat[0] addr=0x00003188 rdata=0x5912446f resp=AHB_RESP_OKAY
# UVM_INFO ../src/mst/ahb_master_driver.sv(309) @ 1775000: uvm_test_top.env.master_agent.drv [ahb_master_driver] Beat[1/8] addr=0x0000318c trans=AHB_TRANS_SEQ resp=AHB_RESP_OKAY rdata=0x9c76f181
# UVM_INFO ../src/slv/ahb_slave_driver.sv(174) @ 1775000: uvm_test_top.env.slave_agent.drv [ahb_slave_driver] Beat AHB_READ addr=0x0000318c resp=AHB_RESP_OKAY waits=2 rdata=0x9c76f181
# UVM_INFO ../src/mst/ahb_master_monitor.sv(117) @ 1775000: uvm_test_top.env.master_agent.mon [ahb_master_monitor] Beat[1] addr=0x0000318c rdata=0x9c76f181 resp=AHB_RESP_OKAY
# UVM_INFO ../src/mst/ahb_master_driver.sv(309) @ 1785000: uvm_test_top.env.master_agent.drv [ahb_master_driver] Beat[2/8] addr=0x00003190 trans=AHB_TRANS_SEQ resp=AHB_RESP_OKAY rdata=0x5edf8261
# UVM_INFO ../src/slv/ahb_slave_driver.sv(174) @ 1785000: uvm_test_top.env.slave_agent.drv [ahb_slave_driver] Beat AHB_READ addr=0x00003190 resp=AHB_RESP_OKAY waits=0 rdata=0x5edf8261
# UVM_INFO ../src/mst/ahb_master_monitor.sv(117) @ 1785000: uvm_test_top.env.master_agent.mon [ahb_master_monitor] Beat[2] addr=0x00003190 rdata=0x5edf8261 resp=AHB_RESP_OKAY
# UVM_INFO ../src/mst/ahb_master_driver.sv(309) @ 1805000: uvm_test_top.env.master_agent.drv [ahb_master_driver] Beat[3/8] addr=0x00003194 trans=AHB_TRANS_SEQ resp=AHB_RESP_OKAY rdata=0x82cab090
# UVM_INFO ../src/slv/ahb_slave_driver.sv(174) @ 1805000: uvm_test_top.env.slave_agent.drv [ahb_slave_driver] Beat AHB_READ addr=0x00003194 resp=AHB_RESP_OKAY waits=1 rdata=0x82cab090
# UVM_INFO ../src/mst/ahb_master_monitor.sv(117) @ 1805000: uvm_test_top.env.master_agent.mon [ahb_master_monitor] Beat[3] addr=0x00003194 rdata=0x82cab090 resp=AHB_RESP_OKAY
# UVM_INFO ../src/mst/ahb_master_driver.sv(309) @ 1835000: uvm_test_top.env.master_agent.drv [ahb_master_driver] Beat[4/8] addr=0x00003198 trans=AHB_TRANS_SEQ resp=AHB_RESP_OKAY rdata=0x9a5d72e5
# UVM_INFO ../src/slv/ahb_slave_driver.sv(174) @ 1835000: uvm_test_top.env.slave_agent.drv [ahb_slave_driver] Beat AHB_READ addr=0x00003198 resp=AHB_RESP_OKAY waits=2 rdata=0x9a5d72e5
# UVM_INFO ../src/mst/ahb_master_monitor.sv(117) @ 1835000: uvm_test_top.env.master_agent.mon [ahb_master_monitor] Beat[4] addr=0x00003198 rdata=0x9a5d72e5 resp=AHB_RESP_OKAY
# UVM_INFO ../src/mst/ahb_master_driver.sv(309) @ 1855000: uvm_test_top.env.master_agent.drv [ahb_master_driver] Beat[5/8] addr=0x0000319c trans=AHB_TRANS_SEQ resp=AHB_RESP_OKAY rdata=0xef15d3a3
# UVM_INFO ../src/slv/ahb_slave_driver.sv(174) @ 1855000: uvm_test_top.env.slave_agent.drv [ahb_slave_driver] Beat AHB_READ addr=0x0000319c resp=AHB_RESP_OKAY waits=1 rdata=0xef15d3a3
# UVM_INFO ../src/mst/ahb_master_monitor.sv(117) @ 1855000: uvm_test_top.env.master_agent.mon [ahb_master_monitor] Beat[5] addr=0x0000319c rdata=0xef15d3a3 resp=AHB_RESP_OKAY
# UVM_INFO ../src/mst/ahb_master_driver.sv(309) @ 1865000: uvm_test_top.env.master_agent.drv [ahb_master_driver] Beat[6/8] addr=0x000031a0 trans=AHB_TRANS_SEQ resp=AHB_RESP_OKAY rdata=0xda588703
# UVM_INFO ../src/slv/ahb_slave_driver.sv(174) @ 1865000: uvm_test_top.env.slave_agent.drv [ahb_slave_driver] Beat AHB_READ addr=0x000031a0 resp=AHB_RESP_OKAY waits=0 rdata=0xda588703
# UVM_INFO ../src/mst/ahb_master_monitor.sv(117) @ 1865000: uvm_test_top.env.master_agent.mon [ahb_master_monitor] Beat[6] addr=0x000031a0 rdata=0xda588703 resp=AHB_RESP_OKAY
# UVM_INFO ../src/mst/ahb_master_driver.sv(309) @ 1895000: uvm_test_top.env.master_agent.drv [ahb_master_driver] Beat[7/8] addr=0x000031a4 trans=AHB_TRANS_SEQ resp=AHB_RESP_OKAY rdata=0x6373b0f9
# UVM_INFO ../src/mst/ahb_master_driver.sv(353) @ 1895000: uvm_test_top.env.master_agent.drv [ahb_master_driver] Transaction complete: AHB_READ 0x00003188, 8 beats, burst=AHB_BURST_INCR8
# UVM_INFO ../src/slv/ahb_slave_driver.sv(174) @ 1895000: uvm_test_top.env.slave_agent.drv [ahb_slave_driver] Beat AHB_READ addr=0x000031a4 resp=AHB_RESP_OKAY waits=2 rdata=0x6373b0f9
# UVM_INFO ../src/slv/ahb_slave_monitor.sv(197) @ 1895000: uvm_test_top.env.slave_agent.mon [ahb_slave_monitor] Observed [AHB_READ]: HADDR=0x00003188, HBURST=AHB_BURST_INCR8, HSIZE=AHB_SIZE_32B, 8 beats
# UVM_INFO ../src/env/ahb_coverage.sv(127) @ 1895000: uvm_test_top.env.slave_cov [ahb_coverage] Sampled [AHB_READ]: burst=AHB_BURST_INCR8 size=AHB_SIZE_32B beats=8 error=0
# UVM_INFO ../src/mst/ahb_master_monitor.sv(117) @ 1895000: uvm_test_top.env.master_agent.mon [ahb_master_monitor] Beat[7] addr=0x000031a4 rdata=0x6373b0f9 resp=AHB_RESP_OKAY
# UVM_INFO ../src/mst/ahb_master_monitor.sv(222) @ 1895000: uvm_test_top.env.master_agent.mon [ahb_master_monitor] Observed [AHB_READ]: HADDR=0x00003188, HBURST=AHB_BURST_INCR8, HSIZE=AHB_SIZE_32B, 8 beats
# UVM_INFO ../src/env/ahb_coverage.sv(127) @ 1895000: uvm_test_top.env.master_cov [ahb_coverage] Sampled [AHB_READ]: burst=AHB_BURST_INCR8 size=AHB_SIZE_32B beats=8 error=0
# UVM_INFO ../src/env/ahb_scoreboard.sv(104) @ 1895000: uvm_test_top.env.scb [ahb_scoreboard] MATCH #14: [AHB_READ] HADDR=0x00003188 AHB_BURST_INCR8 8 beats
# UVM_INFO ../src/mst_seq/ahb_base_seq.sv(138) @ 1895000: uvm_test_top.env.master_agent.sqr@@seq [ahb_incr_burst_seq] AHB_BURST_INCR8 AHB_SIZE_32B beat 0 @0x00003188 ok
# UVM_INFO ../src/mst_seq/ahb_base_seq.sv(138) @ 1895000: uvm_test_top.env.master_agent.sqr@@seq [ahb_incr_burst_seq] AHB_BURST_INCR8 AHB_SIZE_32B beat 1 @0x0000318c ok
# UVM_INFO ../src/mst_seq/ahb_base_seq.sv(138) @ 1895000: uvm_test_top.env.master_agent.sqr@@seq [ahb_incr_burst_seq] AHB_BURST_INCR8 AHB_SIZE_32B beat 2 @0x00003190 ok
# UVM_INFO ../src/mst_seq/ahb_base_seq.sv(138) @ 1895000: uvm_test_top.env.master_agent.sqr@@seq [ahb_incr_burst_seq] AHB_BURST_INCR8 AHB_SIZE_32B beat 3 @0x00003194 ok
# UVM_INFO ../src/mst_seq/ahb_base_seq.sv(138) @ 1895000: uvm_test_top.env.master_agent.sqr@@seq [ahb_incr_burst_seq] AHB_BURST_INCR8 AHB_SIZE_32B beat 4 @0x00003198 ok
# UVM_INFO ../src/mst_seq/ahb_base_seq.sv(138) @ 1895000: uvm_test_top.env.master_agent.sqr@@seq [ahb_incr_burst_seq] AHB_BURST_INCR8 AHB_SIZE_32B beat 5 @0x0000319c ok
# UVM_INFO ../src/mst_seq/ahb_base_seq.sv(138) @ 1895000: uvm_test_top.env.master_agent.sqr@@seq [ahb_incr_burst_seq] AHB_BURST_INCR8 AHB_SIZE_32B beat 6 @0x000031a0 ok
# UVM_INFO ../src/mst_seq/ahb_base_seq.sv(138) @ 1895000: uvm_test_top.env.master_agent.sqr@@seq [ahb_incr_burst_seq] AHB_BURST_INCR8 AHB_SIZE_32B beat 7 @0x000031a4 ok
# UVM_INFO ../src/mst/ahb_master_driver.sv(82) @ 1895000: uvm_test_top.env.master_agent.drv [ahb_master_driver] Queueing [AHB_WRITE]: HADDR=0x000031fc, HBURST=AHB_BURST_INCR4, HSIZE=AHB_SIZE_8B, 4 beats
# UVM_INFO ../src/mst/ahb_master_driver.sv(124) @ 1895000: uvm_test_top.env.master_agent.drv [ahb_master_driver] Driving [AHB_WRITE]: HADDR=0x000031fc, HBURST=AHB_BURST_INCR4, HSIZE=AHB_SIZE_8B, 4 beats               
# UVM_INFO ../src/mst/ahb_master_driver.sv(309) @ 1945000: uvm_test_top.env.master_agent.drv [ahb_master_driver] Beat[0/4] addr=0x000031fc trans=AHB_TRANS_NONSEQ resp=AHB_RESP_OKAY wdata=0xbf55a4da
# UVM_INFO ../src/slv/ahb_slave_driver.sv(174) @ 1945000: uvm_test_top.env.slave_agent.drv [ahb_slave_driver] Beat AHB_WRITE addr=0x000031fc resp=AHB_RESP_OKAY waits=2 wdata=0xbf55a4da
# UVM_INFO ../src/mst/ahb_master_monitor.sv(117) @ 1945000: uvm_test_top.env.master_agent.mon [ahb_master_monitor] Beat[0] addr=0x000031fc wdata=0xbf55a4da resp=AHB_RESP_OKAY
# UVM_INFO ../src/mst/ahb_master_driver.sv(309) @ 1955000: uvm_test_top.env.master_agent.drv [ahb_master_driver] Beat[1/4] addr=0x000031fd trans=AHB_TRANS_SEQ resp=AHB_RESP_OKAY wdata=0x8c3ee969
# UVM_INFO ../src/slv/ahb_slave_driver.sv(174) @ 1955000: uvm_test_top.env.slave_agent.drv [ahb_slave_driver] Beat AHB_WRITE addr=0x000031fd resp=AHB_RESP_OKAY waits=0 wdata=0x8c3ee969
# UVM_INFO ../src/mst/ahb_master_monitor.sv(117) @ 1955000: uvm_test_top.env.master_agent.mon [ahb_master_monitor] Beat[1] addr=0x000031fd wdata=0x8c3ee969 resp=AHB_RESP_OKAY
# UVM_INFO ../src/mst/ahb_master_driver.sv(309) @ 1965000: uvm_test_top.env.master_agent.drv [ahb_master_driver] Beat[2/4] addr=0x000031fe trans=AHB_TRANS_SEQ resp=AHB_RESP_OKAY wdata=0x63a5681a
# UVM_INFO ../src/slv/ahb_slave_driver.sv(174) @ 1965000: uvm_test_top.env.slave_agent.drv [ahb_slave_driver] Beat AHB_WRITE addr=0x000031fe resp=AHB_RESP_OKAY waits=0 wdata=0x63a5681a
# UVM_INFO ../src/mst/ahb_master_monitor.sv(117) @ 1965000: uvm_test_top.env.master_agent.mon [ahb_master_monitor] Beat[2] addr=0x000031fe wdata=0x63a5681a resp=AHB_RESP_OKAY
# UVM_INFO ../src/mst/ahb_master_driver.sv(309) @ 1985000: uvm_test_top.env.master_agent.drv [ahb_master_driver] Beat[3/4] addr=0x000031ff trans=AHB_TRANS_SEQ resp=AHB_RESP_OKAY wdata=0x48222e08
# UVM_INFO ../src/mst/ahb_master_driver.sv(353) @ 1985000: uvm_test_top.env.master_agent.drv [ahb_master_driver] Transaction complete: AHB_WRITE 0x000031fc, 4 beats, burst=AHB_BURST_INCR4
# UVM_INFO ../src/slv/ahb_slave_driver.sv(174) @ 1985000: uvm_test_top.env.slave_agent.drv [ahb_slave_driver] Beat AHB_WRITE addr=0x000031ff resp=AHB_RESP_OKAY waits=1 wdata=0x48222e08
# UVM_INFO ../src/mst/ahb_master_monitor.sv(117) @ 1985000: uvm_test_top.env.master_agent.mon [ahb_master_monitor] Beat[3] addr=0x000031ff wdata=0x48222e08 resp=AHB_RESP_OKAY
# UVM_INFO ../src/mst/ahb_master_monitor.sv(222) @ 1985000: uvm_test_top.env.master_agent.mon [ahb_master_monitor] Observed [AHB_WRITE]: HADDR=0x000031fc, HBURST=AHB_BURST_INCR4, HSIZE=AHB_SIZE_8B, 4 beats
# UVM_INFO ../src/env/ahb_coverage.sv(127) @ 1985000: uvm_test_top.env.master_cov [ahb_coverage] Sampled [AHB_WRITE]: burst=AHB_BURST_INCR4 size=AHB_SIZE_8B beats=4 error=0
# UVM_INFO ../src/slv/ahb_slave_monitor.sv(197) @ 1985000: uvm_test_top.env.slave_agent.mon [ahb_slave_monitor] Observed [AHB_WRITE]: HADDR=0x000031fc, HBURST=AHB_BURST_INCR4, HSIZE=AHB_SIZE_8B, 4 beats
# UVM_INFO ../src/env/ahb_scoreboard.sv(104) @ 1985000: uvm_test_top.env.scb [ahb_scoreboard] MATCH #15: [AHB_WRITE] HADDR=0x000031fc AHB_BURST_INCR4 4 beats
# UVM_INFO ../src/env/ahb_coverage.sv(127) @ 1985000: uvm_test_top.env.slave_cov [ahb_coverage] Sampled [AHB_WRITE]: burst=AHB_BURST_INCR4 size=AHB_SIZE_8B beats=4 error=0
# UVM_INFO ../src/mst/ahb_master_driver.sv(82) @ 1985000: uvm_test_top.env.master_agent.drv [ahb_master_driver] Queueing [AHB_READ]: HADDR=0x000031fc, HBURST=AHB_BURST_INCR4, HSIZE=AHB_SIZE_8B, 4 beats
# UVM_INFO ../src/mst/ahb_master_driver.sv(124) @ 1985000: uvm_test_top.env.master_agent.drv [ahb_master_driver] Driving [AHB_READ]: HADDR=0x000031fc, HBURST=AHB_BURST_INCR4, HSIZE=AHB_SIZE_8B, 4 beats               
# UVM_INFO ../src/mst/ahb_master_driver.sv(309) @ 2035000: uvm_test_top.env.master_agent.drv [ahb_master_driver] Beat[0/4] addr=0x000031fc trans=AHB_TRANS_NONSEQ resp=AHB_RESP_OKAY rdata=0xbf55a4da
# UVM_INFO ../src/slv/ahb_slave_driver.sv(174) @ 2035000: uvm_test_top.env.slave_agent.drv [ahb_slave_driver] Beat AHB_READ addr=0x000031fc resp=AHB_RESP_OKAY waits=2 rdata=0xbf55a4da
# UVM_INFO ../src/mst/ahb_master_monitor.sv(117) @ 2035000: uvm_test_top.env.master_agent.mon [ahb_master_monitor] Beat[0] addr=0x000031fc rdata=0xbf55a4da resp=AHB_RESP_OKAY
# UVM_INFO ../src/mst/ahb_master_driver.sv(309) @ 2065000: uvm_test_top.env.master_agent.drv [ahb_master_driver] Beat[1/4] addr=0x000031fd trans=AHB_TRANS_SEQ resp=AHB_RESP_OKAY rdata=0x8c3ee969
# UVM_INFO ../src/slv/ahb_slave_driver.sv(174) @ 2065000: uvm_test_top.env.slave_agent.drv [ahb_slave_driver] Beat AHB_READ addr=0x000031fd resp=AHB_RESP_OKAY waits=2 rdata=0x8c3ee969
# UVM_INFO ../src/mst/ahb_master_monitor.sv(117) @ 2065000: uvm_test_top.env.master_agent.mon [ahb_master_monitor] Beat[1] addr=0x000031fd rdata=0x8c3ee969 resp=AHB_RESP_OKAY
# UVM_INFO ../src/mst/ahb_master_driver.sv(309) @ 2095000: uvm_test_top.env.master_agent.drv [ahb_master_driver] Beat[2/4] addr=0x000031fe trans=AHB_TRANS_SEQ resp=AHB_RESP_OKAY rdata=0x63a5681a
# UVM_INFO ../src/slv/ahb_slave_driver.sv(174) @ 2095000: uvm_test_top.env.slave_agent.drv [ahb_slave_driver] Beat AHB_READ addr=0x000031fe resp=AHB_RESP_OKAY waits=2 rdata=0x63a5681a
# UVM_INFO ../src/mst/ahb_master_monitor.sv(117) @ 2095000: uvm_test_top.env.master_agent.mon [ahb_master_monitor] Beat[2] addr=0x000031fe rdata=0x63a5681a resp=AHB_RESP_OKAY
# UVM_INFO ../src/mst/ahb_master_driver.sv(309) @ 2125000: uvm_test_top.env.master_agent.drv [ahb_master_driver] Beat[3/4] addr=0x000031ff trans=AHB_TRANS_SEQ resp=AHB_RESP_OKAY rdata=0x48222e08
# UVM_INFO ../src/mst/ahb_master_driver.sv(353) @ 2125000: uvm_test_top.env.master_agent.drv [ahb_master_driver] Transaction complete: AHB_READ 0x000031fc, 4 beats, burst=AHB_BURST_INCR4
# UVM_INFO ../src/slv/ahb_slave_driver.sv(174) @ 2125000: uvm_test_top.env.slave_agent.drv [ahb_slave_driver] Beat AHB_READ addr=0x000031ff resp=AHB_RESP_OKAY waits=2 rdata=0x48222e08
# UVM_INFO ../src/mst/ahb_master_monitor.sv(117) @ 2125000: uvm_test_top.env.master_agent.mon [ahb_master_monitor] Beat[3] addr=0x000031ff rdata=0x48222e08 resp=AHB_RESP_OKAY
# UVM_INFO ../src/mst/ahb_master_monitor.sv(222) @ 2125000: uvm_test_top.env.master_agent.mon [ahb_master_monitor] Observed [AHB_READ]: HADDR=0x000031fc, HBURST=AHB_BURST_INCR4, HSIZE=AHB_SIZE_8B, 4 beats
# UVM_INFO ../src/env/ahb_coverage.sv(127) @ 2125000: uvm_test_top.env.master_cov [ahb_coverage] Sampled [AHB_READ]: burst=AHB_BURST_INCR4 size=AHB_SIZE_8B beats=4 error=0
# UVM_INFO ../src/slv/ahb_slave_monitor.sv(197) @ 2125000: uvm_test_top.env.slave_agent.mon [ahb_slave_monitor] Observed [AHB_READ]: HADDR=0x000031fc, HBURST=AHB_BURST_INCR4, HSIZE=AHB_SIZE_8B, 4 beats
# UVM_INFO ../src/env/ahb_scoreboard.sv(104) @ 2125000: uvm_test_top.env.scb [ahb_scoreboard] MATCH #16: [AHB_READ] HADDR=0x000031fc AHB_BURST_INCR4 4 beats
# UVM_INFO ../src/env/ahb_coverage.sv(127) @ 2125000: uvm_test_top.env.slave_cov [ahb_coverage] Sampled [AHB_READ]: burst=AHB_BURST_INCR4 size=AHB_SIZE_8B beats=4 error=0
# UVM_INFO ../src/mst_seq/ahb_base_seq.sv(138) @ 2125000: uvm_test_top.env.master_agent.sqr@@seq [ahb_incr_burst_seq] AHB_BURST_INCR4 AHB_SIZE_8B beat 0 @0x000031fc ok
# UVM_INFO ../src/mst_seq/ahb_base_seq.sv(138) @ 2125000: uvm_test_top.env.master_agent.sqr@@seq [ahb_incr_burst_seq] AHB_BURST_INCR4 AHB_SIZE_8B beat 1 @0x000031fd ok
# UVM_INFO ../src/mst_seq/ahb_base_seq.sv(138) @ 2125000: uvm_test_top.env.master_agent.sqr@@seq [ahb_incr_burst_seq] AHB_BURST_INCR4 AHB_SIZE_8B beat 2 @0x000031fe ok
# UVM_INFO ../src/mst_seq/ahb_base_seq.sv(138) @ 2125000: uvm_test_top.env.master_agent.sqr@@seq [ahb_incr_burst_seq] AHB_BURST_INCR4 AHB_SIZE_8B beat 3 @0x000031ff ok
# UVM_INFO ../src/mst/ahb_master_driver.sv(82) @ 2125000: uvm_test_top.env.master_agent.drv [ahb_master_driver] Queueing [AHB_WRITE]: HADDR=0x00003219, HBURST=AHB_BURST_INCR8, HSIZE=AHB_SIZE_8B, 8 beats
# UVM_INFO ../src/mst/ahb_master_driver.sv(124) @ 2125000: uvm_test_top.env.master_agent.drv [ahb_master_driver] Driving [AHB_WRITE]: HADDR=0x00003219, HBURST=AHB_BURST_INCR8, HSIZE=AHB_SIZE_8B, 8 beats               
# UVM_INFO ../src/mst/ahb_master_driver.sv(309) @ 2175000: uvm_test_top.env.master_agent.drv [ahb_master_driver] Beat[0/8] addr=0x00003219 trans=AHB_TRANS_NONSEQ resp=AHB_RESP_OKAY wdata=0xbc0a45f9
# UVM_INFO ../src/slv/ahb_slave_driver.sv(174) @ 2175000: uvm_test_top.env.slave_agent.drv [ahb_slave_driver] Beat AHB_WRITE addr=0x00003219 resp=AHB_RESP_OKAY waits=2 wdata=0xbc0a45f9
# UVM_INFO ../src/mst/ahb_master_monitor.sv(117) @ 2175000: uvm_test_top.env.master_agent.mon [ahb_master_monitor] Beat[0] addr=0x00003219 wdata=0xbc0a45f9 resp=AHB_RESP_OKAY
# UVM_INFO ../src/mst/ahb_master_driver.sv(309) @ 2185000: uvm_test_top.env.master_agent.drv [ahb_master_driver] Beat[1/8] addr=0x0000321a trans=AHB_TRANS_SEQ resp=AHB_RESP_OKAY wdata=0x32d9ac08
# UVM_INFO ../src/slv/ahb_slave_driver.sv(174) @ 2185000: uvm_test_top.env.slave_agent.drv [ahb_slave_driver] Beat AHB_WRITE addr=0x0000321a resp=AHB_RESP_OKAY waits=0 wdata=0x32d9ac08
# UVM_INFO ../src/mst/ahb_master_monitor.sv(117) @ 2185000: uvm_test_top.env.master_agent.mon [ahb_master_monitor] Beat[1] addr=0x0000321a wdata=0x32d9ac08 resp=AHB_RESP_OKAY
# UVM_INFO ../src/mst/ahb_master_driver.sv(309) @ 2215000: uvm_test_top.env.master_agent.drv [ahb_master_driver] Beat[2/8] addr=0x0000321b trans=AHB_TRANS_SEQ resp=AHB_RESP_OKAY wdata=0x69e3f24d
# UVM_INFO ../src/slv/ahb_slave_driver.sv(174) @ 2215000: uvm_test_top.env.slave_agent.drv [ahb_slave_driver] Beat AHB_WRITE addr=0x0000321b resp=AHB_RESP_OKAY waits=2 wdata=0x69e3f24d
# UVM_INFO ../src/mst/ahb_master_monitor.sv(117) @ 2215000: uvm_test_top.env.master_agent.mon [ahb_master_monitor] Beat[2] addr=0x0000321b wdata=0x69e3f24d resp=AHB_RESP_OKAY
# UVM_INFO ../src/mst/ahb_master_driver.sv(309) @ 2245000: uvm_test_top.env.master_agent.drv [ahb_master_driver] Beat[3/8] addr=0x0000321c trans=AHB_TRANS_SEQ resp=AHB_RESP_OKAY wdata=0xb58b77a0
# UVM_INFO ../src/slv/ahb_slave_driver.sv(174) @ 2245000: uvm_test_top.env.slave_agent.drv [ahb_slave_driver] Beat AHB_WRITE addr=0x0000321c resp=AHB_RESP_OKAY waits=2 wdata=0xb58b77a0
# UVM_INFO ../src/mst/ahb_master_monitor.sv(117) @ 2245000: uvm_test_top.env.master_agent.mon [ahb_master_monitor] Beat[3] addr=0x0000321c wdata=0xb58b77a0 resp=AHB_RESP_OKAY
# UVM_INFO ../src/mst/ahb_master_driver.sv(309) @ 2275000: uvm_test_top.env.master_agent.drv [ahb_master_driver] Beat[4/8] addr=0x0000321d trans=AHB_TRANS_SEQ resp=AHB_RESP_OKAY wdata=0x97e79d62
# UVM_INFO ../src/slv/ahb_slave_driver.sv(174) @ 2275000: uvm_test_top.env.slave_agent.drv [ahb_slave_driver] Beat AHB_WRITE addr=0x0000321d resp=AHB_RESP_OKAY waits=2 wdata=0x97e79d62
# UVM_INFO ../src/mst/ahb_master_monitor.sv(117) @ 2275000: uvm_test_top.env.master_agent.mon [ahb_master_monitor] Beat[4] addr=0x0000321d wdata=0x97e79d62 resp=AHB_RESP_OKAY
# UVM_INFO ../src/mst/ahb_master_driver.sv(309) @ 2295000: uvm_test_top.env.master_agent.drv [ahb_master_driver] Beat[5/8] addr=0x0000321e trans=AHB_TRANS_SEQ resp=AHB_RESP_OKAY wdata=0x811cd824
# UVM_INFO ../src/slv/ahb_slave_driver.sv(174) @ 2295000: uvm_test_top.env.slave_agent.drv [ahb_slave_driver] Beat AHB_WRITE addr=0x0000321e resp=AHB_RESP_OKAY waits=1 wdata=0x811cd824
# UVM_INFO ../src/mst/ahb_master_monitor.sv(117) @ 2295000: uvm_test_top.env.master_agent.mon [ahb_master_monitor] Beat[5] addr=0x0000321e wdata=0x811cd824 resp=AHB_RESP_OKAY
# UVM_INFO ../src/mst/ahb_master_driver.sv(309) @ 2305000: uvm_test_top.env.master_agent.drv [ahb_master_driver] Beat[6/8] addr=0x0000321f trans=AHB_TRANS_SEQ resp=AHB_RESP_OKAY wdata=0x0e2b5e0e
# UVM_INFO ../src/slv/ahb_slave_driver.sv(174) @ 2305000: uvm_test_top.env.slave_agent.drv [ahb_slave_driver] Beat AHB_WRITE addr=0x0000321f resp=AHB_RESP_OKAY waits=0 wdata=0x0e2b5e0e
# UVM_INFO ../src/mst/ahb_master_monitor.sv(117) @ 2305000: uvm_test_top.env.master_agent.mon [ahb_master_monitor] Beat[6] addr=0x0000321f wdata=0x0e2b5e0e resp=AHB_RESP_OKAY
# UVM_INFO ../src/mst/ahb_master_driver.sv(309) @ 2315000: uvm_test_top.env.master_agent.drv [ahb_master_driver] Beat[7/8] addr=0x00003220 trans=AHB_TRANS_SEQ resp=AHB_RESP_OKAY wdata=0x1c7d6ff6
# UVM_INFO ../src/mst/ahb_master_driver.sv(353) @ 2315000: uvm_test_top.env.master_agent.drv [ahb_master_driver] Transaction complete: AHB_WRITE 0x00003219, 8 beats, burst=AHB_BURST_INCR8
# UVM_INFO ../src/slv/ahb_slave_driver.sv(174) @ 2315000: uvm_test_top.env.slave_agent.drv [ahb_slave_driver] Beat AHB_WRITE addr=0x00003220 resp=AHB_RESP_OKAY waits=0 wdata=0x1c7d6ff6
# UVM_INFO ../src/slv/ahb_slave_monitor.sv(197) @ 2315000: uvm_test_top.env.slave_agent.mon [ahb_slave_monitor] Observed [AHB_WRITE]: HADDR=0x00003219, HBURST=AHB_BURST_INCR8, HSIZE=AHB_SIZE_8B, 8 beats
# UVM_INFO ../src/env/ahb_coverage.sv(127) @ 2315000: uvm_test_top.env.slave_cov [ahb_coverage] Sampled [AHB_WRITE]: burst=AHB_BURST_INCR8 size=AHB_SIZE_8B beats=8 error=0
# UVM_INFO ../src/mst/ahb_master_monitor.sv(117) @ 2315000: uvm_test_top.env.master_agent.mon [ahb_master_monitor] Beat[7] addr=0x00003220 wdata=0x1c7d6ff6 resp=AHB_RESP_OKAY
# UVM_INFO ../src/mst/ahb_master_monitor.sv(222) @ 2315000: uvm_test_top.env.master_agent.mon [ahb_master_monitor] Observed [AHB_WRITE]: HADDR=0x00003219, HBURST=AHB_BURST_INCR8, HSIZE=AHB_SIZE_8B, 8 beats
# UVM_INFO ../src/env/ahb_coverage.sv(127) @ 2315000: uvm_test_top.env.master_cov [ahb_coverage] Sampled [AHB_WRITE]: burst=AHB_BURST_INCR8 size=AHB_SIZE_8B beats=8 error=0
# UVM_INFO ../src/env/ahb_scoreboard.sv(104) @ 2315000: uvm_test_top.env.scb [ahb_scoreboard] MATCH #17: [AHB_WRITE] HADDR=0x00003219 AHB_BURST_INCR8 8 beats
# UVM_INFO ../src/mst/ahb_master_driver.sv(82) @ 2315000: uvm_test_top.env.master_agent.drv [ahb_master_driver] Queueing [AHB_READ]: HADDR=0x00003219, HBURST=AHB_BURST_INCR8, HSIZE=AHB_SIZE_8B, 8 beats
# UVM_INFO ../src/mst/ahb_master_driver.sv(124) @ 2315000: uvm_test_top.env.master_agent.drv [ahb_master_driver] Driving [AHB_READ]: HADDR=0x00003219, HBURST=AHB_BURST_INCR8, HSIZE=AHB_SIZE_8B, 8 beats               
# UVM_INFO ../src/mst/ahb_master_driver.sv(309) @ 2355000: uvm_test_top.env.master_agent.drv [ahb_master_driver] Beat[0/8] addr=0x00003219 trans=AHB_TRANS_NONSEQ resp=AHB_RESP_OKAY rdata=0xbc0a45f9
# UVM_INFO ../src/slv/ahb_slave_driver.sv(174) @ 2355000: uvm_test_top.env.slave_agent.drv [ahb_slave_driver] Beat AHB_READ addr=0x00003219 resp=AHB_RESP_OKAY waits=1 rdata=0xbc0a45f9
# UVM_INFO ../src/mst/ahb_master_monitor.sv(117) @ 2355000: uvm_test_top.env.master_agent.mon [ahb_master_monitor] Beat[0] addr=0x00003219 rdata=0xbc0a45f9 resp=AHB_RESP_OKAY
# UVM_INFO ../src/mst/ahb_master_driver.sv(309) @ 2375000: uvm_test_top.env.master_agent.drv [ahb_master_driver] Beat[1/8] addr=0x0000321a trans=AHB_TRANS_SEQ resp=AHB_RESP_OKAY rdata=0x32d9ac08
# UVM_INFO ../src/slv/ahb_slave_driver.sv(174) @ 2375000: uvm_test_top.env.slave_agent.drv [ahb_slave_driver] Beat AHB_READ addr=0x0000321a resp=AHB_RESP_OKAY waits=1 rdata=0x32d9ac08
# UVM_INFO ../src/mst/ahb_master_monitor.sv(117) @ 2375000: uvm_test_top.env.master_agent.mon [ahb_master_monitor] Beat[1] addr=0x0000321a rdata=0x32d9ac08 resp=AHB_RESP_OKAY
# UVM_INFO ../src/mst/ahb_master_driver.sv(309) @ 2395000: uvm_test_top.env.master_agent.drv [ahb_master_driver] Beat[2/8] addr=0x0000321b trans=AHB_TRANS_SEQ resp=AHB_RESP_OKAY rdata=0x69e3f24d
# UVM_INFO ../src/slv/ahb_slave_driver.sv(174) @ 2395000: uvm_test_top.env.slave_agent.drv [ahb_slave_driver] Beat AHB_READ addr=0x0000321b resp=AHB_RESP_OKAY waits=1 rdata=0x69e3f24d
# UVM_INFO ../src/mst/ahb_master_monitor.sv(117) @ 2395000: uvm_test_top.env.master_agent.mon [ahb_master_monitor] Beat[2] addr=0x0000321b rdata=0x69e3f24d resp=AHB_RESP_OKAY
# UVM_INFO ../src/mst/ahb_master_driver.sv(309) @ 2425000: uvm_test_top.env.master_agent.drv [ahb_master_driver] Beat[3/8] addr=0x0000321c trans=AHB_TRANS_SEQ resp=AHB_RESP_OKAY rdata=0xb58b77a0
# UVM_INFO ../src/slv/ahb_slave_driver.sv(174) @ 2425000: uvm_test_top.env.slave_agent.drv [ahb_slave_driver] Beat AHB_READ addr=0x0000321c resp=AHB_RESP_OKAY waits=2 rdata=0xb58b77a0
# UVM_INFO ../src/mst/ahb_master_monitor.sv(117) @ 2425000: uvm_test_top.env.master_agent.mon [ahb_master_monitor] Beat[3] addr=0x0000321c rdata=0xb58b77a0 resp=AHB_RESP_OKAY
# UVM_INFO ../src/mst/ahb_master_driver.sv(309) @ 2435000: uvm_test_top.env.master_agent.drv [ahb_master_driver] Beat[4/8] addr=0x0000321d trans=AHB_TRANS_SEQ resp=AHB_RESP_OKAY rdata=0x97e79d62
# UVM_INFO ../src/slv/ahb_slave_driver.sv(174) @ 2435000: uvm_test_top.env.slave_agent.drv [ahb_slave_driver] Beat AHB_READ addr=0x0000321d resp=AHB_RESP_OKAY waits=0 rdata=0x97e79d62
# UVM_INFO ../src/mst/ahb_master_monitor.sv(117) @ 2435000: uvm_test_top.env.master_agent.mon [ahb_master_monitor] Beat[4] addr=0x0000321d rdata=0x97e79d62 resp=AHB_RESP_OKAY
# UVM_INFO ../src/mst/ahb_master_driver.sv(309) @ 2465000: uvm_test_top.env.master_agent.drv [ahb_master_driver] Beat[5/8] addr=0x0000321e trans=AHB_TRANS_SEQ resp=AHB_RESP_OKAY rdata=0x811cd824
# UVM_INFO ../src/slv/ahb_slave_driver.sv(174) @ 2465000: uvm_test_top.env.slave_agent.drv [ahb_slave_driver] Beat AHB_READ addr=0x0000321e resp=AHB_RESP_OKAY waits=2 rdata=0x811cd824
# UVM_INFO ../src/mst/ahb_master_monitor.sv(117) @ 2465000: uvm_test_top.env.master_agent.mon [ahb_master_monitor] Beat[5] addr=0x0000321e rdata=0x811cd824 resp=AHB_RESP_OKAY
# UVM_INFO ../src/mst/ahb_master_driver.sv(309) @ 2475000: uvm_test_top.env.master_agent.drv [ahb_master_driver] Beat[6/8] addr=0x0000321f trans=AHB_TRANS_SEQ resp=AHB_RESP_OKAY rdata=0x0e2b5e0e
# UVM_INFO ../src/slv/ahb_slave_driver.sv(174) @ 2475000: uvm_test_top.env.slave_agent.drv [ahb_slave_driver] Beat AHB_READ addr=0x0000321f resp=AHB_RESP_OKAY waits=0 rdata=0x0e2b5e0e
# UVM_INFO ../src/mst/ahb_master_monitor.sv(117) @ 2475000: uvm_test_top.env.master_agent.mon [ahb_master_monitor] Beat[6] addr=0x0000321f rdata=0x0e2b5e0e resp=AHB_RESP_OKAY
# UVM_INFO ../src/mst/ahb_master_driver.sv(309) @ 2485000: uvm_test_top.env.master_agent.drv [ahb_master_driver] Beat[7/8] addr=0x00003220 trans=AHB_TRANS_SEQ resp=AHB_RESP_OKAY rdata=0x1c7d6ff6
# UVM_INFO ../src/mst/ahb_master_driver.sv(353) @ 2485000: uvm_test_top.env.master_agent.drv [ahb_master_driver] Transaction complete: AHB_READ 0x00003219, 8 beats, burst=AHB_BURST_INCR8
# UVM_INFO ../src/slv/ahb_slave_driver.sv(174) @ 2485000: uvm_test_top.env.slave_agent.drv [ahb_slave_driver] Beat AHB_READ addr=0x00003220 resp=AHB_RESP_OKAY waits=0 rdata=0x1c7d6ff6
# UVM_INFO ../src/mst/ahb_master_monitor.sv(117) @ 2485000: uvm_test_top.env.master_agent.mon [ahb_master_monitor] Beat[7] addr=0x00003220 rdata=0x1c7d6ff6 resp=AHB_RESP_OKAY
# UVM_INFO ../src/mst/ahb_master_monitor.sv(222) @ 2485000: uvm_test_top.env.master_agent.mon [ahb_master_monitor] Observed [AHB_READ]: HADDR=0x00003219, HBURST=AHB_BURST_INCR8, HSIZE=AHB_SIZE_8B, 8 beats
# UVM_INFO ../src/env/ahb_coverage.sv(127) @ 2485000: uvm_test_top.env.master_cov [ahb_coverage] Sampled [AHB_READ]: burst=AHB_BURST_INCR8 size=AHB_SIZE_8B beats=8 error=0
# UVM_INFO ../src/slv/ahb_slave_monitor.sv(197) @ 2485000: uvm_test_top.env.slave_agent.mon [ahb_slave_monitor] Observed [AHB_READ]: HADDR=0x00003219, HBURST=AHB_BURST_INCR8, HSIZE=AHB_SIZE_8B, 8 beats
# UVM_INFO ../src/env/ahb_scoreboard.sv(104) @ 2485000: uvm_test_top.env.scb [ahb_scoreboard] MATCH #18: [AHB_READ] HADDR=0x00003219 AHB_BURST_INCR8 8 beats
# UVM_INFO ../src/env/ahb_coverage.sv(127) @ 2485000: uvm_test_top.env.slave_cov [ahb_coverage] Sampled [AHB_READ]: burst=AHB_BURST_INCR8 size=AHB_SIZE_8B beats=8 error=0
# UVM_INFO ../src/mst_seq/ahb_base_seq.sv(138) @ 2485000: uvm_test_top.env.master_agent.sqr@@seq [ahb_incr_burst_seq] AHB_BURST_INCR8 AHB_SIZE_8B beat 0 @0x00003219 ok
