# vsim -c -coverage -sv_seed 96961670 "+UVM_TESTNAME=ahb_wait_state_test" "+UVM_VERBOSITY=UVM_HIGH" "+DUMP_VCD" -l ./report/logs/ahb_wait_state_test_run_4_seed_96961670.log -do "coverage save -onexit ./report/coverage/ahb_wait_state_test_run_4_seed_96961670.ucdb; run -all; quit -f" opt_tb_top 
# Start time: 14:14:51 on Aug 06,2026
# //  Questa Sim-64
# //  Version 10.6b linux_x86_64 May 25 2017
# //
# //  Copyright 1991-2017 Mentor Graphics Corporation
# //  All Rights Reserved.
# //
# //  QuestaSim and its associated documentation contain trade
# //  secrets and commercial or financial information that are the property of
# //  Mentor Graphics Corporation and are privileged, confidential,
# //  and exempt from disclosure under the Freedom of Information Act,
# //  5 U.S.C. Section 552. Furthermore, this information
# //  is prohibited from disclosure under the Trade Secrets Act,
# //  18 U.S.C. Section 1905.
# //
# Loading sv_std.std
# Loading work.ahb_if(fast)
# Loading mtiUvm.uvm_pkg
# Loading work.ahb_pkg(fast)
# Loading work.ahb_seq_pkg(fast)
# Loading work.ahb_test_pkg(fast)
# Loading work.tb_top(fast)
# Loading work.ahb_if(fast)
# Loading work.ahb_sva(fast)
# Loading mtiUvm.questa_uvm_pkg(fast)
# Loading /cadtools/mentor/Questa_10.6b/questasim/uvm-1.1d/linux_x86_64/uvm_dpi.so
# coverage save -onexit ./report/coverage/ahb_wait_state_test_run_4_seed_96961670.ucdb
#  run -all
# ----------------------------------------------------------------
# UVM-1.1d
# (C) 2007-2013 Mentor Graphics Corporation
# (C) 2007-2013 Cadence Design Systems, Inc.
# (C) 2006-2013 Synopsys, Inc.
# (C) 2011-2013 Cypress Semiconductor Corp.
# ----------------------------------------------------------------
# 
#   ***********       IMPORTANT RELEASE NOTES         ************
# 
#   You are using a version of the UVM library that has been compiled
#   with `UVM_NO_DEPRECATED undefined.
#   See http://www.eda.org/svdb/view.php?id=3313 for more details.
# 
#   You are using a version of the UVM library that has been compiled
#   with `UVM_OBJECT_MUST_HAVE_CONSTRUCTOR undefined.
#   See http://www.eda.org/svdb/view.php?id=3770 for more details.
# 
#       (Specify +UVM_NO_RELNOTES to turn off this notice)
# 
# UVM_INFO verilog_src/questa_uvm_pkg-1.2/src/questa_uvm_pkg.sv(215) @ 0: reporter [Questa UVM] QUESTA_UVM-1.2.3
# UVM_INFO verilog_src/questa_uvm_pkg-1.2/src/questa_uvm_pkg.sv(217) @ 0: reporter [Questa UVM]  questa_uvm::init(+struct)
# UVM_INFO ../src/tb_top.sv(126) @ 0: reporter [TB_TOP] Virtual interface set in config_db
# UVM_INFO @ 0: reporter [RNTST] Running test ahb_wait_state_test...
# UVM_INFO ../src/tb_top.sv(140) @ 0: reporter [TB_TOP] Waveform VCD dumping enabled (ahb_lite_vip.vcd)
# UVM_INFO ../src/env/ahb_vip_env.sv(64) @ 0: uvm_test_top.env [ahb_vip_env] slave_vif not set - reusing master_vif (passthrough mode)
# UVM_INFO ../src/env/ahb_vip_env.sv(72) @ 0: uvm_test_top.env [ahb_vip_env] Scoreboard created
# UVM_INFO ../src/env/ahb_vip_env.sv(78) @ 0: uvm_test_top.env [ahb_vip_env] Coverage collectors created
# UVM_INFO ../src/mst/ahb_master_agent.sv(61) @ 0: uvm_test_top.env.master_agent [ahb_master_agent] ACTIVE mode - driver + sequencer created
# UVM_INFO ../src/slv/ahb_slave_agent.sv(64) @ 0: uvm_test_top.env.slave_agent [ahb_slave_agent] ACTIVE mode - driver + sequencer created (    auto responses)
# UVM_INFO ../src/env/ahb_vip_env.sv(92) @ 0: uvm_test_top.env [ahb_vip_env] Scoreboard connected: master_mon.ap -> scb, slave_mon.ap -> scb
# UVM_INFO ../src/env/ahb_vip_env.sv(102) @ 0: uvm_test_top.env [ahb_vip_env] Coverage connected: master_mon.ap/trans_ap -> master_cov, slave_mon.ap/trans_ap -> slave_cov
# UVM_INFO @ 0: reporter [UVMTOP] UVM testbench topology:
# ---------------------------------------------------------------
# Name                       Type                     Size  Value
# ---------------------------------------------------------------
# uvm_test_top               ahb_wait_state_test      -     @475 
#   env                      ahb_vip_env              -     @490 
#     master_agent           ahb_master_agent         -     @505 
#       drv                  ahb_master_driver        -     @570 
#         rsp_port           uvm_analysis_port        -     @585 
#         seq_item_port      uvm_seq_item_pull_port   -     @577 
#       mon                  ahb_master_monitor       -     @563 
#         ap                 uvm_analysis_port        -     @704 
#         trans_ap           uvm_analysis_port        -     @712 
#       sqr                  ahb_master_sequencer     -     @593 
#         rsp_export         uvm_analysis_export      -     @600 
#         seq_item_export    uvm_seq_item_pull_imp    -     @694 
#         arbitration_queue  array                    0     -    
#         lock_queue         array                    0     -    
#         num_last_reqs      integral                 32    'd1  
#         num_last_rsps      integral                 32    'd1  
#     master_cov             ahb_coverage             -     @526 
#       analysis_imp         uvm_analysis_imp         -     @533 
#       trans_export         uvm_analysis_imp_trans   -     @726 
#     scb                    ahb_scoreboard           -     @519 
#       master_export        uvm_analysis_imp_master  -     @734 
#       slave_export         uvm_analysis_imp_slave   -     @742 
#     slave_agent            ahb_slave_agent          -     @512 
#       drv                  ahb_slave_driver         -     @764 
#         rsp_port           uvm_analysis_port        -     @779 
#         seq_item_port      uvm_seq_item_pull_port   -     @771 
#       mon                  ahb_slave_monitor        -     @757 
#         ap                 uvm_analysis_port        -     @898 
#         trans_ap           uvm_analysis_port        -     @906 
#       sqr                  ahb_slave_sequencer      -     @787 
#         rsp_export         uvm_analysis_export      -     @794 
#         seq_item_export    uvm_seq_item_pull_imp    -     @888 
#         arbitration_queue  array                    0     -    
#         lock_queue         array                    0     -    
#         num_last_reqs      integral                 32    'd1  
#         num_last_rsps      integral                 32    'd1  
#     slave_cov              ahb_coverage             -     @541 
#       analysis_imp         uvm_analysis_imp         -     @548 
#       trans_export         uvm_analysis_imp_trans   -     @920 
# ---------------------------------------------------------------
# 
# UVM_INFO verilog_src/questa_uvm_pkg-1.2/src/questa_uvm_pkg.sv(277) @ 0: reporter [Questa UVM] End Of Elaboration
# UVM_INFO ../src/mst_seq/ahb_wait_state_seq.sv(113) @ 0: uvm_test_top.env.master_agent.sqr@@seq [ahb_wait_state_seq] Starting wait-state sweep: 24 bursts from 0x0000d000, up to 16 wait states per beat
# UVM_INFO ../src/mst_seq/ahb_wait_state_seq.sv(166) @ 0: uvm_test_top.env.master_agent.sqr@@seq [ahb_wait_state_seq] AHB_BURST_SINGLE AHB_SIZE_8B @0x0000d029, 1 beats, waits=0:0, pipelined=0
# UVM_INFO ../src/mst/ahb_master_driver.sv(183) @ 5000: uvm_test_top.env.master_agent.drv [ahb_master_driver] Flushed pending transactions (reset)
# UVM_INFO ../src/tb_top.sv(48) @ 95000: reporter [TB_TOP] Reset de-asserted
# UVM_INFO ../src/slv/ahb_slave_driver.sv(63) @ 95000: uvm_test_top.env.slave_agent.drv [ahb_slave_driver] Reset deasserted - slave driver active (    auto mode)
# UVM_INFO ../src/mst/ahb_master_driver.sv(72) @ 95000: uvm_test_top.env.master_agent.drv [ahb_master_driver] Reset deasserted - master driver active
# UVM_INFO ../src/mst/ahb_master_monitor.sv(81) @ 95000: uvm_test_top.env.master_agent.mon [ahb_master_monitor] Reset deasserted - master monitor active
# UVM_INFO ../src/slv/ahb_slave_monitor.sv(79) @ 95000: uvm_test_top.env.slave_agent.mon [ahb_slave_monitor] Reset deasserted - slave monitor active
# UVM_INFO ../src/mst/ahb_master_driver.sv(85) @ 95000: uvm_test_top.env.master_agent.drv [ahb_master_driver] Queueing [AHB_WRITE]: HADDR=0x0000d029, HBURST=AHB_BURST_SINGLE, HSIZE=AHB_SIZE_8B, 1 beats
# UVM_INFO ../src/mst/ahb_master_driver.sv(127) @ 95000: uvm_test_top.env.master_agent.drv [ahb_master_driver] Driving [AHB_WRITE]: HADDR=0x0000d029, HBURST=AHB_BURST_SINGLE, HSIZE=AHB_SIZE_8B, 1 beats               
# UVM_INFO ../src/mst/ahb_master_driver.sv(332) @ 115000: uvm_test_top.env.master_agent.drv [ahb_master_driver] Beat[0/1] addr=0x0000d029 trans=AHB_TRANS_NONSEQ resp=AHB_RESP_OKAY wdata=0xc179ee4a
# UVM_INFO ../src/mst/ahb_master_driver.sv(376) @ 115000: uvm_test_top.env.master_agent.drv [ahb_master_driver] Transaction complete: AHB_WRITE 0x0000d029, 1 beats, burst=AHB_BURST_SINGLE
# UVM_INFO ../src/slv/ahb_slave_driver.sv(184) @ 115000: uvm_test_top.env.slave_agent.drv [ahb_slave_driver] Beat AHB_WRITE addr=0x0000d029 resp=AHB_RESP_OKAY waits=0 wdata=0xc179ee4a
# UVM_INFO ../src/slv/ahb_slave_monitor.sv(212) @ 115000: uvm_test_top.env.slave_agent.mon [ahb_slave_monitor] Observed [AHB_WRITE]: HADDR=0x0000d029, HBURST=AHB_BURST_SINGLE, HSIZE=AHB_SIZE_8B, 1 beats
# UVM_INFO ../src/env/ahb_coverage.sv(174) @ 115000: uvm_test_top.env.slave_cov [ahb_coverage] Sampled [AHB_WRITE]: burst=AHB_BURST_SINGLE size=AHB_SIZE_8B beats=1 error=0
# UVM_INFO ../src/mst/ahb_master_monitor.sv(128) @ 115000: uvm_test_top.env.master_agent.mon [ahb_master_monitor] Beat[0] addr=0x0000d029 wdata=0xc179ee4a resp=AHB_RESP_OKAY
# UVM_INFO ../src/mst/ahb_master_monitor.sv(231) @ 115000: uvm_test_top.env.master_agent.mon [ahb_master_monitor] Observed [AHB_WRITE]: HADDR=0x0000d029, HBURST=AHB_BURST_SINGLE, HSIZE=AHB_SIZE_8B, 1 beats
# UVM_INFO ../src/env/ahb_coverage.sv(174) @ 115000: uvm_test_top.env.master_cov [ahb_coverage] Sampled [AHB_WRITE]: burst=AHB_BURST_SINGLE size=AHB_SIZE_8B beats=1 error=0
# UVM_INFO ../src/env/ahb_scoreboard.sv(104) @ 115000: uvm_test_top.env.scb [ahb_scoreboard] MATCH #1: [AHB_WRITE] HADDR=0x0000d029 AHB_BURST_SINGLE 1 beats
# UVM_INFO ../src/mst/ahb_master_driver.sv(85) @ 115000: uvm_test_top.env.master_agent.drv [ahb_master_driver] Queueing [AHB_READ]: HADDR=0x0000d029, HBURST=AHB_BURST_SINGLE, HSIZE=AHB_SIZE_8B, 1 beats
# UVM_INFO ../src/mst/ahb_master_driver.sv(127) @ 115000: uvm_test_top.env.master_agent.drv [ahb_master_driver] Driving [AHB_READ]: HADDR=0x0000d029, HBURST=AHB_BURST_SINGLE, HSIZE=AHB_SIZE_8B, 1 beats               
# UVM_INFO ../src/mst/ahb_master_driver.sv(332) @ 145000: uvm_test_top.env.master_agent.drv [ahb_master_driver] Beat[0/1] addr=0x0000d029 trans=AHB_TRANS_NONSEQ resp=AHB_RESP_OKAY rdata=0xc179ee4a
# UVM_INFO ../src/mst/ahb_master_driver.sv(376) @ 145000: uvm_test_top.env.master_agent.drv [ahb_master_driver] Transaction complete: AHB_READ 0x0000d029, 1 beats, burst=AHB_BURST_SINGLE
# UVM_INFO ../src/slv/ahb_slave_driver.sv(184) @ 145000: uvm_test_top.env.slave_agent.drv [ahb_slave_driver] Beat AHB_READ addr=0x0000d029 resp=AHB_RESP_OKAY waits=0 rdata=0xc179ee4a
# UVM_INFO ../src/mst/ahb_master_monitor.sv(128) @ 145000: uvm_test_top.env.master_agent.mon [ahb_master_monitor] Beat[0] addr=0x0000d029 rdata=0xc179ee4a resp=AHB_RESP_OKAY
# UVM_INFO ../src/mst/ahb_master_monitor.sv(231) @ 145000: uvm_test_top.env.master_agent.mon [ahb_master_monitor] Observed [AHB_READ]: HADDR=0x0000d029, HBURST=AHB_BURST_SINGLE, HSIZE=AHB_SIZE_8B, 1 beats
# UVM_INFO ../src/env/ahb_coverage.sv(174) @ 145000: uvm_test_top.env.master_cov [ahb_coverage] Sampled [AHB_READ]: burst=AHB_BURST_SINGLE size=AHB_SIZE_8B beats=1 error=0
# UVM_INFO ../src/slv/ahb_slave_monitor.sv(212) @ 145000: uvm_test_top.env.slave_agent.mon [ahb_slave_monitor] Observed [AHB_READ]: HADDR=0x0000d029, HBURST=AHB_BURST_SINGLE, HSIZE=AHB_SIZE_8B, 1 beats
# UVM_INFO ../src/env/ahb_scoreboard.sv(104) @ 145000: uvm_test_top.env.scb [ahb_scoreboard] MATCH #2: [AHB_READ] HADDR=0x0000d029 AHB_BURST_SINGLE 1 beats
# UVM_INFO ../src/env/ahb_coverage.sv(174) @ 145000: uvm_test_top.env.slave_cov [ahb_coverage] Sampled [AHB_READ]: burst=AHB_BURST_SINGLE size=AHB_SIZE_8B beats=1 error=0
# UVM_INFO ../src/mst_seq/ahb_base_seq.sv(157) @ 145000: uvm_test_top.env.master_agent.sqr@@seq [ahb_wait_state_seq] AHB_BURST_SINGLE AHB_SIZE_8B beat 0 @0x0000d029 ok
# UVM_INFO ../src/mst_seq/ahb_wait_state_seq.sv(166) @ 145000: uvm_test_top.env.master_agent.sqr@@seq [ahb_wait_state_seq] AHB_BURST_INCR8 AHB_SIZE_8B @0x0000d045, 8 beats, waits=1:1, pipelined=1
# UVM_INFO ../src/mst/ahb_master_driver.sv(85) @ 145000: uvm_test_top.env.master_agent.drv [ahb_master_driver] Queueing [AHB_WRITE]: HADDR=0x0000d045, HBURST=AHB_BURST_INCR8, HSIZE=AHB_SIZE_8B, 8 beats
# UVM_INFO ../src/mst/ahb_master_driver.sv(127) @ 145000: uvm_test_top.env.master_agent.drv [ahb_master_driver] Driving [AHB_WRITE]: HADDR=0x0000d045, HBURST=AHB_BURST_INCR8, HSIZE=AHB_SIZE_8B, 8 beats               
# UVM_INFO ../src/mst/ahb_master_driver.sv(85) @ 145000: uvm_test_top.env.master_agent.drv [ahb_master_driver] Queueing [AHB_READ]: HADDR=0x0000d045, HBURST=AHB_BURST_INCR8, HSIZE=AHB_SIZE_8B, 8 beats
# UVM_INFO ../src/mst/ahb_master_driver.sv(332) @ 185000: uvm_test_top.env.master_agent.drv [ahb_master_driver] Beat[0/8] addr=0x0000d045 trans=AHB_TRANS_NONSEQ resp=AHB_RESP_OKAY wdata=0x2a21576d
# UVM_INFO ../src/slv/ahb_slave_driver.sv(184) @ 185000: uvm_test_top.env.slave_agent.drv [ahb_slave_driver] Beat AHB_WRITE addr=0x0000d045 resp=AHB_RESP_OKAY waits=1 wdata=0x2a21576d
# UVM_INFO ../src/mst/ahb_master_monitor.sv(128) @ 185000: uvm_test_top.env.master_agent.mon [ahb_master_monitor] Beat[0] addr=0x0000d045 wdata=0x2a21576d resp=AHB_RESP_OKAY
# UVM_INFO ../src/mst/ahb_master_driver.sv(332) @ 205000: uvm_test_top.env.master_agent.drv [ahb_master_driver] Beat[1/8] addr=0x0000d046 trans=AHB_TRANS_SEQ resp=AHB_RESP_OKAY wdata=0x64422471
# UVM_INFO ../src/slv/ahb_slave_driver.sv(184) @ 205000: uvm_test_top.env.slave_agent.drv [ahb_slave_driver] Beat AHB_WRITE addr=0x0000d046 resp=AHB_RESP_OKAY waits=1 wdata=0x64422471
# UVM_INFO ../src/mst/ahb_master_monitor.sv(128) @ 205000: uvm_test_top.env.master_agent.mon [ahb_master_monitor] Beat[1] addr=0x0000d046 wdata=0x64422471 resp=AHB_RESP_OKAY
# UVM_INFO ../src/mst/ahb_master_driver.sv(332) @ 225000: uvm_test_top.env.master_agent.drv [ahb_master_driver] Beat[2/8] addr=0x0000d047 trans=AHB_TRANS_SEQ resp=AHB_RESP_OKAY wdata=0x81522be5
# UVM_INFO ../src/slv/ahb_slave_driver.sv(184) @ 225000: uvm_test_top.env.slave_agent.drv [ahb_slave_driver] Beat AHB_WRITE addr=0x0000d047 resp=AHB_RESP_OKAY waits=1 wdata=0x81522be5
# UVM_INFO ../src/mst/ahb_master_monitor.sv(128) @ 225000: uvm_test_top.env.master_agent.mon [ahb_master_monitor] Beat[2] addr=0x0000d047 wdata=0x81522be5 resp=AHB_RESP_OKAY
# UVM_INFO ../src/mst/ahb_master_driver.sv(332) @ 245000: uvm_test_top.env.master_agent.drv [ahb_master_driver] Beat[3/8] addr=0x0000d048 trans=AHB_TRANS_SEQ resp=AHB_RESP_OKAY wdata=0xe53df393
# UVM_INFO ../src/slv/ahb_slave_driver.sv(184) @ 245000: uvm_test_top.env.slave_agent.drv [ahb_slave_driver] Beat AHB_WRITE addr=0x0000d048 resp=AHB_RESP_OKAY waits=1 wdata=0xe53df393
# UVM_INFO ../src/mst/ahb_master_monitor.sv(128) @ 245000: uvm_test_top.env.master_agent.mon [ahb_master_monitor] Beat[3] addr=0x0000d048 wdata=0xe53df393 resp=AHB_RESP_OKAY
# UVM_INFO ../src/mst/ahb_master_driver.sv(332) @ 265000: uvm_test_top.env.master_agent.drv [ahb_master_driver] Beat[4/8] addr=0x0000d049 trans=AHB_TRANS_SEQ resp=AHB_RESP_OKAY wdata=0xefc916f2
# UVM_INFO ../src/slv/ahb_slave_driver.sv(184) @ 265000: uvm_test_top.env.slave_agent.drv [ahb_slave_driver] Beat AHB_WRITE addr=0x0000d049 resp=AHB_RESP_OKAY waits=1 wdata=0xefc916f2
# UVM_INFO ../src/mst/ahb_master_monitor.sv(128) @ 265000: uvm_test_top.env.master_agent.mon [ahb_master_monitor] Beat[4] addr=0x0000d049 wdata=0xefc916f2 resp=AHB_RESP_OKAY
# UVM_INFO ../src/mst/ahb_master_driver.sv(332) @ 285000: uvm_test_top.env.master_agent.drv [ahb_master_driver] Beat[5/8] addr=0x0000d04a trans=AHB_TRANS_SEQ resp=AHB_RESP_OKAY wdata=0xe8185330
# UVM_INFO ../src/slv/ahb_slave_driver.sv(184) @ 285000: uvm_test_top.env.slave_agent.drv [ahb_slave_driver] Beat AHB_WRITE addr=0x0000d04a resp=AHB_RESP_OKAY waits=1 wdata=0xe8185330
# UVM_INFO ../src/mst/ahb_master_monitor.sv(128) @ 285000: uvm_test_top.env.master_agent.mon [ahb_master_monitor] Beat[5] addr=0x0000d04a wdata=0xe8185330 resp=AHB_RESP_OKAY
# UVM_INFO ../src/mst/ahb_master_driver.sv(332) @ 305000: uvm_test_top.env.master_agent.drv [ahb_master_driver] Beat[6/8] addr=0x0000d04b trans=AHB_TRANS_SEQ resp=AHB_RESP_OKAY wdata=0x3bf822d9
# UVM_INFO ../src/slv/ahb_slave_driver.sv(184) @ 305000: uvm_test_top.env.slave_agent.drv [ahb_slave_driver] Beat AHB_WRITE addr=0x0000d04b resp=AHB_RESP_OKAY waits=1 wdata=0x3bf822d9
# UVM_INFO ../src/mst/ahb_master_monitor.sv(128) @ 305000: uvm_test_top.env.master_agent.mon [ahb_master_monitor] Beat[6] addr=0x0000d04b wdata=0x3bf822d9 resp=AHB_RESP_OKAY
# UVM_INFO ../src/mst/ahb_master_driver.sv(332) @ 325000: uvm_test_top.env.master_agent.drv [ahb_master_driver] Beat[7/8] addr=0x0000d04c trans=AHB_TRANS_SEQ resp=AHB_RESP_OKAY wdata=0xd8d3e4f7
# UVM_INFO ../src/mst/ahb_master_driver.sv(376) @ 325000: uvm_test_top.env.master_agent.drv [ahb_master_driver] Transaction complete: AHB_WRITE 0x0000d045, 8 beats, burst=AHB_BURST_INCR8
# UVM_INFO ../src/mst/ahb_master_driver.sv(127) @ 325000: uvm_test_top.env.master_agent.drv [ahb_master_driver] Driving [AHB_READ]: HADDR=0x0000d045, HBURST=AHB_BURST_INCR8, HSIZE=AHB_SIZE_8B, 8 beats (back-to-back)
# UVM_INFO ../src/slv/ahb_slave_driver.sv(184) @ 325000: uvm_test_top.env.slave_agent.drv [ahb_slave_driver] Beat AHB_WRITE addr=0x0000d04c resp=AHB_RESP_OKAY waits=1 wdata=0xd8d3e4f7
# UVM_INFO ../src/mst/ahb_master_monitor.sv(128) @ 325000: uvm_test_top.env.master_agent.mon [ahb_master_monitor] Beat[7] addr=0x0000d04c wdata=0xd8d3e4f7 resp=AHB_RESP_OKAY
# UVM_INFO ../src/mst/ahb_master_monitor.sv(231) @ 325000: uvm_test_top.env.master_agent.mon [ahb_master_monitor] Observed [AHB_WRITE]: HADDR=0x0000d045, HBURST=AHB_BURST_INCR8, HSIZE=AHB_SIZE_8B, 8 beats
# UVM_INFO ../src/env/ahb_coverage.sv(174) @ 325000: uvm_test_top.env.master_cov [ahb_coverage] Sampled [AHB_WRITE]: burst=AHB_BURST_INCR8 size=AHB_SIZE_8B beats=8 error=0
# UVM_INFO ../src/slv/ahb_slave_monitor.sv(212) @ 325000: uvm_test_top.env.slave_agent.mon [ahb_slave_monitor] Observed [AHB_WRITE]: HADDR=0x0000d045, HBURST=AHB_BURST_INCR8, HSIZE=AHB_SIZE_8B, 8 beats
# UVM_INFO ../src/env/ahb_scoreboard.sv(104) @ 325000: uvm_test_top.env.scb [ahb_scoreboard] MATCH #3: [AHB_WRITE] HADDR=0x0000d045 AHB_BURST_INCR8 8 beats
# UVM_INFO ../src/env/ahb_coverage.sv(174) @ 325000: uvm_test_top.env.slave_cov [ahb_coverage] Sampled [AHB_WRITE]: burst=AHB_BURST_INCR8 size=AHB_SIZE_8B beats=8 error=0
# UVM_INFO ../src/mst/ahb_master_driver.sv(332) @ 345000: uvm_test_top.env.master_agent.drv [ahb_master_driver] Beat[0/8] addr=0x0000d045 trans=AHB_TRANS_NONSEQ resp=AHB_RESP_OKAY rdata=0x2a21576d
# UVM_INFO ../src/slv/ahb_slave_driver.sv(184) @ 345000: uvm_test_top.env.slave_agent.drv [ahb_slave_driver] Beat AHB_READ addr=0x0000d045 resp=AHB_RESP_OKAY waits=1 rdata=0x2a21576d
# UVM_INFO ../src/mst/ahb_master_monitor.sv(128) @ 345000: uvm_test_top.env.master_agent.mon [ahb_master_monitor] Beat[0] addr=0x0000d045 rdata=0x2a21576d resp=AHB_RESP_OKAY
# UVM_INFO ../src/mst/ahb_master_driver.sv(332) @ 365000: uvm_test_top.env.master_agent.drv [ahb_master_driver] Beat[1/8] addr=0x0000d046 trans=AHB_TRANS_SEQ resp=AHB_RESP_OKAY rdata=0x64422471
# UVM_INFO ../src/slv/ahb_slave_driver.sv(184) @ 365000: uvm_test_top.env.slave_agent.drv [ahb_slave_driver] Beat AHB_READ addr=0x0000d046 resp=AHB_RESP_OKAY waits=1 rdata=0x64422471
# UVM_INFO ../src/mst/ahb_master_monitor.sv(128) @ 365000: uvm_test_top.env.master_agent.mon [ahb_master_monitor] Beat[1] addr=0x0000d046 rdata=0x64422471 resp=AHB_RESP_OKAY
# UVM_INFO ../src/mst/ahb_master_driver.sv(332) @ 385000: uvm_test_top.env.master_agent.drv [ahb_master_driver] Beat[2/8] addr=0x0000d047 trans=AHB_TRANS_SEQ resp=AHB_RESP_OKAY rdata=0x81522be5
# UVM_INFO ../src/slv/ahb_slave_driver.sv(184) @ 385000: uvm_test_top.env.slave_agent.drv [ahb_slave_driver] Beat AHB_READ addr=0x0000d047 resp=AHB_RESP_OKAY waits=1 rdata=0x81522be5
# UVM_INFO ../src/mst/ahb_master_monitor.sv(128) @ 385000: uvm_test_top.env.master_agent.mon [ahb_master_monitor] Beat[2] addr=0x0000d047 rdata=0x81522be5 resp=AHB_RESP_OKAY
# UVM_INFO ../src/mst/ahb_master_driver.sv(332) @ 405000: uvm_test_top.env.master_agent.drv [ahb_master_driver] Beat[3/8] addr=0x0000d048 trans=AHB_TRANS_SEQ resp=AHB_RESP_OKAY rdata=0xe53df393
# UVM_INFO ../src/slv/ahb_slave_driver.sv(184) @ 405000: uvm_test_top.env.slave_agent.drv [ahb_slave_driver] Beat AHB_READ addr=0x0000d048 resp=AHB_RESP_OKAY waits=1 rdata=0xe53df393
# UVM_INFO ../src/mst/ahb_master_monitor.sv(128) @ 405000: uvm_test_top.env.master_agent.mon [ahb_master_monitor] Beat[3] addr=0x0000d048 rdata=0xe53df393 resp=AHB_RESP_OKAY
# UVM_INFO ../src/mst/ahb_master_driver.sv(332) @ 425000: uvm_test_top.env.master_agent.drv [ahb_master_driver] Beat[4/8] addr=0x0000d049 trans=AHB_TRANS_SEQ resp=AHB_RESP_OKAY rdata=0xefc916f2
# UVM_INFO ../src/slv/ahb_slave_driver.sv(184) @ 425000: uvm_test_top.env.slave_agent.drv [ahb_slave_driver] Beat AHB_READ addr=0x0000d049 resp=AHB_RESP_OKAY waits=1 rdata=0xefc916f2
# UVM_INFO ../src/mst/ahb_master_monitor.sv(128) @ 425000: uvm_test_top.env.master_agent.mon [ahb_master_monitor] Beat[4] addr=0x0000d049 rdata=0xefc916f2 resp=AHB_RESP_OKAY
# UVM_INFO ../src/mst/ahb_master_driver.sv(332) @ 445000: uvm_test_top.env.master_agent.drv [ahb_master_driver] Beat[5/8] addr=0x0000d04a trans=AHB_TRANS_SEQ resp=AHB_RESP_OKAY rdata=0xe8185330
# UVM_INFO ../src/slv/ahb_slave_driver.sv(184) @ 445000: uvm_test_top.env.slave_agent.drv [ahb_slave_driver] Beat AHB_READ addr=0x0000d04a resp=AHB_RESP_OKAY waits=1 rdata=0xe8185330
# UVM_INFO ../src/mst/ahb_master_monitor.sv(128) @ 445000: uvm_test_top.env.master_agent.mon [ahb_master_monitor] Beat[5] addr=0x0000d04a rdata=0xe8185330 resp=AHB_RESP_OKAY
# UVM_INFO ../src/mst/ahb_master_driver.sv(332) @ 465000: uvm_test_top.env.master_agent.drv [ahb_master_driver] Beat[6/8] addr=0x0000d04b trans=AHB_TRANS_SEQ resp=AHB_RESP_OKAY rdata=0x3bf822d9
# UVM_INFO ../src/slv/ahb_slave_driver.sv(184) @ 465000: uvm_test_top.env.slave_agent.drv [ahb_slave_driver] Beat AHB_READ addr=0x0000d04b resp=AHB_RESP_OKAY waits=1 rdata=0x3bf822d9
# UVM_INFO ../src/mst/ahb_master_monitor.sv(128) @ 465000: uvm_test_top.env.master_agent.mon [ahb_master_monitor] Beat[6] addr=0x0000d04b rdata=0x3bf822d9 resp=AHB_RESP_OKAY
# UVM_INFO ../src/mst/ahb_master_driver.sv(332) @ 485000: uvm_test_top.env.master_agent.drv [ahb_master_driver] Beat[7/8] addr=0x0000d04c trans=AHB_TRANS_SEQ resp=AHB_RESP_OKAY rdata=0xd8d3e4f7
# UVM_INFO ../src/mst/ahb_master_driver.sv(376) @ 485000: uvm_test_top.env.master_agent.drv [ahb_master_driver] Transaction complete: AHB_READ 0x0000d045, 8 beats, burst=AHB_BURST_INCR8
# UVM_INFO ../src/slv/ahb_slave_driver.sv(184) @ 485000: uvm_test_top.env.slave_agent.drv [ahb_slave_driver] Beat AHB_READ addr=0x0000d04c resp=AHB_RESP_OKAY waits=1 rdata=0xd8d3e4f7
# UVM_INFO ../src/mst/ahb_master_monitor.sv(128) @ 485000: uvm_test_top.env.master_agent.mon [ahb_master_monitor] Beat[7] addr=0x0000d04c rdata=0xd8d3e4f7 resp=AHB_RESP_OKAY
# UVM_INFO ../src/mst/ahb_master_monitor.sv(231) @ 485000: uvm_test_top.env.master_agent.mon [ahb_master_monitor] Observed [AHB_READ]: HADDR=0x0000d045, HBURST=AHB_BURST_INCR8, HSIZE=AHB_SIZE_8B, 8 beats
# UVM_INFO ../src/env/ahb_coverage.sv(174) @ 485000: uvm_test_top.env.master_cov [ahb_coverage] Sampled [AHB_READ]: burst=AHB_BURST_INCR8 size=AHB_SIZE_8B beats=8 error=0
# UVM_INFO ../src/slv/ahb_slave_monitor.sv(212) @ 485000: uvm_test_top.env.slave_agent.mon [ahb_slave_monitor] Observed [AHB_READ]: HADDR=0x0000d045, HBURST=AHB_BURST_INCR8, HSIZE=AHB_SIZE_8B, 8 beats
# UVM_INFO ../src/env/ahb_scoreboard.sv(104) @ 485000: uvm_test_top.env.scb [ahb_scoreboard] MATCH #4: [AHB_READ] HADDR=0x0000d045 AHB_BURST_INCR8 8 beats
# UVM_INFO ../src/env/ahb_coverage.sv(174) @ 485000: uvm_test_top.env.slave_cov [ahb_coverage] Sampled [AHB_READ]: burst=AHB_BURST_INCR8 size=AHB_SIZE_8B beats=8 error=0
# UVM_INFO ../src/mst_seq/ahb_base_seq.sv(157) @ 485000: uvm_test_top.env.master_agent.sqr@@seq [ahb_wait_state_seq] AHB_BURST_INCR8 AHB_SIZE_8B beat 0 @0x0000d045 ok
# UVM_INFO ../src/mst_seq/ahb_base_seq.sv(157) @ 485000: uvm_test_top.env.master_agent.sqr@@seq [ahb_wait_state_seq] AHB_BURST_INCR8 AHB_SIZE_8B beat 1 @0x0000d046 ok
# UVM_INFO ../src/mst_seq/ahb_base_seq.sv(157) @ 485000: uvm_test_top.env.master_agent.sqr@@seq [ahb_wait_state_seq] AHB_BURST_INCR8 AHB_SIZE_8B beat 2 @0x0000d047 ok
# UVM_INFO ../src/mst_seq/ahb_base_seq.sv(157) @ 485000: uvm_test_top.env.master_agent.sqr@@seq [ahb_wait_state_seq] AHB_BURST_INCR8 AHB_SIZE_8B beat 3 @0x0000d048 ok
# UVM_INFO ../src/mst_seq/ahb_base_seq.sv(157) @ 485000: uvm_test_top.env.master_agent.sqr@@seq [ahb_wait_state_seq] AHB_BURST_INCR8 AHB_SIZE_8B beat 4 @0x0000d049 ok
# UVM_INFO ../src/mst_seq/ahb_base_seq.sv(157) @ 485000: uvm_test_top.env.master_agent.sqr@@seq [ahb_wait_state_seq] AHB_BURST_INCR8 AHB_SIZE_8B beat 5 @0x0000d04a ok
# UVM_INFO ../src/mst_seq/ahb_base_seq.sv(157) @ 485000: uvm_test_top.env.master_agent.sqr@@seq [ahb_wait_state_seq] AHB_BURST_INCR8 AHB_SIZE_8B beat 6 @0x0000d04b ok
# UVM_INFO ../src/mst_seq/ahb_base_seq.sv(157) @ 485000: uvm_test_top.env.master_agent.sqr@@seq [ahb_wait_state_seq] AHB_BURST_INCR8 AHB_SIZE_8B beat 7 @0x0000d04c ok
# UVM_INFO ../src/mst_seq/ahb_wait_state_seq.sv(166) @ 485000: uvm_test_top.env.master_agent.sqr@@seq [ahb_wait_state_seq] AHB_BURST_INCR AHB_SIZE_8B @0x0000d0b1, 7 beats, waits=2:2, pipelined=0
# UVM_INFO ../src/mst/ahb_master_driver.sv(85) @ 485000: uvm_test_top.env.master_agent.drv [ahb_master_driver] Queueing [AHB_WRITE]: HADDR=0x0000d0b1, HBURST=AHB_BURST_INCR, HSIZE=AHB_SIZE_8B, 7 beats
# UVM_INFO ../src/mst/ahb_master_driver.sv(127) @ 485000: uvm_test_top.env.master_agent.drv [ahb_master_driver] Driving [AHB_WRITE]: HADDR=0x0000d0b1, HBURST=AHB_BURST_INCR, HSIZE=AHB_SIZE_8B, 7 beats               
# UVM_INFO ../src/mst/ahb_master_driver.sv(332) @ 535000: uvm_test_top.env.master_agent.drv [ahb_master_driver] Beat[0/7] addr=0x0000d0b1 trans=AHB_TRANS_NONSEQ resp=AHB_RESP_OKAY wdata=0x33cb1e6f
# UVM_INFO ../src/slv/ahb_slave_driver.sv(184) @ 535000: uvm_test_top.env.slave_agent.drv [ahb_slave_driver] Beat AHB_WRITE addr=0x0000d0b1 resp=AHB_RESP_OKAY waits=2 wdata=0x33cb1e6f
# UVM_INFO ../src/mst/ahb_master_monitor.sv(128) @ 535000: uvm_test_top.env.master_agent.mon [ahb_master_monitor] Beat[0] addr=0x0000d0b1 wdata=0x33cb1e6f resp=AHB_RESP_OKAY
# UVM_INFO ../src/mst/ahb_master_driver.sv(332) @ 565000: uvm_test_top.env.master_agent.drv [ahb_master_driver] Beat[1/7] addr=0x0000d0b2 trans=AHB_TRANS_SEQ resp=AHB_RESP_OKAY wdata=0x6db147e4
# UVM_INFO ../src/slv/ahb_slave_driver.sv(184) @ 565000: uvm_test_top.env.slave_agent.drv [ahb_slave_driver] Beat AHB_WRITE addr=0x0000d0b2 resp=AHB_RESP_OKAY waits=2 wdata=0x6db147e4
# UVM_INFO ../src/mst/ahb_master_monitor.sv(128) @ 565000: uvm_test_top.env.master_agent.mon [ahb_master_monitor] Beat[1] addr=0x0000d0b2 wdata=0x6db147e4 resp=AHB_RESP_OKAY
# UVM_INFO ../src/mst/ahb_master_driver.sv(332) @ 595000: uvm_test_top.env.master_agent.drv [ahb_master_driver] Beat[2/7] addr=0x0000d0b3 trans=AHB_TRANS_SEQ resp=AHB_RESP_OKAY wdata=0x161fc338
# UVM_INFO ../src/slv/ahb_slave_driver.sv(184) @ 595000: uvm_test_top.env.slave_agent.drv [ahb_slave_driver] Beat AHB_WRITE addr=0x0000d0b3 resp=AHB_RESP_OKAY waits=2 wdata=0x161fc338
# UVM_INFO ../src/mst/ahb_master_monitor.sv(128) @ 595000: uvm_test_top.env.master_agent.mon [ahb_master_monitor] Beat[2] addr=0x0000d0b3 wdata=0x161fc338 resp=AHB_RESP_OKAY
# UVM_INFO ../src/mst/ahb_master_driver.sv(332) @ 625000: uvm_test_top.env.master_agent.drv [ahb_master_driver] Beat[3/7] addr=0x0000d0b4 trans=AHB_TRANS_SEQ resp=AHB_RESP_OKAY wdata=0xf0622de4
# UVM_INFO ../src/slv/ahb_slave_driver.sv(184) @ 625000: uvm_test_top.env.slave_agent.drv [ahb_slave_driver] Beat AHB_WRITE addr=0x0000d0b4 resp=AHB_RESP_OKAY waits=2 wdata=0xf0622de4
# UVM_INFO ../src/mst/ahb_master_monitor.sv(128) @ 625000: uvm_test_top.env.master_agent.mon [ahb_master_monitor] Beat[3] addr=0x0000d0b4 wdata=0xf0622de4 resp=AHB_RESP_OKAY
# UVM_INFO ../src/mst/ahb_master_driver.sv(332) @ 655000: uvm_test_top.env.master_agent.drv [ahb_master_driver] Beat[4/7] addr=0x0000d0b5 trans=AHB_TRANS_SEQ resp=AHB_RESP_OKAY wdata=0xad35a87c
# UVM_INFO ../src/slv/ahb_slave_driver.sv(184) @ 655000: uvm_test_top.env.slave_agent.drv [ahb_slave_driver] Beat AHB_WRITE addr=0x0000d0b5 resp=AHB_RESP_OKAY waits=2 wdata=0xad35a87c
# UVM_INFO ../src/mst/ahb_master_monitor.sv(128) @ 655000: uvm_test_top.env.master_agent.mon [ahb_master_monitor] Beat[4] addr=0x0000d0b5 wdata=0xad35a87c resp=AHB_RESP_OKAY
# UVM_INFO ../src/mst/ahb_master_driver.sv(332) @ 685000: uvm_test_top.env.master_agent.drv [ahb_master_driver] Beat[5/7] addr=0x0000d0b6 trans=AHB_TRANS_SEQ resp=AHB_RESP_OKAY wdata=0xa5d0ba86
# UVM_INFO ../src/slv/ahb_slave_driver.sv(184) @ 685000: uvm_test_top.env.slave_agent.drv [ahb_slave_driver] Beat AHB_WRITE addr=0x0000d0b6 resp=AHB_RESP_OKAY waits=2 wdata=0xa5d0ba86
# UVM_INFO ../src/mst/ahb_master_monitor.sv(128) @ 685000: uvm_test_top.env.master_agent.mon [ahb_master_monitor] Beat[5] addr=0x0000d0b6 wdata=0xa5d0ba86 resp=AHB_RESP_OKAY
# UVM_INFO ../src/mst/ahb_master_driver.sv(332) @ 715000: uvm_test_top.env.master_agent.drv [ahb_master_driver] Beat[6/7] addr=0x0000d0b7 trans=AHB_TRANS_SEQ resp=AHB_RESP_OKAY wdata=0xb31332eb
# UVM_INFO ../src/mst/ahb_master_driver.sv(376) @ 715000: uvm_test_top.env.master_agent.drv [ahb_master_driver] Transaction complete: AHB_WRITE 0x0000d0b1, 7 beats, burst=AHB_BURST_INCR
# UVM_INFO ../src/slv/ahb_slave_driver.sv(184) @ 715000: uvm_test_top.env.slave_agent.drv [ahb_slave_driver] Beat AHB_WRITE addr=0x0000d0b7 resp=AHB_RESP_OKAY waits=2 wdata=0xb31332eb
# UVM_INFO ../src/slv/ahb_slave_monitor.sv(212) @ 715000: uvm_test_top.env.slave_agent.mon [ahb_slave_monitor] Observed [AHB_WRITE]: HADDR=0x0000d0b1, HBURST=AHB_BURST_INCR, HSIZE=AHB_SIZE_8B, 7 beats
# UVM_INFO ../src/env/ahb_coverage.sv(174) @ 715000: uvm_test_top.env.slave_cov [ahb_coverage] Sampled [AHB_WRITE]: burst=AHB_BURST_INCR size=AHB_SIZE_8B beats=7 error=0
# UVM_INFO ../src/mst/ahb_master_monitor.sv(128) @ 715000: uvm_test_top.env.master_agent.mon [ahb_master_monitor] Beat[6] addr=0x0000d0b7 wdata=0xb31332eb resp=AHB_RESP_OKAY
# UVM_INFO ../src/mst/ahb_master_monitor.sv(231) @ 715000: uvm_test_top.env.master_agent.mon [ahb_master_monitor] Observed [AHB_WRITE]: HADDR=0x0000d0b1, HBURST=AHB_BURST_INCR, HSIZE=AHB_SIZE_8B, 7 beats
# UVM_INFO ../src/env/ahb_coverage.sv(174) @ 715000: uvm_test_top.env.master_cov [ahb_coverage] Sampled [AHB_WRITE]: burst=AHB_BURST_INCR size=AHB_SIZE_8B beats=7 error=0
# UVM_INFO ../src/env/ahb_scoreboard.sv(104) @ 715000: uvm_test_top.env.scb [ahb_scoreboard] MATCH #5: [AHB_WRITE] HADDR=0x0000d0b1 AHB_BURST_INCR 7 beats
# UVM_INFO ../src/mst/ahb_master_driver.sv(85) @ 715000: uvm_test_top.env.master_agent.drv [ahb_master_driver] Queueing [AHB_READ]: HADDR=0x0000d0b1, HBURST=AHB_BURST_INCR, HSIZE=AHB_SIZE_8B, 7 beats
# UVM_INFO ../src/mst/ahb_master_driver.sv(127) @ 715000: uvm_test_top.env.master_agent.drv [ahb_master_driver] Driving [AHB_READ]: HADDR=0x0000d0b1, HBURST=AHB_BURST_INCR, HSIZE=AHB_SIZE_8B, 7 beats               
# UVM_INFO ../src/mst/ahb_master_driver.sv(332) @ 765000: uvm_test_top.env.master_agent.drv [ahb_master_driver] Beat[0/7] addr=0x0000d0b1 trans=AHB_TRANS_NONSEQ resp=AHB_RESP_OKAY rdata=0x33cb1e6f
# UVM_INFO ../src/slv/ahb_slave_driver.sv(184) @ 765000: uvm_test_top.env.slave_agent.drv [ahb_slave_driver] Beat AHB_READ addr=0x0000d0b1 resp=AHB_RESP_OKAY waits=2 rdata=0x33cb1e6f
# UVM_INFO ../src/mst/ahb_master_monitor.sv(128) @ 765000: uvm_test_top.env.master_agent.mon [ahb_master_monitor] Beat[0] addr=0x0000d0b1 rdata=0x33cb1e6f resp=AHB_RESP_OKAY
# UVM_INFO ../src/mst/ahb_master_driver.sv(332) @ 795000: uvm_test_top.env.master_agent.drv [ahb_master_driver] Beat[1/7] addr=0x0000d0b2 trans=AHB_TRANS_SEQ resp=AHB_RESP_OKAY rdata=0x6db147e4
# UVM_INFO ../src/slv/ahb_slave_driver.sv(184) @ 795000: uvm_test_top.env.slave_agent.drv [ahb_slave_driver] Beat AHB_READ addr=0x0000d0b2 resp=AHB_RESP_OKAY waits=2 rdata=0x6db147e4
# UVM_INFO ../src/mst/ahb_master_monitor.sv(128) @ 795000: uvm_test_top.env.master_agent.mon [ahb_master_monitor] Beat[1] addr=0x0000d0b2 rdata=0x6db147e4 resp=AHB_RESP_OKAY
# UVM_INFO ../src/mst/ahb_master_driver.sv(332) @ 825000: uvm_test_top.env.master_agent.drv [ahb_master_driver] Beat[2/7] addr=0x0000d0b3 trans=AHB_TRANS_SEQ resp=AHB_RESP_OKAY rdata=0x161fc338
# UVM_INFO ../src/slv/ahb_slave_driver.sv(184) @ 825000: uvm_test_top.env.slave_agent.drv [ahb_slave_driver] Beat AHB_READ addr=0x0000d0b3 resp=AHB_RESP_OKAY waits=2 rdata=0x161fc338
# UVM_INFO ../src/mst/ahb_master_monitor.sv(128) @ 825000: uvm_test_top.env.master_agent.mon [ahb_master_monitor] Beat[2] addr=0x0000d0b3 rdata=0x161fc338 resp=AHB_RESP_OKAY
# UVM_INFO ../src/mst/ahb_master_driver.sv(332) @ 855000: uvm_test_top.env.master_agent.drv [ahb_master_driver] Beat[3/7] addr=0x0000d0b4 trans=AHB_TRANS_SEQ resp=AHB_RESP_OKAY rdata=0xf0622de4
# UVM_INFO ../src/slv/ahb_slave_driver.sv(184) @ 855000: uvm_test_top.env.slave_agent.drv [ahb_slave_driver] Beat AHB_READ addr=0x0000d0b4 resp=AHB_RESP_OKAY waits=2 rdata=0xf0622de4
# UVM_INFO ../src/mst/ahb_master_monitor.sv(128) @ 855000: uvm_test_top.env.master_agent.mon [ahb_master_monitor] Beat[3] addr=0x0000d0b4 rdata=0xf0622de4 resp=AHB_RESP_OKAY
# UVM_INFO ../src/mst/ahb_master_driver.sv(332) @ 885000: uvm_test_top.env.master_agent.drv [ahb_master_driver] Beat[4/7] addr=0x0000d0b5 trans=AHB_TRANS_SEQ resp=AHB_RESP_OKAY rdata=0xad35a87c
# UVM_INFO ../src/slv/ahb_slave_driver.sv(184) @ 885000: uvm_test_top.env.slave_agent.drv [ahb_slave_driver] Beat AHB_READ addr=0x0000d0b5 resp=AHB_RESP_OKAY waits=2 rdata=0xad35a87c
# UVM_INFO ../src/mst/ahb_master_monitor.sv(128) @ 885000: uvm_test_top.env.master_agent.mon [ahb_master_monitor] Beat[4] addr=0x0000d0b5 rdata=0xad35a87c resp=AHB_RESP_OKAY
# UVM_INFO ../src/mst/ahb_master_driver.sv(332) @ 915000: uvm_test_top.env.master_agent.drv [ahb_master_driver] Beat[5/7] addr=0x0000d0b6 trans=AHB_TRANS_SEQ resp=AHB_RESP_OKAY rdata=0xa5d0ba86
# UVM_INFO ../src/slv/ahb_slave_driver.sv(184) @ 915000: uvm_test_top.env.slave_agent.drv [ahb_slave_driver] Beat AHB_READ addr=0x0000d0b6 resp=AHB_RESP_OKAY waits=2 rdata=0xa5d0ba86
# UVM_INFO ../src/mst/ahb_master_monitor.sv(128) @ 915000: uvm_test_top.env.master_agent.mon [ahb_master_monitor] Beat[5] addr=0x0000d0b6 rdata=0xa5d0ba86 resp=AHB_RESP_OKAY
# UVM_INFO ../src/mst/ahb_master_driver.sv(332) @ 945000: uvm_test_top.env.master_agent.drv [ahb_master_driver] Beat[6/7] addr=0x0000d0b7 trans=AHB_TRANS_SEQ resp=AHB_RESP_OKAY rdata=0xb31332eb
# UVM_INFO ../src/mst/ahb_master_driver.sv(376) @ 945000: uvm_test_top.env.master_agent.drv [ahb_master_driver] Transaction complete: AHB_READ 0x0000d0b1, 7 beats, burst=AHB_BURST_INCR
# UVM_INFO ../src/slv/ahb_slave_driver.sv(184) @ 945000: uvm_test_top.env.slave_agent.drv [ahb_slave_driver] Beat AHB_READ addr=0x0000d0b7 resp=AHB_RESP_OKAY waits=2 rdata=0xb31332eb
# UVM_INFO ../src/mst/ahb_master_monitor.sv(128) @ 945000: uvm_test_top.env.master_agent.mon [ahb_master_monitor] Beat[6] addr=0x0000d0b7 rdata=0xb31332eb resp=AHB_RESP_OKAY
# UVM_INFO ../src/mst/ahb_master_monitor.sv(231) @ 945000: uvm_test_top.env.master_agent.mon [ahb_master_monitor] Observed [AHB_READ]: HADDR=0x0000d0b1, HBURST=AHB_BURST_INCR, HSIZE=AHB_SIZE_8B, 7 beats
# UVM_INFO ../src/env/ahb_coverage.sv(174) @ 945000: uvm_test_top.env.master_cov [ahb_coverage] Sampled [AHB_READ]: burst=AHB_BURST_INCR size=AHB_SIZE_8B beats=7 error=0
# UVM_INFO ../src/slv/ahb_slave_monitor.sv(212) @ 945000: uvm_test_top.env.slave_agent.mon [ahb_slave_monitor] Observed [AHB_READ]: HADDR=0x0000d0b1, HBURST=AHB_BURST_INCR, HSIZE=AHB_SIZE_8B, 7 beats
# UVM_INFO ../src/env/ahb_scoreboard.sv(104) @ 945000: uvm_test_top.env.scb [ahb_scoreboard] MATCH #6: [AHB_READ] HADDR=0x0000d0b1 AHB_BURST_INCR 7 beats
# UVM_INFO ../src/env/ahb_coverage.sv(174) @ 945000: uvm_test_top.env.slave_cov [ahb_coverage] Sampled [AHB_READ]: burst=AHB_BURST_INCR size=AHB_SIZE_8B beats=7 error=0
# UVM_INFO ../src/mst_seq/ahb_base_seq.sv(157) @ 945000: uvm_test_top.env.master_agent.sqr@@seq [ahb_wait_state_seq] AHB_BURST_INCR AHB_SIZE_8B beat 0 @0x0000d0b1 ok
# UVM_INFO ../src/mst_seq/ahb_base_seq.sv(157) @ 945000: uvm_test_top.env.master_agent.sqr@@seq [ahb_wait_state_seq] AHB_BURST_INCR AHB_SIZE_8B beat 1 @0x0000d0b2 ok
# UVM_INFO ../src/mst_seq/ahb_base_seq.sv(157) @ 945000: uvm_test_top.env.master_agent.sqr@@seq [ahb_wait_state_seq] AHB_BURST_INCR AHB_SIZE_8B beat 2 @0x0000d0b3 ok
# UVM_INFO ../src/mst_seq/ahb_base_seq.sv(157) @ 945000: uvm_test_top.env.master_agent.sqr@@seq [ahb_wait_state_seq] AHB_BURST_INCR AHB_SIZE_8B beat 3 @0x0000d0b4 ok
# UVM_INFO ../src/mst_seq/ahb_base_seq.sv(157) @ 945000: uvm_test_top.env.master_agent.sqr@@seq [ahb_wait_state_seq] AHB_BURST_INCR AHB_SIZE_8B beat 4 @0x0000d0b5 ok
# UVM_INFO ../src/mst_seq/ahb_base_seq.sv(157) @ 945000: uvm_test_top.env.master_agent.sqr@@seq [ahb_wait_state_seq] AHB_BURST_INCR AHB_SIZE_8B beat 5 @0x0000d0b6 ok
# UVM_INFO ../src/mst_seq/ahb_base_seq.sv(157) @ 945000: uvm_test_top.env.master_agent.sqr@@seq [ahb_wait_state_seq] AHB_BURST_INCR AHB_SIZE_8B beat 6 @0x0000d0b7 ok
# UVM_INFO ../src/mst_seq/ahb_wait_state_seq.sv(166) @ 945000: uvm_test_top.env.master_agent.sqr@@seq [ahb_wait_state_seq] AHB_BURST_INCR AHB_SIZE_32B @0x0000d0e8, 6 beats, waits=3:3, pipelined=1
# UVM_INFO ../src/mst/ahb_master_driver.sv(85) @ 945000: uvm_test_top.env.master_agent.drv [ahb_master_driver] Queueing [AHB_WRITE]: HADDR=0x0000d0e8, HBURST=AHB_BURST_INCR, HSIZE=AHB_SIZE_32B, 6 beats
# UVM_INFO ../src/mst/ahb_master_driver.sv(127) @ 945000: uvm_test_top.env.master_agent.drv [ahb_master_driver] Driving [AHB_WRITE]: HADDR=0x0000d0e8, HBURST=AHB_BURST_INCR, HSIZE=AHB_SIZE_32B, 6 beats               
# UVM_INFO ../src/mst/ahb_master_driver.sv(85) @ 945000: uvm_test_top.env.master_agent.drv [ahb_master_driver] Queueing [AHB_READ]: HADDR=0x0000d0e8, HBURST=AHB_BURST_INCR, HSIZE=AHB_SIZE_32B, 6 beats
# UVM_INFO ../src/mst/ahb_master_driver.sv(332) @ 1005000: uvm_test_top.env.master_agent.drv [ahb_master_driver] Beat[0/6] addr=0x0000d0e8 trans=AHB_TRANS_NONSEQ resp=AHB_RESP_OKAY wdata=0xebb4b1ef
# UVM_INFO ../src/slv/ahb_slave_driver.sv(184) @ 1005000: uvm_test_top.env.slave_agent.drv [ahb_slave_driver] Beat AHB_WRITE addr=0x0000d0e8 resp=AHB_RESP_OKAY waits=3 wdata=0xebb4b1ef
# UVM_INFO ../src/mst/ahb_master_monitor.sv(128) @ 1005000: uvm_test_top.env.master_agent.mon [ahb_master_monitor] Beat[0] addr=0x0000d0e8 wdata=0xebb4b1ef resp=AHB_RESP_OKAY
# UVM_INFO ../src/mst/ahb_master_driver.sv(332) @ 1045000: uvm_test_top.env.master_agent.drv [ahb_master_driver] Beat[1/6] addr=0x0000d0ec trans=AHB_TRANS_SEQ resp=AHB_RESP_OKAY wdata=0x8a947fc6
# UVM_INFO ../src/slv/ahb_slave_driver.sv(184) @ 1045000: uvm_test_top.env.slave_agent.drv [ahb_slave_driver] Beat AHB_WRITE addr=0x0000d0ec resp=AHB_RESP_OKAY waits=3 wdata=0x8a947fc6
# UVM_INFO ../src/mst/ahb_master_monitor.sv(128) @ 1045000: uvm_test_top.env.master_agent.mon [ahb_master_monitor] Beat[1] addr=0x0000d0ec wdata=0x8a947fc6 resp=AHB_RESP_OKAY
# UVM_INFO ../src/mst/ahb_master_driver.sv(332) @ 1085000: uvm_test_top.env.master_agent.drv [ahb_master_driver] Beat[2/6] addr=0x0000d0f0 trans=AHB_TRANS_SEQ resp=AHB_RESP_OKAY wdata=0x0cd64d06
# UVM_INFO ../src/slv/ahb_slave_driver.sv(184) @ 1085000: uvm_test_top.env.slave_agent.drv [ahb_slave_driver] Beat AHB_WRITE addr=0x0000d0f0 resp=AHB_RESP_OKAY waits=3 wdata=0x0cd64d06
# UVM_INFO ../src/mst/ahb_master_monitor.sv(128) @ 1085000: uvm_test_top.env.master_agent.mon [ahb_master_monitor] Beat[2] addr=0x0000d0f0 wdata=0x0cd64d06 resp=AHB_RESP_OKAY
# UVM_INFO ../src/mst/ahb_master_driver.sv(332) @ 1125000: uvm_test_top.env.master_agent.drv [ahb_master_driver] Beat[3/6] addr=0x0000d0f4 trans=AHB_TRANS_SEQ resp=AHB_RESP_OKAY wdata=0xf5bc7169
# UVM_INFO ../src/slv/ahb_slave_driver.sv(184) @ 1125000: uvm_test_top.env.slave_agent.drv [ahb_slave_driver] Beat AHB_WRITE addr=0x0000d0f4 resp=AHB_RESP_OKAY waits=3 wdata=0xf5bc7169
# UVM_INFO ../src/mst/ahb_master_monitor.sv(128) @ 1125000: uvm_test_top.env.master_agent.mon [ahb_master_monitor] Beat[3] addr=0x0000d0f4 wdata=0xf5bc7169 resp=AHB_RESP_OKAY
# UVM_INFO ../src/mst/ahb_master_driver.sv(332) @ 1165000: uvm_test_top.env.master_agent.drv [ahb_master_driver] Beat[4/6] addr=0x0000d0f8 trans=AHB_TRANS_SEQ resp=AHB_RESP_OKAY wdata=0xe65211a5
# UVM_INFO ../src/slv/ahb_slave_driver.sv(184) @ 1165000: uvm_test_top.env.slave_agent.drv [ahb_slave_driver] Beat AHB_WRITE addr=0x0000d0f8 resp=AHB_RESP_OKAY waits=3 wdata=0xe65211a5
# UVM_INFO ../src/mst/ahb_master_monitor.sv(128) @ 1165000: uvm_test_top.env.master_agent.mon [ahb_master_monitor] Beat[4] addr=0x0000d0f8 wdata=0xe65211a5 resp=AHB_RESP_OKAY
# UVM_INFO ../src/mst/ahb_master_driver.sv(332) @ 1205000: uvm_test_top.env.master_agent.drv [ahb_master_driver] Beat[5/6] addr=0x0000d0fc trans=AHB_TRANS_SEQ resp=AHB_RESP_OKAY wdata=0x22e0df51
# UVM_INFO ../src/mst/ahb_master_driver.sv(376) @ 1205000: uvm_test_top.env.master_agent.drv [ahb_master_driver] Transaction complete: AHB_WRITE 0x0000d0e8, 6 beats, burst=AHB_BURST_INCR
# UVM_INFO ../src/mst/ahb_master_driver.sv(127) @ 1205000: uvm_test_top.env.master_agent.drv [ahb_master_driver] Driving [AHB_READ]: HADDR=0x0000d0e8, HBURST=AHB_BURST_INCR, HSIZE=AHB_SIZE_32B, 6 beats (back-to-back)
# UVM_INFO ../src/slv/ahb_slave_driver.sv(184) @ 1205000: uvm_test_top.env.slave_agent.drv [ahb_slave_driver] Beat AHB_WRITE addr=0x0000d0fc resp=AHB_RESP_OKAY waits=3 wdata=0x22e0df51
# UVM_INFO ../src/mst/ahb_master_monitor.sv(128) @ 1205000: uvm_test_top.env.master_agent.mon [ahb_master_monitor] Beat[5] addr=0x0000d0fc wdata=0x22e0df51 resp=AHB_RESP_OKAY
# UVM_INFO ../src/mst/ahb_master_monitor.sv(231) @ 1205000: uvm_test_top.env.master_agent.mon [ahb_master_monitor] Observed [AHB_WRITE]: HADDR=0x0000d0e8, HBURST=AHB_BURST_INCR, HSIZE=AHB_SIZE_32B, 6 beats
# UVM_INFO ../src/env/ahb_coverage.sv(174) @ 1205000: uvm_test_top.env.master_cov [ahb_coverage] Sampled [AHB_WRITE]: burst=AHB_BURST_INCR size=AHB_SIZE_32B beats=6 error=0
# UVM_INFO ../src/slv/ahb_slave_monitor.sv(212) @ 1205000: uvm_test_top.env.slave_agent.mon [ahb_slave_monitor] Observed [AHB_WRITE]: HADDR=0x0000d0e8, HBURST=AHB_BURST_INCR, HSIZE=AHB_SIZE_32B, 6 beats
# UVM_INFO ../src/env/ahb_scoreboard.sv(104) @ 1205000: uvm_test_top.env.scb [ahb_scoreboard] MATCH #7: [AHB_WRITE] HADDR=0x0000d0e8 AHB_BURST_INCR 6 beats
# UVM_INFO ../src/env/ahb_coverage.sv(174) @ 1205000: uvm_test_top.env.slave_cov [ahb_coverage] Sampled [AHB_WRITE]: burst=AHB_BURST_INCR size=AHB_SIZE_32B beats=6 error=0
# UVM_INFO ../src/mst/ahb_master_driver.sv(332) @ 1245000: uvm_test_top.env.master_agent.drv [ahb_master_driver] Beat[0/6] addr=0x0000d0e8 trans=AHB_TRANS_NONSEQ resp=AHB_RESP_OKAY rdata=0xebb4b1ef
# UVM_INFO ../src/slv/ahb_slave_driver.sv(184) @ 1245000: uvm_test_top.env.slave_agent.drv [ahb_slave_driver] Beat AHB_READ addr=0x0000d0e8 resp=AHB_RESP_OKAY waits=3 rdata=0xebb4b1ef
# UVM_INFO ../src/mst/ahb_master_monitor.sv(128) @ 1245000: uvm_test_top.env.master_agent.mon [ahb_master_monitor] Beat[0] addr=0x0000d0e8 rdata=0xebb4b1ef resp=AHB_RESP_OKAY
# UVM_INFO ../src/mst/ahb_master_driver.sv(332) @ 1285000: uvm_test_top.env.master_agent.drv [ahb_master_driver] Beat[1/6] addr=0x0000d0ec trans=AHB_TRANS_SEQ resp=AHB_RESP_OKAY rdata=0x8a947fc6
# UVM_INFO ../src/slv/ahb_slave_driver.sv(184) @ 1285000: uvm_test_top.env.slave_agent.drv [ahb_slave_driver] Beat AHB_READ addr=0x0000d0ec resp=AHB_RESP_OKAY waits=3 rdata=0x8a947fc6
# UVM_INFO ../src/mst/ahb_master_monitor.sv(128) @ 1285000: uvm_test_top.env.master_agent.mon [ahb_master_monitor] Beat[1] addr=0x0000d0ec rdata=0x8a947fc6 resp=AHB_RESP_OKAY
# UVM_INFO ../src/mst/ahb_master_driver.sv(332) @ 1325000: uvm_test_top.env.master_agent.drv [ahb_master_driver] Beat[2/6] addr=0x0000d0f0 trans=AHB_TRANS_SEQ resp=AHB_RESP_OKAY rdata=0x0cd64d06
# UVM_INFO ../src/slv/ahb_slave_driver.sv(184) @ 1325000: uvm_test_top.env.slave_agent.drv [ahb_slave_driver] Beat AHB_READ addr=0x0000d0f0 resp=AHB_RESP_OKAY waits=3 rdata=0x0cd64d06
# UVM_INFO ../src/mst/ahb_master_monitor.sv(128) @ 1325000: uvm_test_top.env.master_agent.mon [ahb_master_monitor] Beat[2] addr=0x0000d0f0 rdata=0x0cd64d06 resp=AHB_RESP_OKAY
# UVM_INFO ../src/mst/ahb_master_driver.sv(332) @ 1365000: uvm_test_top.env.master_agent.drv [ahb_master_driver] Beat[3/6] addr=0x0000d0f4 trans=AHB_TRANS_SEQ resp=AHB_RESP_OKAY rdata=0xf5bc7169
# UVM_INFO ../src/slv/ahb_slave_driver.sv(184) @ 1365000: uvm_test_top.env.slave_agent.drv [ahb_slave_driver] Beat AHB_READ addr=0x0000d0f4 resp=AHB_RESP_OKAY waits=3 rdata=0xf5bc7169
# UVM_INFO ../src/mst/ahb_master_monitor.sv(128) @ 1365000: uvm_test_top.env.master_agent.mon [ahb_master_monitor] Beat[3] addr=0x0000d0f4 rdata=0xf5bc7169 resp=AHB_RESP_OKAY
# UVM_INFO ../src/mst/ahb_master_driver.sv(332) @ 1405000: uvm_test_top.env.master_agent.drv [ahb_master_driver] Beat[4/6] addr=0x0000d0f8 trans=AHB_TRANS_SEQ resp=AHB_RESP_OKAY rdata=0xe65211a5
# UVM_INFO ../src/slv/ahb_slave_driver.sv(184) @ 1405000: uvm_test_top.env.slave_agent.drv [ahb_slave_driver] Beat AHB_READ addr=0x0000d0f8 resp=AHB_RESP_OKAY waits=3 rdata=0xe65211a5
# UVM_INFO ../src/mst/ahb_master_monitor.sv(128) @ 1405000: uvm_test_top.env.master_agent.mon [ahb_master_monitor] Beat[4] addr=0x0000d0f8 rdata=0xe65211a5 resp=AHB_RESP_OKAY
# UVM_INFO ../src/mst/ahb_master_driver.sv(332) @ 1445000: uvm_test_top.env.master_agent.drv [ahb_master_driver] Beat[5/6] addr=0x0000d0fc trans=AHB_TRANS_SEQ resp=AHB_RESP_OKAY rdata=0x22e0df51
# UVM_INFO ../src/mst/ahb_master_driver.sv(376) @ 1445000: uvm_test_top.env.master_agent.drv [ahb_master_driver] Transaction complete: AHB_READ 0x0000d0e8, 6 beats, burst=AHB_BURST_INCR
# UVM_INFO ../src/slv/ahb_slave_driver.sv(184) @ 1445000: uvm_test_top.env.slave_agent.drv [ahb_slave_driver] Beat AHB_READ addr=0x0000d0fc resp=AHB_RESP_OKAY waits=3 rdata=0x22e0df51
# UVM_INFO ../src/mst/ahb_master_monitor.sv(128) @ 1445000: uvm_test_top.env.master_agent.mon [ahb_master_monitor] Beat[5] addr=0x0000d0fc rdata=0x22e0df51 resp=AHB_RESP_OKAY
# UVM_INFO ../src/mst/ahb_master_monitor.sv(231) @ 1445000: uvm_test_top.env.master_agent.mon [ahb_master_monitor] Observed [AHB_READ]: HADDR=0x0000d0e8, HBURST=AHB_BURST_INCR, HSIZE=AHB_SIZE_32B, 6 beats
# UVM_INFO ../src/env/ahb_coverage.sv(174) @ 1445000: uvm_test_top.env.master_cov [ahb_coverage] Sampled [AHB_READ]: burst=AHB_BURST_INCR size=AHB_SIZE_32B beats=6 error=0
# UVM_INFO ../src/slv/ahb_slave_monitor.sv(212) @ 1445000: uvm_test_top.env.slave_agent.mon [ahb_slave_monitor] Observed [AHB_READ]: HADDR=0x0000d0e8, HBURST=AHB_BURST_INCR, HSIZE=AHB_SIZE_32B, 6 beats
# UVM_INFO ../src/env/ahb_scoreboard.sv(104) @ 1445000: uvm_test_top.env.scb [ahb_scoreboard] MATCH #8: [AHB_READ] HADDR=0x0000d0e8 AHB_BURST_INCR 6 beats
# UVM_INFO ../src/env/ahb_coverage.sv(174) @ 1445000: uvm_test_top.env.slave_cov [ahb_coverage] Sampled [AHB_READ]: burst=AHB_BURST_INCR size=AHB_SIZE_32B beats=6 error=0
# UVM_INFO ../src/mst_seq/ahb_base_seq.sv(157) @ 1445000: uvm_test_top.env.master_agent.sqr@@seq [ahb_wait_state_seq] AHB_BURST_INCR AHB_SIZE_32B beat 0 @0x0000d0e8 ok
# UVM_INFO ../src/mst_seq/ahb_base_seq.sv(157) @ 1445000: uvm_test_top.env.master_agent.sqr@@seq [ahb_wait_state_seq] AHB_BURST_INCR AHB_SIZE_32B beat 1 @0x0000d0ec ok
# UVM_INFO ../src/mst_seq/ahb_base_seq.sv(157) @ 1445000: uvm_test_top.env.master_agent.sqr@@seq [ahb_wait_state_seq] AHB_BURST_INCR AHB_SIZE_32B beat 2 @0x0000d0f0 ok
# UVM_INFO ../src/mst_seq/ahb_base_seq.sv(157) @ 1445000: uvm_test_top.env.master_agent.sqr@@seq [ahb_wait_state_seq] AHB_BURST_INCR AHB_SIZE_32B beat 3 @0x0000d0f4 ok
# UVM_INFO ../src/mst_seq/ahb_base_seq.sv(157) @ 1445000: uvm_test_top.env.master_agent.sqr@@seq [ahb_wait_state_seq] AHB_BURST_INCR AHB_SIZE_32B beat 4 @0x0000d0f8 ok
# UVM_INFO ../src/mst_seq/ahb_base_seq.sv(157) @ 1445000: uvm_test_top.env.master_agent.sqr@@seq [ahb_wait_state_seq] AHB_BURST_INCR AHB_SIZE_32B beat 5 @0x0000d0fc ok
# UVM_INFO ../src/mst_seq/ahb_wait_state_seq.sv(166) @ 1445000: uvm_test_top.env.master_agent.sqr@@seq [ahb_wait_state_seq] AHB_BURST_INCR AHB_SIZE_8B @0x0000d132, 2 beats, waits=1:7, pipelined=0
# UVM_INFO ../src/mst/ahb_master_driver.sv(85) @ 1445000: uvm_test_top.env.master_agent.drv [ahb_master_driver] Queueing [AHB_WRITE]: HADDR=0x0000d132, HBURST=AHB_BURST_INCR, HSIZE=AHB_SIZE_8B, 2 beats
# UVM_INFO ../src/mst/ahb_master_driver.sv(127) @ 1445000: uvm_test_top.env.master_agent.drv [ahb_master_driver] Driving [AHB_WRITE]: HADDR=0x0000d132, HBURST=AHB_BURST_INCR, HSIZE=AHB_SIZE_8B, 2 beats               
# UVM_INFO ../src/mst/ahb_master_driver.sv(332) @ 1505000: uvm_test_top.env.master_agent.drv [ahb_master_driver] Beat[0/2] addr=0x0000d132 trans=AHB_TRANS_NONSEQ resp=AHB_RESP_OKAY wdata=0xd6f4ec35
# UVM_INFO ../src/slv/ahb_slave_driver.sv(184) @ 1505000: uvm_test_top.env.slave_agent.drv [ahb_slave_driver] Beat AHB_WRITE addr=0x0000d132 resp=AHB_RESP_OKAY waits=3 wdata=0xd6f4ec35
# UVM_INFO ../src/mst/ahb_master_monitor.sv(128) @ 1505000: uvm_test_top.env.master_agent.mon [ahb_master_monitor] Beat[0] addr=0x0000d132 wdata=0xd6f4ec35 resp=AHB_RESP_OKAY
# UVM_INFO ../src/mst/ahb_master_driver.sv(332) @ 1555000: uvm_test_top.env.master_agent.drv [ahb_master_driver] Beat[1/2] addr=0x0000d133 trans=AHB_TRANS_SEQ resp=AHB_RESP_OKAY wdata=0x223aefc6
# UVM_INFO ../src/mst/ahb_master_driver.sv(376) @ 1555000: uvm_test_top.env.master_agent.drv [ahb_master_driver] Transaction complete: AHB_WRITE 0x0000d132, 2 beats, burst=AHB_BURST_INCR
# UVM_INFO ../src/slv/ahb_slave_driver.sv(184) @ 1555000: uvm_test_top.env.slave_agent.drv [ahb_slave_driver] Beat AHB_WRITE addr=0x0000d133 resp=AHB_RESP_OKAY waits=4 wdata=0x223aefc6
# UVM_INFO ../src/slv/ahb_slave_monitor.sv(212) @ 1555000: uvm_test_top.env.slave_agent.mon [ahb_slave_monitor] Observed [AHB_WRITE]: HADDR=0x0000d132, HBURST=AHB_BURST_INCR, HSIZE=AHB_SIZE_8B, 2 beats
# UVM_INFO ../src/env/ahb_coverage.sv(174) @ 1555000: uvm_test_top.env.slave_cov [ahb_coverage] Sampled [AHB_WRITE]: burst=AHB_BURST_INCR size=AHB_SIZE_8B beats=2 error=0
# UVM_INFO ../src/mst/ahb_master_monitor.sv(128) @ 1555000: uvm_test_top.env.master_agent.mon [ahb_master_monitor] Beat[1] addr=0x0000d133 wdata=0x223aefc6 resp=AHB_RESP_OKAY
# UVM_INFO ../src/mst/ahb_master_monitor.sv(231) @ 1555000: uvm_test_top.env.master_agent.mon [ahb_master_monitor] Observed [AHB_WRITE]: HADDR=0x0000d132, HBURST=AHB_BURST_INCR, HSIZE=AHB_SIZE_8B, 2 beats
# UVM_INFO ../src/env/ahb_coverage.sv(174) @ 1555000: uvm_test_top.env.master_cov [ahb_coverage] Sampled [AHB_WRITE]: burst=AHB_BURST_INCR size=AHB_SIZE_8B beats=2 error=0
# UVM_INFO ../src/env/ahb_scoreboard.sv(104) @ 1555000: uvm_test_top.env.scb [ahb_scoreboard] MATCH #9: [AHB_WRITE] HADDR=0x0000d132 AHB_BURST_INCR 2 beats
# UVM_INFO ../src/mst/ahb_master_driver.sv(85) @ 1555000: uvm_test_top.env.master_agent.drv [ahb_master_driver] Queueing [AHB_READ]: HADDR=0x0000d132, HBURST=AHB_BURST_INCR, HSIZE=AHB_SIZE_8B, 2 beats
# UVM_INFO ../src/mst/ahb_master_driver.sv(127) @ 1555000: uvm_test_top.env.master_agent.drv [ahb_master_driver] Driving [AHB_READ]: HADDR=0x0000d132, HBURST=AHB_BURST_INCR, HSIZE=AHB_SIZE_8B, 2 beats               
# UVM_INFO ../src/mst/ahb_master_driver.sv(332) @ 1635000: uvm_test_top.env.master_agent.drv [ahb_master_driver] Beat[0/2] addr=0x0000d132 trans=AHB_TRANS_NONSEQ resp=AHB_RESP_OKAY rdata=0xd6f4ec35
# UVM_INFO ../src/slv/ahb_slave_driver.sv(184) @ 1635000: uvm_test_top.env.slave_agent.drv [ahb_slave_driver] Beat AHB_READ addr=0x0000d132 resp=AHB_RESP_OKAY waits=5 rdata=0xd6f4ec35
# UVM_INFO ../src/mst/ahb_master_monitor.sv(128) @ 1635000: uvm_test_top.env.master_agent.mon [ahb_master_monitor] Beat[0] addr=0x0000d132 rdata=0xd6f4ec35 resp=AHB_RESP_OKAY
# UVM_INFO ../src/mst/ahb_master_driver.sv(332) @ 1705000: uvm_test_top.env.master_agent.drv [ahb_master_driver] Beat[1/2] addr=0x0000d133 trans=AHB_TRANS_SEQ resp=AHB_RESP_OKAY rdata=0x223aefc6
# UVM_INFO ../src/mst/ahb_master_driver.sv(376) @ 1705000: uvm_test_top.env.master_agent.drv [ahb_master_driver] Transaction complete: AHB_READ 0x0000d132, 2 beats, burst=AHB_BURST_INCR
# UVM_INFO ../src/slv/ahb_slave_driver.sv(184) @ 1705000: uvm_test_top.env.slave_agent.drv [ahb_slave_driver] Beat AHB_READ addr=0x0000d133 resp=AHB_RESP_OKAY waits=6 rdata=0x223aefc6
# UVM_INFO ../src/mst/ahb_master_monitor.sv(128) @ 1705000: uvm_test_top.env.master_agent.mon [ahb_master_monitor] Beat[1] addr=0x0000d133 rdata=0x223aefc6 resp=AHB_RESP_OKAY
# UVM_INFO ../src/mst/ahb_master_monitor.sv(231) @ 1705000: uvm_test_top.env.master_agent.mon [ahb_master_monitor] Observed [AHB_READ]: HADDR=0x0000d132, HBURST=AHB_BURST_INCR, HSIZE=AHB_SIZE_8B, 2 beats
# UVM_INFO ../src/env/ahb_coverage.sv(174) @ 1705000: uvm_test_top.env.master_cov [ahb_coverage] Sampled [AHB_READ]: burst=AHB_BURST_INCR size=AHB_SIZE_8B beats=2 error=0
# UVM_INFO ../src/slv/ahb_slave_monitor.sv(212) @ 1705000: uvm_test_top.env.slave_agent.mon [ahb_slave_monitor] Observed [AHB_READ]: HADDR=0x0000d132, HBURST=AHB_BURST_INCR, HSIZE=AHB_SIZE_8B, 2 beats
# UVM_INFO ../src/env/ahb_scoreboard.sv(104) @ 1705000: uvm_test_top.env.scb [ahb_scoreboard] MATCH #10: [AHB_READ] HADDR=0x0000d132 AHB_BURST_INCR 2 beats
# UVM_INFO ../src/env/ahb_coverage.sv(174) @ 1705000: uvm_test_top.env.slave_cov [ahb_coverage] Sampled [AHB_READ]: burst=AHB_BURST_INCR size=AHB_SIZE_8B beats=2 error=0
# UVM_INFO ../src/mst_seq/ahb_base_seq.sv(157) @ 1705000: uvm_test_top.env.master_agent.sqr@@seq [ahb_wait_state_seq] AHB_BURST_INCR AHB_SIZE_8B beat 0 @0x0000d132 ok
# UVM_INFO ../src/mst_seq/ahb_base_seq.sv(157) @ 1705000: uvm_test_top.env.master_agent.sqr@@seq [ahb_wait_state_seq] AHB_BURST_INCR AHB_SIZE_8B beat 1 @0x0000d133 ok
# UVM_INFO ../src/mst_seq/ahb_wait_state_seq.sv(166) @ 1705000: uvm_test_top.env.master_agent.sqr@@seq [ahb_wait_state_seq] AHB_BURST_SINGLE AHB_SIZE_32B @0x0000d144, 1 beats, waits=8:15, pipelined=1
# UVM_INFO ../src/mst/ahb_master_driver.sv(85) @ 1705000: uvm_test_top.env.master_agent.drv [ahb_master_driver] Queueing [AHB_WRITE]: HADDR=0x0000d144, HBURST=AHB_BURST_SINGLE, HSIZE=AHB_SIZE_32B, 1 beats
# UVM_INFO ../src/mst/ahb_master_driver.sv(127) @ 1705000: uvm_test_top.env.master_agent.drv [ahb_master_driver] Driving [AHB_WRITE]: HADDR=0x0000d144, HBURST=AHB_BURST_SINGLE, HSIZE=AHB_SIZE_32B, 1 beats               
# UVM_INFO ../src/mst/ahb_master_driver.sv(85) @ 1705000: uvm_test_top.env.master_agent.drv [ahb_master_driver] Queueing [AHB_READ]: HADDR=0x0000d144, HBURST=AHB_BURST_SINGLE, HSIZE=AHB_SIZE_32B, 1 beats
# UVM_INFO ../src/mst/ahb_master_driver.sv(332) @ 1855000: uvm_test_top.env.master_agent.drv [ahb_master_driver] Beat[0/1] addr=0x0000d144 trans=AHB_TRANS_NONSEQ resp=AHB_RESP_OKAY wdata=0x3789cbd6
# UVM_INFO ../src/mst/ahb_master_driver.sv(376) @ 1855000: uvm_test_top.env.master_agent.drv [ahb_master_driver] Transaction complete: AHB_WRITE 0x0000d144, 1 beats, burst=AHB_BURST_SINGLE
# UVM_INFO ../src/mst/ahb_master_driver.sv(127) @ 1855000: uvm_test_top.env.master_agent.drv [ahb_master_driver] Driving [AHB_READ]: HADDR=0x0000d144, HBURST=AHB_BURST_SINGLE, HSIZE=AHB_SIZE_32B, 1 beats (back-to-back)
# UVM_INFO ../src/slv/ahb_slave_driver.sv(184) @ 1855000: uvm_test_top.env.slave_agent.drv [ahb_slave_driver] Beat AHB_WRITE addr=0x0000d144 resp=AHB_RESP_OKAY waits=12 wdata=0x3789cbd6
# UVM_INFO ../src/slv/ahb_slave_monitor.sv(212) @ 1855000: uvm_test_top.env.slave_agent.mon [ahb_slave_monitor] Observed [AHB_WRITE]: HADDR=0x0000d144, HBURST=AHB_BURST_SINGLE, HSIZE=AHB_SIZE_32B, 1 beats
# UVM_INFO ../src/env/ahb_coverage.sv(174) @ 1855000: uvm_test_top.env.slave_cov [ahb_coverage] Sampled [AHB_WRITE]: burst=AHB_BURST_SINGLE size=AHB_SIZE_32B beats=1 error=0
# UVM_INFO ../src/mst/ahb_master_monitor.sv(128) @ 1855000: uvm_test_top.env.master_agent.mon [ahb_master_monitor] Beat[0] addr=0x0000d144 wdata=0x3789cbd6 resp=AHB_RESP_OKAY
# UVM_INFO ../src/mst/ahb_master_monitor.sv(231) @ 1855000: uvm_test_top.env.master_agent.mon [ahb_master_monitor] Observed [AHB_WRITE]: HADDR=0x0000d144, HBURST=AHB_BURST_SINGLE, HSIZE=AHB_SIZE_32B, 1 beats
# UVM_INFO ../src/env/ahb_coverage.sv(174) @ 1855000: uvm_test_top.env.master_cov [ahb_coverage] Sampled [AHB_WRITE]: burst=AHB_BURST_SINGLE size=AHB_SIZE_32B beats=1 error=0
# UVM_INFO ../src/env/ahb_scoreboard.sv(104) @ 1855000: uvm_test_top.env.scb [ahb_scoreboard] MATCH #11: [AHB_WRITE] HADDR=0x0000d144 AHB_BURST_SINGLE 1 beats
# UVM_INFO ../src/mst/ahb_master_driver.sv(332) @ 2015000: uvm_test_top.env.master_agent.drv [ahb_master_driver] Beat[0/1] addr=0x0000d144 trans=AHB_TRANS_NONSEQ resp=AHB_RESP_OKAY rdata=0x3789cbd6
# UVM_INFO ../src/mst/ahb_master_driver.sv(376) @ 2015000: uvm_test_top.env.master_agent.drv [ahb_master_driver] Transaction complete: AHB_READ 0x0000d144, 1 beats, burst=AHB_BURST_SINGLE
# UVM_INFO ../src/slv/ahb_slave_driver.sv(184) @ 2015000: uvm_test_top.env.slave_agent.drv [ahb_slave_driver] Beat AHB_READ addr=0x0000d144 resp=AHB_RESP_OKAY waits=15 rdata=0x3789cbd6
# UVM_INFO ../src/slv/ahb_slave_monitor.sv(212) @ 2015000: uvm_test_top.env.slave_agent.mon [ahb_slave_monitor] Observed [AHB_READ]: HADDR=0x0000d144, HBURST=AHB_BURST_SINGLE, HSIZE=AHB_SIZE_32B, 1 beats
# UVM_INFO ../src/env/ahb_coverage.sv(174) @ 2015000: uvm_test_top.env.slave_cov [ahb_coverage] Sampled [AHB_READ]: burst=AHB_BURST_SINGLE size=AHB_SIZE_32B beats=1 error=0
# UVM_INFO ../src/mst/ahb_master_monitor.sv(128) @ 2015000: uvm_test_top.env.master_agent.mon [ahb_master_monitor] Beat[0] addr=0x0000d144 rdata=0x3789cbd6 resp=AHB_RESP_OKAY
# UVM_INFO ../src/mst/ahb_master_monitor.sv(231) @ 2015000: uvm_test_top.env.master_agent.mon [ahb_master_monitor] Observed [AHB_READ]: HADDR=0x0000d144, HBURST=AHB_BURST_SINGLE, HSIZE=AHB_SIZE_32B, 1 beats
# UVM_INFO ../src/env/ahb_coverage.sv(174) @ 2015000: uvm_test_top.env.master_cov [ahb_coverage] Sampled [AHB_READ]: burst=AHB_BURST_SINGLE size=AHB_SIZE_32B beats=1 error=0
# UVM_INFO ../src/env/ahb_scoreboard.sv(104) @ 2015000: uvm_test_top.env.scb [ahb_scoreboard] MATCH #12: [AHB_READ] HADDR=0x0000d144 AHB_BURST_SINGLE 1 beats
# UVM_INFO ../src/mst_seq/ahb_base_seq.sv(157) @ 2015000: uvm_test_top.env.master_agent.sqr@@seq [ahb_wait_state_seq] AHB_BURST_SINGLE AHB_SIZE_32B beat 0 @0x0000d144 ok
# UVM_INFO ../src/mst_seq/ahb_wait_state_seq.sv(166) @ 2015000: uvm_test_top.env.master_agent.sqr@@seq [ahb_wait_state_seq] AHB_BURST_INCR4 AHB_SIZE_32B @0x0000d1ac, 4 beats, waits=16:16, pipelined=0
# UVM_INFO ../src/mst/ahb_master_driver.sv(85) @ 2015000: uvm_test_top.env.master_agent.drv [ahb_master_driver] Queueing [AHB_WRITE]: HADDR=0x0000d1ac, HBURST=AHB_BURST_INCR4, HSIZE=AHB_SIZE_32B, 4 beats
# UVM_INFO ../src/mst/ahb_master_driver.sv(127) @ 2015000: uvm_test_top.env.master_agent.drv [ahb_master_driver] Driving [AHB_WRITE]: HADDR=0x0000d1ac, HBURST=AHB_BURST_INCR4, HSIZE=AHB_SIZE_32B, 4 beats               
# UVM_INFO ../src/mst/ahb_master_driver.sv(332) @ 2205000: uvm_test_top.env.master_agent.drv [ahb_master_driver] Beat[0/4] addr=0x0000d1ac trans=AHB_TRANS_NONSEQ resp=AHB_RESP_OKAY wdata=0x664de0df
# UVM_INFO ../src/slv/ahb_slave_driver.sv(184) @ 2205000: uvm_test_top.env.slave_agent.drv [ahb_slave_driver] Beat AHB_WRITE addr=0x0000d1ac resp=AHB_RESP_OKAY waits=16 wdata=0x664de0df
# UVM_INFO ../src/mst/ahb_master_monitor.sv(128) @ 2205000: uvm_test_top.env.master_agent.mon [ahb_master_monitor] Beat[0] addr=0x0000d1ac wdata=0x664de0df resp=AHB_RESP_OKAY
# UVM_INFO ../src/mst/ahb_master_driver.sv(332) @ 2375000: uvm_test_top.env.master_agent.drv [ahb_master_driver] Beat[1/4] addr=0x0000d1b0 trans=AHB_TRANS_SEQ resp=AHB_RESP_OKAY wdata=0x9dc9aadc
# UVM_INFO ../src/slv/ahb_slave_driver.sv(184) @ 2375000: uvm_test_top.env.slave_agent.drv [ahb_slave_driver] Beat AHB_WRITE addr=0x0000d1b0 resp=AHB_RESP_OKAY waits=16 wdata=0x9dc9aadc
# UVM_INFO ../src/mst/ahb_master_monitor.sv(128) @ 2375000: uvm_test_top.env.master_agent.mon [ahb_master_monitor] Beat[1] addr=0x0000d1b0 wdata=0x9dc9aadc resp=AHB_RESP_OKAY
# UVM_INFO ../src/mst/ahb_master_driver.sv(332) @ 2545000: uvm_test_top.env.master_agent.drv [ahb_master_driver] Beat[2/4] addr=0x0000d1b4 trans=AHB_TRANS_SEQ resp=AHB_RESP_OKAY wdata=0x08064548
# UVM_INFO ../src/slv/ahb_slave_driver.sv(184) @ 2545000: uvm_test_top.env.slave_agent.drv [ahb_slave_driver] Beat AHB_WRITE addr=0x0000d1b4 resp=AHB_RESP_OKAY waits=16 wdata=0x08064548
# UVM_INFO ../src/mst/ahb_master_monitor.sv(128) @ 2545000: uvm_test_top.env.master_agent.mon [ahb_master_monitor] Beat[2] addr=0x0000d1b4 wdata=0x08064548 resp=AHB_RESP_OKAY
# UVM_INFO ../src/mst/ahb_master_driver.sv(332) @ 2715000: uvm_test_top.env.master_agent.drv [ahb_master_driver] Beat[3/4] addr=0x0000d1b8 trans=AHB_TRANS_SEQ resp=AHB_RESP_OKAY wdata=0x37aac00c
# UVM_INFO ../src/mst/ahb_master_driver.sv(376) @ 2715000: uvm_test_top.env.master_agent.drv [ahb_master_driver] Transaction complete: AHB_WRITE 0x0000d1ac, 4 beats, burst=AHB_BURST_INCR4
# UVM_INFO ../src/slv/ahb_slave_driver.sv(184) @ 2715000: uvm_test_top.env.slave_agent.drv [ahb_slave_driver] Beat AHB_WRITE addr=0x0000d1b8 resp=AHB_RESP_OKAY waits=16 wdata=0x37aac00c
# UVM_INFO ../src/slv/ahb_slave_monitor.sv(212) @ 2715000: uvm_test_top.env.slave_agent.mon [ahb_slave_monitor] Observed [AHB_WRITE]: HADDR=0x0000d1ac, HBURST=AHB_BURST_INCR4, HSIZE=AHB_SIZE_32B, 4 beats
# UVM_INFO ../src/env/ahb_coverage.sv(174) @ 2715000: uvm_test_top.env.slave_cov [ahb_coverage] Sampled [AHB_WRITE]: burst=AHB_BURST_INCR4 size=AHB_SIZE_32B beats=4 error=0
# UVM_INFO ../src/mst/ahb_master_monitor.sv(128) @ 2715000: uvm_test_top.env.master_agent.mon [ahb_master_monitor] Beat[3] addr=0x0000d1b8 wdata=0x37aac00c resp=AHB_RESP_OKAY
# UVM_INFO ../src/mst/ahb_master_monitor.sv(231) @ 2715000: uvm_test_top.env.master_agent.mon [ahb_master_monitor] Observed [AHB_WRITE]: HADDR=0x0000d1ac, HBURST=AHB_BURST_INCR4, HSIZE=AHB_SIZE_32B, 4 beats
# UVM_INFO ../src/env/ahb_coverage.sv(174) @ 2715000: uvm_test_top.env.master_cov [ahb_coverage] Sampled [AHB_WRITE]: burst=AHB_BURST_INCR4 size=AHB_SIZE_32B beats=4 error=0
# UVM_INFO ../src/env/ahb_scoreboard.sv(104) @ 2715000: uvm_test_top.env.scb [ahb_scoreboard] MATCH #13: [AHB_WRITE] HADDR=0x0000d1ac AHB_BURST_INCR4 4 beats
# UVM_INFO ../src/mst/ahb_master_driver.sv(85) @ 2715000: uvm_test_top.env.master_agent.drv [ahb_master_driver] Queueing [AHB_READ]: HADDR=0x0000d1ac, HBURST=AHB_BURST_INCR4, HSIZE=AHB_SIZE_32B, 4 beats
# UVM_INFO ../src/mst/ahb_master_driver.sv(127) @ 2715000: uvm_test_top.env.master_agent.drv [ahb_master_driver] Driving [AHB_READ]: HADDR=0x0000d1ac, HBURST=AHB_BURST_INCR4, HSIZE=AHB_SIZE_32B, 4 beats               
# UVM_INFO ../src/mst/ahb_master_driver.sv(332) @ 2905000: uvm_test_top.env.master_agent.drv [ahb_master_driver] Beat[0/4] addr=0x0000d1ac trans=AHB_TRANS_NONSEQ resp=AHB_RESP_OKAY rdata=0x664de0df
# UVM_INFO ../src/slv/ahb_slave_driver.sv(184) @ 2905000: uvm_test_top.env.slave_agent.drv [ahb_slave_driver] Beat AHB_READ addr=0x0000d1ac resp=AHB_RESP_OKAY waits=16 rdata=0x664de0df
# UVM_INFO ../src/mst/ahb_master_monitor.sv(128) @ 2905000: uvm_test_top.env.master_agent.mon [ahb_master_monitor] Beat[0] addr=0x0000d1ac rdata=0x664de0df resp=AHB_RESP_OKAY
# UVM_INFO ../src/mst/ahb_master_driver.sv(332) @ 3075000: uvm_test_top.env.master_agent.drv [ahb_master_driver] Beat[1/4] addr=0x0000d1b0 trans=AHB_TRANS_SEQ resp=AHB_RESP_OKAY rdata=0x9dc9aadc
# UVM_INFO ../src/slv/ahb_slave_driver.sv(184) @ 3075000: uvm_test_top.env.slave_agent.drv [ahb_slave_driver] Beat AHB_READ addr=0x0000d1b0 resp=AHB_RESP_OKAY waits=16 rdata=0x9dc9aadc
# UVM_INFO ../src/mst/ahb_master_monitor.sv(128) @ 3075000: uvm_test_top.env.master_agent.mon [ahb_master_monitor] Beat[1] addr=0x0000d1b0 rdata=0x9dc9aadc resp=AHB_RESP_OKAY
# UVM_INFO ../src/mst/ahb_master_driver.sv(332) @ 3245000: uvm_test_top.env.master_agent.drv [ahb_master_driver] Beat[2/4] addr=0x0000d1b4 trans=AHB_TRANS_SEQ resp=AHB_RESP_OKAY rdata=0x08064548
# UVM_INFO ../src/slv/ahb_slave_driver.sv(184) @ 3245000: uvm_test_top.env.slave_agent.drv [ahb_slave_driver] Beat AHB_READ addr=0x0000d1b4 resp=AHB_RESP_OKAY waits=16 rdata=0x08064548
# UVM_INFO ../src/mst/ahb_master_monitor.sv(128) @ 3245000: uvm_test_top.env.master_agent.mon [ahb_master_monitor] Beat[2] addr=0x0000d1b4 rdata=0x08064548 resp=AHB_RESP_OKAY
# UVM_INFO ../src/mst/ahb_master_driver.sv(332) @ 3415000: uvm_test_top.env.master_agent.drv [ahb_master_driver] Beat[3/4] addr=0x0000d1b8 trans=AHB_TRANS_SEQ resp=AHB_RESP_OKAY rdata=0x37aac00c
# UVM_INFO ../src/mst/ahb_master_driver.sv(376) @ 3415000: uvm_test_top.env.master_agent.drv [ahb_master_driver] Transaction complete: AHB_READ 0x0000d1ac, 4 beats, burst=AHB_BURST_INCR4
# UVM_INFO ../src/slv/ahb_slave_driver.sv(184) @ 3415000: uvm_test_top.env.slave_agent.drv [ahb_slave_driver] Beat AHB_READ addr=0x0000d1b8 resp=AHB_RESP_OKAY waits=16 rdata=0x37aac00c
# UVM_INFO ../src/slv/ahb_slave_monitor.sv(212) @ 3415000: uvm_test_top.env.slave_agent.mon [ahb_slave_monitor] Observed [AHB_READ]: HADDR=0x0000d1ac, HBURST=AHB_BURST_INCR4, HSIZE=AHB_SIZE_32B, 4 beats
# UVM_INFO ../src/env/ahb_coverage.sv(174) @ 3415000: uvm_test_top.env.slave_cov [ahb_coverage] Sampled [AHB_READ]: burst=AHB_BURST_INCR4 size=AHB_SIZE_32B beats=4 error=0
# UVM_INFO ../src/mst/ahb_master_monitor.sv(128) @ 3415000: uvm_test_top.env.master_agent.mon [ahb_master_monitor] Beat[3] addr=0x0000d1b8 rdata=0x37aac00c resp=AHB_RESP_OKAY
# UVM_INFO ../src/mst/ahb_master_monitor.sv(231) @ 3415000: uvm_test_top.env.master_agent.mon [ahb_master_monitor] Observed [AHB_READ]: HADDR=0x0000d1ac, HBURST=AHB_BURST_INCR4, HSIZE=AHB_SIZE_32B, 4 beats
# UVM_INFO ../src/env/ahb_coverage.sv(174) @ 3415000: uvm_test_top.env.master_cov [ahb_coverage] Sampled [AHB_READ]: burst=AHB_BURST_INCR4 size=AHB_SIZE_32B beats=4 error=0
# UVM_INFO ../src/env/ahb_scoreboard.sv(104) @ 3415000: uvm_test_top.env.scb [ahb_scoreboard] MATCH #14: [AHB_READ] HADDR=0x0000d1ac AHB_BURST_INCR4 4 beats
# UVM_INFO ../src/mst_seq/ahb_base_seq.sv(157) @ 3415000: uvm_test_top.env.master_agent.sqr@@seq [ahb_wait_state_seq] AHB_BURST_INCR4 AHB_SIZE_32B beat 0 @0x0000d1ac ok
# UVM_INFO ../src/mst_seq/ahb_base_seq.sv(157) @ 3415000: uvm_test_top.env.master_agent.sqr@@seq [ahb_wait_state_seq] AHB_BURST_INCR4 AHB_SIZE_32B beat 1 @0x0000d1b0 ok
# UVM_INFO ../src/mst_seq/ahb_base_seq.sv(157) @ 3415000: uvm_test_top.env.master_agent.sqr@@seq [ahb_wait_state_seq] AHB_BURST_INCR4 AHB_SIZE_32B beat 2 @0x0000d1b4 ok
# UVM_INFO ../src/mst_seq/ahb_base_seq.sv(157) @ 3415000: uvm_test_top.env.master_agent.sqr@@seq [ahb_wait_state_seq] AHB_BURST_INCR4 AHB_SIZE_32B beat 3 @0x0000d1b8 ok
# UVM_INFO ../src/mst_seq/ahb_wait_state_seq.sv(166) @ 3415000: uvm_test_top.env.master_agent.sqr@@seq [ahb_wait_state_seq] AHB_BURST_SINGLE AHB_SIZE_8B @0x0000d1e4, 1 beats, waits=0:16, pipelined=1
# UVM_INFO ../src/mst/ahb_master_driver.sv(85) @ 3415000: uvm_test_top.env.master_agent.drv [ahb_master_driver] Queueing [AHB_WRITE]: HADDR=0x0000d1e4, HBURST=AHB_BURST_SINGLE, HSIZE=AHB_SIZE_8B, 1 beats
# UVM_INFO ../src/mst/ahb_master_driver.sv(127) @ 3415000: uvm_test_top.env.master_agent.drv [ahb_master_driver] Driving [AHB_WRITE]: HADDR=0x0000d1e4, HBURST=AHB_BURST_SINGLE, HSIZE=AHB_SIZE_8B, 1 beats               
# UVM_INFO ../src/mst/ahb_master_driver.sv(85) @ 3415000: uvm_test_top.env.master_agent.drv [ahb_master_driver] Queueing [AHB_READ]: HADDR=0x0000d1e4, HBURST=AHB_BURST_SINGLE, HSIZE=AHB_SIZE_8B, 1 beats
# UVM_INFO ../src/mst/ahb_master_driver.sv(332) @ 3595000: uvm_test_top.env.master_agent.drv [ahb_master_driver] Beat[0/1] addr=0x0000d1e4 trans=AHB_TRANS_NONSEQ resp=AHB_RESP_OKAY wdata=0x6c873b21
# UVM_INFO ../src/mst/ahb_master_driver.sv(376) @ 3595000: uvm_test_top.env.master_agent.drv [ahb_master_driver] Transaction complete: AHB_WRITE 0x0000d1e4, 1 beats, burst=AHB_BURST_SINGLE
# UVM_INFO ../src/mst/ahb_master_driver.sv(127) @ 3595000: uvm_test_top.env.master_agent.drv [ahb_master_driver] Driving [AHB_READ]: HADDR=0x0000d1e4, HBURST=AHB_BURST_SINGLE, HSIZE=AHB_SIZE_8B, 1 beats (back-to-back)
# UVM_INFO ../src/slv/ahb_slave_driver.sv(184) @ 3595000: uvm_test_top.env.slave_agent.drv [ahb_slave_driver] Beat AHB_WRITE addr=0x0000d1e4 resp=AHB_RESP_OKAY waits=15 wdata=0x6c873b21
# UVM_INFO ../src/slv/ahb_slave_monitor.sv(212) @ 3595000: uvm_test_top.env.slave_agent.mon [ahb_slave_monitor] Observed [AHB_WRITE]: HADDR=0x0000d1e4, HBURST=AHB_BURST_SINGLE, HSIZE=AHB_SIZE_8B, 1 beats
# UVM_INFO ../src/env/ahb_coverage.sv(174) @ 3595000: uvm_test_top.env.slave_cov [ahb_coverage] Sampled [AHB_WRITE]: burst=AHB_BURST_SINGLE size=AHB_SIZE_8B beats=1 error=0
# UVM_INFO ../src/mst/ahb_master_monitor.sv(128) @ 3595000: uvm_test_top.env.master_agent.mon [ahb_master_monitor] Beat[0] addr=0x0000d1e4 wdata=0x6c873b21 resp=AHB_RESP_OKAY
# UVM_INFO ../src/mst/ahb_master_monitor.sv(231) @ 3595000: uvm_test_top.env.master_agent.mon [ahb_master_monitor] Observed [AHB_WRITE]: HADDR=0x0000d1e4, HBURST=AHB_BURST_SINGLE, HSIZE=AHB_SIZE_8B, 1 beats
# UVM_INFO ../src/env/ahb_coverage.sv(174) @ 3595000: uvm_test_top.env.master_cov [ahb_coverage] Sampled [AHB_WRITE]: burst=AHB_BURST_SINGLE size=AHB_SIZE_8B beats=1 error=0
# UVM_INFO ../src/env/ahb_scoreboard.sv(104) @ 3595000: uvm_test_top.env.scb [ahb_scoreboard] MATCH #15: [AHB_WRITE] HADDR=0x0000d1e4 AHB_BURST_SINGLE 1 beats
# UVM_INFO ../src/mst/ahb_master_driver.sv(332) @ 3755000: uvm_test_top.env.master_agent.drv [ahb_master_driver] Beat[0/1] addr=0x0000d1e4 trans=AHB_TRANS_NONSEQ resp=AHB_RESP_OKAY rdata=0x6c873b21
# UVM_INFO ../src/mst/ahb_master_driver.sv(376) @ 3755000: uvm_test_top.env.master_agent.drv [ahb_master_driver] Transaction complete: AHB_READ 0x0000d1e4, 1 beats, burst=AHB_BURST_SINGLE
# UVM_INFO ../src/slv/ahb_slave_driver.sv(184) @ 3755000: uvm_test_top.env.slave_agent.drv [ahb_slave_driver] Beat AHB_READ addr=0x0000d1e4 resp=AHB_RESP_OKAY waits=15 rdata=0x6c873b21
# UVM_INFO ../src/slv/ahb_slave_monitor.sv(212) @ 3755000: uvm_test_top.env.slave_agent.mon [ahb_slave_monitor] Observed [AHB_READ]: HADDR=0x0000d1e4, HBURST=AHB_BURST_SINGLE, HSIZE=AHB_SIZE_8B, 1 beats
# UVM_INFO ../src/env/ahb_coverage.sv(174) @ 3755000: uvm_test_top.env.slave_cov [ahb_coverage] Sampled [AHB_READ]: burst=AHB_BURST_SINGLE size=AHB_SIZE_8B beats=1 error=0
# UVM_INFO ../src/mst/ahb_master_monitor.sv(128) @ 3755000: uvm_test_top.env.master_agent.mon [ahb_master_monitor] Beat[0] addr=0x0000d1e4 rdata=0x6c873b21 resp=AHB_RESP_OKAY
# UVM_INFO ../src/mst/ahb_master_monitor.sv(231) @ 3755000: uvm_test_top.env.master_agent.mon [ahb_master_monitor] Observed [AHB_READ]: HADDR=0x0000d1e4, HBURST=AHB_BURST_SINGLE, HSIZE=AHB_SIZE_8B, 1 beats
# UVM_INFO ../src/env/ahb_coverage.sv(174) @ 3755000: uvm_test_top.env.master_cov [ahb_coverage] Sampled [AHB_READ]: burst=AHB_BURST_SINGLE size=AHB_SIZE_8B beats=1 error=0
# UVM_INFO ../src/env/ahb_scoreboard.sv(104) @ 3755000: uvm_test_top.env.scb [ahb_scoreboard] MATCH #16: [AHB_READ] HADDR=0x0000d1e4 AHB_BURST_SINGLE 1 beats
# UVM_INFO ../src/mst_seq/ahb_base_seq.sv(157) @ 3755000: uvm_test_top.env.master_agent.sqr@@seq [ahb_wait_state_seq] AHB_BURST_SINGLE AHB_SIZE_8B beat 0 @0x0000d1e4 ok
# UVM_INFO ../src/mst_seq/ahb_wait_state_seq.sv(166) @ 3755000: uvm_test_top.env.master_agent.sqr@@seq [ahb_wait_state_seq] AHB_BURST_SINGLE AHB_SIZE_16B @0x0000d200, 1 beats, waits=0:0, pipelined=0
# UVM_INFO ../src/mst/ahb_master_driver.sv(85) @ 3755000: uvm_test_top.env.master_agent.drv [ahb_master_driver] Queueing [AHB_WRITE]: HADDR=0x0000d200, HBURST=AHB_BURST_SINGLE, HSIZE=AHB_SIZE_16B, 1 beats
# UVM_INFO ../src/mst/ahb_master_driver.sv(127) @ 3755000: uvm_test_top.env.master_agent.drv [ahb_master_driver] Driving [AHB_WRITE]: HADDR=0x0000d200, HBURST=AHB_BURST_SINGLE, HSIZE=AHB_SIZE_16B, 1 beats               
# UVM_INFO ../src/mst/ahb_master_driver.sv(332) @ 3785000: uvm_test_top.env.master_agent.drv [ahb_master_driver] Beat[0/1] addr=0x0000d200 trans=AHB_TRANS_NONSEQ resp=AHB_RESP_OKAY wdata=0xb4eb9c36
# UVM_INFO ../src/mst/ahb_master_driver.sv(376) @ 3785000: uvm_test_top.env.master_agent.drv [ahb_master_driver] Transaction complete: AHB_WRITE 0x0000d200, 1 beats, burst=AHB_BURST_SINGLE
# UVM_INFO ../src/slv/ahb_slave_driver.sv(184) @ 3785000: uvm_test_top.env.slave_agent.drv [ahb_slave_driver] Beat AHB_WRITE addr=0x0000d200 resp=AHB_RESP_OKAY waits=0 wdata=0xb4eb9c36
# UVM_INFO ../src/mst/ahb_master_monitor.sv(128) @ 3785000: uvm_test_top.env.master_agent.mon [ahb_master_monitor] Beat[0] addr=0x0000d200 wdata=0xb4eb9c36 resp=AHB_RESP_OKAY
# UVM_INFO ../src/mst/ahb_master_monitor.sv(231) @ 3785000: uvm_test_top.env.master_agent.mon [ahb_master_monitor] Observed [AHB_WRITE]: HADDR=0x0000d200, HBURST=AHB_BURST_SINGLE, HSIZE=AHB_SIZE_16B, 1 beats
# UVM_INFO ../src/env/ahb_coverage.sv(174) @ 3785000: uvm_test_top.env.master_cov [ahb_coverage] Sampled [AHB_WRITE]: burst=AHB_BURST_SINGLE size=AHB_SIZE_16B beats=1 error=0
# UVM_INFO ../src/slv/ahb_slave_monitor.sv(212) @ 3785000: uvm_test_top.env.slave_agent.mon [ahb_slave_monitor] Observed [AHB_WRITE]: HADDR=0x0000d200, HBURST=AHB_BURST_SINGLE, HSIZE=AHB_SIZE_16B, 1 beats
# UVM_INFO ../src/env/ahb_scoreboard.sv(104) @ 3785000: uvm_test_top.env.scb [ahb_scoreboard] MATCH #17: [AHB_WRITE] HADDR=0x0000d200 AHB_BURST_SINGLE 1 beats
# UVM_INFO ../src/env/ahb_coverage.sv(174) @ 3785000: uvm_test_top.env.slave_cov [ahb_coverage] Sampled [AHB_WRITE]: burst=AHB_BURST_SINGLE size=AHB_SIZE_16B beats=1 error=0
# UVM_INFO ../src/mst/ahb_master_driver.sv(85) @ 3785000: uvm_test_top.env.master_agent.drv [ahb_master_driver] Queueing [AHB_READ]: HADDR=0x0000d200, HBURST=AHB_BURST_SINGLE, HSIZE=AHB_SIZE_16B, 1 beats
# UVM_INFO ../src/mst/ahb_master_driver.sv(127) @ 3785000: uvm_test_top.env.master_agent.drv [ahb_master_driver] Driving [AHB_READ]: HADDR=0x0000d200, HBURST=AHB_BURST_SINGLE, HSIZE=AHB_SIZE_16B, 1 beats               
# UVM_INFO ../src/mst/ahb_master_driver.sv(332) @ 3815000: uvm_test_top.env.master_agent.drv [ahb_master_driver] Beat[0/1] addr=0x0000d200 trans=AHB_TRANS_NONSEQ resp=AHB_RESP_OKAY rdata=0xb4eb9c36
# UVM_INFO ../src/mst/ahb_master_driver.sv(376) @ 3815000: uvm_test_top.env.master_agent.drv [ahb_master_driver] Transaction complete: AHB_READ 0x0000d200, 1 beats, burst=AHB_BURST_SINGLE
# UVM_INFO ../src/slv/ahb_slave_driver.sv(184) @ 3815000: uvm_test_top.env.slave_agent.drv [ahb_slave_driver] Beat AHB_READ addr=0x0000d200 resp=AHB_RESP_OKAY waits=0 rdata=0xb4eb9c36
# UVM_INFO ../src/slv/ahb_slave_monitor.sv(212) @ 3815000: uvm_test_top.env.slave_agent.mon [ahb_slave_monitor] Observed [AHB_READ]: HADDR=0x0000d200, HBURST=AHB_BURST_SINGLE, HSIZE=AHB_SIZE_16B, 1 beats
# UVM_INFO ../src/env/ahb_coverage.sv(174) @ 3815000: uvm_test_top.env.slave_cov [ahb_coverage] Sampled [AHB_READ]: burst=AHB_BURST_SINGLE size=AHB_SIZE_16B beats=1 error=0
# UVM_INFO ../src/mst/ahb_master_monitor.sv(128) @ 3815000: uvm_test_top.env.master_agent.mon [ahb_master_monitor] Beat[0] addr=0x0000d200 rdata=0xb4eb9c36 resp=AHB_RESP_OKAY
# UVM_INFO ../src/mst/ahb_master_monitor.sv(231) @ 3815000: uvm_test_top.env.master_agent.mon [ahb_master_monitor] Observed [AHB_READ]: HADDR=0x0000d200, HBURST=AHB_BURST_SINGLE, HSIZE=AHB_SIZE_16B, 1 beats
# UVM_INFO ../src/env/ahb_coverage.sv(174) @ 3815000: uvm_test_top.env.master_cov [ahb_coverage] Sampled [AHB_READ]: burst=AHB_BURST_SINGLE size=AHB_SIZE_16B beats=1 error=0
# UVM_INFO ../src/env/ahb_scoreboard.sv(104) @ 3815000: uvm_test_top.env.scb [ahb_scoreboard] MATCH #18: [AHB_READ] HADDR=0x0000d200 AHB_BURST_SINGLE 1 beats
# UVM_INFO ../src/mst_seq/ahb_base_seq.sv(157) @ 3815000: uvm_test_top.env.master_agent.sqr@@seq [ahb_wait_state_seq] AHB_BURST_SINGLE AHB_SIZE_16B beat 0 @0x0000d200 ok
# UVM_INFO ../src/mst_seq/ahb_wait_state_seq.sv(166) @ 3815000: uvm_test_top.env.master_agent.sqr@@seq [ahb_wait_state_seq] AHB_BURST_INCR4 AHB_SIZE_16B @0x0000d272, 4 beats, waits=1:1, pipelined=1
# UVM_INFO ../src/mst/ahb_master_driver.sv(85) @ 3815000: uvm_test_top.env.master_agent.drv [ahb_master_driver] Queueing [AHB_WRITE]: HADDR=0x0000d272, HBURST=AHB_BURST_INCR4, HSIZE=AHB_SIZE_16B, 4 beats
# UVM_INFO ../src/mst/ahb_master_driver.sv(127) @ 3815000: uvm_test_top.env.master_agent.drv [ahb_master_driver] Driving [AHB_WRITE]: HADDR=0x0000d272, HBURST=AHB_BURST_INCR4, HSIZE=AHB_SIZE_16B, 4 beats               
# UVM_INFO ../src/mst/ahb_master_driver.sv(85) @ 3815000: uvm_test_top.env.master_agent.drv [ahb_master_driver] Queueing [AHB_READ]: HADDR=0x0000d272, HBURST=AHB_BURST_INCR4, HSIZE=AHB_SIZE_16B, 4 beats
# UVM_INFO ../src/mst/ahb_master_driver.sv(332) @ 3855000: uvm_test_top.env.master_agent.drv [ahb_master_driver] Beat[0/4] addr=0x0000d272 trans=AHB_TRANS_NONSEQ resp=AHB_RESP_OKAY wdata=0xae9ef18f
# UVM_INFO ../src/slv/ahb_slave_driver.sv(184) @ 3855000: uvm_test_top.env.slave_agent.drv [ahb_slave_driver] Beat AHB_WRITE addr=0x0000d272 resp=AHB_RESP_OKAY waits=1 wdata=0xae9ef18f
# UVM_INFO ../src/mst/ahb_master_monitor.sv(128) @ 3855000: uvm_test_top.env.master_agent.mon [ahb_master_monitor] Beat[0] addr=0x0000d272 wdata=0xae9ef18f resp=AHB_RESP_OKAY
# UVM_INFO ../src/mst/ahb_master_driver.sv(332) @ 3875000: uvm_test_top.env.master_agent.drv [ahb_master_driver] Beat[1/4] addr=0x0000d274 trans=AHB_TRANS_SEQ resp=AHB_RESP_OKAY wdata=0x2fe237f3
# UVM_INFO ../src/slv/ahb_slave_driver.sv(184) @ 3875000: uvm_test_top.env.slave_agent.drv [ahb_slave_driver] Beat AHB_WRITE addr=0x0000d274 resp=AHB_RESP_OKAY waits=1 wdata=0x2fe237f3
# UVM_INFO ../src/mst/ahb_master_monitor.sv(128) @ 3875000: uvm_test_top.env.master_agent.mon [ahb_master_monitor] Beat[1] addr=0x0000d274 wdata=0x2fe237f3 resp=AHB_RESP_OKAY
# UVM_INFO ../src/mst/ahb_master_driver.sv(332) @ 3895000: uvm_test_top.env.master_agent.drv [ahb_master_driver] Beat[2/4] addr=0x0000d276 trans=AHB_TRANS_SEQ resp=AHB_RESP_OKAY wdata=0x8fe30e87
# UVM_INFO ../src/slv/ahb_slave_driver.sv(184) @ 3895000: uvm_test_top.env.slave_agent.drv [ahb_slave_driver] Beat AHB_WRITE addr=0x0000d276 resp=AHB_RESP_OKAY waits=1 wdata=0x8fe30e87
# UVM_INFO ../src/mst/ahb_master_monitor.sv(128) @ 3895000: uvm_test_top.env.master_agent.mon [ahb_master_monitor] Beat[2] addr=0x0000d276 wdata=0x8fe30e87 resp=AHB_RESP_OKAY
# UVM_INFO ../src/mst/ahb_master_driver.sv(332) @ 3915000: uvm_test_top.env.master_agent.drv [ahb_master_driver] Beat[3/4] addr=0x0000d278 trans=AHB_TRANS_SEQ resp=AHB_RESP_OKAY wdata=0x45fecf28
# UVM_INFO ../src/mst/ahb_master_driver.sv(376) @ 3915000: uvm_test_top.env.master_agent.drv [ahb_master_driver] Transaction complete: AHB_WRITE 0x0000d272, 4 beats, burst=AHB_BURST_INCR4
# UVM_INFO ../src/mst/ahb_master_driver.sv(127) @ 3915000: uvm_test_top.env.master_agent.drv [ahb_master_driver] Driving [AHB_READ]: HADDR=0x0000d272, HBURST=AHB_BURST_INCR4, HSIZE=AHB_SIZE_16B, 4 beats (back-to-back)
# UVM_INFO ../src/slv/ahb_slave_driver.sv(184) @ 3915000: uvm_test_top.env.slave_agent.drv [ahb_slave_driver] Beat AHB_WRITE addr=0x0000d278 resp=AHB_RESP_OKAY waits=1 wdata=0x45fecf28
# UVM_INFO ../src/slv/ahb_slave_monitor.sv(212) @ 3915000: uvm_test_top.env.slave_agent.mon [ahb_slave_monitor] Observed [AHB_WRITE]: HADDR=0x0000d272, HBURST=AHB_BURST_INCR4, HSIZE=AHB_SIZE_16B, 4 beats
# UVM_INFO ../src/env/ahb_coverage.sv(174) @ 3915000: uvm_test_top.env.slave_cov [ahb_coverage] Sampled [AHB_WRITE]: burst=AHB_BURST_INCR4 size=AHB_SIZE_16B beats=4 error=0
# UVM_INFO ../src/mst/ahb_master_monitor.sv(128) @ 3915000: uvm_test_top.env.master_agent.mon [ahb_master_monitor] Beat[3] addr=0x0000d278 wdata=0x45fecf28 resp=AHB_RESP_OKAY
# UVM_INFO ../src/mst/ahb_master_monitor.sv(231) @ 3915000: uvm_test_top.env.master_agent.mon [ahb_master_monitor] Observed [AHB_WRITE]: HADDR=0x0000d272, HBURST=AHB_BURST_INCR4, HSIZE=AHB_SIZE_16B, 4 beats
# UVM_INFO ../src/env/ahb_coverage.sv(174) @ 3915000: uvm_test_top.env.master_cov [ahb_coverage] Sampled [AHB_WRITE]: burst=AHB_BURST_INCR4 size=AHB_SIZE_16B beats=4 error=0
# UVM_INFO ../src/env/ahb_scoreboard.sv(104) @ 3915000: uvm_test_top.env.scb [ahb_scoreboard] MATCH #19: [AHB_WRITE] HADDR=0x0000d272 AHB_BURST_INCR4 4 beats
# UVM_INFO ../src/mst/ahb_master_driver.sv(332) @ 3935000: uvm_test_top.env.master_agent.drv [ahb_master_driver] Beat[0/4] addr=0x0000d272 trans=AHB_TRANS_NONSEQ resp=AHB_RESP_OKAY rdata=0xae9ef18f
# UVM_INFO ../src/slv/ahb_slave_driver.sv(184) @ 3935000: uvm_test_top.env.slave_agent.drv [ahb_slave_driver] Beat AHB_READ addr=0x0000d272 resp=AHB_RESP_OKAY waits=1 rdata=0xae9ef18f
# UVM_INFO ../src/mst/ahb_master_monitor.sv(128) @ 3935000: uvm_test_top.env.master_agent.mon [ahb_master_monitor] Beat[0] addr=0x0000d272 rdata=0xae9ef18f resp=AHB_RESP_OKAY
# UVM_INFO ../src/mst/ahb_master_driver.sv(332) @ 3955000: uvm_test_top.env.master_agent.drv [ahb_master_driver] Beat[1/4] addr=0x0000d274 trans=AHB_TRANS_SEQ resp=AHB_RESP_OKAY rdata=0x2fe237f3
# UVM_INFO ../src/slv/ahb_slave_driver.sv(184) @ 3955000: uvm_test_top.env.slave_agent.drv [ahb_slave_driver] Beat AHB_READ addr=0x0000d274 resp=AHB_RESP_OKAY waits=1 rdata=0x2fe237f3
# UVM_INFO ../src/mst/ahb_master_monitor.sv(128) @ 3955000: uvm_test_top.env.master_agent.mon [ahb_master_monitor] Beat[1] addr=0x0000d274 rdata=0x2fe237f3 resp=AHB_RESP_OKAY
# UVM_INFO ../src/mst/ahb_master_driver.sv(332) @ 3975000: uvm_test_top.env.master_agent.drv [ahb_master_driver] Beat[2/4] addr=0x0000d276 trans=AHB_TRANS_SEQ resp=AHB_RESP_OKAY rdata=0x8fe30e87
# UVM_INFO ../src/slv/ahb_slave_driver.sv(184) @ 3975000: uvm_test_top.env.slave_agent.drv [ahb_slave_driver] Beat AHB_READ addr=0x0000d276 resp=AHB_RESP_OKAY waits=1 rdata=0x8fe30e87
# UVM_INFO ../src/mst/ahb_master_monitor.sv(128) @ 3975000: uvm_test_top.env.master_agent.mon [ahb_master_monitor] Beat[2] addr=0x0000d276 rdata=0x8fe30e87 resp=AHB_RESP_OKAY
# UVM_INFO ../src/mst/ahb_master_driver.sv(332) @ 3995000: uvm_test_top.env.master_agent.drv [ahb_master_driver] Beat[3/4] addr=0x0000d278 trans=AHB_TRANS_SEQ resp=AHB_RESP_OKAY rdata=0x45fecf28
# UVM_INFO ../src/mst/ahb_master_driver.sv(376) @ 3995000: uvm_test_top.env.master_agent.drv [ahb_master_driver] Transaction complete: AHB_READ 0x0000d272, 4 beats, burst=AHB_BURST_INCR4
# UVM_INFO ../src/slv/ahb_slave_driver.sv(184) @ 3995000: uvm_test_top.env.slave_agent.drv [ahb_slave_driver] Beat AHB_READ addr=0x0000d278 resp=AHB_RESP_OKAY waits=1 rdata=0x45fecf28
# UVM_INFO ../src/slv/ahb_slave_monitor.sv(212) @ 3995000: uvm_test_top.env.slave_agent.mon [ahb_slave_monitor] Observed [AHB_READ]: HADDR=0x0000d272, HBURST=AHB_BURST_INCR4, HSIZE=AHB_SIZE_16B, 4 beats
# UVM_INFO ../src/env/ahb_coverage.sv(174) @ 3995000: uvm_test_top.env.slave_cov [ahb_coverage] Sampled [AHB_READ]: burst=AHB_BURST_INCR4 size=AHB_SIZE_16B beats=4 error=0
# UVM_INFO ../src/mst/ahb_master_monitor.sv(128) @ 3995000: uvm_test_top.env.master_agent.mon [ahb_master_monitor] Beat[3] addr=0x0000d278 rdata=0x45fecf28 resp=AHB_RESP_OKAY
# UVM_INFO ../src/mst/ahb_master_monitor.sv(231) @ 3995000: uvm_test_top.env.master_agent.mon [ahb_master_monitor] Observed [AHB_READ]: HADDR=0x0000d272, HBURST=AHB_BURST_INCR4, HSIZE=AHB_SIZE_16B, 4 beats
# UVM_INFO ../src/env/ahb_coverage.sv(174) @ 3995000: uvm_test_top.env.master_cov [ahb_coverage] Sampled [AHB_READ]: burst=AHB_BURST_INCR4 size=AHB_SIZE_16B beats=4 error=0
# UVM_INFO ../src/env/ahb_scoreboard.sv(104) @ 3995000: uvm_test_top.env.scb [ahb_scoreboard] MATCH #20: [AHB_READ] HADDR=0x0000d272 AHB_BURST_INCR4 4 beats
# UVM_INFO ../src/mst_seq/ahb_base_seq.sv(157) @ 3995000: uvm_test_top.env.master_agent.sqr@@seq [ahb_wait_state_seq] AHB_BURST_INCR4 AHB_SIZE_16B beat 0 @0x0000d272 ok
# UVM_INFO ../src/mst_seq/ahb_base_seq.sv(157) @ 3995000: uvm_test_top.env.master_agent.sqr@@seq [ahb_wait_state_seq] AHB_BURST_INCR4 AHB_SIZE_16B beat 1 @0x0000d274 ok
# UVM_INFO ../src/mst_seq/ahb_base_seq.sv(157) @ 3995000: uvm_test_top.env.master_agent.sqr@@seq [ahb_wait_state_seq] AHB_BURST_INCR4 AHB_SIZE_16B beat 2 @0x0000d276 ok
# UVM_INFO ../src/mst_seq/ahb_base_seq.sv(157) @ 3995000: uvm_test_top.env.master_agent.sqr@@seq [ahb_wait_state_seq] AHB_BURST_INCR4 AHB_SIZE_16B beat 3 @0x0000d278 ok
# UVM_INFO ../src/mst_seq/ahb_wait_state_seq.sv(166) @ 3995000: uvm_test_top.env.master_agent.sqr@@seq [ahb_wait_state_seq] AHB_BURST_INCR4 AHB_SIZE_32B @0x0000d29c, 4 beats, waits=2:2, pipelined=0
# UVM_INFO ../src/mst/ahb_master_driver.sv(85) @ 3995000: uvm_test_top.env.master_agent.drv [ahb_master_driver] Queueing [AHB_WRITE]: HADDR=0x0000d29c, HBURST=AHB_BURST_INCR4, HSIZE=AHB_SIZE_32B, 4 beats
# UVM_INFO ../src/mst/ahb_master_driver.sv(127) @ 3995000: uvm_test_top.env.master_agent.drv [ahb_master_driver] Driving [AHB_WRITE]: HADDR=0x0000d29c, HBURST=AHB_BURST_INCR4, HSIZE=AHB_SIZE_32B, 4 beats               
# UVM_INFO ../src/mst/ahb_master_driver.sv(332) @ 4045000: uvm_test_top.env.master_agent.drv [ahb_master_driver] Beat[0/4] addr=0x0000d29c trans=AHB_TRANS_NONSEQ resp=AHB_RESP_OKAY wdata=0x580f7161
# UVM_INFO ../src/slv/ahb_slave_driver.sv(184) @ 4045000: uvm_test_top.env.slave_agent.drv [ahb_slave_driver] Beat AHB_WRITE addr=0x0000d29c resp=AHB_RESP_OKAY waits=2 wdata=0x580f7161
# UVM_INFO ../src/mst/ahb_master_monitor.sv(128) @ 4045000: uvm_test_top.env.master_agent.mon [ahb_master_monitor] Beat[0] addr=0x0000d29c wdata=0x580f7161 resp=AHB_RESP_OKAY
# UVM_INFO ../src/mst/ahb_master_driver.sv(332) @ 4075000: uvm_test_top.env.master_agent.drv [ahb_master_driver] Beat[1/4] addr=0x0000d2a0 trans=AHB_TRANS_SEQ resp=AHB_RESP_OKAY wdata=0x91837d71
# UVM_INFO ../src/slv/ahb_slave_driver.sv(184) @ 4075000: uvm_test_top.env.slave_agent.drv [ahb_slave_driver] Beat AHB_WRITE addr=0x0000d2a0 resp=AHB_RESP_OKAY waits=2 wdata=0x91837d71
# UVM_INFO ../src/mst/ahb_master_monitor.sv(128) @ 4075000: uvm_test_top.env.master_agent.mon [ahb_master_monitor] Beat[1] addr=0x0000d2a0 wdata=0x91837d71 resp=AHB_RESP_OKAY
# UVM_INFO ../src/mst/ahb_master_driver.sv(332) @ 4105000: uvm_test_top.env.master_agent.drv [ahb_master_driver] Beat[2/4] addr=0x0000d2a4 trans=AHB_TRANS_SEQ resp=AHB_RESP_OKAY wdata=0xfe94c35c
# UVM_INFO ../src/slv/ahb_slave_driver.sv(184) @ 4105000: uvm_test_top.env.slave_agent.drv [ahb_slave_driver] Beat AHB_WRITE addr=0x0000d2a4 resp=AHB_RESP_OKAY waits=2 wdata=0xfe94c35c
# UVM_INFO ../src/mst/ahb_master_monitor.sv(128) @ 4105000: uvm_test_top.env.master_agent.mon [ahb_master_monitor] Beat[2] addr=0x0000d2a4 wdata=0xfe94c35c resp=AHB_RESP_OKAY
# UVM_INFO ../src/mst/ahb_master_driver.sv(332) @ 4135000: uvm_test_top.env.master_agent.drv [ahb_master_driver] Beat[3/4] addr=0x0000d2a8 trans=AHB_TRANS_SEQ resp=AHB_RESP_OKAY wdata=0xc9b6d384
# UVM_INFO ../src/mst/ahb_master_driver.sv(376) @ 4135000: uvm_test_top.env.master_agent.drv [ahb_master_driver] Transaction complete: AHB_WRITE 0x0000d29c, 4 beats, burst=AHB_BURST_INCR4
# UVM_INFO ../src/slv/ahb_slave_driver.sv(184) @ 4135000: uvm_test_top.env.slave_agent.drv [ahb_slave_driver] Beat AHB_WRITE addr=0x0000d2a8 resp=AHB_RESP_OKAY waits=2 wdata=0xc9b6d384
# UVM_INFO ../src/slv/ahb_slave_monitor.sv(212) @ 4135000: uvm_test_top.env.slave_agent.mon [ahb_slave_monitor] Observed [AHB_WRITE]: HADDR=0x0000d29c, HBURST=AHB_BURST_INCR4, HSIZE=AHB_SIZE_32B, 4 beats
# UVM_INFO ../src/env/ahb_coverage.sv(174) @ 4135000: uvm_test_top.env.slave_cov [ahb_coverage] Sampled [AHB_WRITE]: burst=AHB_BURST_INCR4 size=AHB_SIZE_32B beats=4 error=0
# UVM_INFO ../src/mst/ahb_master_monitor.sv(128) @ 4135000: uvm_test_top.env.master_agent.mon [ahb_master_monitor] Beat[3] addr=0x0000d2a8 wdata=0xc9b6d384 resp=AHB_RESP_OKAY
# UVM_INFO ../src/mst/ahb_master_monitor.sv(231) @ 4135000: uvm_test_top.env.master_agent.mon [ahb_master_monitor] Observed [AHB_WRITE]: HADDR=0x0000d29c, HBURST=AHB_BURST_INCR4, HSIZE=AHB_SIZE_32B, 4 beats
# UVM_INFO ../src/env/ahb_coverage.sv(174) @ 4135000: uvm_test_top.env.master_cov [ahb_coverage] Sampled [AHB_WRITE]: burst=AHB_BURST_INCR4 size=AHB_SIZE_32B beats=4 error=0
# UVM_INFO ../src/env/ahb_scoreboard.sv(104) @ 4135000: uvm_test_top.env.scb [ahb_scoreboard] MATCH #21: [AHB_WRITE] HADDR=0x0000d29c AHB_BURST_INCR4 4 beats
# UVM_INFO ../src/mst/ahb_master_driver.sv(85) @ 4135000: uvm_test_top.env.master_agent.drv [ahb_master_driver] Queueing [AHB_READ]: HADDR=0x0000d29c, HBURST=AHB_BURST_INCR4, HSIZE=AHB_SIZE_32B, 4 beats
# UVM_INFO ../src/mst/ahb_master_driver.sv(127) @ 4135000: uvm_test_top.env.master_agent.drv [ahb_master_driver] Driving [AHB_READ]: HADDR=0x0000d29c, HBURST=AHB_BURST_INCR4, HSIZE=AHB_SIZE_32B, 4 beats               
# UVM_INFO ../src/mst/ahb_master_driver.sv(332) @ 4185000: uvm_test_top.env.master_agent.drv [ahb_master_driver] Beat[0/4] addr=0x0000d29c trans=AHB_TRANS_NONSEQ resp=AHB_RESP_OKAY rdata=0x580f7161
# UVM_INFO ../src/slv/ahb_slave_driver.sv(184) @ 4185000: uvm_test_top.env.slave_agent.drv [ahb_slave_driver] Beat AHB_READ addr=0x0000d29c resp=AHB_RESP_OKAY waits=2 rdata=0x580f7161
# UVM_INFO ../src/mst/ahb_master_monitor.sv(128) @ 4185000: uvm_test_top.env.master_agent.mon [ahb_master_monitor] Beat[0] addr=0x0000d29c rdata=0x580f7161 resp=AHB_RESP_OKAY
# UVM_INFO ../src/mst/ahb_master_driver.sv(332) @ 4215000: uvm_test_top.env.master_agent.drv [ahb_master_driver] Beat[1/4] addr=0x0000d2a0 trans=AHB_TRANS_SEQ resp=AHB_RESP_OKAY rdata=0x91837d71
# UVM_INFO ../src/slv/ahb_slave_driver.sv(184) @ 4215000: uvm_test_top.env.slave_agent.drv [ahb_slave_driver] Beat AHB_READ addr=0x0000d2a0 resp=AHB_RESP_OKAY waits=2 rdata=0x91837d71
# UVM_INFO ../src/mst/ahb_master_monitor.sv(128) @ 4215000: uvm_test_top.env.master_agent.mon [ahb_master_monitor] Beat[1] addr=0x0000d2a0 rdata=0x91837d71 resp=AHB_RESP_OKAY
# UVM_INFO ../src/mst/ahb_master_driver.sv(332) @ 4245000: uvm_test_top.env.master_agent.drv [ahb_master_driver] Beat[2/4] addr=0x0000d2a4 trans=AHB_TRANS_SEQ resp=AHB_RESP_OKAY rdata=0xfe94c35c
# UVM_INFO ../src/slv/ahb_slave_driver.sv(184) @ 4245000: uvm_test_top.env.slave_agent.drv [ahb_slave_driver] Beat AHB_READ addr=0x0000d2a4 resp=AHB_RESP_OKAY waits=2 rdata=0xfe94c35c
# UVM_INFO ../src/mst/ahb_master_monitor.sv(128) @ 4245000: uvm_test_top.env.master_agent.mon [ahb_master_monitor] Beat[2] addr=0x0000d2a4 rdata=0xfe94c35c resp=AHB_RESP_OKAY
# UVM_INFO ../src/mst/ahb_master_driver.sv(332) @ 4275000: uvm_test_top.env.master_agent.drv [ahb_master_driver] Beat[3/4] addr=0x0000d2a8 trans=AHB_TRANS_SEQ resp=AHB_RESP_OKAY rdata=0xc9b6d384
# UVM_INFO ../src/mst/ahb_master_driver.sv(376) @ 4275000: uvm_test_top.env.master_agent.drv [ahb_master_driver] Transaction complete: AHB_READ 0x0000d29c, 4 beats, burst=AHB_BURST_INCR4
# UVM_INFO ../src/slv/ahb_slave_driver.sv(184) @ 4275000: uvm_test_top.env.slave_agent.drv [ahb_slave_driver] Beat AHB_READ addr=0x0000d2a8 resp=AHB_RESP_OKAY waits=2 rdata=0xc9b6d384
# UVM_INFO ../src/slv/ahb_slave_monitor.sv(212) @ 4275000: uvm_test_top.env.slave_agent.mon [ahb_slave_monitor] Observed [AHB_READ]: HADDR=0x0000d29c, HBURST=AHB_BURST_INCR4, HSIZE=AHB_SIZE_32B, 4 beats
# UVM_INFO ../src/env/ahb_coverage.sv(174) @ 4275000: uvm_test_top.env.slave_cov [ahb_coverage] Sampled [AHB_READ]: burst=AHB_BURST_INCR4 size=AHB_SIZE_32B beats=4 error=0
# UVM_INFO ../src/mst/ahb_master_monitor.sv(128) @ 4275000: uvm_test_top.env.master_agent.mon [ahb_master_monitor] Beat[3] addr=0x0000d2a8 rdata=0xc9b6d384 resp=AHB_RESP_OKAY
# UVM_INFO ../src/mst/ahb_master_monitor.sv(231) @ 4275000: uvm_test_top.env.master_agent.mon [ahb_master_monitor] Observed [AHB_READ]: HADDR=0x0000d29c, HBURST=AHB_BURST_INCR4, HSIZE=AHB_SIZE_32B, 4 beats
# UVM_INFO ../src/env/ahb_coverage.sv(174) @ 4275000: uvm_test_top.env.master_cov [ahb_coverage] Sampled [AHB_READ]: burst=AHB_BURST_INCR4 size=AHB_SIZE_32B beats=4 error=0
# UVM_INFO ../src/env/ahb_scoreboard.sv(104) @ 4275000: uvm_test_top.env.scb [ahb_scoreboard] MATCH #22: [AHB_READ] HADDR=0x0000d29c AHB_BURST_INCR4 4 beats
# UVM_INFO ../src/mst_seq/ahb_base_seq.sv(157) @ 4275000: uvm_test_top.env.master_agent.sqr@@seq [ahb_wait_state_seq] AHB_BURST_INCR4 AHB_SIZE_32B beat 0 @0x0000d29c ok
# UVM_INFO ../src/mst_seq/ahb_base_seq.sv(157) @ 4275000: uvm_test_top.env.master_agent.sqr@@seq [ahb_wait_state_seq] AHB_BURST_INCR4 AHB_SIZE_32B beat 1 @0x0000d2a0 ok
# UVM_INFO ../src/mst_seq/ahb_base_seq.sv(157) @ 4275000: uvm_test_top.env.master_agent.sqr@@seq [ahb_wait_state_seq] AHB_BURST_INCR4 AHB_SIZE_32B beat 2 @0x0000d2a4 ok
# UVM_INFO ../src/mst_seq/ahb_base_seq.sv(157) @ 4275000: uvm_test_top.env.master_agent.sqr@@seq [ahb_wait_state_seq] AHB_BURST_INCR4 AHB_SIZE_32B beat 3 @0x0000d2a8 ok
# UVM_INFO ../src/mst_seq/ahb_wait_state_seq.sv(166) @ 4275000: uvm_test_top.env.master_agent.sqr@@seq [ahb_wait_state_seq] AHB_BURST_SINGLE AHB_SIZE_16B @0x0000d2ec, 1 beats, waits=3:3, pipelined=1
# UVM_INFO ../src/mst/ahb_master_driver.sv(85) @ 4275000: uvm_test_top.env.master_agent.drv [ahb_master_driver] Queueing [AHB_WRITE]: HADDR=0x0000d2ec, HBURST=AHB_BURST_SINGLE, HSIZE=AHB_SIZE_16B, 1 beats
# UVM_INFO ../src/mst/ahb_master_driver.sv(127) @ 4275000: uvm_test_top.env.master_agent.drv [ahb_master_driver] Driving [AHB_WRITE]: HADDR=0x0000d2ec, HBURST=AHB_BURST_SINGLE, HSIZE=AHB_SIZE_16B, 1 beats               
# UVM_INFO ../src/mst/ahb_master_driver.sv(85) @ 4275000: uvm_test_top.env.master_agent.drv [ahb_master_driver] Queueing [AHB_READ]: HADDR=0x0000d2ec, HBURST=AHB_BURST_SINGLE, HSIZE=AHB_SIZE_16B, 1 beats
# UVM_INFO ../src/mst/ahb_master_driver.sv(332) @ 4335000: uvm_test_top.env.master_agent.drv [ahb_master_driver] Beat[0/1] addr=0x0000d2ec trans=AHB_TRANS_NONSEQ resp=AHB_RESP_OKAY wdata=0xb57aa596
# UVM_INFO ../src/mst/ahb_master_driver.sv(376) @ 4335000: uvm_test_top.env.master_agent.drv [ahb_master_driver] Transaction complete: AHB_WRITE 0x0000d2ec, 1 beats, burst=AHB_BURST_SINGLE
# UVM_INFO ../src/mst/ahb_master_driver.sv(127) @ 4335000: uvm_test_top.env.master_agent.drv [ahb_master_driver] Driving [AHB_READ]: HADDR=0x0000d2ec, HBURST=AHB_BURST_SINGLE, HSIZE=AHB_SIZE_16B, 1 beats (back-to-back)
# UVM_INFO ../src/slv/ahb_slave_driver.sv(184) @ 4335000: uvm_test_top.env.slave_agent.drv [ahb_slave_driver] Beat AHB_WRITE addr=0x0000d2ec resp=AHB_RESP_OKAY waits=3 wdata=0xb57aa596
# UVM_INFO ../src/slv/ahb_slave_monitor.sv(212) @ 4335000: uvm_test_top.env.slave_agent.mon [ahb_slave_monitor] Observed [AHB_WRITE]: HADDR=0x0000d2ec, HBURST=AHB_BURST_SINGLE, HSIZE=AHB_SIZE_16B, 1 beats
# UVM_INFO ../src/env/ahb_coverage.sv(174) @ 4335000: uvm_test_top.env.slave_cov [ahb_coverage] Sampled [AHB_WRITE]: burst=AHB_BURST_SINGLE size=AHB_SIZE_16B beats=1 error=0
# UVM_INFO ../src/mst/ahb_master_monitor.sv(128) @ 4335000: uvm_test_top.env.master_agent.mon [ahb_master_monitor] Beat[0] addr=0x0000d2ec wdata=0xb57aa596 resp=AHB_RESP_OKAY
# UVM_INFO ../src/mst/ahb_master_monitor.sv(231) @ 4335000: uvm_test_top.env.master_agent.mon [ahb_master_monitor] Observed [AHB_WRITE]: HADDR=0x0000d2ec, HBURST=AHB_BURST_SINGLE, HSIZE=AHB_SIZE_16B, 1 beats
# UVM_INFO ../src/env/ahb_coverage.sv(174) @ 4335000: uvm_test_top.env.master_cov [ahb_coverage] Sampled [AHB_WRITE]: burst=AHB_BURST_SINGLE size=AHB_SIZE_16B beats=1 error=0
# UVM_INFO ../src/env/ahb_scoreboard.sv(104) @ 4335000: uvm_test_top.env.scb [ahb_scoreboard] MATCH #23: [AHB_WRITE] HADDR=0x0000d2ec AHB_BURST_SINGLE 1 beats
# UVM_INFO ../src/mst/ahb_master_driver.sv(332) @ 4375000: uvm_test_top.env.master_agent.drv [ahb_master_driver] Beat[0/1] addr=0x0000d2ec trans=AHB_TRANS_NONSEQ resp=AHB_RESP_OKAY rdata=0xb57aa596
# UVM_INFO ../src/mst/ahb_master_driver.sv(376) @ 4375000: uvm_test_top.env.master_agent.drv [ahb_master_driver] Transaction complete: AHB_READ 0x0000d2ec, 1 beats, burst=AHB_BURST_SINGLE
# UVM_INFO ../src/slv/ahb_slave_driver.sv(184) @ 4375000: uvm_test_top.env.slave_agent.drv [ahb_slave_driver] Beat AHB_READ addr=0x0000d2ec resp=AHB_RESP_OKAY waits=3 rdata=0xb57aa596
# UVM_INFO ../src/slv/ahb_slave_monitor.sv(212) @ 4375000: uvm_test_top.env.slave_agent.mon [ahb_slave_monitor] Observed [AHB_READ]: HADDR=0x0000d2ec, HBURST=AHB_BURST_SINGLE, HSIZE=AHB_SIZE_16B, 1 beats
# UVM_INFO ../src/env/ahb_coverage.sv(174) @ 4375000: uvm_test_top.env.slave_cov [ahb_coverage] Sampled [AHB_READ]: burst=AHB_BURST_SINGLE size=AHB_SIZE_16B beats=1 error=0
# UVM_INFO ../src/mst/ahb_master_monitor.sv(128) @ 4375000: uvm_test_top.env.master_agent.mon [ahb_master_monitor] Beat[0] addr=0x0000d2ec rdata=0xb57aa596 resp=AHB_RESP_OKAY
# UVM_INFO ../src/mst/ahb_master_monitor.sv(231) @ 4375000: uvm_test_top.env.master_agent.mon [ahb_master_monitor] Observed [AHB_READ]: HADDR=0x0000d2ec, HBURST=AHB_BURST_SINGLE, HSIZE=AHB_SIZE_16B, 1 beats
# UVM_INFO ../src/env/ahb_coverage.sv(174) @ 4375000: uvm_test_top.env.master_cov [ahb_coverage] Sampled [AHB_READ]: burst=AHB_BURST_SINGLE size=AHB_SIZE_16B beats=1 error=0
# UVM_INFO ../src/env/ahb_scoreboard.sv(104) @ 4375000: uvm_test_top.env.scb [ahb_scoreboard] MATCH #24: [AHB_READ] HADDR=0x0000d2ec AHB_BURST_SINGLE 1 beats
# UVM_INFO ../src/mst_seq/ahb_base_seq.sv(157) @ 4375000: uvm_test_top.env.master_agent.sqr@@seq [ahb_wait_state_seq] AHB_BURST_SINGLE AHB_SIZE_16B beat 0 @0x0000d2ec ok
# UVM_INFO ../src/mst_seq/ahb_wait_state_seq.sv(166) @ 4375000: uvm_test_top.env.master_agent.sqr@@seq [ahb_wait_state_seq] AHB_BURST_SINGLE AHB_SIZE_16B @0x0000d300, 1 beats, waits=1:7, pipelined=0
# UVM_INFO ../src/mst/ahb_master_driver.sv(85) @ 4375000: uvm_test_top.env.master_agent.drv [ahb_master_driver] Queueing [AHB_WRITE]: HADDR=0x0000d300, HBURST=AHB_BURST_SINGLE, HSIZE=AHB_SIZE_16B, 1 beats
# UVM_INFO ../src/mst/ahb_master_driver.sv(127) @ 4375000: uvm_test_top.env.master_agent.drv [ahb_master_driver] Driving [AHB_WRITE]: HADDR=0x0000d300, HBURST=AHB_BURST_SINGLE, HSIZE=AHB_SIZE_16B, 1 beats               
# UVM_INFO ../src/mst/ahb_master_driver.sv(332) @ 4415000: uvm_test_top.env.master_agent.drv [ahb_master_driver] Beat[0/1] addr=0x0000d300 trans=AHB_TRANS_NONSEQ resp=AHB_RESP_OKAY wdata=0xd93e47f9
# UVM_INFO ../src/mst/ahb_master_driver.sv(376) @ 4415000: uvm_test_top.env.master_agent.drv [ahb_master_driver] Transaction complete: AHB_WRITE 0x0000d300, 1 beats, burst=AHB_BURST_SINGLE
# UVM_INFO ../src/slv/ahb_slave_driver.sv(184) @ 4415000: uvm_test_top.env.slave_agent.drv [ahb_slave_driver] Beat AHB_WRITE addr=0x0000d300 resp=AHB_RESP_OKAY waits=1 wdata=0xd93e47f9
# UVM_INFO ../src/slv/ahb_slave_monitor.sv(212) @ 4415000: uvm_test_top.env.slave_agent.mon [ahb_slave_monitor] Observed [AHB_WRITE]: HADDR=0x0000d300, HBURST=AHB_BURST_SINGLE, HSIZE=AHB_SIZE_16B, 1 beats
# UVM_INFO ../src/env/ahb_coverage.sv(174) @ 4415000: uvm_test_top.env.slave_cov [ahb_coverage] Sampled [AHB_WRITE]: burst=AHB_BURST_SINGLE size=AHB_SIZE_16B beats=1 error=0
# UVM_INFO ../src/mst/ahb_master_monitor.sv(128) @ 4415000: uvm_test_top.env.master_agent.mon [ahb_master_monitor] Beat[0] addr=0x0000d300 wdata=0xd93e47f9 resp=AHB_RESP_OKAY
# UVM_INFO ../src/mst/ahb_master_monitor.sv(231) @ 4415000: uvm_test_top.env.master_agent.mon [ahb_master_monitor] Observed [AHB_WRITE]: HADDR=0x0000d300, HBURST=AHB_BURST_SINGLE, HSIZE=AHB_SIZE_16B, 1 beats
# UVM_INFO ../src/env/ahb_coverage.sv(174) @ 4415000: uvm_test_top.env.master_cov [ahb_coverage] Sampled [AHB_WRITE]: burst=AHB_BURST_SINGLE size=AHB_SIZE_16B beats=1 error=0
# UVM_INFO ../src/env/ahb_scoreboard.sv(104) @ 4415000: uvm_test_top.env.scb [ahb_scoreboard] MATCH #25: [AHB_WRITE] HADDR=0x0000d300 AHB_BURST_SINGLE 1 beats
