# vsim -c -coverage -sv_seed 19283777 "+UVM_TESTNAME=ahb_error_response_test" "+UVM_VERBOSITY=UVM_HIGH" "+DUMP_VCD" -l ./report/logs/ahb_error_response_test_run_4_seed_19283777.log -do "coverage save -onexit ./report/coverage/ahb_error_response_test_run_4_seed_19283777.ucdb; run -all; quit -f" opt_tb_top 
# Start time: 10:23:51 on Aug 05,2026
# //  Questa Sim-64
# //  Version 10.6b linux_x86_64 May 25 2017
# //
# //  Copyright 1991-2017 Mentor Graphics Corporation
# //  All Rights Reserved.
# //
# //  QuestaSim and its associated documentation contain trade
# //  secrets and commercial or financial information that are the property of
# //  Mentor Graphics Corporation and are privileged, confidential,
# //  and exempt from disclosure under the Freedom of Information Act,
# //  5 U.S.C. Section 552. Furthermore, this information
# //  is prohibited from disclosure under the Trade Secrets Act,
# //  18 U.S.C. Section 1905.
# //
# Loading sv_std.std
# Loading work.ahb_if(fast)
# Loading mtiUvm.uvm_pkg
# Loading work.ahb_pkg(fast)
# Loading work.ahb_seq_pkg(fast)
# Loading work.ahb_test_pkg(fast)
# Loading work.tb_top(fast)
# Loading work.ahb_if(fast)
# Loading work.ahb_sva(fast)
# Loading mtiUvm.questa_uvm_pkg(fast)
# Loading /cadtools/mentor/Questa_10.6b/questasim/uvm-1.1d/linux_x86_64/uvm_dpi.so
# coverage save -onexit ./report/coverage/ahb_error_response_test_run_4_seed_19283777.ucdb
#  run -all
# ----------------------------------------------------------------
# UVM-1.1d
# (C) 2007-2013 Mentor Graphics Corporation
# (C) 2007-2013 Cadence Design Systems, Inc.
# (C) 2006-2013 Synopsys, Inc.
# (C) 2011-2013 Cypress Semiconductor Corp.
# ----------------------------------------------------------------
# 
#   ***********       IMPORTANT RELEASE NOTES         ************
# 
#   You are using a version of the UVM library that has been compiled
#   with `UVM_NO_DEPRECATED undefined.
#   See http://www.eda.org/svdb/view.php?id=3313 for more details.
# 
#   You are using a version of the UVM library that has been compiled
#   with `UVM_OBJECT_MUST_HAVE_CONSTRUCTOR undefined.
#   See http://www.eda.org/svdb/view.php?id=3770 for more details.
# 
#       (Specify +UVM_NO_RELNOTES to turn off this notice)
# 
# UVM_INFO verilog_src/questa_uvm_pkg-1.2/src/questa_uvm_pkg.sv(215) @ 0: reporter [Questa UVM] QUESTA_UVM-1.2.3
# UVM_INFO verilog_src/questa_uvm_pkg-1.2/src/questa_uvm_pkg.sv(217) @ 0: reporter [Questa UVM]  questa_uvm::init(+struct)
# UVM_INFO ../src/tb_top.sv(126) @ 0: reporter [TB_TOP] Virtual interface set in config_db
# UVM_INFO @ 0: reporter [RNTST] Running test ahb_error_response_test...
# UVM_INFO ../src/tb_top.sv(140) @ 0: reporter [TB_TOP] Waveform VCD dumping enabled (ahb_lite_vip.vcd)
# UVM_INFO ../src/env/ahb_vip_env.sv(64) @ 0: uvm_test_top.env [ahb_vip_env] slave_vif not set - reusing master_vif (passthrough mode)
# UVM_INFO ../src/env/ahb_vip_env.sv(72) @ 0: uvm_test_top.env [ahb_vip_env] Scoreboard created
# UVM_INFO ../src/env/ahb_vip_env.sv(78) @ 0: uvm_test_top.env [ahb_vip_env] Coverage collectors created
# UVM_INFO ../src/mst/ahb_master_agent.sv(61) @ 0: uvm_test_top.env.master_agent [ahb_master_agent] ACTIVE mode - driver + sequencer created
# UVM_INFO ../src/slv/ahb_slave_agent.sv(64) @ 0: uvm_test_top.env.slave_agent [ahb_slave_agent] ACTIVE mode - driver + sequencer created (sequence responses)
# UVM_INFO ../src/env/ahb_vip_env.sv(92) @ 0: uvm_test_top.env [ahb_vip_env] Scoreboard connected: master_mon.ap -> scb, slave_mon.ap -> scb
# UVM_INFO ../src/env/ahb_vip_env.sv(99) @ 0: uvm_test_top.env [ahb_vip_env] Coverage connected: master_mon.ap -> master_cov, slave_mon.ap -> slave_cov
# UVM_INFO @ 0: reporter [UVMTOP] UVM testbench topology:
# ---------------------------------------------------------------
# Name                       Type                     Size  Value
# ---------------------------------------------------------------
# uvm_test_top               ahb_error_response_test  -     @475 
#   env                      ahb_vip_env              -     @490 
#     master_agent           ahb_master_agent         -     @505 
#       drv                  ahb_master_driver        -     @570 
#         rsp_port           uvm_analysis_port        -     @585 
#         seq_item_port      uvm_seq_item_pull_port   -     @577 
#       mon                  ahb_master_monitor       -     @563 
#         ap                 uvm_analysis_port        -     @704 
#       sqr                  ahb_master_sequencer     -     @593 
#         rsp_export         uvm_analysis_export      -     @600 
#         seq_item_export    uvm_seq_item_pull_imp    -     @694 
#         arbitration_queue  array                    0     -    
#         lock_queue         array                    0     -    
#         num_last_reqs      integral                 32    'd1  
#         num_last_rsps      integral                 32    'd1  
#     master_cov             ahb_coverage             -     @526 
#       analysis_imp         uvm_analysis_imp         -     @533 
#     scb                    ahb_scoreboard           -     @519 
#       master_export        uvm_analysis_imp_master  -     @718 
#       slave_export         uvm_analysis_imp_slave   -     @726 
#     slave_agent            ahb_slave_agent          -     @512 
#       drv                  ahb_slave_driver         -     @748 
#         rsp_port           uvm_analysis_port        -     @763 
#         seq_item_port      uvm_seq_item_pull_port   -     @755 
#       mon                  ahb_slave_monitor        -     @741 
#         ap                 uvm_analysis_port        -     @882 
#       sqr                  ahb_slave_sequencer      -     @771 
#         rsp_export         uvm_analysis_export      -     @778 
#         seq_item_export    uvm_seq_item_pull_imp    -     @872 
#         arbitration_queue  array                    0     -    
#         lock_queue         array                    0     -    
#         num_last_reqs      integral                 32    'd1  
#         num_last_rsps      integral                 32    'd1  
#     slave_cov              ahb_coverage             -     @541 
#       analysis_imp         uvm_analysis_imp         -     @548 
# ---------------------------------------------------------------
# 
# UVM_INFO verilog_src/questa_uvm_pkg-1.2/src/questa_uvm_pkg.sv(277) @ 0: reporter [Questa UVM] End Of Elaboration
# UVM_INFO ../src/mst_seq/ahb_error_seq.sv(69) @ 0: uvm_test_top.env.master_agent.sqr@@mst_seq [ahb_error_seq] Starting ERROR response traffic: 16 bursts
# UVM_INFO ../src/slv_seq/ahb_slave_error_seq.sv(62) @ 0: uvm_test_top.env.slave_agent.sqr@@slv_seq [ahb_slave_error_seq] Slave error injection active: 25% ERROR, up to 2 wait states, unmapped [0x00009000 : 0x00009fff]
# UVM_INFO ../src/mst/ahb_master_driver.sv(183) @ 5000: uvm_test_top.env.master_agent.drv [ahb_master_driver] Flushed pending transactions (reset)
# UVM_INFO ../src/tb_top.sv(48) @ 95000: reporter [TB_TOP] Reset de-asserted
# UVM_INFO ../src/slv/ahb_slave_driver.sv(63) @ 95000: uvm_test_top.env.slave_agent.drv [ahb_slave_driver] Reset deasserted - slave driver active (sequence mode)
# UVM_INFO ../src/mst/ahb_master_driver.sv(72) @ 95000: uvm_test_top.env.master_agent.drv [ahb_master_driver] Reset deasserted - master driver active
# UVM_INFO ../src/mst/ahb_master_monitor.sv(75) @ 95000: uvm_test_top.env.master_agent.mon [ahb_master_monitor] Reset deasserted - master monitor active
# UVM_INFO ../src/slv/ahb_slave_monitor.sv(69) @ 95000: uvm_test_top.env.slave_agent.mon [ahb_slave_monitor] Reset deasserted - slave monitor active
# UVM_INFO ../src/mst/ahb_master_driver.sv(85) @ 95000: uvm_test_top.env.master_agent.drv [ahb_master_driver] Queueing [AHB_WRITE]: HADDR=0x0000703b, HBURST=AHB_BURST_SINGLE, HSIZE=AHB_SIZE_8B, 1 beats
# UVM_INFO ../src/mst/ahb_master_driver.sv(127) @ 95000: uvm_test_top.env.master_agent.drv [ahb_master_driver] Driving [AHB_WRITE]: HADDR=0x0000703b, HBURST=AHB_BURST_SINGLE, HSIZE=AHB_SIZE_8B, 1 beats               
# UVM_INFO ../src/slv_seq/ahb_slave_error_seq.sv(88) @ 105000: uvm_test_top.env.slave_agent.sqr@@slv_seq [ahb_slave_error_seq] Response 1: AHB_WRITE @0x0000703b -> AHB_RESP_ERROR, 2 wait states           
# UVM_INFO ../src/mst/ahb_master_driver.sv(332) @ 145000: uvm_test_top.env.master_agent.drv [ahb_master_driver] Beat[0/1] addr=0x0000703b trans=AHB_TRANS_NONSEQ resp=AHB_RESP_ERROR wdata=0xa8ea2324
# UVM_INFO ../src/mst/ahb_master_driver.sv(342) @ 145000: uvm_test_top.env.master_agent.drv [ahb_master_driver] ERROR response on beat 0/1                             
# UVM_INFO ../src/mst/ahb_master_driver.sv(376) @ 145000: uvm_test_top.env.master_agent.drv [ahb_master_driver] Transaction complete: AHB_WRITE 0x0000703b, 1 beats, burst=AHB_BURST_SINGLE
# UVM_INFO ../src/slv/ahb_slave_driver.sv(184) @ 145000: uvm_test_top.env.slave_agent.drv [ahb_slave_driver] Beat AHB_WRITE addr=0x0000703b resp=AHB_RESP_ERROR waits=2 wdata=0xa8ea2324
# UVM_INFO ../src/mst/ahb_master_monitor.sv(117) @ 145000: uvm_test_top.env.master_agent.mon [ahb_master_monitor] Beat[0] addr=0x0000703b wdata=0xa8ea2324 resp=AHB_RESP_ERROR
# UVM_INFO ../src/mst/ahb_master_monitor.sv(220) @ 145000: uvm_test_top.env.master_agent.mon [ahb_master_monitor] Observed [AHB_WRITE]: HADDR=0x0000703b, HBURST=AHB_BURST_SINGLE, HSIZE=AHB_SIZE_8B, 1 beats
# UVM_INFO ../src/env/ahb_coverage.sv(126) @ 145000: uvm_test_top.env.master_cov [ahb_coverage] Sampled [AHB_WRITE]: burst=AHB_BURST_SINGLE size=AHB_SIZE_8B beats=1 error=1
# UVM_INFO ../src/slv/ahb_slave_monitor.sv(197) @ 145000: uvm_test_top.env.slave_agent.mon [ahb_slave_monitor] Observed [AHB_WRITE]: HADDR=0x0000703b, HBURST=AHB_BURST_SINGLE, HSIZE=AHB_SIZE_8B, 1 beats
# UVM_INFO ../src/env/ahb_scoreboard.sv(104) @ 145000: uvm_test_top.env.scb [ahb_scoreboard] MATCH #1: [AHB_WRITE] HADDR=0x0000703b AHB_BURST_SINGLE 1 beats
# UVM_INFO ../src/env/ahb_coverage.sv(126) @ 145000: uvm_test_top.env.slave_cov [ahb_coverage] Sampled [AHB_WRITE]: burst=AHB_BURST_SINGLE size=AHB_SIZE_8B beats=1 error=1
# UVM_INFO ../src/mst_seq/ahb_error_seq.sv(131) @ 145000: uvm_test_top.env.master_agent.sqr@@mst_seq [ahb_error_seq] AHB_WRITE AHB_BURST_SINGLE @0x0000703b: ERROR on beat 0 of 1, policy=  cancel, drove 1
# UVM_INFO ../src/mst/ahb_master_driver.sv(85) @ 145000: uvm_test_top.env.master_agent.drv [ahb_master_driver] Queueing [AHB_READ]: HADDR=0x00008031, HBURST=AHB_BURST_SINGLE, HSIZE=AHB_SIZE_8B, 1 beats
# UVM_INFO ../src/mst/ahb_master_driver.sv(127) @ 145000: uvm_test_top.env.master_agent.drv [ahb_master_driver] Driving [AHB_READ]: HADDR=0x00008031, HBURST=AHB_BURST_SINGLE, HSIZE=AHB_SIZE_8B, 1 beats               
# UVM_INFO ../src/slv_seq/ahb_slave_error_seq.sv(88) @ 165000: uvm_test_top.env.slave_agent.sqr@@slv_seq [ahb_slave_error_seq] Response 2: AHB_READ @0x00008031 -> AHB_RESP_OKAY, 2 wait states           
# UVM_INFO ../src/mst/ahb_master_driver.sv(332) @ 195000: uvm_test_top.env.master_agent.drv [ahb_master_driver] Beat[0/1] addr=0x00008031 trans=AHB_TRANS_NONSEQ resp=AHB_RESP_OKAY rdata=0xb61f439d
# UVM_INFO ../src/mst/ahb_master_driver.sv(376) @ 195000: uvm_test_top.env.master_agent.drv [ahb_master_driver] Transaction complete: AHB_READ 0x00008031, 1 beats, burst=AHB_BURST_SINGLE
# UVM_INFO ../src/slv/ahb_slave_driver.sv(184) @ 195000: uvm_test_top.env.slave_agent.drv [ahb_slave_driver] Beat AHB_READ addr=0x00008031 resp=AHB_RESP_OKAY waits=2 rdata=0xb61f439d
# UVM_INFO ../src/slv/ahb_slave_monitor.sv(197) @ 195000: uvm_test_top.env.slave_agent.mon [ahb_slave_monitor] Observed [AHB_READ]: HADDR=0x00008031, HBURST=AHB_BURST_SINGLE, HSIZE=AHB_SIZE_8B, 1 beats
# UVM_INFO ../src/env/ahb_coverage.sv(126) @ 195000: uvm_test_top.env.slave_cov [ahb_coverage] Sampled [AHB_READ]: burst=AHB_BURST_SINGLE size=AHB_SIZE_8B beats=1 error=0
# UVM_INFO ../src/mst/ahb_master_monitor.sv(117) @ 195000: uvm_test_top.env.master_agent.mon [ahb_master_monitor] Beat[0] addr=0x00008031 rdata=0xb61f439d resp=AHB_RESP_OKAY
# UVM_INFO ../src/mst/ahb_master_monitor.sv(220) @ 195000: uvm_test_top.env.master_agent.mon [ahb_master_monitor] Observed [AHB_READ]: HADDR=0x00008031, HBURST=AHB_BURST_SINGLE, HSIZE=AHB_SIZE_8B, 1 beats
# UVM_INFO ../src/env/ahb_coverage.sv(126) @ 195000: uvm_test_top.env.master_cov [ahb_coverage] Sampled [AHB_READ]: burst=AHB_BURST_SINGLE size=AHB_SIZE_8B beats=1 error=0
# UVM_INFO ../src/env/ahb_scoreboard.sv(104) @ 195000: uvm_test_top.env.scb [ahb_scoreboard] MATCH #2: [AHB_READ] HADDR=0x00008031 AHB_BURST_SINGLE 1 beats
# UVM_INFO ../src/mst/ahb_master_driver.sv(85) @ 195000: uvm_test_top.env.master_agent.drv [ahb_master_driver] Queueing [AHB_WRITE]: HADDR=0x00009022, HBURST=AHB_BURST_INCR, HSIZE=AHB_SIZE_16B, 15 beats
# UVM_INFO ../src/mst/ahb_master_driver.sv(127) @ 195000: uvm_test_top.env.master_agent.drv [ahb_master_driver] Driving [AHB_WRITE]: HADDR=0x00009022, HBURST=AHB_BURST_INCR, HSIZE=AHB_SIZE_16B, 15 beats               
# UVM_INFO ../src/slv_seq/ahb_slave_error_seq.sv(88) @ 215000: uvm_test_top.env.slave_agent.sqr@@slv_seq [ahb_slave_error_seq] Response 3: AHB_WRITE @0x00009022 -> AHB_RESP_ERROR, 1 wait states (unmapped)
# UVM_INFO ../src/mst/ahb_master_driver.sv(332) @ 245000: uvm_test_top.env.master_agent.drv [ahb_master_driver] Beat[0/15] addr=0x00009022 trans=AHB_TRANS_NONSEQ resp=AHB_RESP_ERROR wdata=0x6ce5f2ad
# UVM_INFO ../src/mst/ahb_master_driver.sv(349) @ 245000: uvm_test_top.env.master_agent.drv [ahb_master_driver] ERROR response on beat 0/15 - continuing burst (abort_on_error=0)
# UVM_INFO ../src/slv/ahb_slave_driver.sv(184) @ 245000: uvm_test_top.env.slave_agent.drv [ahb_slave_driver] Beat AHB_WRITE addr=0x00009022 resp=AHB_RESP_ERROR waits=1 wdata=0x6ce5f2ad
# UVM_INFO ../src/mst/ahb_master_monitor.sv(117) @ 245000: uvm_test_top.env.master_agent.mon [ahb_master_monitor] Beat[0] addr=0x00009022 wdata=0x6ce5f2ad resp=AHB_RESP_ERROR
# UVM_INFO ../src/slv_seq/ahb_slave_error_seq.sv(88) @ 245000: uvm_test_top.env.slave_agent.sqr@@slv_seq [ahb_slave_error_seq] Response 4: AHB_WRITE @0x00009024 -> AHB_RESP_ERROR, 0 wait states (unmapped)
# UVM_INFO ../src/mst/ahb_master_driver.sv(332) @ 265000: uvm_test_top.env.master_agent.drv [ahb_master_driver] Beat[1/15] addr=0x00009024 trans=AHB_TRANS_SEQ resp=AHB_RESP_ERROR wdata=0x5f79b0e1
# UVM_INFO ../src/mst/ahb_master_driver.sv(349) @ 265000: uvm_test_top.env.master_agent.drv [ahb_master_driver] ERROR response on beat 1/15 - continuing burst (abort_on_error=0)
# UVM_INFO ../src/slv/ahb_slave_driver.sv(184) @ 265000: uvm_test_top.env.slave_agent.drv [ahb_slave_driver] Beat AHB_WRITE addr=0x00009024 resp=AHB_RESP_ERROR waits=0 wdata=0x5f79b0e1
# UVM_INFO ../src/mst/ahb_master_monitor.sv(117) @ 265000: uvm_test_top.env.master_agent.mon [ahb_master_monitor] Beat[1] addr=0x00009024 wdata=0x5f79b0e1 resp=AHB_RESP_ERROR
# UVM_INFO ../src/slv_seq/ahb_slave_error_seq.sv(88) @ 265000: uvm_test_top.env.slave_agent.sqr@@slv_seq [ahb_slave_error_seq] Response 5: AHB_WRITE @0x00009026 -> AHB_RESP_ERROR, 2 wait states (unmapped)
# UVM_INFO ../src/mst/ahb_master_driver.sv(332) @ 305000: uvm_test_top.env.master_agent.drv [ahb_master_driver] Beat[2/15] addr=0x00009026 trans=AHB_TRANS_SEQ resp=AHB_RESP_ERROR wdata=0x3ccdbe18
# UVM_INFO ../src/mst/ahb_master_driver.sv(349) @ 305000: uvm_test_top.env.master_agent.drv [ahb_master_driver] ERROR response on beat 2/15 - continuing burst (abort_on_error=0)
# UVM_INFO ../src/slv/ahb_slave_driver.sv(184) @ 305000: uvm_test_top.env.slave_agent.drv [ahb_slave_driver] Beat AHB_WRITE addr=0x00009026 resp=AHB_RESP_ERROR waits=2 wdata=0x3ccdbe18
# UVM_INFO ../src/mst/ahb_master_monitor.sv(117) @ 305000: uvm_test_top.env.master_agent.mon [ahb_master_monitor] Beat[2] addr=0x00009026 wdata=0x3ccdbe18 resp=AHB_RESP_ERROR
# UVM_INFO ../src/slv_seq/ahb_slave_error_seq.sv(88) @ 305000: uvm_test_top.env.slave_agent.sqr@@slv_seq [ahb_slave_error_seq] Response 6: AHB_WRITE @0x00009028 -> AHB_RESP_ERROR, 2 wait states (unmapped)
# UVM_INFO ../src/mst/ahb_master_driver.sv(332) @ 345000: uvm_test_top.env.master_agent.drv [ahb_master_driver] Beat[3/15] addr=0x00009028 trans=AHB_TRANS_SEQ resp=AHB_RESP_ERROR wdata=0x7d00a245
# UVM_INFO ../src/mst/ahb_master_driver.sv(349) @ 345000: uvm_test_top.env.master_agent.drv [ahb_master_driver] ERROR response on beat 3/15 - continuing burst (abort_on_error=0)
# UVM_INFO ../src/slv/ahb_slave_driver.sv(184) @ 345000: uvm_test_top.env.slave_agent.drv [ahb_slave_driver] Beat AHB_WRITE addr=0x00009028 resp=AHB_RESP_ERROR waits=2 wdata=0x7d00a245
# UVM_INFO ../src/mst/ahb_master_monitor.sv(117) @ 345000: uvm_test_top.env.master_agent.mon [ahb_master_monitor] Beat[3] addr=0x00009028 wdata=0x7d00a245 resp=AHB_RESP_ERROR
# UVM_INFO ../src/slv_seq/ahb_slave_error_seq.sv(88) @ 345000: uvm_test_top.env.slave_agent.sqr@@slv_seq [ahb_slave_error_seq] Response 7: AHB_WRITE @0x0000902a -> AHB_RESP_ERROR, 2 wait states (unmapped)
# UVM_INFO ../src/mst/ahb_master_driver.sv(332) @ 385000: uvm_test_top.env.master_agent.drv [ahb_master_driver] Beat[4/15] addr=0x0000902a trans=AHB_TRANS_SEQ resp=AHB_RESP_ERROR wdata=0x90f84a9c
# UVM_INFO ../src/mst/ahb_master_driver.sv(349) @ 385000: uvm_test_top.env.master_agent.drv [ahb_master_driver] ERROR response on beat 4/15 - continuing burst (abort_on_error=0)
# UVM_INFO ../src/slv/ahb_slave_driver.sv(184) @ 385000: uvm_test_top.env.slave_agent.drv [ahb_slave_driver] Beat AHB_WRITE addr=0x0000902a resp=AHB_RESP_ERROR waits=2 wdata=0x90f84a9c
# UVM_INFO ../src/mst/ahb_master_monitor.sv(117) @ 385000: uvm_test_top.env.master_agent.mon [ahb_master_monitor] Beat[4] addr=0x0000902a wdata=0x90f84a9c resp=AHB_RESP_ERROR
# UVM_INFO ../src/slv_seq/ahb_slave_error_seq.sv(88) @ 385000: uvm_test_top.env.slave_agent.sqr@@slv_seq [ahb_slave_error_seq] Response 8: AHB_WRITE @0x0000902c -> AHB_RESP_ERROR, 1 wait states (unmapped)
# UVM_INFO ../src/mst/ahb_master_driver.sv(332) @ 415000: uvm_test_top.env.master_agent.drv [ahb_master_driver] Beat[5/15] addr=0x0000902c trans=AHB_TRANS_SEQ resp=AHB_RESP_ERROR wdata=0xc1cbb505
# UVM_INFO ../src/mst/ahb_master_driver.sv(349) @ 415000: uvm_test_top.env.master_agent.drv [ahb_master_driver] ERROR response on beat 5/15 - continuing burst (abort_on_error=0)
# UVM_INFO ../src/slv/ahb_slave_driver.sv(184) @ 415000: uvm_test_top.env.slave_agent.drv [ahb_slave_driver] Beat AHB_WRITE addr=0x0000902c resp=AHB_RESP_ERROR waits=1 wdata=0xc1cbb505
# UVM_INFO ../src/mst/ahb_master_monitor.sv(117) @ 415000: uvm_test_top.env.master_agent.mon [ahb_master_monitor] Beat[5] addr=0x0000902c wdata=0xc1cbb505 resp=AHB_RESP_ERROR
# UVM_INFO ../src/slv_seq/ahb_slave_error_seq.sv(88) @ 415000: uvm_test_top.env.slave_agent.sqr@@slv_seq [ahb_slave_error_seq] Response 9: AHB_WRITE @0x0000902e -> AHB_RESP_ERROR, 2 wait states (unmapped)
# UVM_INFO ../src/mst/ahb_master_driver.sv(332) @ 455000: uvm_test_top.env.master_agent.drv [ahb_master_driver] Beat[6/15] addr=0x0000902e trans=AHB_TRANS_SEQ resp=AHB_RESP_ERROR wdata=0x77c8fc4a
# UVM_INFO ../src/mst/ahb_master_driver.sv(349) @ 455000: uvm_test_top.env.master_agent.drv [ahb_master_driver] ERROR response on beat 6/15 - continuing burst (abort_on_error=0)
# UVM_INFO ../src/slv/ahb_slave_driver.sv(184) @ 455000: uvm_test_top.env.slave_agent.drv [ahb_slave_driver] Beat AHB_WRITE addr=0x0000902e resp=AHB_RESP_ERROR waits=2 wdata=0x77c8fc4a
# UVM_INFO ../src/mst/ahb_master_monitor.sv(117) @ 455000: uvm_test_top.env.master_agent.mon [ahb_master_monitor] Beat[6] addr=0x0000902e wdata=0x77c8fc4a resp=AHB_RESP_ERROR
# UVM_INFO ../src/slv_seq/ahb_slave_error_seq.sv(88) @ 455000: uvm_test_top.env.slave_agent.sqr@@slv_seq [ahb_slave_error_seq] Response 10: AHB_WRITE @0x00009030 -> AHB_RESP_ERROR, 1 wait states (unmapped)
# UVM_INFO ../src/mst/ahb_master_driver.sv(332) @ 485000: uvm_test_top.env.master_agent.drv [ahb_master_driver] Beat[7/15] addr=0x00009030 trans=AHB_TRANS_SEQ resp=AHB_RESP_ERROR wdata=0xed56e240
# UVM_INFO ../src/mst/ahb_master_driver.sv(349) @ 485000: uvm_test_top.env.master_agent.drv [ahb_master_driver] ERROR response on beat 7/15 - continuing burst (abort_on_error=0)
# UVM_INFO ../src/slv/ahb_slave_driver.sv(184) @ 485000: uvm_test_top.env.slave_agent.drv [ahb_slave_driver] Beat AHB_WRITE addr=0x00009030 resp=AHB_RESP_ERROR waits=1 wdata=0xed56e240
# UVM_INFO ../src/mst/ahb_master_monitor.sv(117) @ 485000: uvm_test_top.env.master_agent.mon [ahb_master_monitor] Beat[7] addr=0x00009030 wdata=0xed56e240 resp=AHB_RESP_ERROR
# UVM_INFO ../src/slv_seq/ahb_slave_error_seq.sv(88) @ 485000: uvm_test_top.env.slave_agent.sqr@@slv_seq [ahb_slave_error_seq] Response 11: AHB_WRITE @0x00009032 -> AHB_RESP_ERROR, 0 wait states (unmapped)
# UVM_INFO ../src/mst/ahb_master_driver.sv(332) @ 505000: uvm_test_top.env.master_agent.drv [ahb_master_driver] Beat[8/15] addr=0x00009032 trans=AHB_TRANS_SEQ resp=AHB_RESP_ERROR wdata=0xa0b407dd
# UVM_INFO ../src/mst/ahb_master_driver.sv(349) @ 505000: uvm_test_top.env.master_agent.drv [ahb_master_driver] ERROR response on beat 8/15 - continuing burst (abort_on_error=0)
# UVM_INFO ../src/slv/ahb_slave_driver.sv(184) @ 505000: uvm_test_top.env.slave_agent.drv [ahb_slave_driver] Beat AHB_WRITE addr=0x00009032 resp=AHB_RESP_ERROR waits=0 wdata=0xa0b407dd
# UVM_INFO ../src/mst/ahb_master_monitor.sv(117) @ 505000: uvm_test_top.env.master_agent.mon [ahb_master_monitor] Beat[8] addr=0x00009032 wdata=0xa0b407dd resp=AHB_RESP_ERROR
# UVM_INFO ../src/slv_seq/ahb_slave_error_seq.sv(88) @ 505000: uvm_test_top.env.slave_agent.sqr@@slv_seq [ahb_slave_error_seq] Response 12: AHB_WRITE @0x00009034 -> AHB_RESP_ERROR, 1 wait states (unmapped)
# UVM_INFO ../src/mst/ahb_master_driver.sv(332) @ 535000: uvm_test_top.env.master_agent.drv [ahb_master_driver] Beat[9/15] addr=0x00009034 trans=AHB_TRANS_SEQ resp=AHB_RESP_ERROR wdata=0xcb4ce833
# UVM_INFO ../src/mst/ahb_master_driver.sv(349) @ 535000: uvm_test_top.env.master_agent.drv [ahb_master_driver] ERROR response on beat 9/15 - continuing burst (abort_on_error=0)
# UVM_INFO ../src/slv/ahb_slave_driver.sv(184) @ 535000: uvm_test_top.env.slave_agent.drv [ahb_slave_driver] Beat AHB_WRITE addr=0x00009034 resp=AHB_RESP_ERROR waits=1 wdata=0xcb4ce833
# UVM_INFO ../src/mst/ahb_master_monitor.sv(117) @ 535000: uvm_test_top.env.master_agent.mon [ahb_master_monitor] Beat[9] addr=0x00009034 wdata=0xcb4ce833 resp=AHB_RESP_ERROR
# UVM_INFO ../src/slv_seq/ahb_slave_error_seq.sv(88) @ 535000: uvm_test_top.env.slave_agent.sqr@@slv_seq [ahb_slave_error_seq] Response 13: AHB_WRITE @0x00009036 -> AHB_RESP_ERROR, 0 wait states (unmapped)
# UVM_INFO ../src/mst/ahb_master_driver.sv(332) @ 555000: uvm_test_top.env.master_agent.drv [ahb_master_driver] Beat[10/15] addr=0x00009036 trans=AHB_TRANS_SEQ resp=AHB_RESP_ERROR wdata=0x71d11318
# UVM_INFO ../src/mst/ahb_master_driver.sv(349) @ 555000: uvm_test_top.env.master_agent.drv [ahb_master_driver] ERROR response on beat 10/15 - continuing burst (abort_on_error=0)
# UVM_INFO ../src/slv/ahb_slave_driver.sv(184) @ 555000: uvm_test_top.env.slave_agent.drv [ahb_slave_driver] Beat AHB_WRITE addr=0x00009036 resp=AHB_RESP_ERROR waits=0 wdata=0x71d11318
# UVM_INFO ../src/mst/ahb_master_monitor.sv(117) @ 555000: uvm_test_top.env.master_agent.mon [ahb_master_monitor] Beat[10] addr=0x00009036 wdata=0x71d11318 resp=AHB_RESP_ERROR
# UVM_INFO ../src/slv_seq/ahb_slave_error_seq.sv(88) @ 555000: uvm_test_top.env.slave_agent.sqr@@slv_seq [ahb_slave_error_seq] Response 14: AHB_WRITE @0x00009038 -> AHB_RESP_ERROR, 0 wait states (unmapped)
# UVM_INFO ../src/mst/ahb_master_driver.sv(332) @ 575000: uvm_test_top.env.master_agent.drv [ahb_master_driver] Beat[11/15] addr=0x00009038 trans=AHB_TRANS_SEQ resp=AHB_RESP_ERROR wdata=0xd230ce00
# UVM_INFO ../src/mst/ahb_master_driver.sv(349) @ 575000: uvm_test_top.env.master_agent.drv [ahb_master_driver] ERROR response on beat 11/15 - continuing burst (abort_on_error=0)
# UVM_INFO ../src/slv/ahb_slave_driver.sv(184) @ 575000: uvm_test_top.env.slave_agent.drv [ahb_slave_driver] Beat AHB_WRITE addr=0x00009038 resp=AHB_RESP_ERROR waits=0 wdata=0xd230ce00
# UVM_INFO ../src/mst/ahb_master_monitor.sv(117) @ 575000: uvm_test_top.env.master_agent.mon [ahb_master_monitor] Beat[11] addr=0x00009038 wdata=0xd230ce00 resp=AHB_RESP_ERROR
# UVM_INFO ../src/slv_seq/ahb_slave_error_seq.sv(88) @ 575000: uvm_test_top.env.slave_agent.sqr@@slv_seq [ahb_slave_error_seq] Response 15: AHB_WRITE @0x0000903a -> AHB_RESP_ERROR, 1 wait states (unmapped)
# UVM_INFO ../src/mst/ahb_master_driver.sv(332) @ 605000: uvm_test_top.env.master_agent.drv [ahb_master_driver] Beat[12/15] addr=0x0000903a trans=AHB_TRANS_SEQ resp=AHB_RESP_ERROR wdata=0xdb32ff4e
# UVM_INFO ../src/mst/ahb_master_driver.sv(349) @ 605000: uvm_test_top.env.master_agent.drv [ahb_master_driver] ERROR response on beat 12/15 - continuing burst (abort_on_error=0)
# UVM_INFO ../src/slv/ahb_slave_driver.sv(184) @ 605000: uvm_test_top.env.slave_agent.drv [ahb_slave_driver] Beat AHB_WRITE addr=0x0000903a resp=AHB_RESP_ERROR waits=1 wdata=0xdb32ff4e
# UVM_INFO ../src/mst/ahb_master_monitor.sv(117) @ 605000: uvm_test_top.env.master_agent.mon [ahb_master_monitor] Beat[12] addr=0x0000903a wdata=0xdb32ff4e resp=AHB_RESP_ERROR
# UVM_INFO ../src/slv_seq/ahb_slave_error_seq.sv(88) @ 605000: uvm_test_top.env.slave_agent.sqr@@slv_seq [ahb_slave_error_seq] Response 16: AHB_WRITE @0x0000903c -> AHB_RESP_ERROR, 2 wait states (unmapped)
# UVM_INFO ../src/mst/ahb_master_driver.sv(332) @ 645000: uvm_test_top.env.master_agent.drv [ahb_master_driver] Beat[13/15] addr=0x0000903c trans=AHB_TRANS_SEQ resp=AHB_RESP_ERROR wdata=0x2954465e
# UVM_INFO ../src/mst/ahb_master_driver.sv(349) @ 645000: uvm_test_top.env.master_agent.drv [ahb_master_driver] ERROR response on beat 13/15 - continuing burst (abort_on_error=0)
# UVM_INFO ../src/slv/ahb_slave_driver.sv(184) @ 645000: uvm_test_top.env.slave_agent.drv [ahb_slave_driver] Beat AHB_WRITE addr=0x0000903c resp=AHB_RESP_ERROR waits=2 wdata=0x2954465e
# UVM_INFO ../src/mst/ahb_master_monitor.sv(117) @ 645000: uvm_test_top.env.master_agent.mon [ahb_master_monitor] Beat[13] addr=0x0000903c wdata=0x2954465e resp=AHB_RESP_ERROR
# UVM_INFO ../src/slv_seq/ahb_slave_error_seq.sv(88) @ 645000: uvm_test_top.env.slave_agent.sqr@@slv_seq [ahb_slave_error_seq] Response 17: AHB_WRITE @0x0000903e -> AHB_RESP_ERROR, 1 wait states (unmapped)
# UVM_INFO ../src/mst/ahb_master_driver.sv(332) @ 675000: uvm_test_top.env.master_agent.drv [ahb_master_driver] Beat[14/15] addr=0x0000903e trans=AHB_TRANS_SEQ resp=AHB_RESP_ERROR wdata=0xae71de40
# UVM_INFO ../src/mst/ahb_master_driver.sv(349) @ 675000: uvm_test_top.env.master_agent.drv [ahb_master_driver] ERROR response on beat 14/15 - continuing burst (abort_on_error=0)
# UVM_INFO ../src/mst/ahb_master_driver.sv(376) @ 675000: uvm_test_top.env.master_agent.drv [ahb_master_driver] Transaction complete: AHB_WRITE 0x00009022, 15 beats, burst=AHB_BURST_INCR
# UVM_INFO ../src/slv/ahb_slave_driver.sv(184) @ 675000: uvm_test_top.env.slave_agent.drv [ahb_slave_driver] Beat AHB_WRITE addr=0x0000903e resp=AHB_RESP_ERROR waits=1 wdata=0xae71de40
# UVM_INFO ../src/slv/ahb_slave_monitor.sv(197) @ 675000: uvm_test_top.env.slave_agent.mon [ahb_slave_monitor] Observed [AHB_WRITE]: HADDR=0x00009022, HBURST=AHB_BURST_INCR, HSIZE=AHB_SIZE_16B, 15 beats
# UVM_INFO ../src/env/ahb_coverage.sv(126) @ 675000: uvm_test_top.env.slave_cov [ahb_coverage] Sampled [AHB_WRITE]: burst=AHB_BURST_INCR size=AHB_SIZE_16B beats=15 error=1
# UVM_INFO ../src/mst/ahb_master_monitor.sv(117) @ 675000: uvm_test_top.env.master_agent.mon [ahb_master_monitor] Beat[14] addr=0x0000903e wdata=0xae71de40 resp=AHB_RESP_ERROR
# UVM_INFO ../src/mst/ahb_master_monitor.sv(220) @ 675000: uvm_test_top.env.master_agent.mon [ahb_master_monitor] Observed [AHB_WRITE]: HADDR=0x00009022, HBURST=AHB_BURST_INCR, HSIZE=AHB_SIZE_16B, 15 beats
# UVM_INFO ../src/env/ahb_coverage.sv(126) @ 675000: uvm_test_top.env.master_cov [ahb_coverage] Sampled [AHB_WRITE]: burst=AHB_BURST_INCR size=AHB_SIZE_16B beats=15 error=1
# UVM_INFO ../src/env/ahb_scoreboard.sv(104) @ 675000: uvm_test_top.env.scb [ahb_scoreboard] MATCH #3: [AHB_WRITE] HADDR=0x00009022 AHB_BURST_INCR 15 beats
# UVM_INFO ../src/mst_seq/ahb_error_seq.sv(131) @ 675000: uvm_test_top.env.master_agent.sqr@@mst_seq [ahb_error_seq] AHB_WRITE AHB_BURST_INCR @0x00009022: ERROR on beat 0 of 15, policy=continue, drove 15
# UVM_INFO ../src/mst/ahb_master_driver.sv(85) @ 675000: uvm_test_top.env.master_agent.drv [ahb_master_driver] Queueing [AHB_READ]: HADDR=0x00008066, HBURST=AHB_BURST_SINGLE, HSIZE=AHB_SIZE_8B, 1 beats
# UVM_INFO ../src/mst/ahb_master_driver.sv(127) @ 675000: uvm_test_top.env.master_agent.drv [ahb_master_driver] Driving [AHB_READ]: HADDR=0x00008066, HBURST=AHB_BURST_SINGLE, HSIZE=AHB_SIZE_8B, 1 beats               
# UVM_INFO ../src/slv_seq/ahb_slave_error_seq.sv(88) @ 695000: uvm_test_top.env.slave_agent.sqr@@slv_seq [ahb_slave_error_seq] Response 18: AHB_READ @0x00008066 -> AHB_RESP_OKAY, 1 wait states           
# UVM_INFO ../src/mst/ahb_master_driver.sv(332) @ 715000: uvm_test_top.env.master_agent.drv [ahb_master_driver] Beat[0/1] addr=0x00008066 trans=AHB_TRANS_NONSEQ resp=AHB_RESP_OKAY rdata=0x69ca2b78
# UVM_INFO ../src/mst/ahb_master_driver.sv(376) @ 715000: uvm_test_top.env.master_agent.drv [ahb_master_driver] Transaction complete: AHB_READ 0x00008066, 1 beats, burst=AHB_BURST_SINGLE
# UVM_INFO ../src/slv/ahb_slave_driver.sv(184) @ 715000: uvm_test_top.env.slave_agent.drv [ahb_slave_driver] Beat AHB_READ addr=0x00008066 resp=AHB_RESP_OKAY waits=1 rdata=0x69ca2b78
# UVM_INFO ../src/slv/ahb_slave_monitor.sv(197) @ 715000: uvm_test_top.env.slave_agent.mon [ahb_slave_monitor] Observed [AHB_READ]: HADDR=0x00008066, HBURST=AHB_BURST_SINGLE, HSIZE=AHB_SIZE_8B, 1 beats
# UVM_INFO ../src/env/ahb_coverage.sv(126) @ 715000: uvm_test_top.env.slave_cov [ahb_coverage] Sampled [AHB_READ]: burst=AHB_BURST_SINGLE size=AHB_SIZE_8B beats=1 error=0
# UVM_INFO ../src/mst/ahb_master_monitor.sv(117) @ 715000: uvm_test_top.env.master_agent.mon [ahb_master_monitor] Beat[0] addr=0x00008066 rdata=0x69ca2b78 resp=AHB_RESP_OKAY
# UVM_INFO ../src/mst/ahb_master_monitor.sv(220) @ 715000: uvm_test_top.env.master_agent.mon [ahb_master_monitor] Observed [AHB_READ]: HADDR=0x00008066, HBURST=AHB_BURST_SINGLE, HSIZE=AHB_SIZE_8B, 1 beats
# UVM_INFO ../src/env/ahb_coverage.sv(126) @ 715000: uvm_test_top.env.master_cov [ahb_coverage] Sampled [AHB_READ]: burst=AHB_BURST_SINGLE size=AHB_SIZE_8B beats=1 error=0
# UVM_INFO ../src/env/ahb_scoreboard.sv(104) @ 715000: uvm_test_top.env.scb [ahb_scoreboard] MATCH #4: [AHB_READ] HADDR=0x00008066 AHB_BURST_SINGLE 1 beats
# UVM_INFO ../src/mst/ahb_master_driver.sv(85) @ 715000: uvm_test_top.env.master_agent.drv [ahb_master_driver] Queueing [AHB_WRITE]: HADDR=0x0000709d, HBURST=AHB_BURST_SINGLE, HSIZE=AHB_SIZE_8B, 1 beats
# UVM_INFO ../src/mst/ahb_master_driver.sv(127) @ 715000: uvm_test_top.env.master_agent.drv [ahb_master_driver] Driving [AHB_WRITE]: HADDR=0x0000709d, HBURST=AHB_BURST_SINGLE, HSIZE=AHB_SIZE_8B, 1 beats               
# UVM_INFO ../src/slv_seq/ahb_slave_error_seq.sv(88) @ 735000: uvm_test_top.env.slave_agent.sqr@@slv_seq [ahb_slave_error_seq] Response 19: AHB_WRITE @0x0000709d -> AHB_RESP_OKAY, 1 wait states           
# UVM_INFO ../src/mst/ahb_master_driver.sv(332) @ 755000: uvm_test_top.env.master_agent.drv [ahb_master_driver] Beat[0/1] addr=0x0000709d trans=AHB_TRANS_NONSEQ resp=AHB_RESP_OKAY wdata=0xe4fc6a3b
# UVM_INFO ../src/mst/ahb_master_driver.sv(376) @ 755000: uvm_test_top.env.master_agent.drv [ahb_master_driver] Transaction complete: AHB_WRITE 0x0000709d, 1 beats, burst=AHB_BURST_SINGLE
# UVM_INFO ../src/slv/ahb_slave_driver.sv(184) @ 755000: uvm_test_top.env.slave_agent.drv [ahb_slave_driver] Beat AHB_WRITE addr=0x0000709d resp=AHB_RESP_OKAY waits=1 wdata=0xe4fc6a3b
# UVM_INFO ../src/slv/ahb_slave_monitor.sv(197) @ 755000: uvm_test_top.env.slave_agent.mon [ahb_slave_monitor] Observed [AHB_WRITE]: HADDR=0x0000709d, HBURST=AHB_BURST_SINGLE, HSIZE=AHB_SIZE_8B, 1 beats
# UVM_INFO ../src/env/ahb_coverage.sv(126) @ 755000: uvm_test_top.env.slave_cov [ahb_coverage] Sampled [AHB_WRITE]: burst=AHB_BURST_SINGLE size=AHB_SIZE_8B beats=1 error=0
# UVM_INFO ../src/mst/ahb_master_monitor.sv(117) @ 755000: uvm_test_top.env.master_agent.mon [ahb_master_monitor] Beat[0] addr=0x0000709d wdata=0xe4fc6a3b resp=AHB_RESP_OKAY
# UVM_INFO ../src/mst/ahb_master_monitor.sv(220) @ 755000: uvm_test_top.env.master_agent.mon [ahb_master_monitor] Observed [AHB_WRITE]: HADDR=0x0000709d, HBURST=AHB_BURST_SINGLE, HSIZE=AHB_SIZE_8B, 1 beats
# UVM_INFO ../src/env/ahb_coverage.sv(126) @ 755000: uvm_test_top.env.master_cov [ahb_coverage] Sampled [AHB_WRITE]: burst=AHB_BURST_SINGLE size=AHB_SIZE_8B beats=1 error=0
# UVM_INFO ../src/env/ahb_scoreboard.sv(104) @ 755000: uvm_test_top.env.scb [ahb_scoreboard] MATCH #5: [AHB_WRITE] HADDR=0x0000709d AHB_BURST_SINGLE 1 beats
# UVM_INFO ../src/mst/ahb_master_driver.sv(85) @ 755000: uvm_test_top.env.master_agent.drv [ahb_master_driver] Queueing [AHB_READ]: HADDR=0x0000907c, HBURST=AHB_BURST_INCR, HSIZE=AHB_SIZE_8B, 2 beats
# UVM_INFO ../src/mst/ahb_master_driver.sv(127) @ 755000: uvm_test_top.env.master_agent.drv [ahb_master_driver] Driving [AHB_READ]: HADDR=0x0000907c, HBURST=AHB_BURST_INCR, HSIZE=AHB_SIZE_8B, 2 beats               
# UVM_INFO ../src/slv_seq/ahb_slave_error_seq.sv(88) @ 775000: uvm_test_top.env.slave_agent.sqr@@slv_seq [ahb_slave_error_seq] Response 20: AHB_READ @0x0000907c -> AHB_RESP_ERROR, 2 wait states (unmapped)
# UVM_INFO ../src/mst/ahb_master_driver.sv(332) @ 815000: uvm_test_top.env.master_agent.drv [ahb_master_driver] Beat[0/2] addr=0x0000907c trans=AHB_TRANS_NONSEQ resp=AHB_RESP_ERROR rdata=0x69ca2b78
# UVM_INFO ../src/mst/ahb_master_driver.sv(342) @ 815000: uvm_test_top.env.master_agent.drv [ahb_master_driver] ERROR response on beat 0/2 - cancelling remaining burst
# UVM_INFO ../src/mst/ahb_master_driver.sv(376) @ 815000: uvm_test_top.env.master_agent.drv [ahb_master_driver] Transaction complete: AHB_READ 0x0000907c, 2 beats, burst=AHB_BURST_INCR
# UVM_INFO ../src/slv/ahb_slave_driver.sv(184) @ 815000: uvm_test_top.env.slave_agent.drv [ahb_slave_driver] Beat AHB_READ addr=0x0000907c resp=AHB_RESP_ERROR waits=2 rdata=0x0d766350
# UVM_INFO ../src/slv/ahb_slave_monitor.sv(197) @ 815000: uvm_test_top.env.slave_agent.mon [ahb_slave_monitor] Observed [AHB_READ]: HADDR=0x0000907c, HBURST=AHB_BURST_INCR, HSIZE=AHB_SIZE_8B, 1 beats
# UVM_INFO ../src/env/ahb_coverage.sv(126) @ 815000: uvm_test_top.env.slave_cov [ahb_coverage] Sampled [AHB_READ]: burst=AHB_BURST_INCR size=AHB_SIZE_8B beats=1 error=1
# UVM_INFO ../src/mst/ahb_master_monitor.sv(117) @ 815000: uvm_test_top.env.master_agent.mon [ahb_master_monitor] Beat[0] addr=0x0000907c rdata=0x69ca2b78 resp=AHB_RESP_ERROR
# UVM_INFO ../src/mst/ahb_master_monitor.sv(220) @ 815000: uvm_test_top.env.master_agent.mon [ahb_master_monitor] Observed [AHB_READ]: HADDR=0x0000907c, HBURST=AHB_BURST_INCR, HSIZE=AHB_SIZE_8B, 1 beats
# UVM_INFO ../src/env/ahb_coverage.sv(126) @ 815000: uvm_test_top.env.master_cov [ahb_coverage] Sampled [AHB_READ]: burst=AHB_BURST_INCR size=AHB_SIZE_8B beats=1 error=1
# UVM_INFO ../src/env/ahb_scoreboard.sv(104) @ 815000: uvm_test_top.env.scb [ahb_scoreboard] MATCH #6: [AHB_READ] HADDR=0x0000907c AHB_BURST_INCR 1 beats
# UVM_INFO ../src/mst_seq/ahb_error_seq.sv(131) @ 815000: uvm_test_top.env.master_agent.sqr@@mst_seq [ahb_error_seq] AHB_READ AHB_BURST_INCR @0x0000907c: ERROR on beat 0 of 2, policy=  cancel, drove 1
# UVM_INFO ../src/mst/ahb_master_driver.sv(85) @ 815000: uvm_test_top.env.master_agent.drv [ahb_master_driver] Queueing [AHB_WRITE]: HADDR=0x000070e1, HBURST=AHB_BURST_INCR8, HSIZE=AHB_SIZE_8B, 8 beats
# UVM_INFO ../src/mst/ahb_master_driver.sv(127) @ 815000: uvm_test_top.env.master_agent.drv [ahb_master_driver] Driving [AHB_WRITE]: HADDR=0x000070e1, HBURST=AHB_BURST_INCR8, HSIZE=AHB_SIZE_8B, 8 beats               
# UVM_INFO ../src/slv_seq/ahb_slave_error_seq.sv(88) @ 835000: uvm_test_top.env.slave_agent.sqr@@slv_seq [ahb_slave_error_seq] Response 21: AHB_WRITE @0x000070e1 -> AHB_RESP_ERROR, 2 wait states           
# UVM_INFO ../src/mst/ahb_master_driver.sv(332) @ 875000: uvm_test_top.env.master_agent.drv [ahb_master_driver] Beat[0/8] addr=0x000070e1 trans=AHB_TRANS_NONSEQ resp=AHB_RESP_ERROR wdata=0x54efa1cb
# UVM_INFO ../src/mst/ahb_master_driver.sv(349) @ 875000: uvm_test_top.env.master_agent.drv [ahb_master_driver] ERROR response on beat 0/8 - continuing burst (abort_on_error=0)
# UVM_INFO ../src/slv/ahb_slave_driver.sv(184) @ 875000: uvm_test_top.env.slave_agent.drv [ahb_slave_driver] Beat AHB_WRITE addr=0x000070e1 resp=AHB_RESP_ERROR waits=2 wdata=0x54efa1cb
# UVM_INFO ../src/mst/ahb_master_monitor.sv(117) @ 875000: uvm_test_top.env.master_agent.mon [ahb_master_monitor] Beat[0] addr=0x000070e1 wdata=0x54efa1cb resp=AHB_RESP_ERROR
# UVM_INFO ../src/slv_seq/ahb_slave_error_seq.sv(88) @ 875000: uvm_test_top.env.slave_agent.sqr@@slv_seq [ahb_slave_error_seq] Response 22: AHB_WRITE @0x000070e2 -> AHB_RESP_ERROR, 1 wait states           
# UVM_INFO ../src/mst/ahb_master_driver.sv(332) @ 905000: uvm_test_top.env.master_agent.drv [ahb_master_driver] Beat[1/8] addr=0x000070e2 trans=AHB_TRANS_SEQ resp=AHB_RESP_ERROR wdata=0xed814899
# UVM_INFO ../src/mst/ahb_master_driver.sv(349) @ 905000: uvm_test_top.env.master_agent.drv [ahb_master_driver] ERROR response on beat 1/8 - continuing burst (abort_on_error=0)
# UVM_INFO ../src/slv/ahb_slave_driver.sv(184) @ 905000: uvm_test_top.env.slave_agent.drv [ahb_slave_driver] Beat AHB_WRITE addr=0x000070e2 resp=AHB_RESP_ERROR waits=1 wdata=0xed814899
# UVM_INFO ../src/mst/ahb_master_monitor.sv(117) @ 905000: uvm_test_top.env.master_agent.mon [ahb_master_monitor] Beat[1] addr=0x000070e2 wdata=0xed814899 resp=AHB_RESP_ERROR
# UVM_INFO ../src/slv_seq/ahb_slave_error_seq.sv(88) @ 905000: uvm_test_top.env.slave_agent.sqr@@slv_seq [ahb_slave_error_seq] Response 23: AHB_WRITE @0x000070e3 -> AHB_RESP_ERROR, 0 wait states           
# UVM_INFO ../src/mst/ahb_master_driver.sv(332) @ 925000: uvm_test_top.env.master_agent.drv [ahb_master_driver] Beat[2/8] addr=0x000070e3 trans=AHB_TRANS_SEQ resp=AHB_RESP_ERROR wdata=0x1df8ca33
# UVM_INFO ../src/mst/ahb_master_driver.sv(349) @ 925000: uvm_test_top.env.master_agent.drv [ahb_master_driver] ERROR response on beat 2/8 - continuing burst (abort_on_error=0)
# UVM_INFO ../src/slv/ahb_slave_driver.sv(184) @ 925000: uvm_test_top.env.slave_agent.drv [ahb_slave_driver] Beat AHB_WRITE addr=0x000070e3 resp=AHB_RESP_ERROR waits=0 wdata=0x1df8ca33
# UVM_INFO ../src/mst/ahb_master_monitor.sv(117) @ 925000: uvm_test_top.env.master_agent.mon [ahb_master_monitor] Beat[2] addr=0x000070e3 wdata=0x1df8ca33 resp=AHB_RESP_ERROR
# UVM_INFO ../src/slv_seq/ahb_slave_error_seq.sv(88) @ 925000: uvm_test_top.env.slave_agent.sqr@@slv_seq [ahb_slave_error_seq] Response 24: AHB_WRITE @0x000070e4 -> AHB_RESP_OKAY, 1 wait states           
# UVM_INFO ../src/mst/ahb_master_driver.sv(332) @ 945000: uvm_test_top.env.master_agent.drv [ahb_master_driver] Beat[3/8] addr=0x000070e4 trans=AHB_TRANS_SEQ resp=AHB_RESP_OKAY wdata=0x9433006f
# UVM_INFO ../src/slv/ahb_slave_driver.sv(184) @ 945000: uvm_test_top.env.slave_agent.drv [ahb_slave_driver] Beat AHB_WRITE addr=0x000070e4 resp=AHB_RESP_OKAY waits=1 wdata=0x9433006f
# UVM_INFO ../src/mst/ahb_master_monitor.sv(117) @ 945000: uvm_test_top.env.master_agent.mon [ahb_master_monitor] Beat[3] addr=0x000070e4 wdata=0x9433006f resp=AHB_RESP_OKAY
# UVM_INFO ../src/slv_seq/ahb_slave_error_seq.sv(88) @ 945000: uvm_test_top.env.slave_agent.sqr@@slv_seq [ahb_slave_error_seq] Response 25: AHB_WRITE @0x000070e5 -> AHB_RESP_OKAY, 0 wait states           
# UVM_INFO ../src/mst/ahb_master_driver.sv(332) @ 955000: uvm_test_top.env.master_agent.drv [ahb_master_driver] Beat[4/8] addr=0x000070e5 trans=AHB_TRANS_SEQ resp=AHB_RESP_OKAY wdata=0xc55e00f5
# UVM_INFO ../src/slv/ahb_slave_driver.sv(184) @ 955000: uvm_test_top.env.slave_agent.drv [ahb_slave_driver] Beat AHB_WRITE addr=0x000070e5 resp=AHB_RESP_OKAY waits=0 wdata=0xc55e00f5
# UVM_INFO ../src/mst/ahb_master_monitor.sv(117) @ 955000: uvm_test_top.env.master_agent.mon [ahb_master_monitor] Beat[4] addr=0x000070e5 wdata=0xc55e00f5 resp=AHB_RESP_OKAY
# UVM_INFO ../src/slv_seq/ahb_slave_error_seq.sv(88) @ 955000: uvm_test_top.env.slave_agent.sqr@@slv_seq [ahb_slave_error_seq] Response 26: AHB_WRITE @0x000070e6 -> AHB_RESP_OKAY, 0 wait states           
# UVM_INFO ../src/mst/ahb_master_driver.sv(332) @ 965000: uvm_test_top.env.master_agent.drv [ahb_master_driver] Beat[5/8] addr=0x000070e6 trans=AHB_TRANS_SEQ resp=AHB_RESP_OKAY wdata=0xeac2c37c
# UVM_INFO ../src/slv/ahb_slave_driver.sv(184) @ 965000: uvm_test_top.env.slave_agent.drv [ahb_slave_driver] Beat AHB_WRITE addr=0x000070e6 resp=AHB_RESP_OKAY waits=0 wdata=0xeac2c37c
# UVM_INFO ../src/mst/ahb_master_monitor.sv(117) @ 965000: uvm_test_top.env.master_agent.mon [ahb_master_monitor] Beat[5] addr=0x000070e6 wdata=0xeac2c37c resp=AHB_RESP_OKAY
# UVM_INFO ../src/slv_seq/ahb_slave_error_seq.sv(88) @ 965000: uvm_test_top.env.slave_agent.sqr@@slv_seq [ahb_slave_error_seq] Response 27: AHB_WRITE @0x000070e7 -> AHB_RESP_OKAY, 1 wait states           
# UVM_INFO ../src/mst/ahb_master_driver.sv(332) @ 985000: uvm_test_top.env.master_agent.drv [ahb_master_driver] Beat[6/8] addr=0x000070e7 trans=AHB_TRANS_SEQ resp=AHB_RESP_OKAY wdata=0xf2b500ea
# UVM_INFO ../src/slv/ahb_slave_driver.sv(184) @ 985000: uvm_test_top.env.slave_agent.drv [ahb_slave_driver] Beat AHB_WRITE addr=0x000070e7 resp=AHB_RESP_OKAY waits=1 wdata=0xf2b500ea
# UVM_INFO ../src/mst/ahb_master_monitor.sv(117) @ 985000: uvm_test_top.env.master_agent.mon [ahb_master_monitor] Beat[6] addr=0x000070e7 wdata=0xf2b500ea resp=AHB_RESP_OKAY
# UVM_INFO ../src/slv_seq/ahb_slave_error_seq.sv(88) @ 985000: uvm_test_top.env.slave_agent.sqr@@slv_seq [ahb_slave_error_seq] Response 28: AHB_WRITE @0x000070e8 -> AHB_RESP_OKAY, 2 wait states           
# UVM_INFO ../src/mst/ahb_master_driver.sv(332) @ 1015000: uvm_test_top.env.master_agent.drv [ahb_master_driver] Beat[7/8] addr=0x000070e8 trans=AHB_TRANS_SEQ resp=AHB_RESP_OKAY wdata=0x5e32d65e
# UVM_INFO ../src/mst/ahb_master_driver.sv(376) @ 1015000: uvm_test_top.env.master_agent.drv [ahb_master_driver] Transaction complete: AHB_WRITE 0x000070e1, 8 beats, burst=AHB_BURST_INCR8
# UVM_INFO ../src/slv/ahb_slave_driver.sv(184) @ 1015000: uvm_test_top.env.slave_agent.drv [ahb_slave_driver] Beat AHB_WRITE addr=0x000070e8 resp=AHB_RESP_OKAY waits=2 wdata=0x5e32d65e
# UVM_INFO ../src/slv/ahb_slave_monitor.sv(197) @ 1015000: uvm_test_top.env.slave_agent.mon [ahb_slave_monitor] Observed [AHB_WRITE]: HADDR=0x000070e1, HBURST=AHB_BURST_INCR8, HSIZE=AHB_SIZE_8B, 8 beats
# UVM_INFO ../src/env/ahb_coverage.sv(126) @ 1015000: uvm_test_top.env.slave_cov [ahb_coverage] Sampled [AHB_WRITE]: burst=AHB_BURST_INCR8 size=AHB_SIZE_8B beats=8 error=1
# UVM_INFO ../src/mst/ahb_master_monitor.sv(117) @ 1015000: uvm_test_top.env.master_agent.mon [ahb_master_monitor] Beat[7] addr=0x000070e8 wdata=0x5e32d65e resp=AHB_RESP_OKAY
# UVM_INFO ../src/mst/ahb_master_monitor.sv(220) @ 1015000: uvm_test_top.env.master_agent.mon [ahb_master_monitor] Observed [AHB_WRITE]: HADDR=0x000070e1, HBURST=AHB_BURST_INCR8, HSIZE=AHB_SIZE_8B, 8 beats
# UVM_INFO ../src/env/ahb_coverage.sv(126) @ 1015000: uvm_test_top.env.master_cov [ahb_coverage] Sampled [AHB_WRITE]: burst=AHB_BURST_INCR8 size=AHB_SIZE_8B beats=8 error=1
# UVM_INFO ../src/env/ahb_scoreboard.sv(104) @ 1015000: uvm_test_top.env.scb [ahb_scoreboard] MATCH #7: [AHB_WRITE] HADDR=0x000070e1 AHB_BURST_INCR8 8 beats
# UVM_INFO ../src/mst_seq/ahb_error_seq.sv(131) @ 1015000: uvm_test_top.env.master_agent.sqr@@mst_seq [ahb_error_seq] AHB_WRITE AHB_BURST_INCR8 @0x000070e1: ERROR on beat 0 of 8, policy=continue, drove 8
# UVM_INFO ../src/mst/ahb_master_driver.sv(85) @ 1015000: uvm_test_top.env.master_agent.drv [ahb_master_driver] Queueing [AHB_READ]: HADDR=0x000080d0, HBURST=AHB_BURST_INCR8, HSIZE=AHB_SIZE_8B, 8 beats
# UVM_INFO ../src/mst/ahb_master_driver.sv(127) @ 1015000: uvm_test_top.env.master_agent.drv [ahb_master_driver] Driving [AHB_READ]: HADDR=0x000080d0, HBURST=AHB_BURST_INCR8, HSIZE=AHB_SIZE_8B, 8 beats               
# UVM_INFO ../src/slv_seq/ahb_slave_error_seq.sv(88) @ 1035000: uvm_test_top.env.slave_agent.sqr@@slv_seq [ahb_slave_error_seq] Response 29: AHB_READ @0x000080d0 -> AHB_RESP_OKAY, 2 wait states           
# UVM_INFO ../src/mst/ahb_master_driver.sv(332) @ 1065000: uvm_test_top.env.master_agent.drv [ahb_master_driver] Beat[0/8] addr=0x000080d0 trans=AHB_TRANS_NONSEQ resp=AHB_RESP_OKAY rdata=0x870c4e24
# UVM_INFO ../src/slv/ahb_slave_driver.sv(184) @ 1065000: uvm_test_top.env.slave_agent.drv [ahb_slave_driver] Beat AHB_READ addr=0x000080d0 resp=AHB_RESP_OKAY waits=2 rdata=0x870c4e24
# UVM_INFO ../src/mst/ahb_master_monitor.sv(117) @ 1065000: uvm_test_top.env.master_agent.mon [ahb_master_monitor] Beat[0] addr=0x000080d0 rdata=0x870c4e24 resp=AHB_RESP_OKAY
# UVM_INFO ../src/slv_seq/ahb_slave_error_seq.sv(88) @ 1065000: uvm_test_top.env.slave_agent.sqr@@slv_seq [ahb_slave_error_seq] Response 30: AHB_READ @0x000080d1 -> AHB_RESP_OKAY, 1 wait states           
# UVM_INFO ../src/mst/ahb_master_driver.sv(332) @ 1085000: uvm_test_top.env.master_agent.drv [ahb_master_driver] Beat[1/8] addr=0x000080d1 trans=AHB_TRANS_SEQ resp=AHB_RESP_OKAY rdata=0x6a52c54d
# UVM_INFO ../src/slv/ahb_slave_driver.sv(184) @ 1085000: uvm_test_top.env.slave_agent.drv [ahb_slave_driver] Beat AHB_READ addr=0x000080d1 resp=AHB_RESP_OKAY waits=1 rdata=0x6a52c54d
# UVM_INFO ../src/mst/ahb_master_monitor.sv(117) @ 1085000: uvm_test_top.env.master_agent.mon [ahb_master_monitor] Beat[1] addr=0x000080d1 rdata=0x6a52c54d resp=AHB_RESP_OKAY
# UVM_INFO ../src/slv_seq/ahb_slave_error_seq.sv(88) @ 1085000: uvm_test_top.env.slave_agent.sqr@@slv_seq [ahb_slave_error_seq] Response 31: AHB_READ @0x000080d2 -> AHB_RESP_OKAY, 1 wait states           
# UVM_INFO ../src/mst/ahb_master_driver.sv(332) @ 1105000: uvm_test_top.env.master_agent.drv [ahb_master_driver] Beat[2/8] addr=0x000080d2 trans=AHB_TRANS_SEQ resp=AHB_RESP_OKAY rdata=0x23106c52
# UVM_INFO ../src/slv/ahb_slave_driver.sv(184) @ 1105000: uvm_test_top.env.slave_agent.drv [ahb_slave_driver] Beat AHB_READ addr=0x000080d2 resp=AHB_RESP_OKAY waits=1 rdata=0x23106c52
# UVM_INFO ../src/mst/ahb_master_monitor.sv(117) @ 1105000: uvm_test_top.env.master_agent.mon [ahb_master_monitor] Beat[2] addr=0x000080d2 rdata=0x23106c52 resp=AHB_RESP_OKAY
# UVM_INFO ../src/slv_seq/ahb_slave_error_seq.sv(88) @ 1105000: uvm_test_top.env.slave_agent.sqr@@slv_seq [ahb_slave_error_seq] Response 32: AHB_READ @0x000080d3 -> AHB_RESP_ERROR, 0 wait states           
# UVM_INFO ../src/mst/ahb_master_driver.sv(332) @ 1125000: uvm_test_top.env.master_agent.drv [ahb_master_driver] Beat[3/8] addr=0x000080d3 trans=AHB_TRANS_SEQ resp=AHB_RESP_ERROR rdata=0x23106c52
# UVM_INFO ../src/mst/ahb_master_driver.sv(349) @ 1125000: uvm_test_top.env.master_agent.drv [ahb_master_driver] ERROR response on beat 3/8 - continuing burst (abort_on_error=0)
# UVM_INFO ../src/slv/ahb_slave_driver.sv(184) @ 1125000: uvm_test_top.env.slave_agent.drv [ahb_slave_driver] Beat AHB_READ addr=0x000080d3 resp=AHB_RESP_ERROR waits=0 rdata=0x86b316e7
# UVM_INFO ../src/mst/ahb_master_monitor.sv(117) @ 1125000: uvm_test_top.env.master_agent.mon [ahb_master_monitor] Beat[3] addr=0x000080d3 rdata=0x23106c52 resp=AHB_RESP_ERROR
# UVM_INFO ../src/slv_seq/ahb_slave_error_seq.sv(88) @ 1125000: uvm_test_top.env.slave_agent.sqr@@slv_seq [ahb_slave_error_seq] Response 33: AHB_READ @0x000080d4 -> AHB_RESP_ERROR, 2 wait states           
# UVM_INFO ../src/mst/ahb_master_driver.sv(332) @ 1165000: uvm_test_top.env.master_agent.drv [ahb_master_driver] Beat[4/8] addr=0x000080d4 trans=AHB_TRANS_SEQ resp=AHB_RESP_ERROR rdata=0x23106c52
# UVM_INFO ../src/mst/ahb_master_driver.sv(349) @ 1165000: uvm_test_top.env.master_agent.drv [ahb_master_driver] ERROR response on beat 4/8 - continuing burst (abort_on_error=0)
# UVM_INFO ../src/slv/ahb_slave_driver.sv(184) @ 1165000: uvm_test_top.env.slave_agent.drv [ahb_slave_driver] Beat AHB_READ addr=0x000080d4 resp=AHB_RESP_ERROR waits=2 rdata=0xc4654997
# UVM_INFO ../src/mst/ahb_master_monitor.sv(117) @ 1165000: uvm_test_top.env.master_agent.mon [ahb_master_monitor] Beat[4] addr=0x000080d4 rdata=0x23106c52 resp=AHB_RESP_ERROR
# UVM_INFO ../src/slv_seq/ahb_slave_error_seq.sv(88) @ 1165000: uvm_test_top.env.slave_agent.sqr@@slv_seq [ahb_slave_error_seq] Response 34: AHB_READ @0x000080d5 -> AHB_RESP_OKAY, 1 wait states           
# UVM_INFO ../src/mst/ahb_master_driver.sv(332) @ 1185000: uvm_test_top.env.master_agent.drv [ahb_master_driver] Beat[5/8] addr=0x000080d5 trans=AHB_TRANS_SEQ resp=AHB_RESP_OKAY rdata=0x11a4ada9
# UVM_INFO ../src/slv/ahb_slave_driver.sv(184) @ 1185000: uvm_test_top.env.slave_agent.drv [ahb_slave_driver] Beat AHB_READ addr=0x000080d5 resp=AHB_RESP_OKAY waits=1 rdata=0x11a4ada9
# UVM_INFO ../src/mst/ahb_master_monitor.sv(117) @ 1185000: uvm_test_top.env.master_agent.mon [ahb_master_monitor] Beat[5] addr=0x000080d5 rdata=0x11a4ada9 resp=AHB_RESP_OKAY
# UVM_INFO ../src/slv_seq/ahb_slave_error_seq.sv(88) @ 1185000: uvm_test_top.env.slave_agent.sqr@@slv_seq [ahb_slave_error_seq] Response 35: AHB_READ @0x000080d6 -> AHB_RESP_ERROR, 1 wait states           
# UVM_INFO ../src/mst/ahb_master_driver.sv(332) @ 1215000: uvm_test_top.env.master_agent.drv [ahb_master_driver] Beat[6/8] addr=0x000080d6 trans=AHB_TRANS_SEQ resp=AHB_RESP_ERROR rdata=0x11a4ada9
# UVM_INFO ../src/mst/ahb_master_driver.sv(349) @ 1215000: uvm_test_top.env.master_agent.drv [ahb_master_driver] ERROR response on beat 6/8 - continuing burst (abort_on_error=0)
# UVM_INFO ../src/slv/ahb_slave_driver.sv(184) @ 1215000: uvm_test_top.env.slave_agent.drv [ahb_slave_driver] Beat AHB_READ addr=0x000080d6 resp=AHB_RESP_ERROR waits=1 rdata=0x5574d592
# UVM_INFO ../src/mst/ahb_master_monitor.sv(117) @ 1215000: uvm_test_top.env.master_agent.mon [ahb_master_monitor] Beat[6] addr=0x000080d6 rdata=0x11a4ada9 resp=AHB_RESP_ERROR
# UVM_INFO ../src/slv_seq/ahb_slave_error_seq.sv(88) @ 1215000: uvm_test_top.env.slave_agent.sqr@@slv_seq [ahb_slave_error_seq] Response 36: AHB_READ @0x000080d7 -> AHB_RESP_OKAY, 1 wait states           
# UVM_INFO ../src/mst/ahb_master_driver.sv(332) @ 1235000: uvm_test_top.env.master_agent.drv [ahb_master_driver] Beat[7/8] addr=0x000080d7 trans=AHB_TRANS_SEQ resp=AHB_RESP_OKAY rdata=0x9d75f9f2
# UVM_INFO ../src/mst/ahb_master_driver.sv(376) @ 1235000: uvm_test_top.env.master_agent.drv [ahb_master_driver] Transaction complete: AHB_READ 0x000080d0, 8 beats, burst=AHB_BURST_INCR8
# UVM_INFO ../src/slv/ahb_slave_driver.sv(184) @ 1235000: uvm_test_top.env.slave_agent.drv [ahb_slave_driver] Beat AHB_READ addr=0x000080d7 resp=AHB_RESP_OKAY waits=1 rdata=0x9d75f9f2
# UVM_INFO ../src/slv/ahb_slave_monitor.sv(197) @ 1235000: uvm_test_top.env.slave_agent.mon [ahb_slave_monitor] Observed [AHB_READ]: HADDR=0x000080d0, HBURST=AHB_BURST_INCR8, HSIZE=AHB_SIZE_8B, 8 beats
# UVM_INFO ../src/env/ahb_coverage.sv(126) @ 1235000: uvm_test_top.env.slave_cov [ahb_coverage] Sampled [AHB_READ]: burst=AHB_BURST_INCR8 size=AHB_SIZE_8B beats=8 error=1
# UVM_INFO ../src/mst/ahb_master_monitor.sv(117) @ 1235000: uvm_test_top.env.master_agent.mon [ahb_master_monitor] Beat[7] addr=0x000080d7 rdata=0x9d75f9f2 resp=AHB_RESP_OKAY
# UVM_INFO ../src/mst/ahb_master_monitor.sv(220) @ 1235000: uvm_test_top.env.master_agent.mon [ahb_master_monitor] Observed [AHB_READ]: HADDR=0x000080d0, HBURST=AHB_BURST_INCR8, HSIZE=AHB_SIZE_8B, 8 beats
# UVM_INFO ../src/env/ahb_coverage.sv(126) @ 1235000: uvm_test_top.env.master_cov [ahb_coverage] Sampled [AHB_READ]: burst=AHB_BURST_INCR8 size=AHB_SIZE_8B beats=8 error=1
# UVM_INFO ../src/env/ahb_scoreboard.sv(104) @ 1235000: uvm_test_top.env.scb [ahb_scoreboard] MATCH #8: [AHB_READ] HADDR=0x000080d0 AHB_BURST_INCR8 8 beats
# UVM_INFO ../src/mst_seq/ahb_error_seq.sv(131) @ 1235000: uvm_test_top.env.master_agent.sqr@@mst_seq [ahb_error_seq] AHB_READ AHB_BURST_INCR8 @0x000080d0: ERROR on beat 3 of 8, policy=continue, drove 8
# UVM_INFO ../src/mst/ahb_master_driver.sv(85) @ 1235000: uvm_test_top.env.master_agent.drv [ahb_master_driver] Queueing [AHB_WRITE]: HADDR=0x00009080, HBURST=AHB_BURST_INCR8, HSIZE=AHB_SIZE_16B, 8 beats
# UVM_INFO ../src/mst/ahb_master_driver.sv(127) @ 1235000: uvm_test_top.env.master_agent.drv [ahb_master_driver] Driving [AHB_WRITE]: HADDR=0x00009080, HBURST=AHB_BURST_INCR8, HSIZE=AHB_SIZE_16B, 8 beats               
# UVM_INFO ../src/slv_seq/ahb_slave_error_seq.sv(88) @ 1255000: uvm_test_top.env.slave_agent.sqr@@slv_seq [ahb_slave_error_seq] Response 37: AHB_WRITE @0x00009080 -> AHB_RESP_ERROR, 2 wait states (unmapped)
# UVM_INFO ../src/mst/ahb_master_driver.sv(332) @ 1295000: uvm_test_top.env.master_agent.drv [ahb_master_driver] Beat[0/8] addr=0x00009080 trans=AHB_TRANS_NONSEQ resp=AHB_RESP_ERROR wdata=0xedeeea58
# UVM_INFO ../src/mst/ahb_master_driver.sv(342) @ 1295000: uvm_test_top.env.master_agent.drv [ahb_master_driver] ERROR response on beat 0/8 - cancelling remaining burst
# UVM_INFO ../src/mst/ahb_master_driver.sv(376) @ 1295000: uvm_test_top.env.master_agent.drv [ahb_master_driver] Transaction complete: AHB_WRITE 0x00009080, 8 beats, burst=AHB_BURST_INCR8
# UVM_INFO ../src/slv/ahb_slave_driver.sv(184) @ 1295000: uvm_test_top.env.slave_agent.drv [ahb_slave_driver] Beat AHB_WRITE addr=0x00009080 resp=AHB_RESP_ERROR waits=2 wdata=0xedeeea58
# UVM_INFO ../src/slv/ahb_slave_monitor.sv(197) @ 1295000: uvm_test_top.env.slave_agent.mon [ahb_slave_monitor] Observed [AHB_WRITE]: HADDR=0x00009080, HBURST=AHB_BURST_INCR8, HSIZE=AHB_SIZE_16B, 1 beats
# UVM_INFO ../src/env/ahb_coverage.sv(126) @ 1295000: uvm_test_top.env.slave_cov [ahb_coverage] Sampled [AHB_WRITE]: burst=AHB_BURST_INCR8 size=AHB_SIZE_16B beats=8 error=1
# UVM_INFO ../src/mst/ahb_master_monitor.sv(117) @ 1295000: uvm_test_top.env.master_agent.mon [ahb_master_monitor] Beat[0] addr=0x00009080 wdata=0xedeeea58 resp=AHB_RESP_ERROR
# UVM_INFO ../src/mst/ahb_master_monitor.sv(220) @ 1295000: uvm_test_top.env.master_agent.mon [ahb_master_monitor] Observed [AHB_WRITE]: HADDR=0x00009080, HBURST=AHB_BURST_INCR8, HSIZE=AHB_SIZE_16B, 1 beats
# UVM_INFO ../src/env/ahb_coverage.sv(126) @ 1295000: uvm_test_top.env.master_cov [ahb_coverage] Sampled [AHB_WRITE]: burst=AHB_BURST_INCR8 size=AHB_SIZE_16B beats=8 error=1
# UVM_INFO ../src/env/ahb_scoreboard.sv(104) @ 1295000: uvm_test_top.env.scb [ahb_scoreboard] MATCH #9: [AHB_WRITE] HADDR=0x00009080 AHB_BURST_INCR8 8 beats
# UVM_INFO ../src/mst_seq/ahb_error_seq.sv(131) @ 1295000: uvm_test_top.env.master_agent.sqr@@mst_seq [ahb_error_seq] AHB_WRITE AHB_BURST_INCR8 @0x00009080: ERROR on beat 0 of 8, policy=  cancel, drove 1
# UVM_INFO ../src/mst/ahb_master_driver.sv(85) @ 1295000: uvm_test_top.env.master_agent.drv [ahb_master_driver] Queueing [AHB_READ]: HADDR=0x0000810f, HBURST=AHB_BURST_WRAP16, HSIZE=AHB_SIZE_8B, 16 beats
# UVM_INFO ../src/mst/ahb_master_driver.sv(127) @ 1295000: uvm_test_top.env.master_agent.drv [ahb_master_driver] Driving [AHB_READ]: HADDR=0x0000810f, HBURST=AHB_BURST_WRAP16, HSIZE=AHB_SIZE_8B, 16 beats               
# UVM_INFO ../src/slv_seq/ahb_slave_error_seq.sv(88) @ 1315000: uvm_test_top.env.slave_agent.sqr@@slv_seq [ahb_slave_error_seq] Response 38: AHB_READ @0x0000810f -> AHB_RESP_OKAY, 0 wait states           
# UVM_INFO ../src/mst/ahb_master_driver.sv(332) @ 1325000: uvm_test_top.env.master_agent.drv [ahb_master_driver] Beat[0/16] addr=0x0000810f trans=AHB_TRANS_NONSEQ resp=AHB_RESP_OKAY rdata=0xe76460e1
# UVM_INFO ../src/slv/ahb_slave_driver.sv(184) @ 1325000: uvm_test_top.env.slave_agent.drv [ahb_slave_driver] Beat AHB_READ addr=0x0000810f resp=AHB_RESP_OKAY waits=0 rdata=0xe76460e1
# UVM_INFO ../src/mst/ahb_master_monitor.sv(117) @ 1325000: uvm_test_top.env.master_agent.mon [ahb_master_monitor] Beat[0] addr=0x0000810f rdata=0xe76460e1 resp=AHB_RESP_OKAY
# UVM_INFO ../src/slv_seq/ahb_slave_error_seq.sv(88) @ 1325000: uvm_test_top.env.slave_agent.sqr@@slv_seq [ahb_slave_error_seq] Response 39: AHB_READ @0x00008100 -> AHB_RESP_ERROR, 0 wait states           
# UVM_INFO ../src/mst/ahb_master_driver.sv(332) @ 1345000: uvm_test_top.env.master_agent.drv [ahb_master_driver] Beat[1/16] addr=0x00008100 trans=AHB_TRANS_SEQ resp=AHB_RESP_ERROR rdata=0xe76460e1
# UVM_INFO ../src/mst/ahb_master_driver.sv(342) @ 1345000: uvm_test_top.env.master_agent.drv [ahb_master_driver] ERROR response on beat 1/16 - cancelling remaining burst
# UVM_INFO ../src/mst/ahb_master_driver.sv(376) @ 1345000: uvm_test_top.env.master_agent.drv [ahb_master_driver] Transaction complete: AHB_READ 0x0000810f, 16 beats, burst=AHB_BURST_WRAP16
# UVM_INFO ../src/slv/ahb_slave_driver.sv(184) @ 1345000: uvm_test_top.env.slave_agent.drv [ahb_slave_driver] Beat AHB_READ addr=0x00008100 resp=AHB_RESP_ERROR waits=0 rdata=0xb1813476
# UVM_INFO ../src/mst/ahb_master_monitor.sv(117) @ 1345000: uvm_test_top.env.master_agent.mon [ahb_master_monitor] Beat[1] addr=0x00008100 rdata=0xe76460e1 resp=AHB_RESP_ERROR
# UVM_INFO ../src/mst/ahb_master_monitor.sv(220) @ 1345000: uvm_test_top.env.master_agent.mon [ahb_master_monitor] Observed [AHB_READ]: HADDR=0x0000810f, HBURST=AHB_BURST_WRAP16, HSIZE=AHB_SIZE_8B, 2 beats
# UVM_INFO ../src/env/ahb_coverage.sv(126) @ 1345000: uvm_test_top.env.master_cov [ahb_coverage] Sampled [AHB_READ]: burst=AHB_BURST_WRAP16 size=AHB_SIZE_8B beats=16 error=1
# UVM_INFO ../src/slv/ahb_slave_monitor.sv(197) @ 1345000: uvm_test_top.env.slave_agent.mon [ahb_slave_monitor] Observed [AHB_READ]: HADDR=0x0000810f, HBURST=AHB_BURST_WRAP16, HSIZE=AHB_SIZE_8B, 2 beats
# UVM_INFO ../src/env/ahb_scoreboard.sv(104) @ 1345000: uvm_test_top.env.scb [ahb_scoreboard] MATCH #10: [AHB_READ] HADDR=0x0000810f AHB_BURST_WRAP16 16 beats
# UVM_INFO ../src/env/ahb_coverage.sv(126) @ 1345000: uvm_test_top.env.slave_cov [ahb_coverage] Sampled [AHB_READ]: burst=AHB_BURST_WRAP16 size=AHB_SIZE_8B beats=16 error=1
# UVM_INFO ../src/mst_seq/ahb_error_seq.sv(131) @ 1345000: uvm_test_top.env.master_agent.sqr@@mst_seq [ahb_error_seq] AHB_READ AHB_BURST_WRAP16 @0x0000810f: ERROR on beat 1 of 16, policy=  cancel, drove 2
# UVM_INFO ../src/mst/ahb_master_driver.sv(85) @ 1345000: uvm_test_top.env.master_agent.drv [ahb_master_driver] Queueing [AHB_WRITE]: HADDR=0x00007170, HBURST=AHB_BURST_INCR8, HSIZE=AHB_SIZE_8B, 8 beats
# UVM_INFO ../src/mst/ahb_master_driver.sv(127) @ 1345000: uvm_test_top.env.master_agent.drv [ahb_master_driver] Driving [AHB_WRITE]: HADDR=0x00007170, HBURST=AHB_BURST_INCR8, HSIZE=AHB_SIZE_8B, 8 beats               
# UVM_INFO ../src/slv_seq/ahb_slave_error_seq.sv(88) @ 1365000: uvm_test_top.env.slave_agent.sqr@@slv_seq [ahb_slave_error_seq] Response 40: AHB_WRITE @0x00007170 -> AHB_RESP_OKAY, 1 wait states           
# UVM_INFO ../src/mst/ahb_master_driver.sv(332) @ 1385000: uvm_test_top.env.master_agent.drv [ahb_master_driver] Beat[0/8] addr=0x00007170 trans=AHB_TRANS_NONSEQ resp=AHB_RESP_OKAY wdata=0x64146d33
# UVM_INFO ../src/slv/ahb_slave_driver.sv(184) @ 1385000: uvm_test_top.env.slave_agent.drv [ahb_slave_driver] Beat AHB_WRITE addr=0x00007170 resp=AHB_RESP_OKAY waits=1 wdata=0x64146d33
# UVM_INFO ../src/mst/ahb_master_monitor.sv(117) @ 1385000: uvm_test_top.env.master_agent.mon [ahb_master_monitor] Beat[0] addr=0x00007170 wdata=0x64146d33 resp=AHB_RESP_OKAY
# UVM_INFO ../src/slv_seq/ahb_slave_error_seq.sv(88) @ 1385000: uvm_test_top.env.slave_agent.sqr@@slv_seq [ahb_slave_error_seq] Response 41: AHB_WRITE @0x00007171 -> AHB_RESP_OKAY, 1 wait states           
# UVM_INFO ../src/mst/ahb_master_driver.sv(332) @ 1405000: uvm_test_top.env.master_agent.drv [ahb_master_driver] Beat[1/8] addr=0x00007171 trans=AHB_TRANS_SEQ resp=AHB_RESP_OKAY wdata=0x97370875
# UVM_INFO ../src/slv/ahb_slave_driver.sv(184) @ 1405000: uvm_test_top.env.slave_agent.drv [ahb_slave_driver] Beat AHB_WRITE addr=0x00007171 resp=AHB_RESP_OKAY waits=1 wdata=0x97370875
# UVM_INFO ../src/mst/ahb_master_monitor.sv(117) @ 1405000: uvm_test_top.env.master_agent.mon [ahb_master_monitor] Beat[1] addr=0x00007171 wdata=0x97370875 resp=AHB_RESP_OKAY
# UVM_INFO ../src/slv_seq/ahb_slave_error_seq.sv(88) @ 1405000: uvm_test_top.env.slave_agent.sqr@@slv_seq [ahb_slave_error_seq] Response 42: AHB_WRITE @0x00007172 -> AHB_RESP_ERROR, 2 wait states           
# UVM_INFO ../src/mst/ahb_master_driver.sv(332) @ 1445000: uvm_test_top.env.master_agent.drv [ahb_master_driver] Beat[2/8] addr=0x00007172 trans=AHB_TRANS_SEQ resp=AHB_RESP_ERROR wdata=0x9b28be57
# UVM_INFO ../src/mst/ahb_master_driver.sv(349) @ 1445000: uvm_test_top.env.master_agent.drv [ahb_master_driver] ERROR response on beat 2/8 - continuing burst (abort_on_error=0)
# UVM_INFO ../src/slv/ahb_slave_driver.sv(184) @ 1445000: uvm_test_top.env.slave_agent.drv [ahb_slave_driver] Beat AHB_WRITE addr=0x00007172 resp=AHB_RESP_ERROR waits=2 wdata=0x9b28be57
# UVM_INFO ../src/mst/ahb_master_monitor.sv(117) @ 1445000: uvm_test_top.env.master_agent.mon [ahb_master_monitor] Beat[2] addr=0x00007172 wdata=0x9b28be57 resp=AHB_RESP_ERROR
# UVM_INFO ../src/slv_seq/ahb_slave_error_seq.sv(88) @ 1445000: uvm_test_top.env.slave_agent.sqr@@slv_seq [ahb_slave_error_seq] Response 43: AHB_WRITE @0x00007173 -> AHB_RESP_OKAY, 2 wait states           
# UVM_INFO ../src/mst/ahb_master_driver.sv(332) @ 1475000: uvm_test_top.env.master_agent.drv [ahb_master_driver] Beat[3/8] addr=0x00007173 trans=AHB_TRANS_SEQ resp=AHB_RESP_OKAY wdata=0x9137fefe
# UVM_INFO ../src/slv/ahb_slave_driver.sv(184) @ 1475000: uvm_test_top.env.slave_agent.drv [ahb_slave_driver] Beat AHB_WRITE addr=0x00007173 resp=AHB_RESP_OKAY waits=2 wdata=0x9137fefe
# UVM_INFO ../src/mst/ahb_master_monitor.sv(117) @ 1475000: uvm_test_top.env.master_agent.mon [ahb_master_monitor] Beat[3] addr=0x00007173 wdata=0x9137fefe resp=AHB_RESP_OKAY
# UVM_INFO ../src/slv_seq/ahb_slave_error_seq.sv(88) @ 1475000: uvm_test_top.env.slave_agent.sqr@@slv_seq [ahb_slave_error_seq] Response 44: AHB_WRITE @0x00007174 -> AHB_RESP_OKAY, 0 wait states           
# UVM_INFO ../src/mst/ahb_master_driver.sv(332) @ 1485000: uvm_test_top.env.master_agent.drv [ahb_master_driver] Beat[4/8] addr=0x00007174 trans=AHB_TRANS_SEQ resp=AHB_RESP_OKAY wdata=0xec3e23e5
# UVM_INFO ../src/slv/ahb_slave_driver.sv(184) @ 1485000: uvm_test_top.env.slave_agent.drv [ahb_slave_driver] Beat AHB_WRITE addr=0x00007174 resp=AHB_RESP_OKAY waits=0 wdata=0xec3e23e5
# UVM_INFO ../src/mst/ahb_master_monitor.sv(117) @ 1485000: uvm_test_top.env.master_agent.mon [ahb_master_monitor] Beat[4] addr=0x00007174 wdata=0xec3e23e5 resp=AHB_RESP_OKAY
# UVM_INFO ../src/slv_seq/ahb_slave_error_seq.sv(88) @ 1485000: uvm_test_top.env.slave_agent.sqr@@slv_seq [ahb_slave_error_seq] Response 45: AHB_WRITE @0x00007175 -> AHB_RESP_OKAY, 2 wait states           
# UVM_INFO ../src/mst/ahb_master_driver.sv(332) @ 1515000: uvm_test_top.env.master_agent.drv [ahb_master_driver] Beat[5/8] addr=0x00007175 trans=AHB_TRANS_SEQ resp=AHB_RESP_OKAY wdata=0x7efb71db
# UVM_INFO ../src/slv/ahb_slave_driver.sv(184) @ 1515000: uvm_test_top.env.slave_agent.drv [ahb_slave_driver] Beat AHB_WRITE addr=0x00007175 resp=AHB_RESP_OKAY waits=2 wdata=0x7efb71db
# UVM_INFO ../src/mst/ahb_master_monitor.sv(117) @ 1515000: uvm_test_top.env.master_agent.mon [ahb_master_monitor] Beat[5] addr=0x00007175 wdata=0x7efb71db resp=AHB_RESP_OKAY
# UVM_INFO ../src/slv_seq/ahb_slave_error_seq.sv(88) @ 1515000: uvm_test_top.env.slave_agent.sqr@@slv_seq [ahb_slave_error_seq] Response 46: AHB_WRITE @0x00007176 -> AHB_RESP_OKAY, 0 wait states           
# UVM_INFO ../src/mst/ahb_master_driver.sv(332) @ 1525000: uvm_test_top.env.master_agent.drv [ahb_master_driver] Beat[6/8] addr=0x00007176 trans=AHB_TRANS_SEQ resp=AHB_RESP_OKAY wdata=0x20707005
# UVM_INFO ../src/slv/ahb_slave_driver.sv(184) @ 1525000: uvm_test_top.env.slave_agent.drv [ahb_slave_driver] Beat AHB_WRITE addr=0x00007176 resp=AHB_RESP_OKAY waits=0 wdata=0x20707005
# UVM_INFO ../src/mst/ahb_master_monitor.sv(117) @ 1525000: uvm_test_top.env.master_agent.mon [ahb_master_monitor] Beat[6] addr=0x00007176 wdata=0x20707005 resp=AHB_RESP_OKAY
# UVM_INFO ../src/slv_seq/ahb_slave_error_seq.sv(88) @ 1525000: uvm_test_top.env.slave_agent.sqr@@slv_seq [ahb_slave_error_seq] Response 47: AHB_WRITE @0x00007177 -> AHB_RESP_OKAY, 0 wait states           
# UVM_INFO ../src/mst/ahb_master_driver.sv(332) @ 1535000: uvm_test_top.env.master_agent.drv [ahb_master_driver] Beat[7/8] addr=0x00007177 trans=AHB_TRANS_SEQ resp=AHB_RESP_OKAY wdata=0x83c22956
# UVM_INFO ../src/mst/ahb_master_driver.sv(376) @ 1535000: uvm_test_top.env.master_agent.drv [ahb_master_driver] Transaction complete: AHB_WRITE 0x00007170, 8 beats, burst=AHB_BURST_INCR8
# UVM_INFO ../src/slv/ahb_slave_driver.sv(184) @ 1535000: uvm_test_top.env.slave_agent.drv [ahb_slave_driver] Beat AHB_WRITE addr=0x00007177 resp=AHB_RESP_OKAY waits=0 wdata=0x83c22956
# UVM_INFO ../src/slv/ahb_slave_monitor.sv(197) @ 1535000: uvm_test_top.env.slave_agent.mon [ahb_slave_monitor] Observed [AHB_WRITE]: HADDR=0x00007170, HBURST=AHB_BURST_INCR8, HSIZE=AHB_SIZE_8B, 8 beats
# UVM_INFO ../src/env/ahb_coverage.sv(126) @ 1535000: uvm_test_top.env.slave_cov [ahb_coverage] Sampled [AHB_WRITE]: burst=AHB_BURST_INCR8 size=AHB_SIZE_8B beats=8 error=1
# UVM_INFO ../src/mst/ahb_master_monitor.sv(117) @ 1535000: uvm_test_top.env.master_agent.mon [ahb_master_monitor] Beat[7] addr=0x00007177 wdata=0x83c22956 resp=AHB_RESP_OKAY
# UVM_INFO ../src/mst/ahb_master_monitor.sv(220) @ 1535000: uvm_test_top.env.master_agent.mon [ahb_master_monitor] Observed [AHB_WRITE]: HADDR=0x00007170, HBURST=AHB_BURST_INCR8, HSIZE=AHB_SIZE_8B, 8 beats
# UVM_INFO ../src/env/ahb_coverage.sv(126) @ 1535000: uvm_test_top.env.master_cov [ahb_coverage] Sampled [AHB_WRITE]: burst=AHB_BURST_INCR8 size=AHB_SIZE_8B beats=8 error=1
# UVM_INFO ../src/env/ahb_scoreboard.sv(104) @ 1535000: uvm_test_top.env.scb [ahb_scoreboard] MATCH #11: [AHB_WRITE] HADDR=0x00007170 AHB_BURST_INCR8 8 beats
# UVM_INFO ../src/mst_seq/ahb_error_seq.sv(131) @ 1535000: uvm_test_top.env.master_agent.sqr@@mst_seq [ahb_error_seq] AHB_WRITE AHB_BURST_INCR8 @0x00007170: ERROR on beat 2 of 8, policy=continue, drove 8
# UVM_INFO ../src/mst/ahb_master_driver.sv(85) @ 1535000: uvm_test_top.env.master_agent.drv [ahb_master_driver] Queueing [AHB_READ]: HADDR=0x000090d1, HBURST=AHB_BURST_SINGLE, HSIZE=AHB_SIZE_8B, 1 beats
# UVM_INFO ../src/mst/ahb_master_driver.sv(127) @ 1535000: uvm_test_top.env.master_agent.drv [ahb_master_driver] Driving [AHB_READ]: HADDR=0x000090d1, HBURST=AHB_BURST_SINGLE, HSIZE=AHB_SIZE_8B, 1 beats               
# UVM_INFO ../src/slv_seq/ahb_slave_error_seq.sv(88) @ 1555000: uvm_test_top.env.slave_agent.sqr@@slv_seq [ahb_slave_error_seq] Response 48: AHB_READ @0x000090d1 -> AHB_RESP_ERROR, 0 wait states (unmapped)
# UVM_INFO ../src/mst/ahb_master_driver.sv(332) @ 1575000: uvm_test_top.env.master_agent.drv [ahb_master_driver] Beat[0/1] addr=0x000090d1 trans=AHB_TRANS_NONSEQ resp=AHB_RESP_ERROR rdata=0xe76460e1
# UVM_INFO ../src/mst/ahb_master_driver.sv(349) @ 1575000: uvm_test_top.env.master_agent.drv [ahb_master_driver] ERROR response on beat 0/1 - continuing burst (abort_on_error=0)
# UVM_INFO ../src/mst/ahb_master_driver.sv(376) @ 1575000: uvm_test_top.env.master_agent.drv [ahb_master_driver] Transaction complete: AHB_READ 0x000090d1, 1 beats, burst=AHB_BURST_SINGLE
# UVM_INFO ../src/slv/ahb_slave_driver.sv(184) @ 1575000: uvm_test_top.env.slave_agent.drv [ahb_slave_driver] Beat AHB_READ addr=0x000090d1 resp=AHB_RESP_ERROR waits=0 rdata=0x52190e00
# UVM_INFO ../src/slv/ahb_slave_monitor.sv(197) @ 1575000: uvm_test_top.env.slave_agent.mon [ahb_slave_monitor] Observed [AHB_READ]: HADDR=0x000090d1, HBURST=AHB_BURST_SINGLE, HSIZE=AHB_SIZE_8B, 1 beats
# UVM_INFO ../src/env/ahb_coverage.sv(126) @ 1575000: uvm_test_top.env.slave_cov [ahb_coverage] Sampled [AHB_READ]: burst=AHB_BURST_SINGLE size=AHB_SIZE_8B beats=1 error=1
# UVM_INFO ../src/mst/ahb_master_monitor.sv(117) @ 1575000: uvm_test_top.env.master_agent.mon [ahb_master_monitor] Beat[0] addr=0x000090d1 rdata=0xe76460e1 resp=AHB_RESP_ERROR
# UVM_INFO ../src/mst/ahb_master_monitor.sv(220) @ 1575000: uvm_test_top.env.master_agent.mon [ahb_master_monitor] Observed [AHB_READ]: HADDR=0x000090d1, HBURST=AHB_BURST_SINGLE, HSIZE=AHB_SIZE_8B, 1 beats
# UVM_INFO ../src/env/ahb_coverage.sv(126) @ 1575000: uvm_test_top.env.master_cov [ahb_coverage] Sampled [AHB_READ]: burst=AHB_BURST_SINGLE size=AHB_SIZE_8B beats=1 error=1
# UVM_INFO ../src/env/ahb_scoreboard.sv(104) @ 1575000: uvm_test_top.env.scb [ahb_scoreboard] MATCH #12: [AHB_READ] HADDR=0x000090d1 AHB_BURST_SINGLE 1 beats
# UVM_INFO ../src/mst_seq/ahb_error_seq.sv(131) @ 1575000: uvm_test_top.env.master_agent.sqr@@mst_seq [ahb_error_seq] AHB_READ AHB_BURST_SINGLE @0x000090d1: ERROR on beat 0 of 1, policy=continue, drove 1
# UVM_INFO ../src/mst/ahb_master_driver.sv(85) @ 1575000: uvm_test_top.env.master_agent.drv [ahb_master_driver] Queueing [AHB_WRITE]: HADDR=0x0000718d, HBURST=AHB_BURST_INCR4, HSIZE=AHB_SIZE_8B, 4 beats
# UVM_INFO ../src/mst/ahb_master_driver.sv(127) @ 1575000: uvm_test_top.env.master_agent.drv [ahb_master_driver] Driving [AHB_WRITE]: HADDR=0x0000718d, HBURST=AHB_BURST_INCR4, HSIZE=AHB_SIZE_8B, 4 beats               
# UVM_INFO ../src/slv_seq/ahb_slave_error_seq.sv(88) @ 1595000: uvm_test_top.env.slave_agent.sqr@@slv_seq [ahb_slave_error_seq] Response 49: AHB_WRITE @0x0000718d -> AHB_RESP_OKAY, 0 wait states           
# UVM_INFO ../src/mst/ahb_master_driver.sv(332) @ 1605000: uvm_test_top.env.master_agent.drv [ahb_master_driver] Beat[0/4] addr=0x0000718d trans=AHB_TRANS_NONSEQ resp=AHB_RESP_OKAY wdata=0x81f51133
# UVM_INFO ../src/slv/ahb_slave_driver.sv(184) @ 1605000: uvm_test_top.env.slave_agent.drv [ahb_slave_driver] Beat AHB_WRITE addr=0x0000718d resp=AHB_RESP_OKAY waits=0 wdata=0x81f51133
# UVM_INFO ../src/mst/ahb_master_monitor.sv(117) @ 1605000: uvm_test_top.env.master_agent.mon [ahb_master_monitor] Beat[0] addr=0x0000718d wdata=0x81f51133 resp=AHB_RESP_OKAY
# UVM_INFO ../src/slv_seq/ahb_slave_error_seq.sv(88) @ 1605000: uvm_test_top.env.slave_agent.sqr@@slv_seq [ahb_slave_error_seq] Response 50: AHB_WRITE @0x0000718e -> AHB_RESP_OKAY, 0 wait states           
# UVM_INFO ../src/mst/ahb_master_driver.sv(332) @ 1615000: uvm_test_top.env.master_agent.drv [ahb_master_driver] Beat[1/4] addr=0x0000718e trans=AHB_TRANS_SEQ resp=AHB_RESP_OKAY wdata=0xbe9af9e4
# UVM_INFO ../src/slv/ahb_slave_driver.sv(184) @ 1615000: uvm_test_top.env.slave_agent.drv [ahb_slave_driver] Beat AHB_WRITE addr=0x0000718e resp=AHB_RESP_OKAY waits=0 wdata=0xbe9af9e4
# UVM_INFO ../src/mst/ahb_master_monitor.sv(117) @ 1615000: uvm_test_top.env.master_agent.mon [ahb_master_monitor] Beat[1] addr=0x0000718e wdata=0xbe9af9e4 resp=AHB_RESP_OKAY
# UVM_INFO ../src/slv_seq/ahb_slave_error_seq.sv(88) @ 1615000: uvm_test_top.env.slave_agent.sqr@@slv_seq [ahb_slave_error_seq] Response 51: AHB_WRITE @0x0000718f -> AHB_RESP_ERROR, 2 wait states           
# UVM_INFO ../src/mst/ahb_master_driver.sv(332) @ 1655000: uvm_test_top.env.master_agent.drv [ahb_master_driver] Beat[2/4] addr=0x0000718f trans=AHB_TRANS_SEQ resp=AHB_RESP_ERROR wdata=0x722a4c18
# UVM_INFO ../src/mst/ahb_master_driver.sv(342) @ 1655000: uvm_test_top.env.master_agent.drv [ahb_master_driver] ERROR response on beat 2/4 - cancelling remaining burst
# UVM_INFO ../src/mst/ahb_master_driver.sv(376) @ 1655000: uvm_test_top.env.master_agent.drv [ahb_master_driver] Transaction complete: AHB_WRITE 0x0000718d, 4 beats, burst=AHB_BURST_INCR4
# UVM_INFO ../src/slv/ahb_slave_driver.sv(184) @ 1655000: uvm_test_top.env.slave_agent.drv [ahb_slave_driver] Beat AHB_WRITE addr=0x0000718f resp=AHB_RESP_ERROR waits=2 wdata=0x722a4c18
# UVM_INFO ../src/slv/ahb_slave_monitor.sv(197) @ 1655000: uvm_test_top.env.slave_agent.mon [ahb_slave_monitor] Observed [AHB_WRITE]: HADDR=0x0000718d, HBURST=AHB_BURST_INCR4, HSIZE=AHB_SIZE_8B, 3 beats
# UVM_INFO ../src/env/ahb_coverage.sv(126) @ 1655000: uvm_test_top.env.slave_cov [ahb_coverage] Sampled [AHB_WRITE]: burst=AHB_BURST_INCR4 size=AHB_SIZE_8B beats=4 error=1
# UVM_INFO ../src/mst/ahb_master_monitor.sv(117) @ 1655000: uvm_test_top.env.master_agent.mon [ahb_master_monitor] Beat[2] addr=0x0000718f wdata=0x722a4c18 resp=AHB_RESP_ERROR
# UVM_INFO ../src/mst/ahb_master_monitor.sv(220) @ 1655000: uvm_test_top.env.master_agent.mon [ahb_master_monitor] Observed [AHB_WRITE]: HADDR=0x0000718d, HBURST=AHB_BURST_INCR4, HSIZE=AHB_SIZE_8B, 3 beats
# UVM_INFO ../src/env/ahb_coverage.sv(126) @ 1655000: uvm_test_top.env.master_cov [ahb_coverage] Sampled [AHB_WRITE]: burst=AHB_BURST_INCR4 size=AHB_SIZE_8B beats=4 error=1
# UVM_INFO ../src/env/ahb_scoreboard.sv(104) @ 1655000: uvm_test_top.env.scb [ahb_scoreboard] MATCH #13: [AHB_WRITE] HADDR=0x0000718d AHB_BURST_INCR4 4 beats
# UVM_INFO ../src/mst_seq/ahb_error_seq.sv(131) @ 1655000: uvm_test_top.env.master_agent.sqr@@mst_seq [ahb_error_seq] AHB_WRITE AHB_BURST_INCR4 @0x0000718d: ERROR on beat 2 of 4, policy=  cancel, drove 3
# UVM_INFO ../src/mst/ahb_master_driver.sv(85) @ 1655000: uvm_test_top.env.master_agent.drv [ahb_master_driver] Queueing [AHB_READ]: HADDR=0x000081b8, HBURST=AHB_BURST_SINGLE, HSIZE=AHB_SIZE_32B, 1 beats
# UVM_INFO ../src/mst/ahb_master_driver.sv(127) @ 1655000: uvm_test_top.env.master_agent.drv [ahb_master_driver] Driving [AHB_READ]: HADDR=0x000081b8, HBURST=AHB_BURST_SINGLE, HSIZE=AHB_SIZE_32B, 1 beats               
# UVM_INFO ../src/slv_seq/ahb_slave_error_seq.sv(88) @ 1675000: uvm_test_top.env.slave_agent.sqr@@slv_seq [ahb_slave_error_seq] Response 52: AHB_READ @0x000081b8 -> AHB_RESP_OKAY, 1 wait states           
# UVM_INFO ../src/mst/ahb_master_driver.sv(332) @ 1695000: uvm_test_top.env.master_agent.drv [ahb_master_driver] Beat[0/1] addr=0x000081b8 trans=AHB_TRANS_NONSEQ resp=AHB_RESP_OKAY rdata=0x1747b870
# UVM_INFO ../src/mst/ahb_master_driver.sv(376) @ 1695000: uvm_test_top.env.master_agent.drv [ahb_master_driver] Transaction complete: AHB_READ 0x000081b8, 1 beats, burst=AHB_BURST_SINGLE
# UVM_INFO ../src/slv/ahb_slave_driver.sv(184) @ 1695000: uvm_test_top.env.slave_agent.drv [ahb_slave_driver] Beat AHB_READ addr=0x000081b8 resp=AHB_RESP_OKAY waits=1 rdata=0x1747b870
# UVM_INFO ../src/slv/ahb_slave_monitor.sv(197) @ 1695000: uvm_test_top.env.slave_agent.mon [ahb_slave_monitor] Observed [AHB_READ]: HADDR=0x000081b8, HBURST=AHB_BURST_SINGLE, HSIZE=AHB_SIZE_32B, 1 beats
# UVM_INFO ../src/env/ahb_coverage.sv(126) @ 1695000: uvm_test_top.env.slave_cov [ahb_coverage] Sampled [AHB_READ]: burst=AHB_BURST_SINGLE size=AHB_SIZE_32B beats=1 error=0
# UVM_INFO ../src/mst/ahb_master_monitor.sv(117) @ 1695000: uvm_test_top.env.master_agent.mon [ahb_master_monitor] Beat[0] addr=0x000081b8 rdata=0x1747b870 resp=AHB_RESP_OKAY
# UVM_INFO ../src/mst/ahb_master_monitor.sv(220) @ 1695000: uvm_test_top.env.master_agent.mon [ahb_master_monitor] Observed [AHB_READ]: HADDR=0x000081b8, HBURST=AHB_BURST_SINGLE, HSIZE=AHB_SIZE_32B, 1 beats
# UVM_INFO ../src/env/ahb_coverage.sv(126) @ 1695000: uvm_test_top.env.master_cov [ahb_coverage] Sampled [AHB_READ]: burst=AHB_BURST_SINGLE size=AHB_SIZE_32B beats=1 error=0
# UVM_INFO ../src/env/ahb_scoreboard.sv(104) @ 1695000: uvm_test_top.env.scb [ahb_scoreboard] MATCH #14: [AHB_READ] HADDR=0x000081b8 AHB_BURST_SINGLE 1 beats
# UVM_INFO ../src/mst/ahb_master_driver.sv(85) @ 1695000: uvm_test_top.env.master_agent.drv [ahb_master_driver] Queueing [AHB_WRITE]: HADDR=0x00009120, HBURST=AHB_BURST_INCR4, HSIZE=AHB_SIZE_16B, 4 beats
# UVM_INFO ../src/mst/ahb_master_driver.sv(127) @ 1695000: uvm_test_top.env.master_agent.drv [ahb_master_driver] Driving [AHB_WRITE]: HADDR=0x00009120, HBURST=AHB_BURST_INCR4, HSIZE=AHB_SIZE_16B, 4 beats               
# UVM_INFO ../src/slv_seq/ahb_slave_error_seq.sv(88) @ 1715000: uvm_test_top.env.slave_agent.sqr@@slv_seq [ahb_slave_error_seq] Response 53: AHB_WRITE @0x00009120 -> AHB_RESP_ERROR, 0 wait states (unmapped)
# UVM_INFO ../src/mst/ahb_master_driver.sv(332) @ 1735000: uvm_test_top.env.master_agent.drv [ahb_master_driver] Beat[0/4] addr=0x00009120 trans=AHB_TRANS_NONSEQ resp=AHB_RESP_ERROR wdata=0xdb69b9b7
# UVM_INFO ../src/mst/ahb_master_driver.sv(349) @ 1735000: uvm_test_top.env.master_agent.drv [ahb_master_driver] ERROR response on beat 0/4 - continuing burst (abort_on_error=0)
# UVM_INFO ../src/slv/ahb_slave_driver.sv(184) @ 1735000: uvm_test_top.env.slave_agent.drv [ahb_slave_driver] Beat AHB_WRITE addr=0x00009120 resp=AHB_RESP_ERROR waits=0 wdata=0xdb69b9b7
# UVM_INFO ../src/mst/ahb_master_monitor.sv(117) @ 1735000: uvm_test_top.env.master_agent.mon [ahb_master_monitor] Beat[0] addr=0x00009120 wdata=0xdb69b9b7 resp=AHB_RESP_ERROR
# UVM_INFO ../src/slv_seq/ahb_slave_error_seq.sv(88) @ 1735000: uvm_test_top.env.slave_agent.sqr@@slv_seq [ahb_slave_error_seq] Response 54: AHB_WRITE @0x00009122 -> AHB_RESP_ERROR, 0 wait states (unmapped)
# UVM_INFO ../src/mst/ahb_master_driver.sv(332) @ 1755000: uvm_test_top.env.master_agent.drv [ahb_master_driver] Beat[1/4] addr=0x00009122 trans=AHB_TRANS_SEQ resp=AHB_RESP_ERROR wdata=0xd6d2c69c
# UVM_INFO ../src/mst/ahb_master_driver.sv(349) @ 1755000: uvm_test_top.env.master_agent.drv [ahb_master_driver] ERROR response on beat 1/4 - continuing burst (abort_on_error=0)
# UVM_INFO ../src/slv/ahb_slave_driver.sv(184) @ 1755000: uvm_test_top.env.slave_agent.drv [ahb_slave_driver] Beat AHB_WRITE addr=0x00009122 resp=AHB_RESP_ERROR waits=0 wdata=0xd6d2c69c
# UVM_INFO ../src/mst/ahb_master_monitor.sv(117) @ 1755000: uvm_test_top.env.master_agent.mon [ahb_master_monitor] Beat[1] addr=0x00009122 wdata=0xd6d2c69c resp=AHB_RESP_ERROR
# UVM_INFO ../src/slv_seq/ahb_slave_error_seq.sv(88) @ 1755000: uvm_test_top.env.slave_agent.sqr@@slv_seq [ahb_slave_error_seq] Response 55: AHB_WRITE @0x00009124 -> AHB_RESP_ERROR, 2 wait states (unmapped)
# UVM_INFO ../src/mst/ahb_master_driver.sv(332) @ 1795000: uvm_test_top.env.master_agent.drv [ahb_master_driver] Beat[2/4] addr=0x00009124 trans=AHB_TRANS_SEQ resp=AHB_RESP_ERROR wdata=0x7d4abae3
# UVM_INFO ../src/mst/ahb_master_driver.sv(349) @ 1795000: uvm_test_top.env.master_agent.drv [ahb_master_driver] ERROR response on beat 2/4 - continuing burst (abort_on_error=0)
# UVM_INFO ../src/slv/ahb_slave_driver.sv(184) @ 1795000: uvm_test_top.env.slave_agent.drv [ahb_slave_driver] Beat AHB_WRITE addr=0x00009124 resp=AHB_RESP_ERROR waits=2 wdata=0x7d4abae3
# UVM_INFO ../src/mst/ahb_master_monitor.sv(117) @ 1795000: uvm_test_top.env.master_agent.mon [ahb_master_monitor] Beat[2] addr=0x00009124 wdata=0x7d4abae3 resp=AHB_RESP_ERROR
# UVM_INFO ../src/slv_seq/ahb_slave_error_seq.sv(88) @ 1795000: uvm_test_top.env.slave_agent.sqr@@slv_seq [ahb_slave_error_seq] Response 56: AHB_WRITE @0x00009126 -> AHB_RESP_ERROR, 1 wait states (unmapped)
# UVM_INFO ../src/mst/ahb_master_driver.sv(332) @ 1825000: uvm_test_top.env.master_agent.drv [ahb_master_driver] Beat[3/4] addr=0x00009126 trans=AHB_TRANS_SEQ resp=AHB_RESP_ERROR wdata=0xa4a3234a
# UVM_INFO ../src/mst/ahb_master_driver.sv(349) @ 1825000: uvm_test_top.env.master_agent.drv [ahb_master_driver] ERROR response on beat 3/4 - continuing burst (abort_on_error=0)
# UVM_INFO ../src/mst/ahb_master_driver.sv(376) @ 1825000: uvm_test_top.env.master_agent.drv [ahb_master_driver] Transaction complete: AHB_WRITE 0x00009120, 4 beats, burst=AHB_BURST_INCR4
# UVM_INFO ../src/slv/ahb_slave_driver.sv(184) @ 1825000: uvm_test_top.env.slave_agent.drv [ahb_slave_driver] Beat AHB_WRITE addr=0x00009126 resp=AHB_RESP_ERROR waits=1 wdata=0xa4a3234a
# UVM_INFO ../src/mst/ahb_master_monitor.sv(117) @ 1825000: uvm_test_top.env.master_agent.mon [ahb_master_monitor] Beat[3] addr=0x00009126 wdata=0xa4a3234a resp=AHB_RESP_ERROR
# UVM_INFO ../src/mst/ahb_master_monitor.sv(220) @ 1825000: uvm_test_top.env.master_agent.mon [ahb_master_monitor] Observed [AHB_WRITE]: HADDR=0x00009120, HBURST=AHB_BURST_INCR4, HSIZE=AHB_SIZE_16B, 4 beats
# UVM_INFO ../src/env/ahb_coverage.sv(126) @ 1825000: uvm_test_top.env.master_cov [ahb_coverage] Sampled [AHB_WRITE]: burst=AHB_BURST_INCR4 size=AHB_SIZE_16B beats=4 error=1
# UVM_INFO ../src/slv/ahb_slave_monitor.sv(197) @ 1825000: uvm_test_top.env.slave_agent.mon [ahb_slave_monitor] Observed [AHB_WRITE]: HADDR=0x00009120, HBURST=AHB_BURST_INCR4, HSIZE=AHB_SIZE_16B, 4 beats
# UVM_INFO ../src/env/ahb_scoreboard.sv(104) @ 1825000: uvm_test_top.env.scb [ahb_scoreboard] MATCH #15: [AHB_WRITE] HADDR=0x00009120 AHB_BURST_INCR4 4 beats
# UVM_INFO ../src/env/ahb_coverage.sv(126) @ 1825000: uvm_test_top.env.slave_cov [ahb_coverage] Sampled [AHB_WRITE]: burst=AHB_BURST_INCR4 size=AHB_SIZE_16B beats=4 error=1
# UVM_INFO ../src/mst_seq/ahb_error_seq.sv(131) @ 1825000: uvm_test_top.env.master_agent.sqr@@mst_seq [ahb_error_seq] AHB_WRITE AHB_BURST_INCR4 @0x00009120: ERROR on beat 0 of 4, policy=continue, drove 4
# UVM_INFO ../src/mst/ahb_master_driver.sv(85) @ 1825000: uvm_test_top.env.master_agent.drv [ahb_master_driver] Queueing [AHB_READ]: HADDR=0x000081e5, HBURST=AHB_BURST_SINGLE, HSIZE=AHB_SIZE_8B, 1 beats
# UVM_INFO ../src/mst/ahb_master_driver.sv(127) @ 1825000: uvm_test_top.env.master_agent.drv [ahb_master_driver] Driving [AHB_READ]: HADDR=0x000081e5, HBURST=AHB_BURST_SINGLE, HSIZE=AHB_SIZE_8B, 1 beats               
# UVM_INFO ../src/slv_seq/ahb_slave_error_seq.sv(88) @ 1845000: uvm_test_top.env.slave_agent.sqr@@slv_seq [ahb_slave_error_seq] Response 57: AHB_READ @0x000081e5 -> AHB_RESP_ERROR, 0 wait states           
# UVM_INFO ../src/mst/ahb_master_driver.sv(332) @ 1865000: uvm_test_top.env.master_agent.drv [ahb_master_driver] Beat[0/1] addr=0x000081e5 trans=AHB_TRANS_NONSEQ resp=AHB_RESP_ERROR rdata=0x1747b870
# UVM_INFO ../src/mst/ahb_master_driver.sv(349) @ 1865000: uvm_test_top.env.master_agent.drv [ahb_master_driver] ERROR response on beat 0/1 - continuing burst (abort_on_error=0)
# UVM_INFO ../src/mst/ahb_master_driver.sv(376) @ 1865000: uvm_test_top.env.master_agent.drv [ahb_master_driver] Transaction complete: AHB_READ 0x000081e5, 1 beats, burst=AHB_BURST_SINGLE
# UVM_INFO ../src/slv/ahb_slave_driver.sv(184) @ 1865000: uvm_test_top.env.slave_agent.drv [ahb_slave_driver] Beat AHB_READ addr=0x000081e5 resp=AHB_RESP_ERROR waits=0 rdata=0x702a7189
# UVM_INFO ../src/mst/ahb_master_monitor.sv(117) @ 1865000: uvm_test_top.env.master_agent.mon [ahb_master_monitor] Beat[0] addr=0x000081e5 rdata=0x1747b870 resp=AHB_RESP_ERROR
# UVM_INFO ../src/mst/ahb_master_monitor.sv(220) @ 1865000: uvm_test_top.env.master_agent.mon [ahb_master_monitor] Observed [AHB_READ]: HADDR=0x000081e5, HBURST=AHB_BURST_SINGLE, HSIZE=AHB_SIZE_8B, 1 beats
# UVM_INFO ../src/env/ahb_coverage.sv(126) @ 1865000: uvm_test_top.env.master_cov [ahb_coverage] Sampled [AHB_READ]: burst=AHB_BURST_SINGLE size=AHB_SIZE_8B beats=1 error=1
# UVM_INFO ../src/slv/ahb_slave_monitor.sv(197) @ 1865000: uvm_test_top.env.slave_agent.mon [ahb_slave_monitor] Observed [AHB_READ]: HADDR=0x000081e5, HBURST=AHB_BURST_SINGLE, HSIZE=AHB_SIZE_8B, 1 beats
# UVM_INFO ../src/env/ahb_scoreboard.sv(104) @ 1865000: uvm_test_top.env.scb [ahb_scoreboard] MATCH #16: [AHB_READ] HADDR=0x000081e5 AHB_BURST_SINGLE 1 beats
# UVM_INFO ../src/env/ahb_coverage.sv(126) @ 1865000: uvm_test_top.env.slave_cov [ahb_coverage] Sampled [AHB_READ]: burst=AHB_BURST_SINGLE size=AHB_SIZE_8B beats=1 error=1
# UVM_INFO ../src/mst_seq/ahb_error_seq.sv(131) @ 1865000: uvm_test_top.env.master_agent.sqr@@mst_seq [ahb_error_seq] AHB_READ AHB_BURST_SINGLE @0x000081e5: ERROR on beat 0 of 1, policy=continue, drove 1
# UVM_INFO ../src/mst_seq/ahb_error_seq.sv(150) @ 1865000: uvm_test_top.env.master_agent.sqr@@mst_seq [ahb_error_seq] ERROR response traffic done: bursts=16 with_error=12 cancelled=5 unmapped=5
# UVM_INFO ../src/test/ahb_error_response_test.sv(74) @ 1865000: uvm_test_top [ahb_error_response_test] Slave answered 57 beats: 33 ERROR, 22 in the unmapped region
# UVM_INFO verilog_src/uvm-1.1d/src/base/uvm_objection.svh(1268) @ 1865200: reporter [TEST_DONE] 'run' phase is ready to proceed to the 'extract' phase
# UVM_INFO ../src/env/ahb_coverage.sv(136) @ 1865200: uvm_test_top.env.master_cov [ahb_coverage] [master_cov] functional coverage = 71.67%
# UVM_INFO ../src/env/ahb_scoreboard.sv(208) @ 1865200: uvm_test_top.env.scb [ahb_scoreboard] Passthrough : compared=16 matched=16 mismatched=0
# UVM_INFO ../src/env/ahb_scoreboard.sv(212) @ 1865200: uvm_test_top.env.scb [ahb_scoreboard] Ref-memory  : wr_bytes=15 rd_checked=0 rd_uninit=12 rd_mismatch=0
# UVM_INFO ../src/env/ahb_coverage.sv(136) @ 1865200: uvm_test_top.env.slave_cov [ahb_coverage] [slave_cov] functional coverage = 71.67%
# UVM_INFO ../src/test/ahb_base_test.sv(74) @ 1865200: uvm_test_top [ahb_error_response_test] 
# === TEST PASSED ===
# 
# 
# --- UVM Report Summary ---
# 
# ** Report counts by severity
# UVM_INFO :  431
# UVM_WARNING :    0
# UVM_ERROR :    0
# UVM_FATAL :    0
# ** Report counts by id
# [Questa UVM]     3
# [RNTST]     1
# [TB_TOP]     3
# [TEST_DONE]     1
# [UVMTOP]     1
# [ahb_coverage]    34
# [ahb_error_response_test]     2
# [ahb_error_seq]    14
# [ahb_master_agent]     1
# [ahb_master_driver]   140
# [ahb_master_monitor]    74
# [ahb_scoreboard]    18
# [ahb_slave_agent]     1
# [ahb_slave_driver]    58
# [ahb_slave_error_seq]    58
# [ahb_slave_monitor]    17
# [ahb_vip_env]     5
# ** Note: $finish    : /cadtools/mentor/Questa_10.6b/questasim/linux_x86_64/../verilog_src/uvm-1.1d/src/base/uvm_root.svh(430)
#    Time: 1865200 ps  Iteration: 53  Instance: /tb_top
# Saving coverage database on exit...
# End time: 10:23:52 on Aug 05,2026, Elapsed time: 0:00:01
# Errors: 0, Warnings: 0
