# vsim -c -coverage -sv_seed 82504531 "+UVM_TESTNAME=ahb_wrap_burst_test" "+UVM_VERBOSITY=UVM_HIGH" "+DUMP_VCD" -l ./report/logs/ahb_wrap_burst_test_run_5_seed_82504531.log -do "coverage save -onexit ./report/coverage/ahb_wrap_burst_test_run_5_seed_82504531.ucdb; run -all; quit -f" opt_tb_top 
# Start time: 12:20:36 on Aug 06,2026
# //  Questa Sim-64
# //  Version 10.6b linux_x86_64 May 25 2017
# //
# //  Copyright 1991-2017 Mentor Graphics Corporation
# //  All Rights Reserved.
# //
# //  QuestaSim and its associated documentation contain trade
# //  secrets and commercial or financial information that are the property of
# //  Mentor Graphics Corporation and are privileged, confidential,
# //  and exempt from disclosure under the Freedom of Information Act,
# //  5 U.S.C. Section 552. Furthermore, this information
# //  is prohibited from disclosure under the Trade Secrets Act,
# //  18 U.S.C. Section 1905.
# //
# Loading sv_std.std
# Loading work.ahb_if(fast)
# Loading mtiUvm.uvm_pkg
# Loading work.ahb_pkg(fast)
# Loading work.ahb_seq_pkg(fast)
# Loading work.ahb_test_pkg(fast)
# Loading work.tb_top(fast)
# Loading work.ahb_if(fast)
# Loading work.ahb_sva(fast)
# Loading mtiUvm.questa_uvm_pkg(fast)
# Loading /cadtools/mentor/Questa_10.6b/questasim/uvm-1.1d/linux_x86_64/uvm_dpi.so
# coverage save -onexit ./report/coverage/ahb_wrap_burst_test_run_5_seed_82504531.ucdb
#  run -all
# ----------------------------------------------------------------
# UVM-1.1d
# (C) 2007-2013 Mentor Graphics Corporation
# (C) 2007-2013 Cadence Design Systems, Inc.
# (C) 2006-2013 Synopsys, Inc.
# (C) 2011-2013 Cypress Semiconductor Corp.
# ----------------------------------------------------------------
# 
#   ***********       IMPORTANT RELEASE NOTES         ************
# 
#   You are using a version of the UVM library that has been compiled
#   with `UVM_NO_DEPRECATED undefined.
#   See http://www.eda.org/svdb/view.php?id=3313 for more details.
# 
#   You are using a version of the UVM library that has been compiled
#   with `UVM_OBJECT_MUST_HAVE_CONSTRUCTOR undefined.
#   See http://www.eda.org/svdb/view.php?id=3770 for more details.
# 
#       (Specify +UVM_NO_RELNOTES to turn off this notice)
# 
# UVM_INFO verilog_src/questa_uvm_pkg-1.2/src/questa_uvm_pkg.sv(215) @ 0: reporter [Questa UVM] QUESTA_UVM-1.2.3
# UVM_INFO verilog_src/questa_uvm_pkg-1.2/src/questa_uvm_pkg.sv(217) @ 0: reporter [Questa UVM]  questa_uvm::init(+struct)
# UVM_INFO ../src/tb_top.sv(126) @ 0: reporter [TB_TOP] Virtual interface set in config_db
# UVM_INFO @ 0: reporter [RNTST] Running test ahb_wrap_burst_test...
# UVM_INFO ../src/tb_top.sv(140) @ 0: reporter [TB_TOP] Waveform VCD dumping enabled (ahb_lite_vip.vcd)
# UVM_INFO ../src/env/ahb_vip_env.sv(64) @ 0: uvm_test_top.env [ahb_vip_env] slave_vif not set - reusing master_vif (passthrough mode)
# UVM_INFO ../src/env/ahb_vip_env.sv(72) @ 0: uvm_test_top.env [ahb_vip_env] Scoreboard created
# UVM_INFO ../src/env/ahb_vip_env.sv(78) @ 0: uvm_test_top.env [ahb_vip_env] Coverage collectors created
# UVM_INFO ../src/mst/ahb_master_agent.sv(61) @ 0: uvm_test_top.env.master_agent [ahb_master_agent] ACTIVE mode - driver + sequencer created
# UVM_INFO ../src/slv/ahb_slave_agent.sv(64) @ 0: uvm_test_top.env.slave_agent [ahb_slave_agent] ACTIVE mode - driver + sequencer created (    auto responses)
# UVM_INFO ../src/env/ahb_vip_env.sv(92) @ 0: uvm_test_top.env [ahb_vip_env] Scoreboard connected: master_mon.ap -> scb, slave_mon.ap -> scb
# UVM_INFO ../src/env/ahb_vip_env.sv(102) @ 0: uvm_test_top.env [ahb_vip_env] Coverage connected: master_mon.ap/trans_ap -> master_cov, slave_mon.ap/trans_ap -> slave_cov
# UVM_INFO @ 0: reporter [UVMTOP] UVM testbench topology:
# ---------------------------------------------------------------
# Name                       Type                     Size  Value
# ---------------------------------------------------------------
# uvm_test_top               ahb_wrap_burst_test      -     @475 
#   env                      ahb_vip_env              -     @490 
#     master_agent           ahb_master_agent         -     @505 
#       drv                  ahb_master_driver        -     @570 
#         rsp_port           uvm_analysis_port        -     @585 
#         seq_item_port      uvm_seq_item_pull_port   -     @577 
#       mon                  ahb_master_monitor       -     @563 
#         ap                 uvm_analysis_port        -     @704 
#         trans_ap           uvm_analysis_port        -     @712 
#       sqr                  ahb_master_sequencer     -     @593 
#         rsp_export         uvm_analysis_export      -     @600 
#         seq_item_export    uvm_seq_item_pull_imp    -     @694 
#         arbitration_queue  array                    0     -    
#         lock_queue         array                    0     -    
#         num_last_reqs      integral                 32    'd1  
#         num_last_rsps      integral                 32    'd1  
#     master_cov             ahb_coverage             -     @526 
#       analysis_imp         uvm_analysis_imp         -     @533 
#       trans_export         uvm_analysis_imp_trans   -     @726 
#     scb                    ahb_scoreboard           -     @519 
#       master_export        uvm_analysis_imp_master  -     @734 
#       slave_export         uvm_analysis_imp_slave   -     @742 
#     slave_agent            ahb_slave_agent          -     @512 
#       drv                  ahb_slave_driver         -     @764 
#         rsp_port           uvm_analysis_port        -     @779 
#         seq_item_port      uvm_seq_item_pull_port   -     @771 
#       mon                  ahb_slave_monitor        -     @757 
#         ap                 uvm_analysis_port        -     @898 
#         trans_ap           uvm_analysis_port        -     @906 
#       sqr                  ahb_slave_sequencer      -     @787 
#         rsp_export         uvm_analysis_export      -     @794 
#         seq_item_export    uvm_seq_item_pull_imp    -     @888 
#         arbitration_queue  array                    0     -    
#         lock_queue         array                    0     -    
#         num_last_reqs      integral                 32    'd1  
#         num_last_rsps      integral                 32    'd1  
#     slave_cov              ahb_coverage             -     @541 
#       analysis_imp         uvm_analysis_imp         -     @548 
#       trans_export         uvm_analysis_imp_trans   -     @920 
# ---------------------------------------------------------------
# 
# UVM_INFO verilog_src/questa_uvm_pkg-1.2/src/questa_uvm_pkg.sv(277) @ 0: reporter [Questa UVM] End Of Elaboration
# UVM_INFO ../src/mst_seq/ahb_wrap_burst_seq.sv(49) @ 0: uvm_test_top.env.master_agent.sqr@@seq [ahb_wrap_burst_seq] Starting WRAP bursts: 16 iterations from 0x00004000
# UVM_INFO ../src/mst/ahb_master_driver.sv(183) @ 5000: uvm_test_top.env.master_agent.drv [ahb_master_driver] Flushed pending transactions (reset)
# UVM_INFO ../src/tb_top.sv(48) @ 95000: reporter [TB_TOP] Reset de-asserted
# UVM_INFO ../src/slv/ahb_slave_driver.sv(63) @ 95000: uvm_test_top.env.slave_agent.drv [ahb_slave_driver] Reset deasserted - slave driver active (    auto mode)
# UVM_INFO ../src/mst/ahb_master_driver.sv(72) @ 95000: uvm_test_top.env.master_agent.drv [ahb_master_driver] Reset deasserted - master driver active
# UVM_INFO ../src/mst/ahb_master_monitor.sv(81) @ 95000: uvm_test_top.env.master_agent.mon [ahb_master_monitor] Reset deasserted - master monitor active
# UVM_INFO ../src/slv/ahb_slave_monitor.sv(79) @ 95000: uvm_test_top.env.slave_agent.mon [ahb_slave_monitor] Reset deasserted - slave monitor active
# UVM_INFO ../src/mst/ahb_master_driver.sv(85) @ 95000: uvm_test_top.env.master_agent.drv [ahb_master_driver] Queueing [AHB_WRITE]: HADDR=0x00004000, HBURST=AHB_BURST_WRAP8, HSIZE=AHB_SIZE_32B, 8 beats
# UVM_INFO ../src/mst/ahb_master_driver.sv(127) @ 95000: uvm_test_top.env.master_agent.drv [ahb_master_driver] Driving [AHB_WRITE]: HADDR=0x00004000, HBURST=AHB_BURST_WRAP8, HSIZE=AHB_SIZE_32B, 8 beats               
# UVM_INFO ../src/mst/ahb_master_driver.sv(332) @ 135000: uvm_test_top.env.master_agent.drv [ahb_master_driver] Beat[0/8] addr=0x00004000 trans=AHB_TRANS_NONSEQ resp=AHB_RESP_OKAY wdata=0x3dca9ab5
# UVM_INFO ../src/slv/ahb_slave_driver.sv(184) @ 135000: uvm_test_top.env.slave_agent.drv [ahb_slave_driver] Beat AHB_WRITE addr=0x00004000 resp=AHB_RESP_OKAY waits=2 wdata=0x3dca9ab5
# UVM_INFO ../src/mst/ahb_master_monitor.sv(128) @ 135000: uvm_test_top.env.master_agent.mon [ahb_master_monitor] Beat[0] addr=0x00004000 wdata=0x3dca9ab5 resp=AHB_RESP_OKAY
# UVM_INFO ../src/mst/ahb_master_driver.sv(332) @ 165000: uvm_test_top.env.master_agent.drv [ahb_master_driver] Beat[1/8] addr=0x00004004 trans=AHB_TRANS_SEQ resp=AHB_RESP_OKAY wdata=0x5f834988
# UVM_INFO ../src/slv/ahb_slave_driver.sv(184) @ 165000: uvm_test_top.env.slave_agent.drv [ahb_slave_driver] Beat AHB_WRITE addr=0x00004004 resp=AHB_RESP_OKAY waits=2 wdata=0x5f834988
# UVM_INFO ../src/mst/ahb_master_monitor.sv(128) @ 165000: uvm_test_top.env.master_agent.mon [ahb_master_monitor] Beat[1] addr=0x00004004 wdata=0x5f834988 resp=AHB_RESP_OKAY
# UVM_INFO ../src/mst/ahb_master_driver.sv(332) @ 195000: uvm_test_top.env.master_agent.drv [ahb_master_driver] Beat[2/8] addr=0x00004008 trans=AHB_TRANS_SEQ resp=AHB_RESP_OKAY wdata=0x18089164
# UVM_INFO ../src/slv/ahb_slave_driver.sv(184) @ 195000: uvm_test_top.env.slave_agent.drv [ahb_slave_driver] Beat AHB_WRITE addr=0x00004008 resp=AHB_RESP_OKAY waits=2 wdata=0x18089164
# UVM_INFO ../src/mst/ahb_master_monitor.sv(128) @ 195000: uvm_test_top.env.master_agent.mon [ahb_master_monitor] Beat[2] addr=0x00004008 wdata=0x18089164 resp=AHB_RESP_OKAY
# UVM_INFO ../src/mst/ahb_master_driver.sv(332) @ 205000: uvm_test_top.env.master_agent.drv [ahb_master_driver] Beat[3/8] addr=0x0000400c trans=AHB_TRANS_SEQ resp=AHB_RESP_OKAY wdata=0xcbe8067b
# UVM_INFO ../src/slv/ahb_slave_driver.sv(184) @ 205000: uvm_test_top.env.slave_agent.drv [ahb_slave_driver] Beat AHB_WRITE addr=0x0000400c resp=AHB_RESP_OKAY waits=0 wdata=0xcbe8067b
# UVM_INFO ../src/mst/ahb_master_monitor.sv(128) @ 205000: uvm_test_top.env.master_agent.mon [ahb_master_monitor] Beat[3] addr=0x0000400c wdata=0xcbe8067b resp=AHB_RESP_OKAY
# UVM_INFO ../src/mst/ahb_master_driver.sv(332) @ 235000: uvm_test_top.env.master_agent.drv [ahb_master_driver] Beat[4/8] addr=0x00004010 trans=AHB_TRANS_SEQ resp=AHB_RESP_OKAY wdata=0xf9593642
# UVM_INFO ../src/slv/ahb_slave_driver.sv(184) @ 235000: uvm_test_top.env.slave_agent.drv [ahb_slave_driver] Beat AHB_WRITE addr=0x00004010 resp=AHB_RESP_OKAY waits=2 wdata=0xf9593642
# UVM_INFO ../src/mst/ahb_master_monitor.sv(128) @ 235000: uvm_test_top.env.master_agent.mon [ahb_master_monitor] Beat[4] addr=0x00004010 wdata=0xf9593642 resp=AHB_RESP_OKAY
# UVM_INFO ../src/mst/ahb_master_driver.sv(332) @ 255000: uvm_test_top.env.master_agent.drv [ahb_master_driver] Beat[5/8] addr=0x00004014 trans=AHB_TRANS_SEQ resp=AHB_RESP_OKAY wdata=0x678c9a2e
# UVM_INFO ../src/slv/ahb_slave_driver.sv(184) @ 255000: uvm_test_top.env.slave_agent.drv [ahb_slave_driver] Beat AHB_WRITE addr=0x00004014 resp=AHB_RESP_OKAY waits=1 wdata=0x678c9a2e
# UVM_INFO ../src/mst/ahb_master_monitor.sv(128) @ 255000: uvm_test_top.env.master_agent.mon [ahb_master_monitor] Beat[5] addr=0x00004014 wdata=0x678c9a2e resp=AHB_RESP_OKAY
# UVM_INFO ../src/mst/ahb_master_driver.sv(332) @ 285000: uvm_test_top.env.master_agent.drv [ahb_master_driver] Beat[6/8] addr=0x00004018 trans=AHB_TRANS_SEQ resp=AHB_RESP_OKAY wdata=0x9d936dc2
# UVM_INFO ../src/slv/ahb_slave_driver.sv(184) @ 285000: uvm_test_top.env.slave_agent.drv [ahb_slave_driver] Beat AHB_WRITE addr=0x00004018 resp=AHB_RESP_OKAY waits=2 wdata=0x9d936dc2
# UVM_INFO ../src/mst/ahb_master_monitor.sv(128) @ 285000: uvm_test_top.env.master_agent.mon [ahb_master_monitor] Beat[6] addr=0x00004018 wdata=0x9d936dc2 resp=AHB_RESP_OKAY
# UVM_INFO ../src/mst/ahb_master_driver.sv(332) @ 305000: uvm_test_top.env.master_agent.drv [ahb_master_driver] Beat[7/8] addr=0x0000401c trans=AHB_TRANS_SEQ resp=AHB_RESP_OKAY wdata=0xee7c4e59
# UVM_INFO ../src/mst/ahb_master_driver.sv(376) @ 305000: uvm_test_top.env.master_agent.drv [ahb_master_driver] Transaction complete: AHB_WRITE 0x00004000, 8 beats, burst=AHB_BURST_WRAP8
# UVM_INFO ../src/slv/ahb_slave_driver.sv(184) @ 305000: uvm_test_top.env.slave_agent.drv [ahb_slave_driver] Beat AHB_WRITE addr=0x0000401c resp=AHB_RESP_OKAY waits=1 wdata=0xee7c4e59
# UVM_INFO ../src/mst/ahb_master_monitor.sv(128) @ 305000: uvm_test_top.env.master_agent.mon [ahb_master_monitor] Beat[7] addr=0x0000401c wdata=0xee7c4e59 resp=AHB_RESP_OKAY
# UVM_INFO ../src/mst/ahb_master_monitor.sv(231) @ 305000: uvm_test_top.env.master_agent.mon [ahb_master_monitor] Observed [AHB_WRITE]: HADDR=0x00004000, HBURST=AHB_BURST_WRAP8, HSIZE=AHB_SIZE_32B, 8 beats
# UVM_INFO ../src/env/ahb_coverage.sv(174) @ 305000: uvm_test_top.env.master_cov [ahb_coverage] Sampled [AHB_WRITE]: burst=AHB_BURST_WRAP8 size=AHB_SIZE_32B beats=8 error=0
# UVM_INFO ../src/slv/ahb_slave_monitor.sv(212) @ 305000: uvm_test_top.env.slave_agent.mon [ahb_slave_monitor] Observed [AHB_WRITE]: HADDR=0x00004000, HBURST=AHB_BURST_WRAP8, HSIZE=AHB_SIZE_32B, 8 beats
# UVM_INFO ../src/env/ahb_scoreboard.sv(104) @ 305000: uvm_test_top.env.scb [ahb_scoreboard] MATCH #1: [AHB_WRITE] HADDR=0x00004000 AHB_BURST_WRAP8 8 beats
# UVM_INFO ../src/env/ahb_coverage.sv(174) @ 305000: uvm_test_top.env.slave_cov [ahb_coverage] Sampled [AHB_WRITE]: burst=AHB_BURST_WRAP8 size=AHB_SIZE_32B beats=8 error=0
# UVM_INFO ../src/mst/ahb_master_driver.sv(85) @ 305000: uvm_test_top.env.master_agent.drv [ahb_master_driver] Queueing [AHB_READ]: HADDR=0x00004000, HBURST=AHB_BURST_WRAP8, HSIZE=AHB_SIZE_32B, 8 beats
# UVM_INFO ../src/mst/ahb_master_driver.sv(127) @ 305000: uvm_test_top.env.master_agent.drv [ahb_master_driver] Driving [AHB_READ]: HADDR=0x00004000, HBURST=AHB_BURST_WRAP8, HSIZE=AHB_SIZE_32B, 8 beats               
# UVM_INFO ../src/mst/ahb_master_driver.sv(332) @ 345000: uvm_test_top.env.master_agent.drv [ahb_master_driver] Beat[0/8] addr=0x00004000 trans=AHB_TRANS_NONSEQ resp=AHB_RESP_OKAY rdata=0x3dca9ab5
# UVM_INFO ../src/slv/ahb_slave_driver.sv(184) @ 345000: uvm_test_top.env.slave_agent.drv [ahb_slave_driver] Beat AHB_READ addr=0x00004000 resp=AHB_RESP_OKAY waits=1 rdata=0x3dca9ab5
# UVM_INFO ../src/mst/ahb_master_monitor.sv(128) @ 345000: uvm_test_top.env.master_agent.mon [ahb_master_monitor] Beat[0] addr=0x00004000 rdata=0x3dca9ab5 resp=AHB_RESP_OKAY
# UVM_INFO ../src/mst/ahb_master_driver.sv(332) @ 375000: uvm_test_top.env.master_agent.drv [ahb_master_driver] Beat[1/8] addr=0x00004004 trans=AHB_TRANS_SEQ resp=AHB_RESP_OKAY rdata=0x5f834988
# UVM_INFO ../src/slv/ahb_slave_driver.sv(184) @ 375000: uvm_test_top.env.slave_agent.drv [ahb_slave_driver] Beat AHB_READ addr=0x00004004 resp=AHB_RESP_OKAY waits=2 rdata=0x5f834988
# UVM_INFO ../src/mst/ahb_master_monitor.sv(128) @ 375000: uvm_test_top.env.master_agent.mon [ahb_master_monitor] Beat[1] addr=0x00004004 rdata=0x5f834988 resp=AHB_RESP_OKAY
# UVM_INFO ../src/mst/ahb_master_driver.sv(332) @ 395000: uvm_test_top.env.master_agent.drv [ahb_master_driver] Beat[2/8] addr=0x00004008 trans=AHB_TRANS_SEQ resp=AHB_RESP_OKAY rdata=0x18089164
# UVM_INFO ../src/slv/ahb_slave_driver.sv(184) @ 395000: uvm_test_top.env.slave_agent.drv [ahb_slave_driver] Beat AHB_READ addr=0x00004008 resp=AHB_RESP_OKAY waits=1 rdata=0x18089164
# UVM_INFO ../src/mst/ahb_master_monitor.sv(128) @ 395000: uvm_test_top.env.master_agent.mon [ahb_master_monitor] Beat[2] addr=0x00004008 rdata=0x18089164 resp=AHB_RESP_OKAY
# UVM_INFO ../src/mst/ahb_master_driver.sv(332) @ 425000: uvm_test_top.env.master_agent.drv [ahb_master_driver] Beat[3/8] addr=0x0000400c trans=AHB_TRANS_SEQ resp=AHB_RESP_OKAY rdata=0xcbe8067b
# UVM_INFO ../src/slv/ahb_slave_driver.sv(184) @ 425000: uvm_test_top.env.slave_agent.drv [ahb_slave_driver] Beat AHB_READ addr=0x0000400c resp=AHB_RESP_OKAY waits=2 rdata=0xcbe8067b
# UVM_INFO ../src/mst/ahb_master_monitor.sv(128) @ 425000: uvm_test_top.env.master_agent.mon [ahb_master_monitor] Beat[3] addr=0x0000400c rdata=0xcbe8067b resp=AHB_RESP_OKAY
# UVM_INFO ../src/mst/ahb_master_driver.sv(332) @ 445000: uvm_test_top.env.master_agent.drv [ahb_master_driver] Beat[4/8] addr=0x00004010 trans=AHB_TRANS_SEQ resp=AHB_RESP_OKAY rdata=0xf9593642
# UVM_INFO ../src/slv/ahb_slave_driver.sv(184) @ 445000: uvm_test_top.env.slave_agent.drv [ahb_slave_driver] Beat AHB_READ addr=0x00004010 resp=AHB_RESP_OKAY waits=1 rdata=0xf9593642
# UVM_INFO ../src/mst/ahb_master_monitor.sv(128) @ 445000: uvm_test_top.env.master_agent.mon [ahb_master_monitor] Beat[4] addr=0x00004010 rdata=0xf9593642 resp=AHB_RESP_OKAY
# UVM_INFO ../src/mst/ahb_master_driver.sv(332) @ 455000: uvm_test_top.env.master_agent.drv [ahb_master_driver] Beat[5/8] addr=0x00004014 trans=AHB_TRANS_SEQ resp=AHB_RESP_OKAY rdata=0x678c9a2e
# UVM_INFO ../src/slv/ahb_slave_driver.sv(184) @ 455000: uvm_test_top.env.slave_agent.drv [ahb_slave_driver] Beat AHB_READ addr=0x00004014 resp=AHB_RESP_OKAY waits=0 rdata=0x678c9a2e
# UVM_INFO ../src/mst/ahb_master_monitor.sv(128) @ 455000: uvm_test_top.env.master_agent.mon [ahb_master_monitor] Beat[5] addr=0x00004014 rdata=0x678c9a2e resp=AHB_RESP_OKAY
# UVM_INFO ../src/mst/ahb_master_driver.sv(332) @ 485000: uvm_test_top.env.master_agent.drv [ahb_master_driver] Beat[6/8] addr=0x00004018 trans=AHB_TRANS_SEQ resp=AHB_RESP_OKAY rdata=0x9d936dc2
# UVM_INFO ../src/slv/ahb_slave_driver.sv(184) @ 485000: uvm_test_top.env.slave_agent.drv [ahb_slave_driver] Beat AHB_READ addr=0x00004018 resp=AHB_RESP_OKAY waits=2 rdata=0x9d936dc2
# UVM_INFO ../src/mst/ahb_master_monitor.sv(128) @ 485000: uvm_test_top.env.master_agent.mon [ahb_master_monitor] Beat[6] addr=0x00004018 rdata=0x9d936dc2 resp=AHB_RESP_OKAY
# UVM_INFO ../src/mst/ahb_master_driver.sv(332) @ 505000: uvm_test_top.env.master_agent.drv [ahb_master_driver] Beat[7/8] addr=0x0000401c trans=AHB_TRANS_SEQ resp=AHB_RESP_OKAY rdata=0xee7c4e59
# UVM_INFO ../src/mst/ahb_master_driver.sv(376) @ 505000: uvm_test_top.env.master_agent.drv [ahb_master_driver] Transaction complete: AHB_READ 0x00004000, 8 beats, burst=AHB_BURST_WRAP8
# UVM_INFO ../src/slv/ahb_slave_driver.sv(184) @ 505000: uvm_test_top.env.slave_agent.drv [ahb_slave_driver] Beat AHB_READ addr=0x0000401c resp=AHB_RESP_OKAY waits=1 rdata=0xee7c4e59
# UVM_INFO ../src/mst/ahb_master_monitor.sv(128) @ 505000: uvm_test_top.env.master_agent.mon [ahb_master_monitor] Beat[7] addr=0x0000401c rdata=0xee7c4e59 resp=AHB_RESP_OKAY
# UVM_INFO ../src/mst/ahb_master_monitor.sv(231) @ 505000: uvm_test_top.env.master_agent.mon [ahb_master_monitor] Observed [AHB_READ]: HADDR=0x00004000, HBURST=AHB_BURST_WRAP8, HSIZE=AHB_SIZE_32B, 8 beats
# UVM_INFO ../src/env/ahb_coverage.sv(174) @ 505000: uvm_test_top.env.master_cov [ahb_coverage] Sampled [AHB_READ]: burst=AHB_BURST_WRAP8 size=AHB_SIZE_32B beats=8 error=0
# UVM_INFO ../src/slv/ahb_slave_monitor.sv(212) @ 505000: uvm_test_top.env.slave_agent.mon [ahb_slave_monitor] Observed [AHB_READ]: HADDR=0x00004000, HBURST=AHB_BURST_WRAP8, HSIZE=AHB_SIZE_32B, 8 beats
# UVM_INFO ../src/env/ahb_scoreboard.sv(104) @ 505000: uvm_test_top.env.scb [ahb_scoreboard] MATCH #2: [AHB_READ] HADDR=0x00004000 AHB_BURST_WRAP8 8 beats
# UVM_INFO ../src/env/ahb_coverage.sv(174) @ 505000: uvm_test_top.env.slave_cov [ahb_coverage] Sampled [AHB_READ]: burst=AHB_BURST_WRAP8 size=AHB_SIZE_32B beats=8 error=0
# UVM_INFO ../src/mst_seq/ahb_base_seq.sv(157) @ 505000: uvm_test_top.env.master_agent.sqr@@seq [ahb_wrap_burst_seq] AHB_BURST_WRAP8 AHB_SIZE_32B beat 0 @0x00004000 ok
# UVM_INFO ../src/mst_seq/ahb_base_seq.sv(157) @ 505000: uvm_test_top.env.master_agent.sqr@@seq [ahb_wrap_burst_seq] AHB_BURST_WRAP8 AHB_SIZE_32B beat 1 @0x00004004 ok
# UVM_INFO ../src/mst_seq/ahb_base_seq.sv(157) @ 505000: uvm_test_top.env.master_agent.sqr@@seq [ahb_wrap_burst_seq] AHB_BURST_WRAP8 AHB_SIZE_32B beat 2 @0x00004008 ok
# UVM_INFO ../src/mst_seq/ahb_base_seq.sv(157) @ 505000: uvm_test_top.env.master_agent.sqr@@seq [ahb_wrap_burst_seq] AHB_BURST_WRAP8 AHB_SIZE_32B beat 3 @0x0000400c ok
# UVM_INFO ../src/mst_seq/ahb_base_seq.sv(157) @ 505000: uvm_test_top.env.master_agent.sqr@@seq [ahb_wrap_burst_seq] AHB_BURST_WRAP8 AHB_SIZE_32B beat 4 @0x00004010 ok
# UVM_INFO ../src/mst_seq/ahb_base_seq.sv(157) @ 505000: uvm_test_top.env.master_agent.sqr@@seq [ahb_wrap_burst_seq] AHB_BURST_WRAP8 AHB_SIZE_32B beat 5 @0x00004014 ok
# UVM_INFO ../src/mst_seq/ahb_base_seq.sv(157) @ 505000: uvm_test_top.env.master_agent.sqr@@seq [ahb_wrap_burst_seq] AHB_BURST_WRAP8 AHB_SIZE_32B beat 6 @0x00004018 ok
# UVM_INFO ../src/mst_seq/ahb_base_seq.sv(157) @ 505000: uvm_test_top.env.master_agent.sqr@@seq [ahb_wrap_burst_seq] AHB_BURST_WRAP8 AHB_SIZE_32B beat 7 @0x0000401c ok
# UVM_INFO ../src/mst/ahb_master_driver.sv(85) @ 505000: uvm_test_top.env.master_agent.drv [ahb_master_driver] Queueing [AHB_WRITE]: HADDR=0x00004064, HBURST=AHB_BURST_WRAP16, HSIZE=AHB_SIZE_32B, 16 beats
# UVM_INFO ../src/mst/ahb_master_driver.sv(127) @ 505000: uvm_test_top.env.master_agent.drv [ahb_master_driver] Driving [AHB_WRITE]: HADDR=0x00004064, HBURST=AHB_BURST_WRAP16, HSIZE=AHB_SIZE_32B, 16 beats               
# UVM_INFO ../src/mst/ahb_master_driver.sv(332) @ 545000: uvm_test_top.env.master_agent.drv [ahb_master_driver] Beat[0/16] addr=0x00004064 trans=AHB_TRANS_NONSEQ resp=AHB_RESP_OKAY wdata=0xa7c80571
# UVM_INFO ../src/slv/ahb_slave_driver.sv(184) @ 545000: uvm_test_top.env.slave_agent.drv [ahb_slave_driver] Beat AHB_WRITE addr=0x00004064 resp=AHB_RESP_OKAY waits=1 wdata=0xa7c80571
# UVM_INFO ../src/mst/ahb_master_monitor.sv(128) @ 545000: uvm_test_top.env.master_agent.mon [ahb_master_monitor] Beat[0] addr=0x00004064 wdata=0xa7c80571 resp=AHB_RESP_OKAY
# UVM_INFO ../src/mst/ahb_master_driver.sv(332) @ 565000: uvm_test_top.env.master_agent.drv [ahb_master_driver] Beat[1/16] addr=0x00004068 trans=AHB_TRANS_SEQ resp=AHB_RESP_OKAY wdata=0x6572e6e3
# UVM_INFO ../src/slv/ahb_slave_driver.sv(184) @ 565000: uvm_test_top.env.slave_agent.drv [ahb_slave_driver] Beat AHB_WRITE addr=0x00004068 resp=AHB_RESP_OKAY waits=1 wdata=0x6572e6e3
# UVM_INFO ../src/mst/ahb_master_monitor.sv(128) @ 565000: uvm_test_top.env.master_agent.mon [ahb_master_monitor] Beat[1] addr=0x00004068 wdata=0x6572e6e3 resp=AHB_RESP_OKAY
# UVM_INFO ../src/mst/ahb_master_driver.sv(332) @ 585000: uvm_test_top.env.master_agent.drv [ahb_master_driver] Beat[2/16] addr=0x0000406c trans=AHB_TRANS_SEQ resp=AHB_RESP_OKAY wdata=0x783065d2
# UVM_INFO ../src/slv/ahb_slave_driver.sv(184) @ 585000: uvm_test_top.env.slave_agent.drv [ahb_slave_driver] Beat AHB_WRITE addr=0x0000406c resp=AHB_RESP_OKAY waits=1 wdata=0x783065d2
# UVM_INFO ../src/mst/ahb_master_monitor.sv(128) @ 585000: uvm_test_top.env.master_agent.mon [ahb_master_monitor] Beat[2] addr=0x0000406c wdata=0x783065d2 resp=AHB_RESP_OKAY
# UVM_INFO ../src/mst/ahb_master_driver.sv(332) @ 615000: uvm_test_top.env.master_agent.drv [ahb_master_driver] Beat[3/16] addr=0x00004070 trans=AHB_TRANS_SEQ resp=AHB_RESP_OKAY wdata=0x30ab82ca
# UVM_INFO ../src/slv/ahb_slave_driver.sv(184) @ 615000: uvm_test_top.env.slave_agent.drv [ahb_slave_driver] Beat AHB_WRITE addr=0x00004070 resp=AHB_RESP_OKAY waits=2 wdata=0x30ab82ca
# UVM_INFO ../src/mst/ahb_master_monitor.sv(128) @ 615000: uvm_test_top.env.master_agent.mon [ahb_master_monitor] Beat[3] addr=0x00004070 wdata=0x30ab82ca resp=AHB_RESP_OKAY
# UVM_INFO ../src/mst/ahb_master_driver.sv(332) @ 645000: uvm_test_top.env.master_agent.drv [ahb_master_driver] Beat[4/16] addr=0x00004074 trans=AHB_TRANS_SEQ resp=AHB_RESP_OKAY wdata=0x42b3aae9
# UVM_INFO ../src/slv/ahb_slave_driver.sv(184) @ 645000: uvm_test_top.env.slave_agent.drv [ahb_slave_driver] Beat AHB_WRITE addr=0x00004074 resp=AHB_RESP_OKAY waits=2 wdata=0x42b3aae9
# UVM_INFO ../src/mst/ahb_master_monitor.sv(128) @ 645000: uvm_test_top.env.master_agent.mon [ahb_master_monitor] Beat[4] addr=0x00004074 wdata=0x42b3aae9 resp=AHB_RESP_OKAY
# UVM_INFO ../src/mst/ahb_master_driver.sv(332) @ 655000: uvm_test_top.env.master_agent.drv [ahb_master_driver] Beat[5/16] addr=0x00004078 trans=AHB_TRANS_SEQ resp=AHB_RESP_OKAY wdata=0x257e4927
# UVM_INFO ../src/slv/ahb_slave_driver.sv(184) @ 655000: uvm_test_top.env.slave_agent.drv [ahb_slave_driver] Beat AHB_WRITE addr=0x00004078 resp=AHB_RESP_OKAY waits=0 wdata=0x257e4927
# UVM_INFO ../src/mst/ahb_master_monitor.sv(128) @ 655000: uvm_test_top.env.master_agent.mon [ahb_master_monitor] Beat[5] addr=0x00004078 wdata=0x257e4927 resp=AHB_RESP_OKAY
# UVM_INFO ../src/mst/ahb_master_driver.sv(332) @ 665000: uvm_test_top.env.master_agent.drv [ahb_master_driver] Beat[6/16] addr=0x0000407c trans=AHB_TRANS_SEQ resp=AHB_RESP_OKAY wdata=0xd9b887b0
# UVM_INFO ../src/slv/ahb_slave_driver.sv(184) @ 665000: uvm_test_top.env.slave_agent.drv [ahb_slave_driver] Beat AHB_WRITE addr=0x0000407c resp=AHB_RESP_OKAY waits=0 wdata=0xd9b887b0
# UVM_INFO ../src/mst/ahb_master_monitor.sv(128) @ 665000: uvm_test_top.env.master_agent.mon [ahb_master_monitor] Beat[6] addr=0x0000407c wdata=0xd9b887b0 resp=AHB_RESP_OKAY
# UVM_INFO ../src/mst/ahb_master_driver.sv(332) @ 675000: uvm_test_top.env.master_agent.drv [ahb_master_driver] Beat[7/16] addr=0x00004040 trans=AHB_TRANS_SEQ resp=AHB_RESP_OKAY wdata=0x12660963
# UVM_INFO ../src/slv/ahb_slave_driver.sv(184) @ 675000: uvm_test_top.env.slave_agent.drv [ahb_slave_driver] Beat AHB_WRITE addr=0x00004040 resp=AHB_RESP_OKAY waits=0 wdata=0x12660963
# UVM_INFO ../src/mst/ahb_master_monitor.sv(128) @ 675000: uvm_test_top.env.master_agent.mon [ahb_master_monitor] Beat[7] addr=0x00004040 wdata=0x12660963 resp=AHB_RESP_OKAY
# UVM_INFO ../src/mst/ahb_master_driver.sv(332) @ 695000: uvm_test_top.env.master_agent.drv [ahb_master_driver] Beat[8/16] addr=0x00004044 trans=AHB_TRANS_SEQ resp=AHB_RESP_OKAY wdata=0xef02d912
# UVM_INFO ../src/slv/ahb_slave_driver.sv(184) @ 695000: uvm_test_top.env.slave_agent.drv [ahb_slave_driver] Beat AHB_WRITE addr=0x00004044 resp=AHB_RESP_OKAY waits=1 wdata=0xef02d912
# UVM_INFO ../src/mst/ahb_master_monitor.sv(128) @ 695000: uvm_test_top.env.master_agent.mon [ahb_master_monitor] Beat[8] addr=0x00004044 wdata=0xef02d912 resp=AHB_RESP_OKAY
# UVM_INFO ../src/mst/ahb_master_driver.sv(332) @ 715000: uvm_test_top.env.master_agent.drv [ahb_master_driver] Beat[9/16] addr=0x00004048 trans=AHB_TRANS_SEQ resp=AHB_RESP_OKAY wdata=0x93064e4b
# UVM_INFO ../src/slv/ahb_slave_driver.sv(184) @ 715000: uvm_test_top.env.slave_agent.drv [ahb_slave_driver] Beat AHB_WRITE addr=0x00004048 resp=AHB_RESP_OKAY waits=1 wdata=0x93064e4b
# UVM_INFO ../src/mst/ahb_master_monitor.sv(128) @ 715000: uvm_test_top.env.master_agent.mon [ahb_master_monitor] Beat[9] addr=0x00004048 wdata=0x93064e4b resp=AHB_RESP_OKAY
# UVM_INFO ../src/mst/ahb_master_driver.sv(332) @ 735000: uvm_test_top.env.master_agent.drv [ahb_master_driver] Beat[10/16] addr=0x0000404c trans=AHB_TRANS_SEQ resp=AHB_RESP_OKAY wdata=0x98edf5e6
# UVM_INFO ../src/slv/ahb_slave_driver.sv(184) @ 735000: uvm_test_top.env.slave_agent.drv [ahb_slave_driver] Beat AHB_WRITE addr=0x0000404c resp=AHB_RESP_OKAY waits=1 wdata=0x98edf5e6
# UVM_INFO ../src/mst/ahb_master_monitor.sv(128) @ 735000: uvm_test_top.env.master_agent.mon [ahb_master_monitor] Beat[10] addr=0x0000404c wdata=0x98edf5e6 resp=AHB_RESP_OKAY
# UVM_INFO ../src/mst/ahb_master_driver.sv(332) @ 755000: uvm_test_top.env.master_agent.drv [ahb_master_driver] Beat[11/16] addr=0x00004050 trans=AHB_TRANS_SEQ resp=AHB_RESP_OKAY wdata=0x4e2e3f10
# UVM_INFO ../src/slv/ahb_slave_driver.sv(184) @ 755000: uvm_test_top.env.slave_agent.drv [ahb_slave_driver] Beat AHB_WRITE addr=0x00004050 resp=AHB_RESP_OKAY waits=1 wdata=0x4e2e3f10
# UVM_INFO ../src/mst/ahb_master_monitor.sv(128) @ 755000: uvm_test_top.env.master_agent.mon [ahb_master_monitor] Beat[11] addr=0x00004050 wdata=0x4e2e3f10 resp=AHB_RESP_OKAY
# UVM_INFO ../src/mst/ahb_master_driver.sv(332) @ 785000: uvm_test_top.env.master_agent.drv [ahb_master_driver] Beat[12/16] addr=0x00004054 trans=AHB_TRANS_SEQ resp=AHB_RESP_OKAY wdata=0xc4f9c7e3
# UVM_INFO ../src/slv/ahb_slave_driver.sv(184) @ 785000: uvm_test_top.env.slave_agent.drv [ahb_slave_driver] Beat AHB_WRITE addr=0x00004054 resp=AHB_RESP_OKAY waits=2 wdata=0xc4f9c7e3
# UVM_INFO ../src/mst/ahb_master_monitor.sv(128) @ 785000: uvm_test_top.env.master_agent.mon [ahb_master_monitor] Beat[12] addr=0x00004054 wdata=0xc4f9c7e3 resp=AHB_RESP_OKAY
# UVM_INFO ../src/mst/ahb_master_driver.sv(332) @ 815000: uvm_test_top.env.master_agent.drv [ahb_master_driver] Beat[13/16] addr=0x00004058 trans=AHB_TRANS_SEQ resp=AHB_RESP_OKAY wdata=0xe18ea703
# UVM_INFO ../src/slv/ahb_slave_driver.sv(184) @ 815000: uvm_test_top.env.slave_agent.drv [ahb_slave_driver] Beat AHB_WRITE addr=0x00004058 resp=AHB_RESP_OKAY waits=2 wdata=0xe18ea703
# UVM_INFO ../src/mst/ahb_master_monitor.sv(128) @ 815000: uvm_test_top.env.master_agent.mon [ahb_master_monitor] Beat[13] addr=0x00004058 wdata=0xe18ea703 resp=AHB_RESP_OKAY
# UVM_INFO ../src/mst/ahb_master_driver.sv(332) @ 845000: uvm_test_top.env.master_agent.drv [ahb_master_driver] Beat[14/16] addr=0x0000405c trans=AHB_TRANS_SEQ resp=AHB_RESP_OKAY wdata=0x446f6d7f
# UVM_INFO ../src/slv/ahb_slave_driver.sv(184) @ 845000: uvm_test_top.env.slave_agent.drv [ahb_slave_driver] Beat AHB_WRITE addr=0x0000405c resp=AHB_RESP_OKAY waits=2 wdata=0x446f6d7f
# UVM_INFO ../src/mst/ahb_master_monitor.sv(128) @ 845000: uvm_test_top.env.master_agent.mon [ahb_master_monitor] Beat[14] addr=0x0000405c wdata=0x446f6d7f resp=AHB_RESP_OKAY
# UVM_INFO ../src/mst/ahb_master_driver.sv(332) @ 865000: uvm_test_top.env.master_agent.drv [ahb_master_driver] Beat[15/16] addr=0x00004060 trans=AHB_TRANS_SEQ resp=AHB_RESP_OKAY wdata=0x06989612
# UVM_INFO ../src/mst/ahb_master_driver.sv(376) @ 865000: uvm_test_top.env.master_agent.drv [ahb_master_driver] Transaction complete: AHB_WRITE 0x00004064, 16 beats, burst=AHB_BURST_WRAP16
# UVM_INFO ../src/slv/ahb_slave_driver.sv(184) @ 865000: uvm_test_top.env.slave_agent.drv [ahb_slave_driver] Beat AHB_WRITE addr=0x00004060 resp=AHB_RESP_OKAY waits=1 wdata=0x06989612
# UVM_INFO ../src/mst/ahb_master_monitor.sv(128) @ 865000: uvm_test_top.env.master_agent.mon [ahb_master_monitor] Beat[15] addr=0x00004060 wdata=0x06989612 resp=AHB_RESP_OKAY
# UVM_INFO ../src/mst/ahb_master_monitor.sv(231) @ 865000: uvm_test_top.env.master_agent.mon [ahb_master_monitor] Observed [AHB_WRITE]: HADDR=0x00004064, HBURST=AHB_BURST_WRAP16, HSIZE=AHB_SIZE_32B, 16 beats
# UVM_INFO ../src/env/ahb_coverage.sv(174) @ 865000: uvm_test_top.env.master_cov [ahb_coverage] Sampled [AHB_WRITE]: burst=AHB_BURST_WRAP16 size=AHB_SIZE_32B beats=16 error=0
# UVM_INFO ../src/slv/ahb_slave_monitor.sv(212) @ 865000: uvm_test_top.env.slave_agent.mon [ahb_slave_monitor] Observed [AHB_WRITE]: HADDR=0x00004064, HBURST=AHB_BURST_WRAP16, HSIZE=AHB_SIZE_32B, 16 beats
# UVM_INFO ../src/env/ahb_scoreboard.sv(104) @ 865000: uvm_test_top.env.scb [ahb_scoreboard] MATCH #3: [AHB_WRITE] HADDR=0x00004064 AHB_BURST_WRAP16 16 beats
# UVM_INFO ../src/env/ahb_coverage.sv(174) @ 865000: uvm_test_top.env.slave_cov [ahb_coverage] Sampled [AHB_WRITE]: burst=AHB_BURST_WRAP16 size=AHB_SIZE_32B beats=16 error=0
# UVM_INFO ../src/mst/ahb_master_driver.sv(85) @ 865000: uvm_test_top.env.master_agent.drv [ahb_master_driver] Queueing [AHB_READ]: HADDR=0x00004064, HBURST=AHB_BURST_WRAP16, HSIZE=AHB_SIZE_32B, 16 beats
# UVM_INFO ../src/mst/ahb_master_driver.sv(127) @ 865000: uvm_test_top.env.master_agent.drv [ahb_master_driver] Driving [AHB_READ]: HADDR=0x00004064, HBURST=AHB_BURST_WRAP16, HSIZE=AHB_SIZE_32B, 16 beats               
# UVM_INFO ../src/mst/ahb_master_driver.sv(332) @ 895000: uvm_test_top.env.master_agent.drv [ahb_master_driver] Beat[0/16] addr=0x00004064 trans=AHB_TRANS_NONSEQ resp=AHB_RESP_OKAY rdata=0xa7c80571
# UVM_INFO ../src/slv/ahb_slave_driver.sv(184) @ 895000: uvm_test_top.env.slave_agent.drv [ahb_slave_driver] Beat AHB_READ addr=0x00004064 resp=AHB_RESP_OKAY waits=0 rdata=0xa7c80571
# UVM_INFO ../src/mst/ahb_master_monitor.sv(128) @ 895000: uvm_test_top.env.master_agent.mon [ahb_master_monitor] Beat[0] addr=0x00004064 rdata=0xa7c80571 resp=AHB_RESP_OKAY
# UVM_INFO ../src/mst/ahb_master_driver.sv(332) @ 915000: uvm_test_top.env.master_agent.drv [ahb_master_driver] Beat[1/16] addr=0x00004068 trans=AHB_TRANS_SEQ resp=AHB_RESP_OKAY rdata=0x6572e6e3
# UVM_INFO ../src/slv/ahb_slave_driver.sv(184) @ 915000: uvm_test_top.env.slave_agent.drv [ahb_slave_driver] Beat AHB_READ addr=0x00004068 resp=AHB_RESP_OKAY waits=1 rdata=0x6572e6e3
# UVM_INFO ../src/mst/ahb_master_monitor.sv(128) @ 915000: uvm_test_top.env.master_agent.mon [ahb_master_monitor] Beat[1] addr=0x00004068 rdata=0x6572e6e3 resp=AHB_RESP_OKAY
# UVM_INFO ../src/mst/ahb_master_driver.sv(332) @ 945000: uvm_test_top.env.master_agent.drv [ahb_master_driver] Beat[2/16] addr=0x0000406c trans=AHB_TRANS_SEQ resp=AHB_RESP_OKAY rdata=0x783065d2
# UVM_INFO ../src/slv/ahb_slave_driver.sv(184) @ 945000: uvm_test_top.env.slave_agent.drv [ahb_slave_driver] Beat AHB_READ addr=0x0000406c resp=AHB_RESP_OKAY waits=2 rdata=0x783065d2
# UVM_INFO ../src/mst/ahb_master_monitor.sv(128) @ 945000: uvm_test_top.env.master_agent.mon [ahb_master_monitor] Beat[2] addr=0x0000406c rdata=0x783065d2 resp=AHB_RESP_OKAY
# UVM_INFO ../src/mst/ahb_master_driver.sv(332) @ 975000: uvm_test_top.env.master_agent.drv [ahb_master_driver] Beat[3/16] addr=0x00004070 trans=AHB_TRANS_SEQ resp=AHB_RESP_OKAY rdata=0x30ab82ca
# UVM_INFO ../src/slv/ahb_slave_driver.sv(184) @ 975000: uvm_test_top.env.slave_agent.drv [ahb_slave_driver] Beat AHB_READ addr=0x00004070 resp=AHB_RESP_OKAY waits=2 rdata=0x30ab82ca
# UVM_INFO ../src/mst/ahb_master_monitor.sv(128) @ 975000: uvm_test_top.env.master_agent.mon [ahb_master_monitor] Beat[3] addr=0x00004070 rdata=0x30ab82ca resp=AHB_RESP_OKAY
# UVM_INFO ../src/mst/ahb_master_driver.sv(332) @ 995000: uvm_test_top.env.master_agent.drv [ahb_master_driver] Beat[4/16] addr=0x00004074 trans=AHB_TRANS_SEQ resp=AHB_RESP_OKAY rdata=0x42b3aae9
# UVM_INFO ../src/slv/ahb_slave_driver.sv(184) @ 995000: uvm_test_top.env.slave_agent.drv [ahb_slave_driver] Beat AHB_READ addr=0x00004074 resp=AHB_RESP_OKAY waits=1 rdata=0x42b3aae9
# UVM_INFO ../src/mst/ahb_master_monitor.sv(128) @ 995000: uvm_test_top.env.master_agent.mon [ahb_master_monitor] Beat[4] addr=0x00004074 rdata=0x42b3aae9 resp=AHB_RESP_OKAY
# UVM_INFO ../src/mst/ahb_master_driver.sv(332) @ 1005000: uvm_test_top.env.master_agent.drv [ahb_master_driver] Beat[5/16] addr=0x00004078 trans=AHB_TRANS_SEQ resp=AHB_RESP_OKAY rdata=0x257e4927
# UVM_INFO ../src/slv/ahb_slave_driver.sv(184) @ 1005000: uvm_test_top.env.slave_agent.drv [ahb_slave_driver] Beat AHB_READ addr=0x00004078 resp=AHB_RESP_OKAY waits=0 rdata=0x257e4927
# UVM_INFO ../src/mst/ahb_master_monitor.sv(128) @ 1005000: uvm_test_top.env.master_agent.mon [ahb_master_monitor] Beat[5] addr=0x00004078 rdata=0x257e4927 resp=AHB_RESP_OKAY
# UVM_INFO ../src/mst/ahb_master_driver.sv(332) @ 1025000: uvm_test_top.env.master_agent.drv [ahb_master_driver] Beat[6/16] addr=0x0000407c trans=AHB_TRANS_SEQ resp=AHB_RESP_OKAY rdata=0xd9b887b0
# UVM_INFO ../src/slv/ahb_slave_driver.sv(184) @ 1025000: uvm_test_top.env.slave_agent.drv [ahb_slave_driver] Beat AHB_READ addr=0x0000407c resp=AHB_RESP_OKAY waits=1 rdata=0xd9b887b0
# UVM_INFO ../src/mst/ahb_master_monitor.sv(128) @ 1025000: uvm_test_top.env.master_agent.mon [ahb_master_monitor] Beat[6] addr=0x0000407c rdata=0xd9b887b0 resp=AHB_RESP_OKAY
# UVM_INFO ../src/mst/ahb_master_driver.sv(332) @ 1045000: uvm_test_top.env.master_agent.drv [ahb_master_driver] Beat[7/16] addr=0x00004040 trans=AHB_TRANS_SEQ resp=AHB_RESP_OKAY rdata=0x12660963
# UVM_INFO ../src/slv/ahb_slave_driver.sv(184) @ 1045000: uvm_test_top.env.slave_agent.drv [ahb_slave_driver] Beat AHB_READ addr=0x00004040 resp=AHB_RESP_OKAY waits=1 rdata=0x12660963
# UVM_INFO ../src/mst/ahb_master_monitor.sv(128) @ 1045000: uvm_test_top.env.master_agent.mon [ahb_master_monitor] Beat[7] addr=0x00004040 rdata=0x12660963 resp=AHB_RESP_OKAY
# UVM_INFO ../src/mst/ahb_master_driver.sv(332) @ 1055000: uvm_test_top.env.master_agent.drv [ahb_master_driver] Beat[8/16] addr=0x00004044 trans=AHB_TRANS_SEQ resp=AHB_RESP_OKAY rdata=0xef02d912
# UVM_INFO ../src/slv/ahb_slave_driver.sv(184) @ 1055000: uvm_test_top.env.slave_agent.drv [ahb_slave_driver] Beat AHB_READ addr=0x00004044 resp=AHB_RESP_OKAY waits=0 rdata=0xef02d912
# UVM_INFO ../src/mst/ahb_master_monitor.sv(128) @ 1055000: uvm_test_top.env.master_agent.mon [ahb_master_monitor] Beat[8] addr=0x00004044 rdata=0xef02d912 resp=AHB_RESP_OKAY
# UVM_INFO ../src/mst/ahb_master_driver.sv(332) @ 1085000: uvm_test_top.env.master_agent.drv [ahb_master_driver] Beat[9/16] addr=0x00004048 trans=AHB_TRANS_SEQ resp=AHB_RESP_OKAY rdata=0x93064e4b
# UVM_INFO ../src/slv/ahb_slave_driver.sv(184) @ 1085000: uvm_test_top.env.slave_agent.drv [ahb_slave_driver] Beat AHB_READ addr=0x00004048 resp=AHB_RESP_OKAY waits=2 rdata=0x93064e4b
# UVM_INFO ../src/mst/ahb_master_monitor.sv(128) @ 1085000: uvm_test_top.env.master_agent.mon [ahb_master_monitor] Beat[9] addr=0x00004048 rdata=0x93064e4b resp=AHB_RESP_OKAY
# UVM_INFO ../src/mst/ahb_master_driver.sv(332) @ 1115000: uvm_test_top.env.master_agent.drv [ahb_master_driver] Beat[10/16] addr=0x0000404c trans=AHB_TRANS_SEQ resp=AHB_RESP_OKAY rdata=0x98edf5e6
# UVM_INFO ../src/slv/ahb_slave_driver.sv(184) @ 1115000: uvm_test_top.env.slave_agent.drv [ahb_slave_driver] Beat AHB_READ addr=0x0000404c resp=AHB_RESP_OKAY waits=2 rdata=0x98edf5e6
# UVM_INFO ../src/mst/ahb_master_monitor.sv(128) @ 1115000: uvm_test_top.env.master_agent.mon [ahb_master_monitor] Beat[10] addr=0x0000404c rdata=0x98edf5e6 resp=AHB_RESP_OKAY
# UVM_INFO ../src/mst/ahb_master_driver.sv(332) @ 1135000: uvm_test_top.env.master_agent.drv [ahb_master_driver] Beat[11/16] addr=0x00004050 trans=AHB_TRANS_SEQ resp=AHB_RESP_OKAY rdata=0x4e2e3f10
# UVM_INFO ../src/slv/ahb_slave_driver.sv(184) @ 1135000: uvm_test_top.env.slave_agent.drv [ahb_slave_driver] Beat AHB_READ addr=0x00004050 resp=AHB_RESP_OKAY waits=1 rdata=0x4e2e3f10
# UVM_INFO ../src/mst/ahb_master_monitor.sv(128) @ 1135000: uvm_test_top.env.master_agent.mon [ahb_master_monitor] Beat[11] addr=0x00004050 rdata=0x4e2e3f10 resp=AHB_RESP_OKAY
# UVM_INFO ../src/mst/ahb_master_driver.sv(332) @ 1145000: uvm_test_top.env.master_agent.drv [ahb_master_driver] Beat[12/16] addr=0x00004054 trans=AHB_TRANS_SEQ resp=AHB_RESP_OKAY rdata=0xc4f9c7e3
# UVM_INFO ../src/slv/ahb_slave_driver.sv(184) @ 1145000: uvm_test_top.env.slave_agent.drv [ahb_slave_driver] Beat AHB_READ addr=0x00004054 resp=AHB_RESP_OKAY waits=0 rdata=0xc4f9c7e3
# UVM_INFO ../src/mst/ahb_master_monitor.sv(128) @ 1145000: uvm_test_top.env.master_agent.mon [ahb_master_monitor] Beat[12] addr=0x00004054 rdata=0xc4f9c7e3 resp=AHB_RESP_OKAY
# UVM_INFO ../src/mst/ahb_master_driver.sv(332) @ 1165000: uvm_test_top.env.master_agent.drv [ahb_master_driver] Beat[13/16] addr=0x00004058 trans=AHB_TRANS_SEQ resp=AHB_RESP_OKAY rdata=0xe18ea703
# UVM_INFO ../src/slv/ahb_slave_driver.sv(184) @ 1165000: uvm_test_top.env.slave_agent.drv [ahb_slave_driver] Beat AHB_READ addr=0x00004058 resp=AHB_RESP_OKAY waits=1 rdata=0xe18ea703
# UVM_INFO ../src/mst/ahb_master_monitor.sv(128) @ 1165000: uvm_test_top.env.master_agent.mon [ahb_master_monitor] Beat[13] addr=0x00004058 rdata=0xe18ea703 resp=AHB_RESP_OKAY
# UVM_INFO ../src/mst/ahb_master_driver.sv(332) @ 1175000: uvm_test_top.env.master_agent.drv [ahb_master_driver] Beat[14/16] addr=0x0000405c trans=AHB_TRANS_SEQ resp=AHB_RESP_OKAY rdata=0x446f6d7f
# UVM_INFO ../src/slv/ahb_slave_driver.sv(184) @ 1175000: uvm_test_top.env.slave_agent.drv [ahb_slave_driver] Beat AHB_READ addr=0x0000405c resp=AHB_RESP_OKAY waits=0 rdata=0x446f6d7f
# UVM_INFO ../src/mst/ahb_master_monitor.sv(128) @ 1175000: uvm_test_top.env.master_agent.mon [ahb_master_monitor] Beat[14] addr=0x0000405c rdata=0x446f6d7f resp=AHB_RESP_OKAY
# UVM_INFO ../src/mst/ahb_master_driver.sv(332) @ 1195000: uvm_test_top.env.master_agent.drv [ahb_master_driver] Beat[15/16] addr=0x00004060 trans=AHB_TRANS_SEQ resp=AHB_RESP_OKAY rdata=0x06989612
# UVM_INFO ../src/mst/ahb_master_driver.sv(376) @ 1195000: uvm_test_top.env.master_agent.drv [ahb_master_driver] Transaction complete: AHB_READ 0x00004064, 16 beats, burst=AHB_BURST_WRAP16
# UVM_INFO ../src/slv/ahb_slave_driver.sv(184) @ 1195000: uvm_test_top.env.slave_agent.drv [ahb_slave_driver] Beat AHB_READ addr=0x00004060 resp=AHB_RESP_OKAY waits=1 rdata=0x06989612
# UVM_INFO ../src/slv/ahb_slave_monitor.sv(212) @ 1195000: uvm_test_top.env.slave_agent.mon [ahb_slave_monitor] Observed [AHB_READ]: HADDR=0x00004064, HBURST=AHB_BURST_WRAP16, HSIZE=AHB_SIZE_32B, 16 beats
# UVM_INFO ../src/env/ahb_coverage.sv(174) @ 1195000: uvm_test_top.env.slave_cov [ahb_coverage] Sampled [AHB_READ]: burst=AHB_BURST_WRAP16 size=AHB_SIZE_32B beats=16 error=0
# UVM_INFO ../src/mst/ahb_master_monitor.sv(128) @ 1195000: uvm_test_top.env.master_agent.mon [ahb_master_monitor] Beat[15] addr=0x00004060 rdata=0x06989612 resp=AHB_RESP_OKAY
# UVM_INFO ../src/mst/ahb_master_monitor.sv(231) @ 1195000: uvm_test_top.env.master_agent.mon [ahb_master_monitor] Observed [AHB_READ]: HADDR=0x00004064, HBURST=AHB_BURST_WRAP16, HSIZE=AHB_SIZE_32B, 16 beats
# UVM_INFO ../src/env/ahb_coverage.sv(174) @ 1195000: uvm_test_top.env.master_cov [ahb_coverage] Sampled [AHB_READ]: burst=AHB_BURST_WRAP16 size=AHB_SIZE_32B beats=16 error=0
# UVM_INFO ../src/env/ahb_scoreboard.sv(104) @ 1195000: uvm_test_top.env.scb [ahb_scoreboard] MATCH #4: [AHB_READ] HADDR=0x00004064 AHB_BURST_WRAP16 16 beats
# UVM_INFO ../src/mst_seq/ahb_base_seq.sv(157) @ 1195000: uvm_test_top.env.master_agent.sqr@@seq [ahb_wrap_burst_seq] AHB_BURST_WRAP16 AHB_SIZE_32B beat 0 @0x00004064 ok
# UVM_INFO ../src/mst_seq/ahb_base_seq.sv(157) @ 1195000: uvm_test_top.env.master_agent.sqr@@seq [ahb_wrap_burst_seq] AHB_BURST_WRAP16 AHB_SIZE_32B beat 1 @0x00004068 ok
# UVM_INFO ../src/mst_seq/ahb_base_seq.sv(157) @ 1195000: uvm_test_top.env.master_agent.sqr@@seq [ahb_wrap_burst_seq] AHB_BURST_WRAP16 AHB_SIZE_32B beat 2 @0x0000406c ok
# UVM_INFO ../src/mst_seq/ahb_base_seq.sv(157) @ 1195000: uvm_test_top.env.master_agent.sqr@@seq [ahb_wrap_burst_seq] AHB_BURST_WRAP16 AHB_SIZE_32B beat 3 @0x00004070 ok
# UVM_INFO ../src/mst_seq/ahb_base_seq.sv(157) @ 1195000: uvm_test_top.env.master_agent.sqr@@seq [ahb_wrap_burst_seq] AHB_BURST_WRAP16 AHB_SIZE_32B beat 4 @0x00004074 ok
# UVM_INFO ../src/mst_seq/ahb_base_seq.sv(157) @ 1195000: uvm_test_top.env.master_agent.sqr@@seq [ahb_wrap_burst_seq] AHB_BURST_WRAP16 AHB_SIZE_32B beat 5 @0x00004078 ok
# UVM_INFO ../src/mst_seq/ahb_base_seq.sv(157) @ 1195000: uvm_test_top.env.master_agent.sqr@@seq [ahb_wrap_burst_seq] AHB_BURST_WRAP16 AHB_SIZE_32B beat 6 @0x0000407c ok
# UVM_INFO ../src/mst_seq/ahb_base_seq.sv(157) @ 1195000: uvm_test_top.env.master_agent.sqr@@seq [ahb_wrap_burst_seq] AHB_BURST_WRAP16 AHB_SIZE_32B beat 7 @0x00004040 ok
# UVM_INFO ../src/mst_seq/ahb_base_seq.sv(157) @ 1195000: uvm_test_top.env.master_agent.sqr@@seq [ahb_wrap_burst_seq] AHB_BURST_WRAP16 AHB_SIZE_32B beat 8 @0x00004044 ok
# UVM_INFO ../src/mst_seq/ahb_base_seq.sv(157) @ 1195000: uvm_test_top.env.master_agent.sqr@@seq [ahb_wrap_burst_seq] AHB_BURST_WRAP16 AHB_SIZE_32B beat 9 @0x00004048 ok
# UVM_INFO ../src/mst_seq/ahb_base_seq.sv(157) @ 1195000: uvm_test_top.env.master_agent.sqr@@seq [ahb_wrap_burst_seq] AHB_BURST_WRAP16 AHB_SIZE_32B beat 10 @0x0000404c ok
# UVM_INFO ../src/mst_seq/ahb_base_seq.sv(157) @ 1195000: uvm_test_top.env.master_agent.sqr@@seq [ahb_wrap_burst_seq] AHB_BURST_WRAP16 AHB_SIZE_32B beat 11 @0x00004050 ok
# UVM_INFO ../src/mst_seq/ahb_base_seq.sv(157) @ 1195000: uvm_test_top.env.master_agent.sqr@@seq [ahb_wrap_burst_seq] AHB_BURST_WRAP16 AHB_SIZE_32B beat 12 @0x00004054 ok
# UVM_INFO ../src/mst_seq/ahb_base_seq.sv(157) @ 1195000: uvm_test_top.env.master_agent.sqr@@seq [ahb_wrap_burst_seq] AHB_BURST_WRAP16 AHB_SIZE_32B beat 13 @0x00004058 ok
# UVM_INFO ../src/mst_seq/ahb_base_seq.sv(157) @ 1195000: uvm_test_top.env.master_agent.sqr@@seq [ahb_wrap_burst_seq] AHB_BURST_WRAP16 AHB_SIZE_32B beat 14 @0x0000405c ok
# UVM_INFO ../src/mst_seq/ahb_base_seq.sv(157) @ 1195000: uvm_test_top.env.master_agent.sqr@@seq [ahb_wrap_burst_seq] AHB_BURST_WRAP16 AHB_SIZE_32B beat 15 @0x00004060 ok
# UVM_INFO ../src/mst/ahb_master_driver.sv(85) @ 1195000: uvm_test_top.env.master_agent.drv [ahb_master_driver] Queueing [AHB_WRITE]: HADDR=0x00004082, HBURST=AHB_BURST_WRAP4, HSIZE=AHB_SIZE_16B, 4 beats
# UVM_INFO ../src/mst/ahb_master_driver.sv(127) @ 1195000: uvm_test_top.env.master_agent.drv [ahb_master_driver] Driving [AHB_WRITE]: HADDR=0x00004082, HBURST=AHB_BURST_WRAP4, HSIZE=AHB_SIZE_16B, 4 beats               
# UVM_INFO ../src/mst/ahb_master_driver.sv(332) @ 1245000: uvm_test_top.env.master_agent.drv [ahb_master_driver] Beat[0/4] addr=0x00004082 trans=AHB_TRANS_NONSEQ resp=AHB_RESP_OKAY wdata=0xffe9fda3
# UVM_INFO ../src/slv/ahb_slave_driver.sv(184) @ 1245000: uvm_test_top.env.slave_agent.drv [ahb_slave_driver] Beat AHB_WRITE addr=0x00004082 resp=AHB_RESP_OKAY waits=2 wdata=0xffe9fda3
# UVM_INFO ../src/mst/ahb_master_monitor.sv(128) @ 1245000: uvm_test_top.env.master_agent.mon [ahb_master_monitor] Beat[0] addr=0x00004082 wdata=0xffe9fda3 resp=AHB_RESP_OKAY
# UVM_INFO ../src/mst/ahb_master_driver.sv(332) @ 1265000: uvm_test_top.env.master_agent.drv [ahb_master_driver] Beat[1/4] addr=0x00004084 trans=AHB_TRANS_SEQ resp=AHB_RESP_OKAY wdata=0xd42314cf
# UVM_INFO ../src/slv/ahb_slave_driver.sv(184) @ 1265000: uvm_test_top.env.slave_agent.drv [ahb_slave_driver] Beat AHB_WRITE addr=0x00004084 resp=AHB_RESP_OKAY waits=1 wdata=0xd42314cf
# UVM_INFO ../src/mst/ahb_master_monitor.sv(128) @ 1265000: uvm_test_top.env.master_agent.mon [ahb_master_monitor] Beat[1] addr=0x00004084 wdata=0xd42314cf resp=AHB_RESP_OKAY
# UVM_INFO ../src/mst/ahb_master_driver.sv(332) @ 1285000: uvm_test_top.env.master_agent.drv [ahb_master_driver] Beat[2/4] addr=0x00004086 trans=AHB_TRANS_SEQ resp=AHB_RESP_OKAY wdata=0x5321e731
# UVM_INFO ../src/slv/ahb_slave_driver.sv(184) @ 1285000: uvm_test_top.env.slave_agent.drv [ahb_slave_driver] Beat AHB_WRITE addr=0x00004086 resp=AHB_RESP_OKAY waits=1 wdata=0x5321e731
# UVM_INFO ../src/mst/ahb_master_monitor.sv(128) @ 1285000: uvm_test_top.env.master_agent.mon [ahb_master_monitor] Beat[2] addr=0x00004086 wdata=0x5321e731 resp=AHB_RESP_OKAY
# UVM_INFO ../src/mst/ahb_master_driver.sv(332) @ 1295000: uvm_test_top.env.master_agent.drv [ahb_master_driver] Beat[3/4] addr=0x00004080 trans=AHB_TRANS_SEQ resp=AHB_RESP_OKAY wdata=0x5fb3f543
# UVM_INFO ../src/mst/ahb_master_driver.sv(376) @ 1295000: uvm_test_top.env.master_agent.drv [ahb_master_driver] Transaction complete: AHB_WRITE 0x00004082, 4 beats, burst=AHB_BURST_WRAP4
# UVM_INFO ../src/slv/ahb_slave_driver.sv(184) @ 1295000: uvm_test_top.env.slave_agent.drv [ahb_slave_driver] Beat AHB_WRITE addr=0x00004080 resp=AHB_RESP_OKAY waits=0 wdata=0x5fb3f543
# UVM_INFO ../src/slv/ahb_slave_monitor.sv(212) @ 1295000: uvm_test_top.env.slave_agent.mon [ahb_slave_monitor] Observed [AHB_WRITE]: HADDR=0x00004082, HBURST=AHB_BURST_WRAP4, HSIZE=AHB_SIZE_16B, 4 beats
# UVM_INFO ../src/env/ahb_coverage.sv(174) @ 1295000: uvm_test_top.env.slave_cov [ahb_coverage] Sampled [AHB_WRITE]: burst=AHB_BURST_WRAP4 size=AHB_SIZE_16B beats=4 error=0
# UVM_INFO ../src/mst/ahb_master_monitor.sv(128) @ 1295000: uvm_test_top.env.master_agent.mon [ahb_master_monitor] Beat[3] addr=0x00004080 wdata=0x5fb3f543 resp=AHB_RESP_OKAY
# UVM_INFO ../src/mst/ahb_master_monitor.sv(231) @ 1295000: uvm_test_top.env.master_agent.mon [ahb_master_monitor] Observed [AHB_WRITE]: HADDR=0x00004082, HBURST=AHB_BURST_WRAP4, HSIZE=AHB_SIZE_16B, 4 beats
# UVM_INFO ../src/env/ahb_coverage.sv(174) @ 1295000: uvm_test_top.env.master_cov [ahb_coverage] Sampled [AHB_WRITE]: burst=AHB_BURST_WRAP4 size=AHB_SIZE_16B beats=4 error=0
# UVM_INFO ../src/env/ahb_scoreboard.sv(104) @ 1295000: uvm_test_top.env.scb [ahb_scoreboard] MATCH #5: [AHB_WRITE] HADDR=0x00004082 AHB_BURST_WRAP4 4 beats
# UVM_INFO ../src/mst/ahb_master_driver.sv(85) @ 1295000: uvm_test_top.env.master_agent.drv [ahb_master_driver] Queueing [AHB_READ]: HADDR=0x00004082, HBURST=AHB_BURST_WRAP4, HSIZE=AHB_SIZE_16B, 4 beats
# UVM_INFO ../src/mst/ahb_master_driver.sv(127) @ 1295000: uvm_test_top.env.master_agent.drv [ahb_master_driver] Driving [AHB_READ]: HADDR=0x00004082, HBURST=AHB_BURST_WRAP4, HSIZE=AHB_SIZE_16B, 4 beats               
# UVM_INFO ../src/mst/ahb_master_driver.sv(332) @ 1345000: uvm_test_top.env.master_agent.drv [ahb_master_driver] Beat[0/4] addr=0x00004082 trans=AHB_TRANS_NONSEQ resp=AHB_RESP_OKAY rdata=0xffe9fda3
# UVM_INFO ../src/slv/ahb_slave_driver.sv(184) @ 1345000: uvm_test_top.env.slave_agent.drv [ahb_slave_driver] Beat AHB_READ addr=0x00004082 resp=AHB_RESP_OKAY waits=2 rdata=0xffe9fda3
# UVM_INFO ../src/mst/ahb_master_monitor.sv(128) @ 1345000: uvm_test_top.env.master_agent.mon [ahb_master_monitor] Beat[0] addr=0x00004082 rdata=0xffe9fda3 resp=AHB_RESP_OKAY
# UVM_INFO ../src/mst/ahb_master_driver.sv(332) @ 1365000: uvm_test_top.env.master_agent.drv [ahb_master_driver] Beat[1/4] addr=0x00004084 trans=AHB_TRANS_SEQ resp=AHB_RESP_OKAY rdata=0xd42314cf
# UVM_INFO ../src/slv/ahb_slave_driver.sv(184) @ 1365000: uvm_test_top.env.slave_agent.drv [ahb_slave_driver] Beat AHB_READ addr=0x00004084 resp=AHB_RESP_OKAY waits=1 rdata=0xd42314cf
# UVM_INFO ../src/mst/ahb_master_monitor.sv(128) @ 1365000: uvm_test_top.env.master_agent.mon [ahb_master_monitor] Beat[1] addr=0x00004084 rdata=0xd42314cf resp=AHB_RESP_OKAY
# UVM_INFO ../src/mst/ahb_master_driver.sv(332) @ 1395000: uvm_test_top.env.master_agent.drv [ahb_master_driver] Beat[2/4] addr=0x00004086 trans=AHB_TRANS_SEQ resp=AHB_RESP_OKAY rdata=0x5321e731
# UVM_INFO ../src/slv/ahb_slave_driver.sv(184) @ 1395000: uvm_test_top.env.slave_agent.drv [ahb_slave_driver] Beat AHB_READ addr=0x00004086 resp=AHB_RESP_OKAY waits=2 rdata=0x5321e731
# UVM_INFO ../src/mst/ahb_master_monitor.sv(128) @ 1395000: uvm_test_top.env.master_agent.mon [ahb_master_monitor] Beat[2] addr=0x00004086 rdata=0x5321e731 resp=AHB_RESP_OKAY
# UVM_INFO ../src/mst/ahb_master_driver.sv(332) @ 1425000: uvm_test_top.env.master_agent.drv [ahb_master_driver] Beat[3/4] addr=0x00004080 trans=AHB_TRANS_SEQ resp=AHB_RESP_OKAY rdata=0x5fb3f543
# UVM_INFO ../src/mst/ahb_master_driver.sv(376) @ 1425000: uvm_test_top.env.master_agent.drv [ahb_master_driver] Transaction complete: AHB_READ 0x00004082, 4 beats, burst=AHB_BURST_WRAP4
# UVM_INFO ../src/slv/ahb_slave_driver.sv(184) @ 1425000: uvm_test_top.env.slave_agent.drv [ahb_slave_driver] Beat AHB_READ addr=0x00004080 resp=AHB_RESP_OKAY waits=2 rdata=0x5fb3f543
# UVM_INFO ../src/mst/ahb_master_monitor.sv(128) @ 1425000: uvm_test_top.env.master_agent.mon [ahb_master_monitor] Beat[3] addr=0x00004080 rdata=0x5fb3f543 resp=AHB_RESP_OKAY
# UVM_INFO ../src/mst/ahb_master_monitor.sv(231) @ 1425000: uvm_test_top.env.master_agent.mon [ahb_master_monitor] Observed [AHB_READ]: HADDR=0x00004082, HBURST=AHB_BURST_WRAP4, HSIZE=AHB_SIZE_16B, 4 beats
# UVM_INFO ../src/env/ahb_coverage.sv(174) @ 1425000: uvm_test_top.env.master_cov [ahb_coverage] Sampled [AHB_READ]: burst=AHB_BURST_WRAP4 size=AHB_SIZE_16B beats=4 error=0
# UVM_INFO ../src/slv/ahb_slave_monitor.sv(212) @ 1425000: uvm_test_top.env.slave_agent.mon [ahb_slave_monitor] Observed [AHB_READ]: HADDR=0x00004082, HBURST=AHB_BURST_WRAP4, HSIZE=AHB_SIZE_16B, 4 beats
# UVM_INFO ../src/env/ahb_scoreboard.sv(104) @ 1425000: uvm_test_top.env.scb [ahb_scoreboard] MATCH #6: [AHB_READ] HADDR=0x00004082 AHB_BURST_WRAP4 4 beats
# UVM_INFO ../src/env/ahb_coverage.sv(174) @ 1425000: uvm_test_top.env.slave_cov [ahb_coverage] Sampled [AHB_READ]: burst=AHB_BURST_WRAP4 size=AHB_SIZE_16B beats=4 error=0
# UVM_INFO ../src/mst_seq/ahb_base_seq.sv(157) @ 1425000: uvm_test_top.env.master_agent.sqr@@seq [ahb_wrap_burst_seq] AHB_BURST_WRAP4 AHB_SIZE_16B beat 0 @0x00004082 ok
# UVM_INFO ../src/mst_seq/ahb_base_seq.sv(157) @ 1425000: uvm_test_top.env.master_agent.sqr@@seq [ahb_wrap_burst_seq] AHB_BURST_WRAP4 AHB_SIZE_16B beat 1 @0x00004084 ok
# UVM_INFO ../src/mst_seq/ahb_base_seq.sv(157) @ 1425000: uvm_test_top.env.master_agent.sqr@@seq [ahb_wrap_burst_seq] AHB_BURST_WRAP4 AHB_SIZE_16B beat 2 @0x00004086 ok
# UVM_INFO ../src/mst_seq/ahb_base_seq.sv(157) @ 1425000: uvm_test_top.env.master_agent.sqr@@seq [ahb_wrap_burst_seq] AHB_BURST_WRAP4 AHB_SIZE_16B beat 3 @0x00004080 ok
# UVM_INFO ../src/mst/ahb_master_driver.sv(85) @ 1425000: uvm_test_top.env.master_agent.drv [ahb_master_driver] Queueing [AHB_WRITE]: HADDR=0x000040cd, HBURST=AHB_BURST_WRAP4, HSIZE=AHB_SIZE_8B, 4 beats
# UVM_INFO ../src/mst/ahb_master_driver.sv(127) @ 1425000: uvm_test_top.env.master_agent.drv [ahb_master_driver] Driving [AHB_WRITE]: HADDR=0x000040cd, HBURST=AHB_BURST_WRAP4, HSIZE=AHB_SIZE_8B, 4 beats               
# UVM_INFO ../src/mst/ahb_master_driver.sv(332) @ 1465000: uvm_test_top.env.master_agent.drv [ahb_master_driver] Beat[0/4] addr=0x000040cd trans=AHB_TRANS_NONSEQ resp=AHB_RESP_OKAY wdata=0x5f674da1
# UVM_INFO ../src/slv/ahb_slave_driver.sv(184) @ 1465000: uvm_test_top.env.slave_agent.drv [ahb_slave_driver] Beat AHB_WRITE addr=0x000040cd resp=AHB_RESP_OKAY waits=1 wdata=0x5f674da1
# UVM_INFO ../src/mst/ahb_master_monitor.sv(128) @ 1465000: uvm_test_top.env.master_agent.mon [ahb_master_monitor] Beat[0] addr=0x000040cd wdata=0x5f674da1 resp=AHB_RESP_OKAY
# UVM_INFO ../src/mst/ahb_master_driver.sv(332) @ 1485000: uvm_test_top.env.master_agent.drv [ahb_master_driver] Beat[1/4] addr=0x000040ce trans=AHB_TRANS_SEQ resp=AHB_RESP_OKAY wdata=0x4f62bd87
# UVM_INFO ../src/slv/ahb_slave_driver.sv(184) @ 1485000: uvm_test_top.env.slave_agent.drv [ahb_slave_driver] Beat AHB_WRITE addr=0x000040ce resp=AHB_RESP_OKAY waits=1 wdata=0x4f62bd87
# UVM_INFO ../src/mst/ahb_master_monitor.sv(128) @ 1485000: uvm_test_top.env.master_agent.mon [ahb_master_monitor] Beat[1] addr=0x000040ce wdata=0x4f62bd87 resp=AHB_RESP_OKAY
# UVM_INFO ../src/mst/ahb_master_driver.sv(332) @ 1495000: uvm_test_top.env.master_agent.drv [ahb_master_driver] Beat[2/4] addr=0x000040cf trans=AHB_TRANS_SEQ resp=AHB_RESP_OKAY wdata=0x54326bb6
# UVM_INFO ../src/slv/ahb_slave_driver.sv(184) @ 1495000: uvm_test_top.env.slave_agent.drv [ahb_slave_driver] Beat AHB_WRITE addr=0x000040cf resp=AHB_RESP_OKAY waits=0 wdata=0x54326bb6
# UVM_INFO ../src/mst/ahb_master_monitor.sv(128) @ 1495000: uvm_test_top.env.master_agent.mon [ahb_master_monitor] Beat[2] addr=0x000040cf wdata=0x54326bb6 resp=AHB_RESP_OKAY
# UVM_INFO ../src/mst/ahb_master_driver.sv(332) @ 1525000: uvm_test_top.env.master_agent.drv [ahb_master_driver] Beat[3/4] addr=0x000040cc trans=AHB_TRANS_SEQ resp=AHB_RESP_OKAY wdata=0xb9012035
# UVM_INFO ../src/mst/ahb_master_driver.sv(376) @ 1525000: uvm_test_top.env.master_agent.drv [ahb_master_driver] Transaction complete: AHB_WRITE 0x000040cd, 4 beats, burst=AHB_BURST_WRAP4
# UVM_INFO ../src/slv/ahb_slave_driver.sv(184) @ 1525000: uvm_test_top.env.slave_agent.drv [ahb_slave_driver] Beat AHB_WRITE addr=0x000040cc resp=AHB_RESP_OKAY waits=2 wdata=0xb9012035
# UVM_INFO ../src/mst/ahb_master_monitor.sv(128) @ 1525000: uvm_test_top.env.master_agent.mon [ahb_master_monitor] Beat[3] addr=0x000040cc wdata=0xb9012035 resp=AHB_RESP_OKAY
# UVM_INFO ../src/mst/ahb_master_monitor.sv(231) @ 1525000: uvm_test_top.env.master_agent.mon [ahb_master_monitor] Observed [AHB_WRITE]: HADDR=0x000040cd, HBURST=AHB_BURST_WRAP4, HSIZE=AHB_SIZE_8B, 4 beats
# UVM_INFO ../src/env/ahb_coverage.sv(174) @ 1525000: uvm_test_top.env.master_cov [ahb_coverage] Sampled [AHB_WRITE]: burst=AHB_BURST_WRAP4 size=AHB_SIZE_8B beats=4 error=0
# UVM_INFO ../src/slv/ahb_slave_monitor.sv(212) @ 1525000: uvm_test_top.env.slave_agent.mon [ahb_slave_monitor] Observed [AHB_WRITE]: HADDR=0x000040cd, HBURST=AHB_BURST_WRAP4, HSIZE=AHB_SIZE_8B, 4 beats
# UVM_INFO ../src/env/ahb_scoreboard.sv(104) @ 1525000: uvm_test_top.env.scb [ahb_scoreboard] MATCH #7: [AHB_WRITE] HADDR=0x000040cd AHB_BURST_WRAP4 4 beats
# UVM_INFO ../src/env/ahb_coverage.sv(174) @ 1525000: uvm_test_top.env.slave_cov [ahb_coverage] Sampled [AHB_WRITE]: burst=AHB_BURST_WRAP4 size=AHB_SIZE_8B beats=4 error=0
# UVM_INFO ../src/mst/ahb_master_driver.sv(85) @ 1525000: uvm_test_top.env.master_agent.drv [ahb_master_driver] Queueing [AHB_READ]: HADDR=0x000040cd, HBURST=AHB_BURST_WRAP4, HSIZE=AHB_SIZE_8B, 4 beats
# UVM_INFO ../src/mst/ahb_master_driver.sv(127) @ 1525000: uvm_test_top.env.master_agent.drv [ahb_master_driver] Driving [AHB_READ]: HADDR=0x000040cd, HBURST=AHB_BURST_WRAP4, HSIZE=AHB_SIZE_8B, 4 beats               
# UVM_INFO ../src/mst/ahb_master_driver.sv(332) @ 1555000: uvm_test_top.env.master_agent.drv [ahb_master_driver] Beat[0/4] addr=0x000040cd trans=AHB_TRANS_NONSEQ resp=AHB_RESP_OKAY rdata=0x5f674da1
# UVM_INFO ../src/slv/ahb_slave_driver.sv(184) @ 1555000: uvm_test_top.env.slave_agent.drv [ahb_slave_driver] Beat AHB_READ addr=0x000040cd resp=AHB_RESP_OKAY waits=0 rdata=0x5f674da1
# UVM_INFO ../src/mst/ahb_master_monitor.sv(128) @ 1555000: uvm_test_top.env.master_agent.mon [ahb_master_monitor] Beat[0] addr=0x000040cd rdata=0x5f674da1 resp=AHB_RESP_OKAY
# UVM_INFO ../src/mst/ahb_master_driver.sv(332) @ 1575000: uvm_test_top.env.master_agent.drv [ahb_master_driver] Beat[1/4] addr=0x000040ce trans=AHB_TRANS_SEQ resp=AHB_RESP_OKAY rdata=0x4f62bd87
# UVM_INFO ../src/slv/ahb_slave_driver.sv(184) @ 1575000: uvm_test_top.env.slave_agent.drv [ahb_slave_driver] Beat AHB_READ addr=0x000040ce resp=AHB_RESP_OKAY waits=1 rdata=0x4f62bd87
# UVM_INFO ../src/mst/ahb_master_monitor.sv(128) @ 1575000: uvm_test_top.env.master_agent.mon [ahb_master_monitor] Beat[1] addr=0x000040ce rdata=0x4f62bd87 resp=AHB_RESP_OKAY
# UVM_INFO ../src/mst/ahb_master_driver.sv(332) @ 1605000: uvm_test_top.env.master_agent.drv [ahb_master_driver] Beat[2/4] addr=0x000040cf trans=AHB_TRANS_SEQ resp=AHB_RESP_OKAY rdata=0x54326bb6
# UVM_INFO ../src/slv/ahb_slave_driver.sv(184) @ 1605000: uvm_test_top.env.slave_agent.drv [ahb_slave_driver] Beat AHB_READ addr=0x000040cf resp=AHB_RESP_OKAY waits=2 rdata=0x54326bb6
# UVM_INFO ../src/mst/ahb_master_monitor.sv(128) @ 1605000: uvm_test_top.env.master_agent.mon [ahb_master_monitor] Beat[2] addr=0x000040cf rdata=0x54326bb6 resp=AHB_RESP_OKAY
# UVM_INFO ../src/mst/ahb_master_driver.sv(332) @ 1635000: uvm_test_top.env.master_agent.drv [ahb_master_driver] Beat[3/4] addr=0x000040cc trans=AHB_TRANS_SEQ resp=AHB_RESP_OKAY rdata=0xb9012035
# UVM_INFO ../src/mst/ahb_master_driver.sv(376) @ 1635000: uvm_test_top.env.master_agent.drv [ahb_master_driver] Transaction complete: AHB_READ 0x000040cd, 4 beats, burst=AHB_BURST_WRAP4
# UVM_INFO ../src/slv/ahb_slave_driver.sv(184) @ 1635000: uvm_test_top.env.slave_agent.drv [ahb_slave_driver] Beat AHB_READ addr=0x000040cc resp=AHB_RESP_OKAY waits=2 rdata=0xb9012035
# UVM_INFO ../src/slv/ahb_slave_monitor.sv(212) @ 1635000: uvm_test_top.env.slave_agent.mon [ahb_slave_monitor] Observed [AHB_READ]: HADDR=0x000040cd, HBURST=AHB_BURST_WRAP4, HSIZE=AHB_SIZE_8B, 4 beats
# UVM_INFO ../src/env/ahb_coverage.sv(174) @ 1635000: uvm_test_top.env.slave_cov [ahb_coverage] Sampled [AHB_READ]: burst=AHB_BURST_WRAP4 size=AHB_SIZE_8B beats=4 error=0
# UVM_INFO ../src/mst/ahb_master_monitor.sv(128) @ 1635000: uvm_test_top.env.master_agent.mon [ahb_master_monitor] Beat[3] addr=0x000040cc rdata=0xb9012035 resp=AHB_RESP_OKAY
# UVM_INFO ../src/mst/ahb_master_monitor.sv(231) @ 1635000: uvm_test_top.env.master_agent.mon [ahb_master_monitor] Observed [AHB_READ]: HADDR=0x000040cd, HBURST=AHB_BURST_WRAP4, HSIZE=AHB_SIZE_8B, 4 beats
# UVM_INFO ../src/env/ahb_coverage.sv(174) @ 1635000: uvm_test_top.env.master_cov [ahb_coverage] Sampled [AHB_READ]: burst=AHB_BURST_WRAP4 size=AHB_SIZE_8B beats=4 error=0
# UVM_INFO ../src/env/ahb_scoreboard.sv(104) @ 1635000: uvm_test_top.env.scb [ahb_scoreboard] MATCH #8: [AHB_READ] HADDR=0x000040cd AHB_BURST_WRAP4 4 beats
# UVM_INFO ../src/mst_seq/ahb_base_seq.sv(157) @ 1635000: uvm_test_top.env.master_agent.sqr@@seq [ahb_wrap_burst_seq] AHB_BURST_WRAP4 AHB_SIZE_8B beat 0 @0x000040cd ok
# UVM_INFO ../src/mst_seq/ahb_base_seq.sv(157) @ 1635000: uvm_test_top.env.master_agent.sqr@@seq [ahb_wrap_burst_seq] AHB_BURST_WRAP4 AHB_SIZE_8B beat 1 @0x000040ce ok
# UVM_INFO ../src/mst_seq/ahb_base_seq.sv(157) @ 1635000: uvm_test_top.env.master_agent.sqr@@seq [ahb_wrap_burst_seq] AHB_BURST_WRAP4 AHB_SIZE_8B beat 2 @0x000040cf ok
# UVM_INFO ../src/mst_seq/ahb_base_seq.sv(157) @ 1635000: uvm_test_top.env.master_agent.sqr@@seq [ahb_wrap_burst_seq] AHB_BURST_WRAP4 AHB_SIZE_8B beat 3 @0x000040cc ok
# UVM_INFO ../src/mst/ahb_master_driver.sv(85) @ 1635000: uvm_test_top.env.master_agent.drv [ahb_master_driver] Queueing [AHB_WRITE]: HADDR=0x0000413e, HBURST=AHB_BURST_WRAP4, HSIZE=AHB_SIZE_16B, 4 beats
# UVM_INFO ../src/mst/ahb_master_driver.sv(127) @ 1635000: uvm_test_top.env.master_agent.drv [ahb_master_driver] Driving [AHB_WRITE]: HADDR=0x0000413e, HBURST=AHB_BURST_WRAP4, HSIZE=AHB_SIZE_16B, 4 beats               
# UVM_INFO ../src/mst/ahb_master_driver.sv(332) @ 1665000: uvm_test_top.env.master_agent.drv [ahb_master_driver] Beat[0/4] addr=0x0000413e trans=AHB_TRANS_NONSEQ resp=AHB_RESP_OKAY wdata=0xf0167c81
# UVM_INFO ../src/slv/ahb_slave_driver.sv(184) @ 1665000: uvm_test_top.env.slave_agent.drv [ahb_slave_driver] Beat AHB_WRITE addr=0x0000413e resp=AHB_RESP_OKAY waits=0 wdata=0xf0167c81
# UVM_INFO ../src/mst/ahb_master_monitor.sv(128) @ 1665000: uvm_test_top.env.master_agent.mon [ahb_master_monitor] Beat[0] addr=0x0000413e wdata=0xf0167c81 resp=AHB_RESP_OKAY
# UVM_INFO ../src/mst/ahb_master_driver.sv(332) @ 1685000: uvm_test_top.env.master_agent.drv [ahb_master_driver] Beat[1/4] addr=0x00004138 trans=AHB_TRANS_SEQ resp=AHB_RESP_OKAY wdata=0x679da0b2
# UVM_INFO ../src/slv/ahb_slave_driver.sv(184) @ 1685000: uvm_test_top.env.slave_agent.drv [ahb_slave_driver] Beat AHB_WRITE addr=0x00004138 resp=AHB_RESP_OKAY waits=1 wdata=0x679da0b2
# UVM_INFO ../src/mst/ahb_master_monitor.sv(128) @ 1685000: uvm_test_top.env.master_agent.mon [ahb_master_monitor] Beat[1] addr=0x00004138 wdata=0x679da0b2 resp=AHB_RESP_OKAY
# UVM_INFO ../src/mst/ahb_master_driver.sv(332) @ 1695000: uvm_test_top.env.master_agent.drv [ahb_master_driver] Beat[2/4] addr=0x0000413a trans=AHB_TRANS_SEQ resp=AHB_RESP_OKAY wdata=0x61e14ebd
# UVM_INFO ../src/slv/ahb_slave_driver.sv(184) @ 1695000: uvm_test_top.env.slave_agent.drv [ahb_slave_driver] Beat AHB_WRITE addr=0x0000413a resp=AHB_RESP_OKAY waits=0 wdata=0x61e14ebd
# UVM_INFO ../src/mst/ahb_master_monitor.sv(128) @ 1695000: uvm_test_top.env.master_agent.mon [ahb_master_monitor] Beat[2] addr=0x0000413a wdata=0x61e14ebd resp=AHB_RESP_OKAY
# UVM_INFO ../src/mst/ahb_master_driver.sv(332) @ 1715000: uvm_test_top.env.master_agent.drv [ahb_master_driver] Beat[3/4] addr=0x0000413c trans=AHB_TRANS_SEQ resp=AHB_RESP_OKAY wdata=0xafe786c6
# UVM_INFO ../src/mst/ahb_master_driver.sv(376) @ 1715000: uvm_test_top.env.master_agent.drv [ahb_master_driver] Transaction complete: AHB_WRITE 0x0000413e, 4 beats, burst=AHB_BURST_WRAP4
# UVM_INFO ../src/slv/ahb_slave_driver.sv(184) @ 1715000: uvm_test_top.env.slave_agent.drv [ahb_slave_driver] Beat AHB_WRITE addr=0x0000413c resp=AHB_RESP_OKAY waits=1 wdata=0xafe786c6
# UVM_INFO ../src/slv/ahb_slave_monitor.sv(212) @ 1715000: uvm_test_top.env.slave_agent.mon [ahb_slave_monitor] Observed [AHB_WRITE]: HADDR=0x0000413e, HBURST=AHB_BURST_WRAP4, HSIZE=AHB_SIZE_16B, 4 beats
# UVM_INFO ../src/env/ahb_coverage.sv(174) @ 1715000: uvm_test_top.env.slave_cov [ahb_coverage] Sampled [AHB_WRITE]: burst=AHB_BURST_WRAP4 size=AHB_SIZE_16B beats=4 error=0
# UVM_INFO ../src/mst/ahb_master_monitor.sv(128) @ 1715000: uvm_test_top.env.master_agent.mon [ahb_master_monitor] Beat[3] addr=0x0000413c wdata=0xafe786c6 resp=AHB_RESP_OKAY
# UVM_INFO ../src/mst/ahb_master_monitor.sv(231) @ 1715000: uvm_test_top.env.master_agent.mon [ahb_master_monitor] Observed [AHB_WRITE]: HADDR=0x0000413e, HBURST=AHB_BURST_WRAP4, HSIZE=AHB_SIZE_16B, 4 beats
# UVM_INFO ../src/env/ahb_coverage.sv(174) @ 1715000: uvm_test_top.env.master_cov [ahb_coverage] Sampled [AHB_WRITE]: burst=AHB_BURST_WRAP4 size=AHB_SIZE_16B beats=4 error=0
# UVM_INFO ../src/env/ahb_scoreboard.sv(104) @ 1715000: uvm_test_top.env.scb [ahb_scoreboard] MATCH #9: [AHB_WRITE] HADDR=0x0000413e AHB_BURST_WRAP4 4 beats
# UVM_INFO ../src/mst/ahb_master_driver.sv(85) @ 1715000: uvm_test_top.env.master_agent.drv [ahb_master_driver] Queueing [AHB_READ]: HADDR=0x0000413e, HBURST=AHB_BURST_WRAP4, HSIZE=AHB_SIZE_16B, 4 beats
# UVM_INFO ../src/mst/ahb_master_driver.sv(127) @ 1715000: uvm_test_top.env.master_agent.drv [ahb_master_driver] Driving [AHB_READ]: HADDR=0x0000413e, HBURST=AHB_BURST_WRAP4, HSIZE=AHB_SIZE_16B, 4 beats               
# UVM_INFO ../src/mst/ahb_master_driver.sv(332) @ 1745000: uvm_test_top.env.master_agent.drv [ahb_master_driver] Beat[0/4] addr=0x0000413e trans=AHB_TRANS_NONSEQ resp=AHB_RESP_OKAY rdata=0xf0167c81
# UVM_INFO ../src/slv/ahb_slave_driver.sv(184) @ 1745000: uvm_test_top.env.slave_agent.drv [ahb_slave_driver] Beat AHB_READ addr=0x0000413e resp=AHB_RESP_OKAY waits=0 rdata=0xf0167c81
# UVM_INFO ../src/mst/ahb_master_monitor.sv(128) @ 1745000: uvm_test_top.env.master_agent.mon [ahb_master_monitor] Beat[0] addr=0x0000413e rdata=0xf0167c81 resp=AHB_RESP_OKAY
# UVM_INFO ../src/mst/ahb_master_driver.sv(332) @ 1765000: uvm_test_top.env.master_agent.drv [ahb_master_driver] Beat[1/4] addr=0x00004138 trans=AHB_TRANS_SEQ resp=AHB_RESP_OKAY rdata=0x679da0b2
# UVM_INFO ../src/slv/ahb_slave_driver.sv(184) @ 1765000: uvm_test_top.env.slave_agent.drv [ahb_slave_driver] Beat AHB_READ addr=0x00004138 resp=AHB_RESP_OKAY waits=1 rdata=0x679da0b2
# UVM_INFO ../src/mst/ahb_master_monitor.sv(128) @ 1765000: uvm_test_top.env.master_agent.mon [ahb_master_monitor] Beat[1] addr=0x00004138 rdata=0x679da0b2 resp=AHB_RESP_OKAY
# UVM_INFO ../src/mst/ahb_master_driver.sv(332) @ 1795000: uvm_test_top.env.master_agent.drv [ahb_master_driver] Beat[2/4] addr=0x0000413a trans=AHB_TRANS_SEQ resp=AHB_RESP_OKAY rdata=0x61e14ebd
# UVM_INFO ../src/slv/ahb_slave_driver.sv(184) @ 1795000: uvm_test_top.env.slave_agent.drv [ahb_slave_driver] Beat AHB_READ addr=0x0000413a resp=AHB_RESP_OKAY waits=2 rdata=0x61e14ebd
# UVM_INFO ../src/mst/ahb_master_monitor.sv(128) @ 1795000: uvm_test_top.env.master_agent.mon [ahb_master_monitor] Beat[2] addr=0x0000413a rdata=0x61e14ebd resp=AHB_RESP_OKAY
# UVM_INFO ../src/mst/ahb_master_driver.sv(332) @ 1825000: uvm_test_top.env.master_agent.drv [ahb_master_driver] Beat[3/4] addr=0x0000413c trans=AHB_TRANS_SEQ resp=AHB_RESP_OKAY rdata=0xafe786c6
# UVM_INFO ../src/mst/ahb_master_driver.sv(376) @ 1825000: uvm_test_top.env.master_agent.drv [ahb_master_driver] Transaction complete: AHB_READ 0x0000413e, 4 beats, burst=AHB_BURST_WRAP4
# UVM_INFO ../src/slv/ahb_slave_driver.sv(184) @ 1825000: uvm_test_top.env.slave_agent.drv [ahb_slave_driver] Beat AHB_READ addr=0x0000413c resp=AHB_RESP_OKAY waits=2 rdata=0xafe786c6
# UVM_INFO ../src/mst/ahb_master_monitor.sv(128) @ 1825000: uvm_test_top.env.master_agent.mon [ahb_master_monitor] Beat[3] addr=0x0000413c rdata=0xafe786c6 resp=AHB_RESP_OKAY
# UVM_INFO ../src/mst/ahb_master_monitor.sv(231) @ 1825000: uvm_test_top.env.master_agent.mon [ahb_master_monitor] Observed [AHB_READ]: HADDR=0x0000413e, HBURST=AHB_BURST_WRAP4, HSIZE=AHB_SIZE_16B, 4 beats
# UVM_INFO ../src/env/ahb_coverage.sv(174) @ 1825000: uvm_test_top.env.master_cov [ahb_coverage] Sampled [AHB_READ]: burst=AHB_BURST_WRAP4 size=AHB_SIZE_16B beats=4 error=0
# UVM_INFO ../src/slv/ahb_slave_monitor.sv(212) @ 1825000: uvm_test_top.env.slave_agent.mon [ahb_slave_monitor] Observed [AHB_READ]: HADDR=0x0000413e, HBURST=AHB_BURST_WRAP4, HSIZE=AHB_SIZE_16B, 4 beats
# UVM_INFO ../src/env/ahb_scoreboard.sv(104) @ 1825000: uvm_test_top.env.scb [ahb_scoreboard] MATCH #10: [AHB_READ] HADDR=0x0000413e AHB_BURST_WRAP4 4 beats
# UVM_INFO ../src/env/ahb_coverage.sv(174) @ 1825000: uvm_test_top.env.slave_cov [ahb_coverage] Sampled [AHB_READ]: burst=AHB_BURST_WRAP4 size=AHB_SIZE_16B beats=4 error=0
# UVM_INFO ../src/mst_seq/ahb_base_seq.sv(157) @ 1825000: uvm_test_top.env.master_agent.sqr@@seq [ahb_wrap_burst_seq] AHB_BURST_WRAP4 AHB_SIZE_16B beat 0 @0x0000413e ok
# UVM_INFO ../src/mst_seq/ahb_base_seq.sv(157) @ 1825000: uvm_test_top.env.master_agent.sqr@@seq [ahb_wrap_burst_seq] AHB_BURST_WRAP4 AHB_SIZE_16B beat 1 @0x00004138 ok
# UVM_INFO ../src/mst_seq/ahb_base_seq.sv(157) @ 1825000: uvm_test_top.env.master_agent.sqr@@seq [ahb_wrap_burst_seq] AHB_BURST_WRAP4 AHB_SIZE_16B beat 2 @0x0000413a ok
# UVM_INFO ../src/mst_seq/ahb_base_seq.sv(157) @ 1825000: uvm_test_top.env.master_agent.sqr@@seq [ahb_wrap_burst_seq] AHB_BURST_WRAP4 AHB_SIZE_16B beat 3 @0x0000413c ok
# UVM_INFO ../src/mst/ahb_master_driver.sv(85) @ 1825000: uvm_test_top.env.master_agent.drv [ahb_master_driver] Queueing [AHB_WRITE]: HADDR=0x0000415f, HBURST=AHB_BURST_WRAP16, HSIZE=AHB_SIZE_8B, 16 beats
# UVM_INFO ../src/mst/ahb_master_driver.sv(127) @ 1825000: uvm_test_top.env.master_agent.drv [ahb_master_driver] Driving [AHB_WRITE]: HADDR=0x0000415f, HBURST=AHB_BURST_WRAP16, HSIZE=AHB_SIZE_8B, 16 beats               
# UVM_INFO ../src/mst/ahb_master_driver.sv(332) @ 1865000: uvm_test_top.env.master_agent.drv [ahb_master_driver] Beat[0/16] addr=0x0000415f trans=AHB_TRANS_NONSEQ resp=AHB_RESP_OKAY wdata=0xb4522e4f
# UVM_INFO ../src/slv/ahb_slave_driver.sv(184) @ 1865000: uvm_test_top.env.slave_agent.drv [ahb_slave_driver] Beat AHB_WRITE addr=0x0000415f resp=AHB_RESP_OKAY waits=1 wdata=0xb4522e4f
# UVM_INFO ../src/mst/ahb_master_monitor.sv(128) @ 1865000: uvm_test_top.env.master_agent.mon [ahb_master_monitor] Beat[0] addr=0x0000415f wdata=0xb4522e4f resp=AHB_RESP_OKAY
# UVM_INFO ../src/mst/ahb_master_driver.sv(332) @ 1895000: uvm_test_top.env.master_agent.drv [ahb_master_driver] Beat[1/16] addr=0x00004150 trans=AHB_TRANS_SEQ resp=AHB_RESP_OKAY wdata=0x6d923031
# UVM_INFO ../src/slv/ahb_slave_driver.sv(184) @ 1895000: uvm_test_top.env.slave_agent.drv [ahb_slave_driver] Beat AHB_WRITE addr=0x00004150 resp=AHB_RESP_OKAY waits=2 wdata=0x6d923031
# UVM_INFO ../src/mst/ahb_master_monitor.sv(128) @ 1895000: uvm_test_top.env.master_agent.mon [ahb_master_monitor] Beat[1] addr=0x00004150 wdata=0x6d923031 resp=AHB_RESP_OKAY
# UVM_INFO ../src/mst/ahb_master_driver.sv(332) @ 1925000: uvm_test_top.env.master_agent.drv [ahb_master_driver] Beat[2/16] addr=0x00004151 trans=AHB_TRANS_SEQ resp=AHB_RESP_OKAY wdata=0x529edb2f
# UVM_INFO ../src/slv/ahb_slave_driver.sv(184) @ 1925000: uvm_test_top.env.slave_agent.drv [ahb_slave_driver] Beat AHB_WRITE addr=0x00004151 resp=AHB_RESP_OKAY waits=2 wdata=0x529edb2f
# UVM_INFO ../src/mst/ahb_master_monitor.sv(128) @ 1925000: uvm_test_top.env.master_agent.mon [ahb_master_monitor] Beat[2] addr=0x00004151 wdata=0x529edb2f resp=AHB_RESP_OKAY
# UVM_INFO ../src/mst/ahb_master_driver.sv(332) @ 1945000: uvm_test_top.env.master_agent.drv [ahb_master_driver] Beat[3/16] addr=0x00004152 trans=AHB_TRANS_SEQ resp=AHB_RESP_OKAY wdata=0x064dbdcc
# UVM_INFO ../src/slv/ahb_slave_driver.sv(184) @ 1945000: uvm_test_top.env.slave_agent.drv [ahb_slave_driver] Beat AHB_WRITE addr=0x00004152 resp=AHB_RESP_OKAY waits=1 wdata=0x064dbdcc
# UVM_INFO ../src/mst/ahb_master_monitor.sv(128) @ 1945000: uvm_test_top.env.master_agent.mon [ahb_master_monitor] Beat[3] addr=0x00004152 wdata=0x064dbdcc resp=AHB_RESP_OKAY
# UVM_INFO ../src/mst/ahb_master_driver.sv(332) @ 1975000: uvm_test_top.env.master_agent.drv [ahb_master_driver] Beat[4/16] addr=0x00004153 trans=AHB_TRANS_SEQ resp=AHB_RESP_OKAY wdata=0x7596bbde
# UVM_INFO ../src/slv/ahb_slave_driver.sv(184) @ 1975000: uvm_test_top.env.slave_agent.drv [ahb_slave_driver] Beat AHB_WRITE addr=0x00004153 resp=AHB_RESP_OKAY waits=2 wdata=0x7596bbde
# UVM_INFO ../src/mst/ahb_master_monitor.sv(128) @ 1975000: uvm_test_top.env.master_agent.mon [ahb_master_monitor] Beat[4] addr=0x00004153 wdata=0x7596bbde resp=AHB_RESP_OKAY
# UVM_INFO ../src/mst/ahb_master_driver.sv(332) @ 2005000: uvm_test_top.env.master_agent.drv [ahb_master_driver] Beat[5/16] addr=0x00004154 trans=AHB_TRANS_SEQ resp=AHB_RESP_OKAY wdata=0xffec7997
# UVM_INFO ../src/slv/ahb_slave_driver.sv(184) @ 2005000: uvm_test_top.env.slave_agent.drv [ahb_slave_driver] Beat AHB_WRITE addr=0x00004154 resp=AHB_RESP_OKAY waits=2 wdata=0xffec7997
# UVM_INFO ../src/mst/ahb_master_monitor.sv(128) @ 2005000: uvm_test_top.env.master_agent.mon [ahb_master_monitor] Beat[5] addr=0x00004154 wdata=0xffec7997 resp=AHB_RESP_OKAY
# UVM_INFO ../src/mst/ahb_master_driver.sv(332) @ 2015000: uvm_test_top.env.master_agent.drv [ahb_master_driver] Beat[6/16] addr=0x00004155 trans=AHB_TRANS_SEQ resp=AHB_RESP_OKAY wdata=0x359509e7
# UVM_INFO ../src/slv/ahb_slave_driver.sv(184) @ 2015000: uvm_test_top.env.slave_agent.drv [ahb_slave_driver] Beat AHB_WRITE addr=0x00004155 resp=AHB_RESP_OKAY waits=0 wdata=0x359509e7
# UVM_INFO ../src/mst/ahb_master_monitor.sv(128) @ 2015000: uvm_test_top.env.master_agent.mon [ahb_master_monitor] Beat[6] addr=0x00004155 wdata=0x359509e7 resp=AHB_RESP_OKAY
# UVM_INFO ../src/mst/ahb_master_driver.sv(332) @ 2045000: uvm_test_top.env.master_agent.drv [ahb_master_driver] Beat[7/16] addr=0x00004156 trans=AHB_TRANS_SEQ resp=AHB_RESP_OKAY wdata=0x5fc32328
# UVM_INFO ../src/slv/ahb_slave_driver.sv(184) @ 2045000: uvm_test_top.env.slave_agent.drv [ahb_slave_driver] Beat AHB_WRITE addr=0x00004156 resp=AHB_RESP_OKAY waits=2 wdata=0x5fc32328
# UVM_INFO ../src/mst/ahb_master_monitor.sv(128) @ 2045000: uvm_test_top.env.master_agent.mon [ahb_master_monitor] Beat[7] addr=0x00004156 wdata=0x5fc32328 resp=AHB_RESP_OKAY
# UVM_INFO ../src/mst/ahb_master_driver.sv(332) @ 2065000: uvm_test_top.env.master_agent.drv [ahb_master_driver] Beat[8/16] addr=0x00004157 trans=AHB_TRANS_SEQ resp=AHB_RESP_OKAY wdata=0x97cc8ec7
# UVM_INFO ../src/slv/ahb_slave_driver.sv(184) @ 2065000: uvm_test_top.env.slave_agent.drv [ahb_slave_driver] Beat AHB_WRITE addr=0x00004157 resp=AHB_RESP_OKAY waits=1 wdata=0x97cc8ec7
# UVM_INFO ../src/mst/ahb_master_monitor.sv(128) @ 2065000: uvm_test_top.env.master_agent.mon [ahb_master_monitor] Beat[8] addr=0x00004157 wdata=0x97cc8ec7 resp=AHB_RESP_OKAY
# UVM_INFO ../src/mst/ahb_master_driver.sv(332) @ 2095000: uvm_test_top.env.master_agent.drv [ahb_master_driver] Beat[9/16] addr=0x00004158 trans=AHB_TRANS_SEQ resp=AHB_RESP_OKAY wdata=0xca80ed22
# UVM_INFO ../src/slv/ahb_slave_driver.sv(184) @ 2095000: uvm_test_top.env.slave_agent.drv [ahb_slave_driver] Beat AHB_WRITE addr=0x00004158 resp=AHB_RESP_OKAY waits=2 wdata=0xca80ed22
# UVM_INFO ../src/mst/ahb_master_monitor.sv(128) @ 2095000: uvm_test_top.env.master_agent.mon [ahb_master_monitor] Beat[9] addr=0x00004158 wdata=0xca80ed22 resp=AHB_RESP_OKAY
# UVM_INFO ../src/mst/ahb_master_driver.sv(332) @ 2115000: uvm_test_top.env.master_agent.drv [ahb_master_driver] Beat[10/16] addr=0x00004159 trans=AHB_TRANS_SEQ resp=AHB_RESP_OKAY wdata=0x5401cb3a
# UVM_INFO ../src/slv/ahb_slave_driver.sv(184) @ 2115000: uvm_test_top.env.slave_agent.drv [ahb_slave_driver] Beat AHB_WRITE addr=0x00004159 resp=AHB_RESP_OKAY waits=1 wdata=0x5401cb3a
# UVM_INFO ../src/mst/ahb_master_monitor.sv(128) @ 2115000: uvm_test_top.env.master_agent.mon [ahb_master_monitor] Beat[10] addr=0x00004159 wdata=0x5401cb3a resp=AHB_RESP_OKAY
# UVM_INFO ../src/mst/ahb_master_driver.sv(332) @ 2125000: uvm_test_top.env.master_agent.drv [ahb_master_driver] Beat[11/16] addr=0x0000415a trans=AHB_TRANS_SEQ resp=AHB_RESP_OKAY wdata=0xe20fe53a
# UVM_INFO ../src/slv/ahb_slave_driver.sv(184) @ 2125000: uvm_test_top.env.slave_agent.drv [ahb_slave_driver] Beat AHB_WRITE addr=0x0000415a resp=AHB_RESP_OKAY waits=0 wdata=0xe20fe53a
# UVM_INFO ../src/mst/ahb_master_monitor.sv(128) @ 2125000: uvm_test_top.env.master_agent.mon [ahb_master_monitor] Beat[11] addr=0x0000415a wdata=0xe20fe53a resp=AHB_RESP_OKAY
# UVM_INFO ../src/mst/ahb_master_driver.sv(332) @ 2155000: uvm_test_top.env.master_agent.drv [ahb_master_driver] Beat[12/16] addr=0x0000415b trans=AHB_TRANS_SEQ resp=AHB_RESP_OKAY wdata=0xcc3078df
# UVM_INFO ../src/slv/ahb_slave_driver.sv(184) @ 2155000: uvm_test_top.env.slave_agent.drv [ahb_slave_driver] Beat AHB_WRITE addr=0x0000415b resp=AHB_RESP_OKAY waits=2 wdata=0xcc3078df
# UVM_INFO ../src/mst/ahb_master_monitor.sv(128) @ 2155000: uvm_test_top.env.master_agent.mon [ahb_master_monitor] Beat[12] addr=0x0000415b wdata=0xcc3078df resp=AHB_RESP_OKAY
# UVM_INFO ../src/mst/ahb_master_driver.sv(332) @ 2185000: uvm_test_top.env.master_agent.drv [ahb_master_driver] Beat[13/16] addr=0x0000415c trans=AHB_TRANS_SEQ resp=AHB_RESP_OKAY wdata=0x996be4bb
# UVM_INFO ../src/slv/ahb_slave_driver.sv(184) @ 2185000: uvm_test_top.env.slave_agent.drv [ahb_slave_driver] Beat AHB_WRITE addr=0x0000415c resp=AHB_RESP_OKAY waits=2 wdata=0x996be4bb
# UVM_INFO ../src/mst/ahb_master_monitor.sv(128) @ 2185000: uvm_test_top.env.master_agent.mon [ahb_master_monitor] Beat[13] addr=0x0000415c wdata=0x996be4bb resp=AHB_RESP_OKAY
# UVM_INFO ../src/mst/ahb_master_driver.sv(332) @ 2215000: uvm_test_top.env.master_agent.drv [ahb_master_driver] Beat[14/16] addr=0x0000415d trans=AHB_TRANS_SEQ resp=AHB_RESP_OKAY wdata=0x97bdb539
# UVM_INFO ../src/slv/ahb_slave_driver.sv(184) @ 2215000: uvm_test_top.env.slave_agent.drv [ahb_slave_driver] Beat AHB_WRITE addr=0x0000415d resp=AHB_RESP_OKAY waits=2 wdata=0x97bdb539
# UVM_INFO ../src/mst/ahb_master_monitor.sv(128) @ 2215000: uvm_test_top.env.master_agent.mon [ahb_master_monitor] Beat[14] addr=0x0000415d wdata=0x97bdb539 resp=AHB_RESP_OKAY
# UVM_INFO ../src/mst/ahb_master_driver.sv(332) @ 2235000: uvm_test_top.env.master_agent.drv [ahb_master_driver] Beat[15/16] addr=0x0000415e trans=AHB_TRANS_SEQ resp=AHB_RESP_OKAY wdata=0x1ce04e43
# UVM_INFO ../src/mst/ahb_master_driver.sv(376) @ 2235000: uvm_test_top.env.master_agent.drv [ahb_master_driver] Transaction complete: AHB_WRITE 0x0000415f, 16 beats, burst=AHB_BURST_WRAP16
# UVM_INFO ../src/slv/ahb_slave_driver.sv(184) @ 2235000: uvm_test_top.env.slave_agent.drv [ahb_slave_driver] Beat AHB_WRITE addr=0x0000415e resp=AHB_RESP_OKAY waits=1 wdata=0x1ce04e43
# UVM_INFO ../src/slv/ahb_slave_monitor.sv(212) @ 2235000: uvm_test_top.env.slave_agent.mon [ahb_slave_monitor] Observed [AHB_WRITE]: HADDR=0x0000415f, HBURST=AHB_BURST_WRAP16, HSIZE=AHB_SIZE_8B, 16 beats
# UVM_INFO ../src/env/ahb_coverage.sv(174) @ 2235000: uvm_test_top.env.slave_cov [ahb_coverage] Sampled [AHB_WRITE]: burst=AHB_BURST_WRAP16 size=AHB_SIZE_8B beats=16 error=0
# UVM_INFO ../src/mst/ahb_master_monitor.sv(128) @ 2235000: uvm_test_top.env.master_agent.mon [ahb_master_monitor] Beat[15] addr=0x0000415e wdata=0x1ce04e43 resp=AHB_RESP_OKAY
# UVM_INFO ../src/mst/ahb_master_monitor.sv(231) @ 2235000: uvm_test_top.env.master_agent.mon [ahb_master_monitor] Observed [AHB_WRITE]: HADDR=0x0000415f, HBURST=AHB_BURST_WRAP16, HSIZE=AHB_SIZE_8B, 16 beats
# UVM_INFO ../src/env/ahb_coverage.sv(174) @ 2235000: uvm_test_top.env.master_cov [ahb_coverage] Sampled [AHB_WRITE]: burst=AHB_BURST_WRAP16 size=AHB_SIZE_8B beats=16 error=0
# UVM_INFO ../src/env/ahb_scoreboard.sv(104) @ 2235000: uvm_test_top.env.scb [ahb_scoreboard] MATCH #11: [AHB_WRITE] HADDR=0x0000415f AHB_BURST_WRAP16 16 beats
# UVM_INFO ../src/mst/ahb_master_driver.sv(85) @ 2235000: uvm_test_top.env.master_agent.drv [ahb_master_driver] Queueing [AHB_READ]: HADDR=0x0000415f, HBURST=AHB_BURST_WRAP16, HSIZE=AHB_SIZE_8B, 16 beats
# UVM_INFO ../src/mst/ahb_master_driver.sv(127) @ 2235000: uvm_test_top.env.master_agent.drv [ahb_master_driver] Driving [AHB_READ]: HADDR=0x0000415f, HBURST=AHB_BURST_WRAP16, HSIZE=AHB_SIZE_8B, 16 beats               
# UVM_INFO ../src/mst/ahb_master_driver.sv(332) @ 2265000: uvm_test_top.env.master_agent.drv [ahb_master_driver] Beat[0/16] addr=0x0000415f trans=AHB_TRANS_NONSEQ resp=AHB_RESP_OKAY rdata=0xb4522e4f
# UVM_INFO ../src/slv/ahb_slave_driver.sv(184) @ 2265000: uvm_test_top.env.slave_agent.drv [ahb_slave_driver] Beat AHB_READ addr=0x0000415f resp=AHB_RESP_OKAY waits=0 rdata=0xb4522e4f
# UVM_INFO ../src/mst/ahb_master_monitor.sv(128) @ 2265000: uvm_test_top.env.master_agent.mon [ahb_master_monitor] Beat[0] addr=0x0000415f rdata=0xb4522e4f resp=AHB_RESP_OKAY
# UVM_INFO ../src/mst/ahb_master_driver.sv(332) @ 2275000: uvm_test_top.env.master_agent.drv [ahb_master_driver] Beat[1/16] addr=0x00004150 trans=AHB_TRANS_SEQ resp=AHB_RESP_OKAY rdata=0x6d923031
# UVM_INFO ../src/slv/ahb_slave_driver.sv(184) @ 2275000: uvm_test_top.env.slave_agent.drv [ahb_slave_driver] Beat AHB_READ addr=0x00004150 resp=AHB_RESP_OKAY waits=0 rdata=0x6d923031
# UVM_INFO ../src/mst/ahb_master_monitor.sv(128) @ 2275000: uvm_test_top.env.master_agent.mon [ahb_master_monitor] Beat[1] addr=0x00004150 rdata=0x6d923031 resp=AHB_RESP_OKAY
# UVM_INFO ../src/mst/ahb_master_driver.sv(332) @ 2295000: uvm_test_top.env.master_agent.drv [ahb_master_driver] Beat[2/16] addr=0x00004151 trans=AHB_TRANS_SEQ resp=AHB_RESP_OKAY rdata=0x529edb2f
# UVM_INFO ../src/slv/ahb_slave_driver.sv(184) @ 2295000: uvm_test_top.env.slave_agent.drv [ahb_slave_driver] Beat AHB_READ addr=0x00004151 resp=AHB_RESP_OKAY waits=1 rdata=0x529edb2f
# UVM_INFO ../src/mst/ahb_master_monitor.sv(128) @ 2295000: uvm_test_top.env.master_agent.mon [ahb_master_monitor] Beat[2] addr=0x00004151 rdata=0x529edb2f resp=AHB_RESP_OKAY
# UVM_INFO ../src/mst/ahb_master_driver.sv(332) @ 2315000: uvm_test_top.env.master_agent.drv [ahb_master_driver] Beat[3/16] addr=0x00004152 trans=AHB_TRANS_SEQ resp=AHB_RESP_OKAY rdata=0x064dbdcc
# UVM_INFO ../src/slv/ahb_slave_driver.sv(184) @ 2315000: uvm_test_top.env.slave_agent.drv [ahb_slave_driver] Beat AHB_READ addr=0x00004152 resp=AHB_RESP_OKAY waits=1 rdata=0x064dbdcc
# UVM_INFO ../src/mst/ahb_master_monitor.sv(128) @ 2315000: uvm_test_top.env.master_agent.mon [ahb_master_monitor] Beat[3] addr=0x00004152 rdata=0x064dbdcc resp=AHB_RESP_OKAY
# UVM_INFO ../src/mst/ahb_master_driver.sv(332) @ 2325000: uvm_test_top.env.master_agent.drv [ahb_master_driver] Beat[4/16] addr=0x00004153 trans=AHB_TRANS_SEQ resp=AHB_RESP_OKAY rdata=0x7596bbde
# UVM_INFO ../src/slv/ahb_slave_driver.sv(184) @ 2325000: uvm_test_top.env.slave_agent.drv [ahb_slave_driver] Beat AHB_READ addr=0x00004153 resp=AHB_RESP_OKAY waits=0 rdata=0x7596bbde
# UVM_INFO ../src/mst/ahb_master_monitor.sv(128) @ 2325000: uvm_test_top.env.master_agent.mon [ahb_master_monitor] Beat[4] addr=0x00004153 rdata=0x7596bbde resp=AHB_RESP_OKAY
# UVM_INFO ../src/mst/ahb_master_driver.sv(332) @ 2335000: uvm_test_top.env.master_agent.drv [ahb_master_driver] Beat[5/16] addr=0x00004154 trans=AHB_TRANS_SEQ resp=AHB_RESP_OKAY rdata=0xffec7997
# UVM_INFO ../src/slv/ahb_slave_driver.sv(184) @ 2335000: uvm_test_top.env.slave_agent.drv [ahb_slave_driver] Beat AHB_READ addr=0x00004154 resp=AHB_RESP_OKAY waits=0 rdata=0xffec7997
# UVM_INFO ../src/mst/ahb_master_monitor.sv(128) @ 2335000: uvm_test_top.env.master_agent.mon [ahb_master_monitor] Beat[5] addr=0x00004154 rdata=0xffec7997 resp=AHB_RESP_OKAY
# UVM_INFO ../src/mst/ahb_master_driver.sv(332) @ 2365000: uvm_test_top.env.master_agent.drv [ahb_master_driver] Beat[6/16] addr=0x00004155 trans=AHB_TRANS_SEQ resp=AHB_RESP_OKAY rdata=0x359509e7
# UVM_INFO ../src/slv/ahb_slave_driver.sv(184) @ 2365000: uvm_test_top.env.slave_agent.drv [ahb_slave_driver] Beat AHB_READ addr=0x00004155 resp=AHB_RESP_OKAY waits=2 rdata=0x359509e7
# UVM_INFO ../src/mst/ahb_master_monitor.sv(128) @ 2365000: uvm_test_top.env.master_agent.mon [ahb_master_monitor] Beat[6] addr=0x00004155 rdata=0x359509e7 resp=AHB_RESP_OKAY
# UVM_INFO ../src/mst/ahb_master_driver.sv(332) @ 2375000: uvm_test_top.env.master_agent.drv [ahb_master_driver] Beat[7/16] addr=0x00004156 trans=AHB_TRANS_SEQ resp=AHB_RESP_OKAY rdata=0x5fc32328
# UVM_INFO ../src/slv/ahb_slave_driver.sv(184) @ 2375000: uvm_test_top.env.slave_agent.drv [ahb_slave_driver] Beat AHB_READ addr=0x00004156 resp=AHB_RESP_OKAY waits=0 rdata=0x5fc32328
# UVM_INFO ../src/mst/ahb_master_monitor.sv(128) @ 2375000: uvm_test_top.env.master_agent.mon [ahb_master_monitor] Beat[7] addr=0x00004156 rdata=0x5fc32328 resp=AHB_RESP_OKAY
# UVM_INFO ../src/mst/ahb_master_driver.sv(332) @ 2385000: uvm_test_top.env.master_agent.drv [ahb_master_driver] Beat[8/16] addr=0x00004157 trans=AHB_TRANS_SEQ resp=AHB_RESP_OKAY rdata=0x97cc8ec7
# UVM_INFO ../src/slv/ahb_slave_driver.sv(184) @ 2385000: uvm_test_top.env.slave_agent.drv [ahb_slave_driver] Beat AHB_READ addr=0x00004157 resp=AHB_RESP_OKAY waits=0 rdata=0x97cc8ec7
# UVM_INFO ../src/mst/ahb_master_monitor.sv(128) @ 2385000: uvm_test_top.env.master_agent.mon [ahb_master_monitor] Beat[8] addr=0x00004157 rdata=0x97cc8ec7 resp=AHB_RESP_OKAY
# UVM_INFO ../src/mst/ahb_master_driver.sv(332) @ 2395000: uvm_test_top.env.master_agent.drv [ahb_master_driver] Beat[9/16] addr=0x00004158 trans=AHB_TRANS_SEQ resp=AHB_RESP_OKAY rdata=0xca80ed22
# UVM_INFO ../src/slv/ahb_slave_driver.sv(184) @ 2395000: uvm_test_top.env.slave_agent.drv [ahb_slave_driver] Beat AHB_READ addr=0x00004158 resp=AHB_RESP_OKAY waits=0 rdata=0xca80ed22
# UVM_INFO ../src/mst/ahb_master_monitor.sv(128) @ 2395000: uvm_test_top.env.master_agent.mon [ahb_master_monitor] Beat[9] addr=0x00004158 rdata=0xca80ed22 resp=AHB_RESP_OKAY
# UVM_INFO ../src/mst/ahb_master_driver.sv(332) @ 2425000: uvm_test_top.env.master_agent.drv [ahb_master_driver] Beat[10/16] addr=0x00004159 trans=AHB_TRANS_SEQ resp=AHB_RESP_OKAY rdata=0x5401cb3a
# UVM_INFO ../src/slv/ahb_slave_driver.sv(184) @ 2425000: uvm_test_top.env.slave_agent.drv [ahb_slave_driver] Beat AHB_READ addr=0x00004159 resp=AHB_RESP_OKAY waits=2 rdata=0x5401cb3a
# UVM_INFO ../src/mst/ahb_master_monitor.sv(128) @ 2425000: uvm_test_top.env.master_agent.mon [ahb_master_monitor] Beat[10] addr=0x00004159 rdata=0x5401cb3a resp=AHB_RESP_OKAY
# UVM_INFO ../src/mst/ahb_master_driver.sv(332) @ 2445000: uvm_test_top.env.master_agent.drv [ahb_master_driver] Beat[11/16] addr=0x0000415a trans=AHB_TRANS_SEQ resp=AHB_RESP_OKAY rdata=0xe20fe53a
# UVM_INFO ../src/slv/ahb_slave_driver.sv(184) @ 2445000: uvm_test_top.env.slave_agent.drv [ahb_slave_driver] Beat AHB_READ addr=0x0000415a resp=AHB_RESP_OKAY waits=1 rdata=0xe20fe53a
# UVM_INFO ../src/mst/ahb_master_monitor.sv(128) @ 2445000: uvm_test_top.env.master_agent.mon [ahb_master_monitor] Beat[11] addr=0x0000415a rdata=0xe20fe53a resp=AHB_RESP_OKAY
# UVM_INFO ../src/mst/ahb_master_driver.sv(332) @ 2465000: uvm_test_top.env.master_agent.drv [ahb_master_driver] Beat[12/16] addr=0x0000415b trans=AHB_TRANS_SEQ resp=AHB_RESP_OKAY rdata=0xcc3078df
# UVM_INFO ../src/slv/ahb_slave_driver.sv(184) @ 2465000: uvm_test_top.env.slave_agent.drv [ahb_slave_driver] Beat AHB_READ addr=0x0000415b resp=AHB_RESP_OKAY waits=1 rdata=0xcc3078df
# UVM_INFO ../src/mst/ahb_master_monitor.sv(128) @ 2465000: uvm_test_top.env.master_agent.mon [ahb_master_monitor] Beat[12] addr=0x0000415b rdata=0xcc3078df resp=AHB_RESP_OKAY
# UVM_INFO ../src/mst/ahb_master_driver.sv(332) @ 2495000: uvm_test_top.env.master_agent.drv [ahb_master_driver] Beat[13/16] addr=0x0000415c trans=AHB_TRANS_SEQ resp=AHB_RESP_OKAY rdata=0x996be4bb
# UVM_INFO ../src/slv/ahb_slave_driver.sv(184) @ 2495000: uvm_test_top.env.slave_agent.drv [ahb_slave_driver] Beat AHB_READ addr=0x0000415c resp=AHB_RESP_OKAY waits=2 rdata=0x996be4bb
# UVM_INFO ../src/mst/ahb_master_monitor.sv(128) @ 2495000: uvm_test_top.env.master_agent.mon [ahb_master_monitor] Beat[13] addr=0x0000415c rdata=0x996be4bb resp=AHB_RESP_OKAY
# UVM_INFO ../src/mst/ahb_master_driver.sv(332) @ 2505000: uvm_test_top.env.master_agent.drv [ahb_master_driver] Beat[14/16] addr=0x0000415d trans=AHB_TRANS_SEQ resp=AHB_RESP_OKAY rdata=0x97bdb539
# UVM_INFO ../src/slv/ahb_slave_driver.sv(184) @ 2505000: uvm_test_top.env.slave_agent.drv [ahb_slave_driver] Beat AHB_READ addr=0x0000415d resp=AHB_RESP_OKAY waits=0 rdata=0x97bdb539
# UVM_INFO ../src/mst/ahb_master_monitor.sv(128) @ 2505000: uvm_test_top.env.master_agent.mon [ahb_master_monitor] Beat[14] addr=0x0000415d rdata=0x97bdb539 resp=AHB_RESP_OKAY
# UVM_INFO ../src/mst/ahb_master_driver.sv(332) @ 2525000: uvm_test_top.env.master_agent.drv [ahb_master_driver] Beat[15/16] addr=0x0000415e trans=AHB_TRANS_SEQ resp=AHB_RESP_OKAY rdata=0x1ce04e43
# UVM_INFO ../src/mst/ahb_master_driver.sv(376) @ 2525000: uvm_test_top.env.master_agent.drv [ahb_master_driver] Transaction complete: AHB_READ 0x0000415f, 16 beats, burst=AHB_BURST_WRAP16
# UVM_INFO ../src/slv/ahb_slave_driver.sv(184) @ 2525000: uvm_test_top.env.slave_agent.drv [ahb_slave_driver] Beat AHB_READ addr=0x0000415e resp=AHB_RESP_OKAY waits=1 rdata=0x1ce04e43
# UVM_INFO ../src/mst/ahb_master_monitor.sv(128) @ 2525000: uvm_test_top.env.master_agent.mon [ahb_master_monitor] Beat[15] addr=0x0000415e rdata=0x1ce04e43 resp=AHB_RESP_OKAY
# UVM_INFO ../src/mst/ahb_master_monitor.sv(231) @ 2525000: uvm_test_top.env.master_agent.mon [ahb_master_monitor] Observed [AHB_READ]: HADDR=0x0000415f, HBURST=AHB_BURST_WRAP16, HSIZE=AHB_SIZE_8B, 16 beats
# UVM_INFO ../src/env/ahb_coverage.sv(174) @ 2525000: uvm_test_top.env.master_cov [ahb_coverage] Sampled [AHB_READ]: burst=AHB_BURST_WRAP16 size=AHB_SIZE_8B beats=16 error=0
# UVM_INFO ../src/slv/ahb_slave_monitor.sv(212) @ 2525000: uvm_test_top.env.slave_agent.mon [ahb_slave_monitor] Observed [AHB_READ]: HADDR=0x0000415f, HBURST=AHB_BURST_WRAP16, HSIZE=AHB_SIZE_8B, 16 beats
# UVM_INFO ../src/env/ahb_scoreboard.sv(104) @ 2525000: uvm_test_top.env.scb [ahb_scoreboard] MATCH #12: [AHB_READ] HADDR=0x0000415f AHB_BURST_WRAP16 16 beats
# UVM_INFO ../src/env/ahb_coverage.sv(174) @ 2525000: uvm_test_top.env.slave_cov [ahb_coverage] Sampled [AHB_READ]: burst=AHB_BURST_WRAP16 size=AHB_SIZE_8B beats=16 error=0
# UVM_INFO ../src/mst_seq/ahb_base_seq.sv(157) @ 2525000: uvm_test_top.env.master_agent.sqr@@seq [ahb_wrap_burst_seq] AHB_BURST_WRAP16 AHB_SIZE_8B beat 0 @0x0000415f ok
# UVM_INFO ../src/mst_seq/ahb_base_seq.sv(157) @ 2525000: uvm_test_top.env.master_agent.sqr@@seq [ahb_wrap_burst_seq] AHB_BURST_WRAP16 AHB_SIZE_8B beat 1 @0x00004150 ok
# UVM_INFO ../src/mst_seq/ahb_base_seq.sv(157) @ 2525000: uvm_test_top.env.master_agent.sqr@@seq [ahb_wrap_burst_seq] AHB_BURST_WRAP16 AHB_SIZE_8B beat 2 @0x00004151 ok
# UVM_INFO ../src/mst_seq/ahb_base_seq.sv(157) @ 2525000: uvm_test_top.env.master_agent.sqr@@seq [ahb_wrap_burst_seq] AHB_BURST_WRAP16 AHB_SIZE_8B beat 3 @0x00004152 ok
# UVM_INFO ../src/mst_seq/ahb_base_seq.sv(157) @ 2525000: uvm_test_top.env.master_agent.sqr@@seq [ahb_wrap_burst_seq] AHB_BURST_WRAP16 AHB_SIZE_8B beat 4 @0x00004153 ok
# UVM_INFO ../src/mst_seq/ahb_base_seq.sv(157) @ 2525000: uvm_test_top.env.master_agent.sqr@@seq [ahb_wrap_burst_seq] AHB_BURST_WRAP16 AHB_SIZE_8B beat 5 @0x00004154 ok
# UVM_INFO ../src/mst_seq/ahb_base_seq.sv(157) @ 2525000: uvm_test_top.env.master_agent.sqr@@seq [ahb_wrap_burst_seq] AHB_BURST_WRAP16 AHB_SIZE_8B beat 6 @0x00004155 ok
# UVM_INFO ../src/mst_seq/ahb_base_seq.sv(157) @ 2525000: uvm_test_top.env.master_agent.sqr@@seq [ahb_wrap_burst_seq] AHB_BURST_WRAP16 AHB_SIZE_8B beat 7 @0x00004156 ok
# UVM_INFO ../src/mst_seq/ahb_base_seq.sv(157) @ 2525000: uvm_test_top.env.master_agent.sqr@@seq [ahb_wrap_burst_seq] AHB_BURST_WRAP16 AHB_SIZE_8B beat 8 @0x00004157 ok
# UVM_INFO ../src/mst_seq/ahb_base_seq.sv(157) @ 2525000: uvm_test_top.env.master_agent.sqr@@seq [ahb_wrap_burst_seq] AHB_BURST_WRAP16 AHB_SIZE_8B beat 9 @0x00004158 ok
# UVM_INFO ../src/mst_seq/ahb_base_seq.sv(157) @ 2525000: uvm_test_top.env.master_agent.sqr@@seq [ahb_wrap_burst_seq] AHB_BURST_WRAP16 AHB_SIZE_8B beat 10 @0x00004159 ok
# UVM_INFO ../src/mst_seq/ahb_base_seq.sv(157) @ 2525000: uvm_test_top.env.master_agent.sqr@@seq [ahb_wrap_burst_seq] AHB_BURST_WRAP16 AHB_SIZE_8B beat 11 @0x0000415a ok
# UVM_INFO ../src/mst_seq/ahb_base_seq.sv(157) @ 2525000: uvm_test_top.env.master_agent.sqr@@seq [ahb_wrap_burst_seq] AHB_BURST_WRAP16 AHB_SIZE_8B beat 12 @0x0000415b ok
# UVM_INFO ../src/mst_seq/ahb_base_seq.sv(157) @ 2525000: uvm_test_top.env.master_agent.sqr@@seq [ahb_wrap_burst_seq] AHB_BURST_WRAP16 AHB_SIZE_8B beat 13 @0x0000415c ok
# UVM_INFO ../src/mst_seq/ahb_base_seq.sv(157) @ 2525000: uvm_test_top.env.master_agent.sqr@@seq [ahb_wrap_burst_seq] AHB_BURST_WRAP16 AHB_SIZE_8B beat 14 @0x0000415d ok
# UVM_INFO ../src/mst_seq/ahb_base_seq.sv(157) @ 2525000: uvm_test_top.env.master_agent.sqr@@seq [ahb_wrap_burst_seq] AHB_BURST_WRAP16 AHB_SIZE_8B beat 15 @0x0000415e ok
# UVM_INFO ../src/mst/ahb_master_driver.sv(85) @ 2525000: uvm_test_top.env.master_agent.drv [ahb_master_driver] Queueing [AHB_WRITE]: HADDR=0x000041ac, HBURST=AHB_BURST_WRAP16, HSIZE=AHB_SIZE_16B, 16 beats
# UVM_INFO ../src/mst/ahb_master_driver.sv(127) @ 2525000: uvm_test_top.env.master_agent.drv [ahb_master_driver] Driving [AHB_WRITE]: HADDR=0x000041ac, HBURST=AHB_BURST_WRAP16, HSIZE=AHB_SIZE_16B, 16 beats               
# UVM_INFO ../src/mst/ahb_master_driver.sv(332) @ 2555000: uvm_test_top.env.master_agent.drv [ahb_master_driver] Beat[0/16] addr=0x000041ac trans=AHB_TRANS_NONSEQ resp=AHB_RESP_OKAY wdata=0x9357c5d7
# UVM_INFO ../src/slv/ahb_slave_driver.sv(184) @ 2555000: uvm_test_top.env.slave_agent.drv [ahb_slave_driver] Beat AHB_WRITE addr=0x000041ac resp=AHB_RESP_OKAY waits=0 wdata=0x9357c5d7
# UVM_INFO ../src/mst/ahb_master_monitor.sv(128) @ 2555000: uvm_test_top.env.master_agent.mon [ahb_master_monitor] Beat[0] addr=0x000041ac wdata=0x9357c5d7 resp=AHB_RESP_OKAY
# UVM_INFO ../src/mst/ahb_master_driver.sv(332) @ 2575000: uvm_test_top.env.master_agent.drv [ahb_master_driver] Beat[1/16] addr=0x000041ae trans=AHB_TRANS_SEQ resp=AHB_RESP_OKAY wdata=0x60e1d79e
# UVM_INFO ../src/slv/ahb_slave_driver.sv(184) @ 2575000: uvm_test_top.env.slave_agent.drv [ahb_slave_driver] Beat AHB_WRITE addr=0x000041ae resp=AHB_RESP_OKAY waits=1 wdata=0x60e1d79e
# UVM_INFO ../src/mst/ahb_master_monitor.sv(128) @ 2575000: uvm_test_top.env.master_agent.mon [ahb_master_monitor] Beat[1] addr=0x000041ae wdata=0x60e1d79e resp=AHB_RESP_OKAY
# UVM_INFO ../src/mst/ahb_master_driver.sv(332) @ 2585000: uvm_test_top.env.master_agent.drv [ahb_master_driver] Beat[2/16] addr=0x000041b0 trans=AHB_TRANS_SEQ resp=AHB_RESP_OKAY wdata=0x0a3e7a88
# UVM_INFO ../src/slv/ahb_slave_driver.sv(184) @ 2585000: uvm_test_top.env.slave_agent.drv [ahb_slave_driver] Beat AHB_WRITE addr=0x000041b0 resp=AHB_RESP_OKAY waits=0 wdata=0x0a3e7a88
# UVM_INFO ../src/mst/ahb_master_monitor.sv(128) @ 2585000: uvm_test_top.env.master_agent.mon [ahb_master_monitor] Beat[2] addr=0x000041b0 wdata=0x0a3e7a88 resp=AHB_RESP_OKAY
# UVM_INFO ../src/mst/ahb_master_driver.sv(332) @ 2605000: uvm_test_top.env.master_agent.drv [ahb_master_driver] Beat[3/16] addr=0x000041b2 trans=AHB_TRANS_SEQ resp=AHB_RESP_OKAY wdata=0x61989ce9
# UVM_INFO ../src/slv/ahb_slave_driver.sv(184) @ 2605000: uvm_test_top.env.slave_agent.drv [ahb_slave_driver] Beat AHB_WRITE addr=0x000041b2 resp=AHB_RESP_OKAY waits=1 wdata=0x61989ce9
# UVM_INFO ../src/mst/ahb_master_monitor.sv(128) @ 2605000: uvm_test_top.env.master_agent.mon [ahb_master_monitor] Beat[3] addr=0x000041b2 wdata=0x61989ce9 resp=AHB_RESP_OKAY
# UVM_INFO ../src/mst/ahb_master_driver.sv(332) @ 2615000: uvm_test_top.env.master_agent.drv [ahb_master_driver] Beat[4/16] addr=0x000041b4 trans=AHB_TRANS_SEQ resp=AHB_RESP_OKAY wdata=0xfb5c1ff5
# UVM_INFO ../src/slv/ahb_slave_driver.sv(184) @ 2615000: uvm_test_top.env.slave_agent.drv [ahb_slave_driver] Beat AHB_WRITE addr=0x000041b4 resp=AHB_RESP_OKAY waits=0 wdata=0xfb5c1ff5
# UVM_INFO ../src/mst/ahb_master_monitor.sv(128) @ 2615000: uvm_test_top.env.master_agent.mon [ahb_master_monitor] Beat[4] addr=0x000041b4 wdata=0xfb5c1ff5 resp=AHB_RESP_OKAY
# UVM_INFO ../src/mst/ahb_master_driver.sv(332) @ 2645000: uvm_test_top.env.master_agent.drv [ahb_master_driver] Beat[5/16] addr=0x000041b6 trans=AHB_TRANS_SEQ resp=AHB_RESP_OKAY wdata=0xc1c87e9f
# UVM_INFO ../src/slv/ahb_slave_driver.sv(184) @ 2645000: uvm_test_top.env.slave_agent.drv [ahb_slave_driver] Beat AHB_WRITE addr=0x000041b6 resp=AHB_RESP_OKAY waits=2 wdata=0xc1c87e9f
# UVM_INFO ../src/mst/ahb_master_monitor.sv(128) @ 2645000: uvm_test_top.env.master_agent.mon [ahb_master_monitor] Beat[5] addr=0x000041b6 wdata=0xc1c87e9f resp=AHB_RESP_OKAY
# UVM_INFO ../src/mst/ahb_master_driver.sv(332) @ 2655000: uvm_test_top.env.master_agent.drv [ahb_master_driver] Beat[6/16] addr=0x000041b8 trans=AHB_TRANS_SEQ resp=AHB_RESP_OKAY wdata=0xcc828038
# UVM_INFO ../src/slv/ahb_slave_driver.sv(184) @ 2655000: uvm_test_top.env.slave_agent.drv [ahb_slave_driver] Beat AHB_WRITE addr=0x000041b8 resp=AHB_RESP_OKAY waits=0 wdata=0xcc828038
# UVM_INFO ../src/mst/ahb_master_monitor.sv(128) @ 2655000: uvm_test_top.env.master_agent.mon [ahb_master_monitor] Beat[6] addr=0x000041b8 wdata=0xcc828038 resp=AHB_RESP_OKAY
# UVM_INFO ../src/mst/ahb_master_driver.sv(332) @ 2685000: uvm_test_top.env.master_agent.drv [ahb_master_driver] Beat[7/16] addr=0x000041ba trans=AHB_TRANS_SEQ resp=AHB_RESP_OKAY wdata=0xfef53f72
# UVM_INFO ../src/slv/ahb_slave_driver.sv(184) @ 2685000: uvm_test_top.env.slave_agent.drv [ahb_slave_driver] Beat AHB_WRITE addr=0x000041ba resp=AHB_RESP_OKAY waits=2 wdata=0xfef53f72
# UVM_INFO ../src/mst/ahb_master_monitor.sv(128) @ 2685000: uvm_test_top.env.master_agent.mon [ahb_master_monitor] Beat[7] addr=0x000041ba wdata=0xfef53f72 resp=AHB_RESP_OKAY
# UVM_INFO ../src/mst/ahb_master_driver.sv(332) @ 2705000: uvm_test_top.env.master_agent.drv [ahb_master_driver] Beat[8/16] addr=0x000041bc trans=AHB_TRANS_SEQ resp=AHB_RESP_OKAY wdata=0x0622cfa8
# UVM_INFO ../src/slv/ahb_slave_driver.sv(184) @ 2705000: uvm_test_top.env.slave_agent.drv [ahb_slave_driver] Beat AHB_WRITE addr=0x000041bc resp=AHB_RESP_OKAY waits=1 wdata=0x0622cfa8
# UVM_INFO ../src/mst/ahb_master_monitor.sv(128) @ 2705000: uvm_test_top.env.master_agent.mon [ahb_master_monitor] Beat[8] addr=0x000041bc wdata=0x0622cfa8 resp=AHB_RESP_OKAY
# UVM_INFO ../src/mst/ahb_master_driver.sv(332) @ 2735000: uvm_test_top.env.master_agent.drv [ahb_master_driver] Beat[9/16] addr=0x000041be trans=AHB_TRANS_SEQ resp=AHB_RESP_OKAY wdata=0x95d70b58
# UVM_INFO ../src/slv/ahb_slave_driver.sv(184) @ 2735000: uvm_test_top.env.slave_agent.drv [ahb_slave_driver] Beat AHB_WRITE addr=0x000041be resp=AHB_RESP_OKAY waits=2 wdata=0x95d70b58
# UVM_INFO ../src/mst/ahb_master_monitor.sv(128) @ 2735000: uvm_test_top.env.master_agent.mon [ahb_master_monitor] Beat[9] addr=0x000041be wdata=0x95d70b58 resp=AHB_RESP_OKAY
# UVM_INFO ../src/mst/ahb_master_driver.sv(332) @ 2765000: uvm_test_top.env.master_agent.drv [ahb_master_driver] Beat[10/16] addr=0x000041a0 trans=AHB_TRANS_SEQ resp=AHB_RESP_OKAY wdata=0x27b89950
# UVM_INFO ../src/slv/ahb_slave_driver.sv(184) @ 2765000: uvm_test_top.env.slave_agent.drv [ahb_slave_driver] Beat AHB_WRITE addr=0x000041a0 resp=AHB_RESP_OKAY waits=2 wdata=0x27b89950
# UVM_INFO ../src/mst/ahb_master_monitor.sv(128) @ 2765000: uvm_test_top.env.master_agent.mon [ahb_master_monitor] Beat[10] addr=0x000041a0 wdata=0x27b89950 resp=AHB_RESP_OKAY
# UVM_INFO ../src/mst/ahb_master_driver.sv(332) @ 2775000: uvm_test_top.env.master_agent.drv [ahb_master_driver] Beat[11/16] addr=0x000041a2 trans=AHB_TRANS_SEQ resp=AHB_RESP_OKAY wdata=0xbfb86ca4
# UVM_INFO ../src/slv/ahb_slave_driver.sv(184) @ 2775000: uvm_test_top.env.slave_agent.drv [ahb_slave_driver] Beat AHB_WRITE addr=0x000041a2 resp=AHB_RESP_OKAY waits=0 wdata=0xbfb86ca4
# UVM_INFO ../src/mst/ahb_master_monitor.sv(128) @ 2775000: uvm_test_top.env.master_agent.mon [ahb_master_monitor] Beat[11] addr=0x000041a2 wdata=0xbfb86ca4 resp=AHB_RESP_OKAY
# UVM_INFO ../src/mst/ahb_master_driver.sv(332) @ 2795000: uvm_test_top.env.master_agent.drv [ahb_master_driver] Beat[12/16] addr=0x000041a4 trans=AHB_TRANS_SEQ resp=AHB_RESP_OKAY wdata=0xff8da1a9
# UVM_INFO ../src/slv/ahb_slave_driver.sv(184) @ 2795000: uvm_test_top.env.slave_agent.drv [ahb_slave_driver] Beat AHB_WRITE addr=0x000041a4 resp=AHB_RESP_OKAY waits=1 wdata=0xff8da1a9
