# vsim -c -coverage -sv_seed 73103443 "+UVM_TESTNAME=ahb_busy_test" "+UVM_VERBOSITY=UVM_HIGH" "+DUMP_VCD" -l ./report/logs/ahb_busy_test_run_4_seed_73103443.log -do "coverage save -onexit ./report/coverage/ahb_busy_test_run_4_seed_73103443.ucdb; run -all; quit -f" opt_tb_top 
# Start time: 14:17:09 on Aug 06,2026
# //  Questa Sim-64
# //  Version 10.6b linux_x86_64 May 25 2017
# //
# //  Copyright 1991-2017 Mentor Graphics Corporation
# //  All Rights Reserved.
# //
# //  QuestaSim and its associated documentation contain trade
# //  secrets and commercial or financial information that are the property of
# //  Mentor Graphics Corporation and are privileged, confidential,
# //  and exempt from disclosure under the Freedom of Information Act,
# //  5 U.S.C. Section 552. Furthermore, this information
# //  is prohibited from disclosure under the Trade Secrets Act,
# //  18 U.S.C. Section 1905.
# //
# Loading sv_std.std
# Loading work.ahb_if(fast)
# Loading mtiUvm.uvm_pkg
# Loading work.ahb_pkg(fast)
# Loading work.ahb_seq_pkg(fast)
# Loading work.ahb_test_pkg(fast)
# Loading work.tb_top(fast)
# Loading work.ahb_if(fast)
# Loading work.ahb_sva(fast)
# Loading mtiUvm.questa_uvm_pkg(fast)
# Loading /cadtools/mentor/Questa_10.6b/questasim/uvm-1.1d/linux_x86_64/uvm_dpi.so
# coverage save -onexit ./report/coverage/ahb_busy_test_run_4_seed_73103443.ucdb
#  run -all
# ----------------------------------------------------------------
# UVM-1.1d
# (C) 2007-2013 Mentor Graphics Corporation
# (C) 2007-2013 Cadence Design Systems, Inc.
# (C) 2006-2013 Synopsys, Inc.
# (C) 2011-2013 Cypress Semiconductor Corp.
# ----------------------------------------------------------------
# 
#   ***********       IMPORTANT RELEASE NOTES         ************
# 
#   You are using a version of the UVM library that has been compiled
#   with `UVM_NO_DEPRECATED undefined.
#   See http://www.eda.org/svdb/view.php?id=3313 for more details.
# 
#   You are using a version of the UVM library that has been compiled
#   with `UVM_OBJECT_MUST_HAVE_CONSTRUCTOR undefined.
#   See http://www.eda.org/svdb/view.php?id=3770 for more details.
# 
#       (Specify +UVM_NO_RELNOTES to turn off this notice)
# 
# UVM_INFO verilog_src/questa_uvm_pkg-1.2/src/questa_uvm_pkg.sv(215) @ 0: reporter [Questa UVM] QUESTA_UVM-1.2.3
# UVM_INFO verilog_src/questa_uvm_pkg-1.2/src/questa_uvm_pkg.sv(217) @ 0: reporter [Questa UVM]  questa_uvm::init(+struct)
# UVM_INFO ../src/tb_top.sv(126) @ 0: reporter [TB_TOP] Virtual interface set in config_db
# UVM_INFO @ 0: reporter [RNTST] Running test ahb_busy_test...
# UVM_INFO ../src/tb_top.sv(140) @ 0: reporter [TB_TOP] Waveform VCD dumping enabled (ahb_lite_vip.vcd)
# UVM_INFO ../src/env/ahb_vip_env.sv(64) @ 0: uvm_test_top.env [ahb_vip_env] slave_vif not set - reusing master_vif (passthrough mode)
# UVM_INFO ../src/env/ahb_vip_env.sv(72) @ 0: uvm_test_top.env [ahb_vip_env] Scoreboard created
# UVM_INFO ../src/env/ahb_vip_env.sv(78) @ 0: uvm_test_top.env [ahb_vip_env] Coverage collectors created
# UVM_INFO ../src/mst/ahb_master_agent.sv(61) @ 0: uvm_test_top.env.master_agent [ahb_master_agent] ACTIVE mode - driver + sequencer created
# UVM_INFO ../src/slv/ahb_slave_agent.sv(64) @ 0: uvm_test_top.env.slave_agent [ahb_slave_agent] ACTIVE mode - driver + sequencer created (    auto responses)
# UVM_INFO ../src/env/ahb_vip_env.sv(92) @ 0: uvm_test_top.env [ahb_vip_env] Scoreboard connected: master_mon.ap -> scb, slave_mon.ap -> scb
# UVM_INFO ../src/env/ahb_vip_env.sv(102) @ 0: uvm_test_top.env [ahb_vip_env] Coverage connected: master_mon.ap/trans_ap -> master_cov, slave_mon.ap/trans_ap -> slave_cov
# UVM_INFO @ 0: reporter [UVMTOP] UVM testbench topology:
# ---------------------------------------------------------------
# Name                       Type                     Size  Value
# ---------------------------------------------------------------
# uvm_test_top               ahb_busy_test            -     @475 
#   env                      ahb_vip_env              -     @490 
#     master_agent           ahb_master_agent         -     @505 
#       drv                  ahb_master_driver        -     @570 
#         rsp_port           uvm_analysis_port        -     @585 
#         seq_item_port      uvm_seq_item_pull_port   -     @577 
#       mon                  ahb_master_monitor       -     @563 
#         ap                 uvm_analysis_port        -     @704 
#         trans_ap           uvm_analysis_port        -     @712 
#       sqr                  ahb_master_sequencer     -     @593 
#         rsp_export         uvm_analysis_export      -     @600 
#         seq_item_export    uvm_seq_item_pull_imp    -     @694 
#         arbitration_queue  array                    0     -    
#         lock_queue         array                    0     -    
#         num_last_reqs      integral                 32    'd1  
#         num_last_rsps      integral                 32    'd1  
#     master_cov             ahb_coverage             -     @526 
#       analysis_imp         uvm_analysis_imp         -     @533 
#       trans_export         uvm_analysis_imp_trans   -     @726 
#     scb                    ahb_scoreboard           -     @519 
#       master_export        uvm_analysis_imp_master  -     @734 
#       slave_export         uvm_analysis_imp_slave   -     @742 
#     slave_agent            ahb_slave_agent          -     @512 
#       drv                  ahb_slave_driver         -     @764 
#         rsp_port           uvm_analysis_port        -     @779 
#         seq_item_port      uvm_seq_item_pull_port   -     @771 
#       mon                  ahb_slave_monitor        -     @757 
#         ap                 uvm_analysis_port        -     @898 
#         trans_ap           uvm_analysis_port        -     @906 
#       sqr                  ahb_slave_sequencer      -     @787 
#         rsp_export         uvm_analysis_export      -     @794 
#         seq_item_export    uvm_seq_item_pull_imp    -     @888 
#         arbitration_queue  array                    0     -    
#         lock_queue         array                    0     -    
#         num_last_reqs      integral                 32    'd1  
#         num_last_rsps      integral                 32    'd1  
#     slave_cov              ahb_coverage             -     @541 
#       analysis_imp         uvm_analysis_imp         -     @548 
#       trans_export         uvm_analysis_imp_trans   -     @920 
# ---------------------------------------------------------------
# 
# UVM_INFO verilog_src/questa_uvm_pkg-1.2/src/questa_uvm_pkg.sv(277) @ 0: reporter [Questa UVM] End Of Elaboration
# UVM_INFO ../src/mst_seq/ahb_busy_seq.sv(54) @ 0: uvm_test_top.env.master_agent.sqr@@seq [ahb_busy_seq] Starting BUSY traffic: 16 bursts from 0x0000c000
# UVM_INFO ../src/mst_seq/ahb_busy_seq.sv(105) @ 0: uvm_test_top.env.master_agent.sqr@@seq [ahb_busy_seq] AHB_BURST_INCR4 AHB_SIZE_8B @0x0000c00d, 4 beats, retract=0
# UVM_INFO ../src/mst/ahb_master_driver.sv(183) @ 5000: uvm_test_top.env.master_agent.drv [ahb_master_driver] Flushed pending transactions (reset)
# UVM_INFO ../src/tb_top.sv(48) @ 95000: reporter [TB_TOP] Reset de-asserted
# UVM_INFO ../src/slv/ahb_slave_driver.sv(63) @ 95000: uvm_test_top.env.slave_agent.drv [ahb_slave_driver] Reset deasserted - slave driver active (    auto mode)
# UVM_INFO ../src/mst/ahb_master_driver.sv(72) @ 95000: uvm_test_top.env.master_agent.drv [ahb_master_driver] Reset deasserted - master driver active
# UVM_INFO ../src/mst/ahb_master_monitor.sv(81) @ 95000: uvm_test_top.env.master_agent.mon [ahb_master_monitor] Reset deasserted - master monitor active
# UVM_INFO ../src/slv/ahb_slave_monitor.sv(79) @ 95000: uvm_test_top.env.slave_agent.mon [ahb_slave_monitor] Reset deasserted - slave monitor active
# UVM_INFO ../src/mst/ahb_master_driver.sv(85) @ 95000: uvm_test_top.env.master_agent.drv [ahb_master_driver] Queueing [AHB_WRITE]: HADDR=0x0000c00d, HBURST=AHB_BURST_INCR4, HSIZE=AHB_SIZE_8B, 4 beats
# UVM_INFO ../src/mst/ahb_master_driver.sv(127) @ 95000: uvm_test_top.env.master_agent.drv [ahb_master_driver] Driving [AHB_WRITE]: HADDR=0x0000c00d, HBURST=AHB_BURST_INCR4, HSIZE=AHB_SIZE_8B, 4 beats               
# UVM_INFO ../src/mst/ahb_master_driver.sv(332) @ 115000: uvm_test_top.env.master_agent.drv [ahb_master_driver] Beat[0/4] addr=0x0000c00d trans=AHB_TRANS_NONSEQ resp=AHB_RESP_OKAY wdata=0x4e7d2fcc
# UVM_INFO ../src/slv/ahb_slave_driver.sv(184) @ 115000: uvm_test_top.env.slave_agent.drv [ahb_slave_driver] Beat AHB_WRITE addr=0x0000c00d resp=AHB_RESP_OKAY waits=0 wdata=0x4e7d2fcc
# UVM_INFO ../src/mst/ahb_master_monitor.sv(128) @ 115000: uvm_test_top.env.master_agent.mon [ahb_master_monitor] Beat[0] addr=0x0000c00d wdata=0x4e7d2fcc resp=AHB_RESP_OKAY
# UVM_INFO ../src/mst/ahb_master_driver.sv(332) @ 155000: uvm_test_top.env.master_agent.drv [ahb_master_driver] Beat[1/4] addr=0x0000c00e trans=AHB_TRANS_SEQ resp=AHB_RESP_OKAY wdata=0xd3a2c4d2
# UVM_INFO ../src/slv/ahb_slave_driver.sv(184) @ 155000: uvm_test_top.env.slave_agent.drv [ahb_slave_driver] Beat AHB_WRITE addr=0x0000c00e resp=AHB_RESP_OKAY waits=1 wdata=0xd3a2c4d2
# UVM_INFO ../src/mst/ahb_master_monitor.sv(128) @ 155000: uvm_test_top.env.master_agent.mon [ahb_master_monitor] Beat[1] addr=0x0000c00e wdata=0xd3a2c4d2 resp=AHB_RESP_OKAY
# UVM_INFO ../src/mst/ahb_master_driver.sv(332) @ 205000: uvm_test_top.env.master_agent.drv [ahb_master_driver] Beat[2/4] addr=0x0000c00f trans=AHB_TRANS_SEQ resp=AHB_RESP_OKAY wdata=0x129ca9ba
# UVM_INFO ../src/slv/ahb_slave_driver.sv(184) @ 205000: uvm_test_top.env.slave_agent.drv [ahb_slave_driver] Beat AHB_WRITE addr=0x0000c00f resp=AHB_RESP_OKAY waits=1 wdata=0x129ca9ba
# UVM_INFO ../src/mst/ahb_master_monitor.sv(128) @ 205000: uvm_test_top.env.master_agent.mon [ahb_master_monitor] Beat[2] addr=0x0000c00f wdata=0x129ca9ba resp=AHB_RESP_OKAY
# UVM_INFO ../src/mst/ahb_master_driver.sv(332) @ 225000: uvm_test_top.env.master_agent.drv [ahb_master_driver] Beat[3/4] addr=0x0000c010 trans=AHB_TRANS_SEQ resp=AHB_RESP_OKAY wdata=0xb37b4082
# UVM_INFO ../src/mst/ahb_master_driver.sv(376) @ 225000: uvm_test_top.env.master_agent.drv [ahb_master_driver] Transaction complete: AHB_WRITE 0x0000c00d, 4 beats, burst=AHB_BURST_INCR4
# UVM_INFO ../src/slv/ahb_slave_driver.sv(184) @ 225000: uvm_test_top.env.slave_agent.drv [ahb_slave_driver] Beat AHB_WRITE addr=0x0000c010 resp=AHB_RESP_OKAY waits=0 wdata=0xb37b4082
# UVM_INFO ../src/mst/ahb_master_monitor.sv(128) @ 225000: uvm_test_top.env.master_agent.mon [ahb_master_monitor] Beat[3] addr=0x0000c010 wdata=0xb37b4082 resp=AHB_RESP_OKAY
# UVM_INFO ../src/mst/ahb_master_monitor.sv(231) @ 225000: uvm_test_top.env.master_agent.mon [ahb_master_monitor] Observed [AHB_WRITE]: HADDR=0x0000c00d, HBURST=AHB_BURST_INCR4, HSIZE=AHB_SIZE_8B, 4 beats
# UVM_INFO ../src/env/ahb_coverage.sv(174) @ 225000: uvm_test_top.env.master_cov [ahb_coverage] Sampled [AHB_WRITE]: burst=AHB_BURST_INCR4 size=AHB_SIZE_8B beats=4 error=0
# UVM_INFO ../src/slv/ahb_slave_monitor.sv(212) @ 225000: uvm_test_top.env.slave_agent.mon [ahb_slave_monitor] Observed [AHB_WRITE]: HADDR=0x0000c00d, HBURST=AHB_BURST_INCR4, HSIZE=AHB_SIZE_8B, 4 beats
# UVM_INFO ../src/env/ahb_scoreboard.sv(104) @ 225000: uvm_test_top.env.scb [ahb_scoreboard] MATCH #1: [AHB_WRITE] HADDR=0x0000c00d AHB_BURST_INCR4 4 beats
# UVM_INFO ../src/env/ahb_coverage.sv(174) @ 225000: uvm_test_top.env.slave_cov [ahb_coverage] Sampled [AHB_WRITE]: burst=AHB_BURST_INCR4 size=AHB_SIZE_8B beats=4 error=0
# UVM_INFO ../src/mst/ahb_master_driver.sv(85) @ 225000: uvm_test_top.env.master_agent.drv [ahb_master_driver] Queueing [AHB_READ]: HADDR=0x0000c00d, HBURST=AHB_BURST_INCR4, HSIZE=AHB_SIZE_8B, 4 beats
# UVM_INFO ../src/mst/ahb_master_driver.sv(127) @ 225000: uvm_test_top.env.master_agent.drv [ahb_master_driver] Driving [AHB_READ]: HADDR=0x0000c00d, HBURST=AHB_BURST_INCR4, HSIZE=AHB_SIZE_8B, 4 beats               
# UVM_INFO ../src/mst/ahb_master_driver.sv(332) @ 265000: uvm_test_top.env.master_agent.drv [ahb_master_driver] Beat[0/4] addr=0x0000c00d trans=AHB_TRANS_NONSEQ resp=AHB_RESP_OKAY rdata=0x4e7d2fcc
# UVM_INFO ../src/slv/ahb_slave_driver.sv(184) @ 265000: uvm_test_top.env.slave_agent.drv [ahb_slave_driver] Beat AHB_READ addr=0x0000c00d resp=AHB_RESP_OKAY waits=1 rdata=0x4e7d2fcc
# UVM_INFO ../src/mst/ahb_master_monitor.sv(128) @ 265000: uvm_test_top.env.master_agent.mon [ahb_master_monitor] Beat[0] addr=0x0000c00d rdata=0x4e7d2fcc resp=AHB_RESP_OKAY
# UVM_INFO ../src/mst/ahb_master_driver.sv(332) @ 285000: uvm_test_top.env.master_agent.drv [ahb_master_driver] Beat[1/4] addr=0x0000c00e trans=AHB_TRANS_SEQ resp=AHB_RESP_OKAY rdata=0xd3a2c4d2
# UVM_INFO ../src/slv/ahb_slave_driver.sv(184) @ 285000: uvm_test_top.env.slave_agent.drv [ahb_slave_driver] Beat AHB_READ addr=0x0000c00e resp=AHB_RESP_OKAY waits=1 rdata=0xd3a2c4d2
# UVM_INFO ../src/mst/ahb_master_monitor.sv(128) @ 285000: uvm_test_top.env.master_agent.mon [ahb_master_monitor] Beat[1] addr=0x0000c00e rdata=0xd3a2c4d2 resp=AHB_RESP_OKAY
# UVM_INFO ../src/mst/ahb_master_driver.sv(332) @ 295000: uvm_test_top.env.master_agent.drv [ahb_master_driver] Beat[2/4] addr=0x0000c00f trans=AHB_TRANS_SEQ resp=AHB_RESP_OKAY rdata=0x129ca9ba
# UVM_INFO ../src/slv/ahb_slave_driver.sv(184) @ 295000: uvm_test_top.env.slave_agent.drv [ahb_slave_driver] Beat AHB_READ addr=0x0000c00f resp=AHB_RESP_OKAY waits=0 rdata=0x129ca9ba
# UVM_INFO ../src/mst/ahb_master_monitor.sv(128) @ 295000: uvm_test_top.env.master_agent.mon [ahb_master_monitor] Beat[2] addr=0x0000c00f rdata=0x129ca9ba resp=AHB_RESP_OKAY
# UVM_INFO ../src/mst/ahb_master_driver.sv(332) @ 305000: uvm_test_top.env.master_agent.drv [ahb_master_driver] Beat[3/4] addr=0x0000c010 trans=AHB_TRANS_SEQ resp=AHB_RESP_OKAY rdata=0xb37b4082
# UVM_INFO ../src/mst/ahb_master_driver.sv(376) @ 305000: uvm_test_top.env.master_agent.drv [ahb_master_driver] Transaction complete: AHB_READ 0x0000c00d, 4 beats, burst=AHB_BURST_INCR4
# UVM_INFO ../src/slv/ahb_slave_driver.sv(184) @ 305000: uvm_test_top.env.slave_agent.drv [ahb_slave_driver] Beat AHB_READ addr=0x0000c010 resp=AHB_RESP_OKAY waits=0 rdata=0xb37b4082
# UVM_INFO ../src/mst/ahb_master_monitor.sv(128) @ 305000: uvm_test_top.env.master_agent.mon [ahb_master_monitor] Beat[3] addr=0x0000c010 rdata=0xb37b4082 resp=AHB_RESP_OKAY
# UVM_INFO ../src/mst/ahb_master_monitor.sv(231) @ 305000: uvm_test_top.env.master_agent.mon [ahb_master_monitor] Observed [AHB_READ]: HADDR=0x0000c00d, HBURST=AHB_BURST_INCR4, HSIZE=AHB_SIZE_8B, 4 beats
# UVM_INFO ../src/env/ahb_coverage.sv(174) @ 305000: uvm_test_top.env.master_cov [ahb_coverage] Sampled [AHB_READ]: burst=AHB_BURST_INCR4 size=AHB_SIZE_8B beats=4 error=0
# UVM_INFO ../src/slv/ahb_slave_monitor.sv(212) @ 305000: uvm_test_top.env.slave_agent.mon [ahb_slave_monitor] Observed [AHB_READ]: HADDR=0x0000c00d, HBURST=AHB_BURST_INCR4, HSIZE=AHB_SIZE_8B, 4 beats
# UVM_INFO ../src/env/ahb_scoreboard.sv(104) @ 305000: uvm_test_top.env.scb [ahb_scoreboard] MATCH #2: [AHB_READ] HADDR=0x0000c00d AHB_BURST_INCR4 4 beats
# UVM_INFO ../src/env/ahb_coverage.sv(174) @ 305000: uvm_test_top.env.slave_cov [ahb_coverage] Sampled [AHB_READ]: burst=AHB_BURST_INCR4 size=AHB_SIZE_8B beats=4 error=0
# UVM_INFO ../src/mst_seq/ahb_base_seq.sv(157) @ 305000: uvm_test_top.env.master_agent.sqr@@seq [ahb_busy_seq] AHB_BURST_INCR4 AHB_SIZE_8B beat 0 @0x0000c00d ok
# UVM_INFO ../src/mst_seq/ahb_base_seq.sv(157) @ 305000: uvm_test_top.env.master_agent.sqr@@seq [ahb_busy_seq] AHB_BURST_INCR4 AHB_SIZE_8B beat 1 @0x0000c00e ok
# UVM_INFO ../src/mst_seq/ahb_base_seq.sv(157) @ 305000: uvm_test_top.env.master_agent.sqr@@seq [ahb_busy_seq] AHB_BURST_INCR4 AHB_SIZE_8B beat 2 @0x0000c00f ok
# UVM_INFO ../src/mst_seq/ahb_base_seq.sv(157) @ 305000: uvm_test_top.env.master_agent.sqr@@seq [ahb_busy_seq] AHB_BURST_INCR4 AHB_SIZE_8B beat 3 @0x0000c010 ok
# UVM_INFO ../src/mst_seq/ahb_busy_seq.sv(105) @ 305000: uvm_test_top.env.master_agent.sqr@@seq [ahb_busy_seq] AHB_BURST_WRAP4 AHB_SIZE_32B @0x0000c078, 4 beats, retract=0
# UVM_INFO ../src/mst/ahb_master_driver.sv(85) @ 305000: uvm_test_top.env.master_agent.drv [ahb_master_driver] Queueing [AHB_WRITE]: HADDR=0x0000c078, HBURST=AHB_BURST_WRAP4, HSIZE=AHB_SIZE_32B, 4 beats
# UVM_INFO ../src/mst/ahb_master_driver.sv(127) @ 305000: uvm_test_top.env.master_agent.drv [ahb_master_driver] Driving [AHB_WRITE]: HADDR=0x0000c078, HBURST=AHB_BURST_WRAP4, HSIZE=AHB_SIZE_32B, 4 beats               
# UVM_INFO ../src/mst/ahb_master_driver.sv(332) @ 335000: uvm_test_top.env.master_agent.drv [ahb_master_driver] Beat[0/4] addr=0x0000c078 trans=AHB_TRANS_NONSEQ resp=AHB_RESP_OKAY wdata=0x48f6b7bb
# UVM_INFO ../src/slv/ahb_slave_driver.sv(184) @ 335000: uvm_test_top.env.slave_agent.drv [ahb_slave_driver] Beat AHB_WRITE addr=0x0000c078 resp=AHB_RESP_OKAY waits=0 wdata=0x48f6b7bb
# UVM_INFO ../src/mst/ahb_master_monitor.sv(128) @ 335000: uvm_test_top.env.master_agent.mon [ahb_master_monitor] Beat[0] addr=0x0000c078 wdata=0x48f6b7bb resp=AHB_RESP_OKAY
# UVM_INFO ../src/mst/ahb_master_driver.sv(332) @ 385000: uvm_test_top.env.master_agent.drv [ahb_master_driver] Beat[1/4] addr=0x0000c07c trans=AHB_TRANS_SEQ resp=AHB_RESP_OKAY wdata=0xfd98c32f
# UVM_INFO ../src/slv/ahb_slave_driver.sv(184) @ 385000: uvm_test_top.env.slave_agent.drv [ahb_slave_driver] Beat AHB_WRITE addr=0x0000c07c resp=AHB_RESP_OKAY waits=2 wdata=0xfd98c32f
# UVM_INFO ../src/mst/ahb_master_monitor.sv(128) @ 385000: uvm_test_top.env.master_agent.mon [ahb_master_monitor] Beat[1] addr=0x0000c07c wdata=0xfd98c32f resp=AHB_RESP_OKAY
# UVM_INFO ../src/mst/ahb_master_driver.sv(332) @ 435000: uvm_test_top.env.master_agent.drv [ahb_master_driver] Beat[2/4] addr=0x0000c070 trans=AHB_TRANS_SEQ resp=AHB_RESP_OKAY wdata=0xa5a9effd
# UVM_INFO ../src/slv/ahb_slave_driver.sv(184) @ 435000: uvm_test_top.env.slave_agent.drv [ahb_slave_driver] Beat AHB_WRITE addr=0x0000c070 resp=AHB_RESP_OKAY waits=2 wdata=0xa5a9effd
# UVM_INFO ../src/mst/ahb_master_monitor.sv(128) @ 435000: uvm_test_top.env.master_agent.mon [ahb_master_monitor] Beat[2] addr=0x0000c070 wdata=0xa5a9effd resp=AHB_RESP_OKAY
# UVM_INFO ../src/mst/ahb_master_driver.sv(332) @ 475000: uvm_test_top.env.master_agent.drv [ahb_master_driver] Beat[3/4] addr=0x0000c074 trans=AHB_TRANS_SEQ resp=AHB_RESP_OKAY wdata=0x6473a5e3
# UVM_INFO ../src/mst/ahb_master_driver.sv(376) @ 475000: uvm_test_top.env.master_agent.drv [ahb_master_driver] Transaction complete: AHB_WRITE 0x0000c078, 4 beats, burst=AHB_BURST_WRAP4
# UVM_INFO ../src/slv/ahb_slave_driver.sv(184) @ 475000: uvm_test_top.env.slave_agent.drv [ahb_slave_driver] Beat AHB_WRITE addr=0x0000c074 resp=AHB_RESP_OKAY waits=1 wdata=0x6473a5e3
# UVM_INFO ../src/slv/ahb_slave_monitor.sv(212) @ 475000: uvm_test_top.env.slave_agent.mon [ahb_slave_monitor] Observed [AHB_WRITE]: HADDR=0x0000c078, HBURST=AHB_BURST_WRAP4, HSIZE=AHB_SIZE_32B, 4 beats
# UVM_INFO ../src/env/ahb_coverage.sv(174) @ 475000: uvm_test_top.env.slave_cov [ahb_coverage] Sampled [AHB_WRITE]: burst=AHB_BURST_WRAP4 size=AHB_SIZE_32B beats=4 error=0
# UVM_INFO ../src/mst/ahb_master_monitor.sv(128) @ 475000: uvm_test_top.env.master_agent.mon [ahb_master_monitor] Beat[3] addr=0x0000c074 wdata=0x6473a5e3 resp=AHB_RESP_OKAY
# UVM_INFO ../src/mst/ahb_master_monitor.sv(231) @ 475000: uvm_test_top.env.master_agent.mon [ahb_master_monitor] Observed [AHB_WRITE]: HADDR=0x0000c078, HBURST=AHB_BURST_WRAP4, HSIZE=AHB_SIZE_32B, 4 beats
# UVM_INFO ../src/env/ahb_coverage.sv(174) @ 475000: uvm_test_top.env.master_cov [ahb_coverage] Sampled [AHB_WRITE]: burst=AHB_BURST_WRAP4 size=AHB_SIZE_32B beats=4 error=0
# UVM_INFO ../src/env/ahb_scoreboard.sv(104) @ 475000: uvm_test_top.env.scb [ahb_scoreboard] MATCH #3: [AHB_WRITE] HADDR=0x0000c078 AHB_BURST_WRAP4 4 beats
# UVM_INFO ../src/mst/ahb_master_driver.sv(85) @ 475000: uvm_test_top.env.master_agent.drv [ahb_master_driver] Queueing [AHB_READ]: HADDR=0x0000c078, HBURST=AHB_BURST_WRAP4, HSIZE=AHB_SIZE_32B, 4 beats
# UVM_INFO ../src/mst/ahb_master_driver.sv(127) @ 475000: uvm_test_top.env.master_agent.drv [ahb_master_driver] Driving [AHB_READ]: HADDR=0x0000c078, HBURST=AHB_BURST_WRAP4, HSIZE=AHB_SIZE_32B, 4 beats               
# UVM_INFO ../src/mst/ahb_master_driver.sv(332) @ 525000: uvm_test_top.env.master_agent.drv [ahb_master_driver] Beat[0/4] addr=0x0000c078 trans=AHB_TRANS_NONSEQ resp=AHB_RESP_OKAY rdata=0x48f6b7bb
# UVM_INFO ../src/slv/ahb_slave_driver.sv(184) @ 525000: uvm_test_top.env.slave_agent.drv [ahb_slave_driver] Beat AHB_READ addr=0x0000c078 resp=AHB_RESP_OKAY waits=2 rdata=0x48f6b7bb
# UVM_INFO ../src/mst/ahb_master_monitor.sv(128) @ 525000: uvm_test_top.env.master_agent.mon [ahb_master_monitor] Beat[0] addr=0x0000c078 rdata=0x48f6b7bb resp=AHB_RESP_OKAY
# UVM_INFO ../src/mst/ahb_master_driver.sv(332) @ 535000: uvm_test_top.env.master_agent.drv [ahb_master_driver] Beat[1/4] addr=0x0000c07c trans=AHB_TRANS_SEQ resp=AHB_RESP_OKAY rdata=0xfd98c32f
# UVM_INFO ../src/slv/ahb_slave_driver.sv(184) @ 535000: uvm_test_top.env.slave_agent.drv [ahb_slave_driver] Beat AHB_READ addr=0x0000c07c resp=AHB_RESP_OKAY waits=0 rdata=0xfd98c32f
# UVM_INFO ../src/mst/ahb_master_monitor.sv(128) @ 535000: uvm_test_top.env.master_agent.mon [ahb_master_monitor] Beat[1] addr=0x0000c07c rdata=0xfd98c32f resp=AHB_RESP_OKAY
# UVM_INFO ../src/mst/ahb_master_driver.sv(332) @ 545000: uvm_test_top.env.master_agent.drv [ahb_master_driver] Beat[2/4] addr=0x0000c070 trans=AHB_TRANS_SEQ resp=AHB_RESP_OKAY rdata=0xa5a9effd
# UVM_INFO ../src/slv/ahb_slave_driver.sv(184) @ 545000: uvm_test_top.env.slave_agent.drv [ahb_slave_driver] Beat AHB_READ addr=0x0000c070 resp=AHB_RESP_OKAY waits=0 rdata=0xa5a9effd
# UVM_INFO ../src/mst/ahb_master_monitor.sv(128) @ 545000: uvm_test_top.env.master_agent.mon [ahb_master_monitor] Beat[2] addr=0x0000c070 rdata=0xa5a9effd resp=AHB_RESP_OKAY
# UVM_INFO ../src/mst/ahb_master_driver.sv(332) @ 555000: uvm_test_top.env.master_agent.drv [ahb_master_driver] Beat[3/4] addr=0x0000c074 trans=AHB_TRANS_SEQ resp=AHB_RESP_OKAY rdata=0x6473a5e3
# UVM_INFO ../src/mst/ahb_master_driver.sv(376) @ 555000: uvm_test_top.env.master_agent.drv [ahb_master_driver] Transaction complete: AHB_READ 0x0000c078, 4 beats, burst=AHB_BURST_WRAP4
# UVM_INFO ../src/slv/ahb_slave_driver.sv(184) @ 555000: uvm_test_top.env.slave_agent.drv [ahb_slave_driver] Beat AHB_READ addr=0x0000c074 resp=AHB_RESP_OKAY waits=0 rdata=0x6473a5e3
# UVM_INFO ../src/slv/ahb_slave_monitor.sv(212) @ 555000: uvm_test_top.env.slave_agent.mon [ahb_slave_monitor] Observed [AHB_READ]: HADDR=0x0000c078, HBURST=AHB_BURST_WRAP4, HSIZE=AHB_SIZE_32B, 4 beats
# UVM_INFO ../src/env/ahb_coverage.sv(174) @ 555000: uvm_test_top.env.slave_cov [ahb_coverage] Sampled [AHB_READ]: burst=AHB_BURST_WRAP4 size=AHB_SIZE_32B beats=4 error=0
# UVM_INFO ../src/mst/ahb_master_monitor.sv(128) @ 555000: uvm_test_top.env.master_agent.mon [ahb_master_monitor] Beat[3] addr=0x0000c074 rdata=0x6473a5e3 resp=AHB_RESP_OKAY
# UVM_INFO ../src/mst/ahb_master_monitor.sv(231) @ 555000: uvm_test_top.env.master_agent.mon [ahb_master_monitor] Observed [AHB_READ]: HADDR=0x0000c078, HBURST=AHB_BURST_WRAP4, HSIZE=AHB_SIZE_32B, 4 beats
# UVM_INFO ../src/env/ahb_coverage.sv(174) @ 555000: uvm_test_top.env.master_cov [ahb_coverage] Sampled [AHB_READ]: burst=AHB_BURST_WRAP4 size=AHB_SIZE_32B beats=4 error=0
# UVM_INFO ../src/env/ahb_scoreboard.sv(104) @ 555000: uvm_test_top.env.scb [ahb_scoreboard] MATCH #4: [AHB_READ] HADDR=0x0000c078 AHB_BURST_WRAP4 4 beats
# UVM_INFO ../src/mst_seq/ahb_base_seq.sv(157) @ 555000: uvm_test_top.env.master_agent.sqr@@seq [ahb_busy_seq] AHB_BURST_WRAP4 AHB_SIZE_32B beat 0 @0x0000c078 ok
# UVM_INFO ../src/mst_seq/ahb_base_seq.sv(157) @ 555000: uvm_test_top.env.master_agent.sqr@@seq [ahb_busy_seq] AHB_BURST_WRAP4 AHB_SIZE_32B beat 1 @0x0000c07c ok
# UVM_INFO ../src/mst_seq/ahb_base_seq.sv(157) @ 555000: uvm_test_top.env.master_agent.sqr@@seq [ahb_busy_seq] AHB_BURST_WRAP4 AHB_SIZE_32B beat 2 @0x0000c070 ok
# UVM_INFO ../src/mst_seq/ahb_base_seq.sv(157) @ 555000: uvm_test_top.env.master_agent.sqr@@seq [ahb_busy_seq] AHB_BURST_WRAP4 AHB_SIZE_32B beat 3 @0x0000c074 ok
# UVM_INFO ../src/mst_seq/ahb_busy_seq.sv(105) @ 555000: uvm_test_top.env.master_agent.sqr@@seq [ahb_busy_seq] AHB_BURST_INCR8 AHB_SIZE_8B @0x0000c0b5, 8 beats, retract=1
# UVM_INFO ../src/mst/ahb_master_driver.sv(85) @ 555000: uvm_test_top.env.master_agent.drv [ahb_master_driver] Queueing [AHB_WRITE]: HADDR=0x0000c0b5, HBURST=AHB_BURST_INCR8, HSIZE=AHB_SIZE_8B, 8 beats
# UVM_INFO ../src/mst/ahb_master_driver.sv(127) @ 555000: uvm_test_top.env.master_agent.drv [ahb_master_driver] Driving [AHB_WRITE]: HADDR=0x0000c0b5, HBURST=AHB_BURST_INCR8, HSIZE=AHB_SIZE_8B, 8 beats               
# UVM_INFO ../src/mst/ahb_master_driver.sv(332) @ 585000: uvm_test_top.env.master_agent.drv [ahb_master_driver] Beat[0/8] addr=0x0000c0b5 trans=AHB_TRANS_NONSEQ resp=AHB_RESP_OKAY wdata=0xcef078fa
# UVM_INFO ../src/slv/ahb_slave_driver.sv(184) @ 585000: uvm_test_top.env.slave_agent.drv [ahb_slave_driver] Beat AHB_WRITE addr=0x0000c0b5 resp=AHB_RESP_OKAY waits=0 wdata=0xcef078fa
# UVM_INFO ../src/mst/ahb_master_monitor.sv(128) @ 585000: uvm_test_top.env.master_agent.mon [ahb_master_monitor] Beat[0] addr=0x0000c0b5 wdata=0xcef078fa resp=AHB_RESP_OKAY
# UVM_INFO ../src/mst/ahb_master_driver.sv(332) @ 615000: uvm_test_top.env.master_agent.drv [ahb_master_driver] Beat[1/8] addr=0x0000c0b6 trans=AHB_TRANS_SEQ resp=AHB_RESP_OKAY wdata=0x4c5340da
# UVM_INFO ../src/slv/ahb_slave_driver.sv(184) @ 615000: uvm_test_top.env.slave_agent.drv [ahb_slave_driver] Beat AHB_WRITE addr=0x0000c0b6 resp=AHB_RESP_OKAY waits=1 wdata=0x4c5340da
# UVM_INFO ../src/mst/ahb_master_monitor.sv(128) @ 615000: uvm_test_top.env.master_agent.mon [ahb_master_monitor] Beat[1] addr=0x0000c0b6 wdata=0x4c5340da resp=AHB_RESP_OKAY
# UVM_INFO ../src/mst/ahb_master_driver.sv(332) @ 625000: uvm_test_top.env.master_agent.drv [ahb_master_driver] Beat[2/8] addr=0x0000c0b7 trans=AHB_TRANS_SEQ resp=AHB_RESP_OKAY wdata=0x4fdba9e3
# UVM_INFO ../src/slv/ahb_slave_driver.sv(184) @ 625000: uvm_test_top.env.slave_agent.drv [ahb_slave_driver] Beat AHB_WRITE addr=0x0000c0b7 resp=AHB_RESP_OKAY waits=0 wdata=0x4fdba9e3
# UVM_INFO ../src/mst/ahb_master_monitor.sv(128) @ 625000: uvm_test_top.env.master_agent.mon [ahb_master_monitor] Beat[2] addr=0x0000c0b7 wdata=0x4fdba9e3 resp=AHB_RESP_OKAY
# UVM_INFO ../src/mst/ahb_master_driver.sv(332) @ 675000: uvm_test_top.env.master_agent.drv [ahb_master_driver] Beat[3/8] addr=0x0000c0b8 trans=AHB_TRANS_SEQ resp=AHB_RESP_OKAY wdata=0x33dd9273
# UVM_INFO ../src/slv/ahb_slave_driver.sv(184) @ 675000: uvm_test_top.env.slave_agent.drv [ahb_slave_driver] Beat AHB_WRITE addr=0x0000c0b8 resp=AHB_RESP_OKAY waits=1 wdata=0x33dd9273
# UVM_INFO ../src/mst/ahb_master_monitor.sv(128) @ 675000: uvm_test_top.env.master_agent.mon [ahb_master_monitor] Beat[3] addr=0x0000c0b8 wdata=0x33dd9273 resp=AHB_RESP_OKAY
# UVM_INFO ../src/mst/ahb_master_driver.sv(332) @ 695000: uvm_test_top.env.master_agent.drv [ahb_master_driver] Beat[4/8] addr=0x0000c0b9 trans=AHB_TRANS_SEQ resp=AHB_RESP_OKAY wdata=0xb270594a
# UVM_INFO ../src/slv/ahb_slave_driver.sv(184) @ 695000: uvm_test_top.env.slave_agent.drv [ahb_slave_driver] Beat AHB_WRITE addr=0x0000c0b9 resp=AHB_RESP_OKAY waits=1 wdata=0xb270594a
# UVM_INFO ../src/mst/ahb_master_monitor.sv(128) @ 695000: uvm_test_top.env.master_agent.mon [ahb_master_monitor] Beat[4] addr=0x0000c0b9 wdata=0xb270594a resp=AHB_RESP_OKAY
# UVM_INFO ../src/mst/ahb_master_driver.sv(332) @ 705000: uvm_test_top.env.master_agent.drv [ahb_master_driver] Beat[5/8] addr=0x0000c0ba trans=AHB_TRANS_SEQ resp=AHB_RESP_OKAY wdata=0x57733422
# UVM_INFO ../src/slv/ahb_slave_driver.sv(184) @ 705000: uvm_test_top.env.slave_agent.drv [ahb_slave_driver] Beat AHB_WRITE addr=0x0000c0ba resp=AHB_RESP_OKAY waits=0 wdata=0x57733422
# UVM_INFO ../src/mst/ahb_master_monitor.sv(128) @ 705000: uvm_test_top.env.master_agent.mon [ahb_master_monitor] Beat[5] addr=0x0000c0ba wdata=0x57733422 resp=AHB_RESP_OKAY
# UVM_INFO ../src/mst/ahb_master_driver.sv(332) @ 735000: uvm_test_top.env.master_agent.drv [ahb_master_driver] Beat[6/8] addr=0x0000c0bb trans=AHB_TRANS_SEQ resp=AHB_RESP_OKAY wdata=0xd3dd04ec
# UVM_INFO ../src/slv/ahb_slave_driver.sv(184) @ 735000: uvm_test_top.env.slave_agent.drv [ahb_slave_driver] Beat AHB_WRITE addr=0x0000c0bb resp=AHB_RESP_OKAY waits=1 wdata=0xd3dd04ec
# UVM_INFO ../src/mst/ahb_master_monitor.sv(128) @ 735000: uvm_test_top.env.master_agent.mon [ahb_master_monitor] Beat[6] addr=0x0000c0bb wdata=0xd3dd04ec resp=AHB_RESP_OKAY
# UVM_INFO ../src/mst/ahb_master_driver.sv(332) @ 745000: uvm_test_top.env.master_agent.drv [ahb_master_driver] Beat[7/8] addr=0x0000c0bc trans=AHB_TRANS_SEQ resp=AHB_RESP_OKAY wdata=0x53f8226c
# UVM_INFO ../src/mst/ahb_master_driver.sv(376) @ 745000: uvm_test_top.env.master_agent.drv [ahb_master_driver] Transaction complete: AHB_WRITE 0x0000c0b5, 8 beats, burst=AHB_BURST_INCR8
# UVM_INFO ../src/slv/ahb_slave_driver.sv(184) @ 745000: uvm_test_top.env.slave_agent.drv [ahb_slave_driver] Beat AHB_WRITE addr=0x0000c0bc resp=AHB_RESP_OKAY waits=0 wdata=0x53f8226c
# UVM_INFO ../src/mst/ahb_master_monitor.sv(128) @ 745000: uvm_test_top.env.master_agent.mon [ahb_master_monitor] Beat[7] addr=0x0000c0bc wdata=0x53f8226c resp=AHB_RESP_OKAY
# UVM_INFO ../src/mst/ahb_master_monitor.sv(231) @ 745000: uvm_test_top.env.master_agent.mon [ahb_master_monitor] Observed [AHB_WRITE]: HADDR=0x0000c0b5, HBURST=AHB_BURST_INCR8, HSIZE=AHB_SIZE_8B, 8 beats
# UVM_INFO ../src/env/ahb_coverage.sv(174) @ 745000: uvm_test_top.env.master_cov [ahb_coverage] Sampled [AHB_WRITE]: burst=AHB_BURST_INCR8 size=AHB_SIZE_8B beats=8 error=0
# UVM_INFO ../src/slv/ahb_slave_monitor.sv(212) @ 745000: uvm_test_top.env.slave_agent.mon [ahb_slave_monitor] Observed [AHB_WRITE]: HADDR=0x0000c0b5, HBURST=AHB_BURST_INCR8, HSIZE=AHB_SIZE_8B, 8 beats
# UVM_INFO ../src/env/ahb_scoreboard.sv(104) @ 745000: uvm_test_top.env.scb [ahb_scoreboard] MATCH #5: [AHB_WRITE] HADDR=0x0000c0b5 AHB_BURST_INCR8 8 beats
# UVM_INFO ../src/env/ahb_coverage.sv(174) @ 745000: uvm_test_top.env.slave_cov [ahb_coverage] Sampled [AHB_WRITE]: burst=AHB_BURST_INCR8 size=AHB_SIZE_8B beats=8 error=0
# UVM_INFO ../src/mst/ahb_master_driver.sv(85) @ 745000: uvm_test_top.env.master_agent.drv [ahb_master_driver] Queueing [AHB_READ]: HADDR=0x0000c0b5, HBURST=AHB_BURST_INCR8, HSIZE=AHB_SIZE_8B, 8 beats
# UVM_INFO ../src/mst/ahb_master_driver.sv(127) @ 745000: uvm_test_top.env.master_agent.drv [ahb_master_driver] Driving [AHB_READ]: HADDR=0x0000c0b5, HBURST=AHB_BURST_INCR8, HSIZE=AHB_SIZE_8B, 8 beats               
# UVM_INFO ../src/mst/ahb_master_driver.sv(332) @ 775000: uvm_test_top.env.master_agent.drv [ahb_master_driver] Beat[0/8] addr=0x0000c0b5 trans=AHB_TRANS_NONSEQ resp=AHB_RESP_OKAY rdata=0xcef078fa
# UVM_INFO ../src/slv/ahb_slave_driver.sv(184) @ 775000: uvm_test_top.env.slave_agent.drv [ahb_slave_driver] Beat AHB_READ addr=0x0000c0b5 resp=AHB_RESP_OKAY waits=0 rdata=0xcef078fa
# UVM_INFO ../src/mst/ahb_master_monitor.sv(128) @ 775000: uvm_test_top.env.master_agent.mon [ahb_master_monitor] Beat[0] addr=0x0000c0b5 rdata=0xcef078fa resp=AHB_RESP_OKAY
# UVM_INFO ../src/mst/ahb_master_driver.sv(332) @ 785000: uvm_test_top.env.master_agent.drv [ahb_master_driver] Beat[1/8] addr=0x0000c0b6 trans=AHB_TRANS_SEQ resp=AHB_RESP_OKAY rdata=0x4c5340da
# UVM_INFO ../src/slv/ahb_slave_driver.sv(184) @ 785000: uvm_test_top.env.slave_agent.drv [ahb_slave_driver] Beat AHB_READ addr=0x0000c0b6 resp=AHB_RESP_OKAY waits=0 rdata=0x4c5340da
# UVM_INFO ../src/mst/ahb_master_monitor.sv(128) @ 785000: uvm_test_top.env.master_agent.mon [ahb_master_monitor] Beat[1] addr=0x0000c0b6 rdata=0x4c5340da resp=AHB_RESP_OKAY
# UVM_INFO ../src/mst/ahb_master_driver.sv(332) @ 815000: uvm_test_top.env.master_agent.drv [ahb_master_driver] Beat[2/8] addr=0x0000c0b7 trans=AHB_TRANS_SEQ resp=AHB_RESP_OKAY rdata=0x4fdba9e3
# UVM_INFO ../src/slv/ahb_slave_driver.sv(184) @ 815000: uvm_test_top.env.slave_agent.drv [ahb_slave_driver] Beat AHB_READ addr=0x0000c0b7 resp=AHB_RESP_OKAY waits=2 rdata=0x4fdba9e3
# UVM_INFO ../src/mst/ahb_master_monitor.sv(128) @ 815000: uvm_test_top.env.master_agent.mon [ahb_master_monitor] Beat[2] addr=0x0000c0b7 rdata=0x4fdba9e3 resp=AHB_RESP_OKAY
# UVM_INFO ../src/mst/ahb_master_driver.sv(332) @ 825000: uvm_test_top.env.master_agent.drv [ahb_master_driver] Beat[3/8] addr=0x0000c0b8 trans=AHB_TRANS_SEQ resp=AHB_RESP_OKAY rdata=0x33dd9273
# UVM_INFO ../src/slv/ahb_slave_driver.sv(184) @ 825000: uvm_test_top.env.slave_agent.drv [ahb_slave_driver] Beat AHB_READ addr=0x0000c0b8 resp=AHB_RESP_OKAY waits=0 rdata=0x33dd9273
# UVM_INFO ../src/mst/ahb_master_monitor.sv(128) @ 825000: uvm_test_top.env.master_agent.mon [ahb_master_monitor] Beat[3] addr=0x0000c0b8 rdata=0x33dd9273 resp=AHB_RESP_OKAY
# UVM_INFO ../src/mst/ahb_master_driver.sv(332) @ 855000: uvm_test_top.env.master_agent.drv [ahb_master_driver] Beat[4/8] addr=0x0000c0b9 trans=AHB_TRANS_SEQ resp=AHB_RESP_OKAY rdata=0xb270594a
# UVM_INFO ../src/slv/ahb_slave_driver.sv(184) @ 855000: uvm_test_top.env.slave_agent.drv [ahb_slave_driver] Beat AHB_READ addr=0x0000c0b9 resp=AHB_RESP_OKAY waits=2 rdata=0xb270594a
# UVM_INFO ../src/mst/ahb_master_monitor.sv(128) @ 855000: uvm_test_top.env.master_agent.mon [ahb_master_monitor] Beat[4] addr=0x0000c0b9 rdata=0xb270594a resp=AHB_RESP_OKAY
# UVM_INFO ../src/mst/ahb_master_driver.sv(332) @ 865000: uvm_test_top.env.master_agent.drv [ahb_master_driver] Beat[5/8] addr=0x0000c0ba trans=AHB_TRANS_SEQ resp=AHB_RESP_OKAY rdata=0x57733422
# UVM_INFO ../src/slv/ahb_slave_driver.sv(184) @ 865000: uvm_test_top.env.slave_agent.drv [ahb_slave_driver] Beat AHB_READ addr=0x0000c0ba resp=AHB_RESP_OKAY waits=0 rdata=0x57733422
# UVM_INFO ../src/mst/ahb_master_monitor.sv(128) @ 865000: uvm_test_top.env.master_agent.mon [ahb_master_monitor] Beat[5] addr=0x0000c0ba rdata=0x57733422 resp=AHB_RESP_OKAY
# UVM_INFO ../src/mst/ahb_master_driver.sv(332) @ 895000: uvm_test_top.env.master_agent.drv [ahb_master_driver] Beat[6/8] addr=0x0000c0bb trans=AHB_TRANS_SEQ resp=AHB_RESP_OKAY rdata=0xd3dd04ec
# UVM_INFO ../src/slv/ahb_slave_driver.sv(184) @ 895000: uvm_test_top.env.slave_agent.drv [ahb_slave_driver] Beat AHB_READ addr=0x0000c0bb resp=AHB_RESP_OKAY waits=2 rdata=0xd3dd04ec
# UVM_INFO ../src/mst/ahb_master_monitor.sv(128) @ 895000: uvm_test_top.env.master_agent.mon [ahb_master_monitor] Beat[6] addr=0x0000c0bb rdata=0xd3dd04ec resp=AHB_RESP_OKAY
# UVM_INFO ../src/mst/ahb_master_driver.sv(332) @ 925000: uvm_test_top.env.master_agent.drv [ahb_master_driver] Beat[7/8] addr=0x0000c0bc trans=AHB_TRANS_SEQ resp=AHB_RESP_OKAY rdata=0x53f8226c
# UVM_INFO ../src/mst/ahb_master_driver.sv(376) @ 925000: uvm_test_top.env.master_agent.drv [ahb_master_driver] Transaction complete: AHB_READ 0x0000c0b5, 8 beats, burst=AHB_BURST_INCR8
# UVM_INFO ../src/slv/ahb_slave_driver.sv(184) @ 925000: uvm_test_top.env.slave_agent.drv [ahb_slave_driver] Beat AHB_READ addr=0x0000c0bc resp=AHB_RESP_OKAY waits=2 rdata=0x53f8226c
# UVM_INFO ../src/mst/ahb_master_monitor.sv(128) @ 925000: uvm_test_top.env.master_agent.mon [ahb_master_monitor] Beat[7] addr=0x0000c0bc rdata=0x53f8226c resp=AHB_RESP_OKAY
# UVM_INFO ../src/mst/ahb_master_monitor.sv(231) @ 925000: uvm_test_top.env.master_agent.mon [ahb_master_monitor] Observed [AHB_READ]: HADDR=0x0000c0b5, HBURST=AHB_BURST_INCR8, HSIZE=AHB_SIZE_8B, 8 beats
# UVM_INFO ../src/env/ahb_coverage.sv(174) @ 925000: uvm_test_top.env.master_cov [ahb_coverage] Sampled [AHB_READ]: burst=AHB_BURST_INCR8 size=AHB_SIZE_8B beats=8 error=0
# UVM_INFO ../src/slv/ahb_slave_monitor.sv(212) @ 925000: uvm_test_top.env.slave_agent.mon [ahb_slave_monitor] Observed [AHB_READ]: HADDR=0x0000c0b5, HBURST=AHB_BURST_INCR8, HSIZE=AHB_SIZE_8B, 8 beats
# UVM_INFO ../src/env/ahb_scoreboard.sv(104) @ 925000: uvm_test_top.env.scb [ahb_scoreboard] MATCH #6: [AHB_READ] HADDR=0x0000c0b5 AHB_BURST_INCR8 8 beats
# UVM_INFO ../src/env/ahb_coverage.sv(174) @ 925000: uvm_test_top.env.slave_cov [ahb_coverage] Sampled [AHB_READ]: burst=AHB_BURST_INCR8 size=AHB_SIZE_8B beats=8 error=0
# UVM_INFO ../src/mst_seq/ahb_base_seq.sv(157) @ 925000: uvm_test_top.env.master_agent.sqr@@seq [ahb_busy_seq] AHB_BURST_INCR8 AHB_SIZE_8B beat 0 @0x0000c0b5 ok
# UVM_INFO ../src/mst_seq/ahb_base_seq.sv(157) @ 925000: uvm_test_top.env.master_agent.sqr@@seq [ahb_busy_seq] AHB_BURST_INCR8 AHB_SIZE_8B beat 1 @0x0000c0b6 ok
# UVM_INFO ../src/mst_seq/ahb_base_seq.sv(157) @ 925000: uvm_test_top.env.master_agent.sqr@@seq [ahb_busy_seq] AHB_BURST_INCR8 AHB_SIZE_8B beat 2 @0x0000c0b7 ok
# UVM_INFO ../src/mst_seq/ahb_base_seq.sv(157) @ 925000: uvm_test_top.env.master_agent.sqr@@seq [ahb_busy_seq] AHB_BURST_INCR8 AHB_SIZE_8B beat 3 @0x0000c0b8 ok
# UVM_INFO ../src/mst_seq/ahb_base_seq.sv(157) @ 925000: uvm_test_top.env.master_agent.sqr@@seq [ahb_busy_seq] AHB_BURST_INCR8 AHB_SIZE_8B beat 4 @0x0000c0b9 ok
# UVM_INFO ../src/mst_seq/ahb_base_seq.sv(157) @ 925000: uvm_test_top.env.master_agent.sqr@@seq [ahb_busy_seq] AHB_BURST_INCR8 AHB_SIZE_8B beat 5 @0x0000c0ba ok
# UVM_INFO ../src/mst_seq/ahb_base_seq.sv(157) @ 925000: uvm_test_top.env.master_agent.sqr@@seq [ahb_busy_seq] AHB_BURST_INCR8 AHB_SIZE_8B beat 6 @0x0000c0bb ok
# UVM_INFO ../src/mst_seq/ahb_base_seq.sv(157) @ 925000: uvm_test_top.env.master_agent.sqr@@seq [ahb_busy_seq] AHB_BURST_INCR8 AHB_SIZE_8B beat 7 @0x0000c0bc ok
# UVM_INFO ../src/mst_seq/ahb_busy_seq.sv(105) @ 925000: uvm_test_top.env.master_agent.sqr@@seq [ahb_busy_seq] AHB_BURST_INCR AHB_SIZE_16B @0x0000c0f2, 4 beats, retract=1
# UVM_INFO ../src/mst/ahb_master_driver.sv(85) @ 925000: uvm_test_top.env.master_agent.drv [ahb_master_driver] Queueing [AHB_WRITE]: HADDR=0x0000c0f2, HBURST=AHB_BURST_INCR, HSIZE=AHB_SIZE_16B, 4 beats
# UVM_INFO ../src/mst/ahb_master_driver.sv(127) @ 925000: uvm_test_top.env.master_agent.drv [ahb_master_driver] Driving [AHB_WRITE]: HADDR=0x0000c0f2, HBURST=AHB_BURST_INCR, HSIZE=AHB_SIZE_16B, 4 beats               
# UVM_INFO ../src/mst/ahb_master_driver.sv(332) @ 965000: uvm_test_top.env.master_agent.drv [ahb_master_driver] Beat[0/4] addr=0x0000c0f2 trans=AHB_TRANS_NONSEQ resp=AHB_RESP_OKAY wdata=0xa6795033
# UVM_INFO ../src/slv/ahb_slave_driver.sv(184) @ 965000: uvm_test_top.env.slave_agent.drv [ahb_slave_driver] Beat AHB_WRITE addr=0x0000c0f2 resp=AHB_RESP_OKAY waits=1 wdata=0xa6795033
# UVM_INFO ../src/mst/ahb_master_monitor.sv(128) @ 965000: uvm_test_top.env.master_agent.mon [ahb_master_monitor] Beat[0] addr=0x0000c0f2 wdata=0xa6795033 resp=AHB_RESP_OKAY
# UVM_INFO ../src/mst/ahb_master_driver.sv(332) @ 985000: uvm_test_top.env.master_agent.drv [ahb_master_driver] Beat[1/4] addr=0x0000c0f4 trans=AHB_TRANS_SEQ resp=AHB_RESP_OKAY wdata=0x3cf0af31
# UVM_INFO ../src/slv/ahb_slave_driver.sv(184) @ 985000: uvm_test_top.env.slave_agent.drv [ahb_slave_driver] Beat AHB_WRITE addr=0x0000c0f4 resp=AHB_RESP_OKAY waits=1 wdata=0x3cf0af31
# UVM_INFO ../src/mst/ahb_master_monitor.sv(128) @ 985000: uvm_test_top.env.master_agent.mon [ahb_master_monitor] Beat[1] addr=0x0000c0f4 wdata=0x3cf0af31 resp=AHB_RESP_OKAY
# UVM_INFO ../src/mst/ahb_master_driver.sv(332) @ 1005000: uvm_test_top.env.master_agent.drv [ahb_master_driver] Beat[2/4] addr=0x0000c0f6 trans=AHB_TRANS_SEQ resp=AHB_RESP_OKAY wdata=0xbd90580d
# UVM_INFO ../src/slv/ahb_slave_driver.sv(184) @ 1005000: uvm_test_top.env.slave_agent.drv [ahb_slave_driver] Beat AHB_WRITE addr=0x0000c0f6 resp=AHB_RESP_OKAY waits=1 wdata=0xbd90580d
# UVM_INFO ../src/mst/ahb_master_monitor.sv(128) @ 1005000: uvm_test_top.env.master_agent.mon [ahb_master_monitor] Beat[2] addr=0x0000c0f6 wdata=0xbd90580d resp=AHB_RESP_OKAY
# UVM_INFO ../src/mst/ahb_master_driver.sv(332) @ 1035000: uvm_test_top.env.master_agent.drv [ahb_master_driver] Beat[3/4] addr=0x0000c0f8 trans=AHB_TRANS_SEQ resp=AHB_RESP_OKAY wdata=0x43591d28
# UVM_INFO ../src/mst/ahb_master_driver.sv(376) @ 1035000: uvm_test_top.env.master_agent.drv [ahb_master_driver] Transaction complete: AHB_WRITE 0x0000c0f2, 4 beats, burst=AHB_BURST_INCR
# UVM_INFO ../src/slv/ahb_slave_driver.sv(184) @ 1035000: uvm_test_top.env.slave_agent.drv [ahb_slave_driver] Beat AHB_WRITE addr=0x0000c0f8 resp=AHB_RESP_OKAY waits=2 wdata=0x43591d28
# UVM_INFO ../src/slv/ahb_slave_monitor.sv(212) @ 1035000: uvm_test_top.env.slave_agent.mon [ahb_slave_monitor] Observed [AHB_WRITE]: HADDR=0x0000c0f2, HBURST=AHB_BURST_INCR, HSIZE=AHB_SIZE_16B, 4 beats
# UVM_INFO ../src/env/ahb_coverage.sv(174) @ 1035000: uvm_test_top.env.slave_cov [ahb_coverage] Sampled [AHB_WRITE]: burst=AHB_BURST_INCR size=AHB_SIZE_16B beats=4 error=0
# UVM_INFO ../src/mst/ahb_master_monitor.sv(128) @ 1035000: uvm_test_top.env.master_agent.mon [ahb_master_monitor] Beat[3] addr=0x0000c0f8 wdata=0x43591d28 resp=AHB_RESP_OKAY
# UVM_INFO ../src/mst/ahb_master_monitor.sv(231) @ 1035000: uvm_test_top.env.master_agent.mon [ahb_master_monitor] Observed [AHB_WRITE]: HADDR=0x0000c0f2, HBURST=AHB_BURST_INCR, HSIZE=AHB_SIZE_16B, 4 beats
# UVM_INFO ../src/env/ahb_coverage.sv(174) @ 1035000: uvm_test_top.env.master_cov [ahb_coverage] Sampled [AHB_WRITE]: burst=AHB_BURST_INCR size=AHB_SIZE_16B beats=4 error=0
# UVM_INFO ../src/env/ahb_scoreboard.sv(104) @ 1035000: uvm_test_top.env.scb [ahb_scoreboard] MATCH #7: [AHB_WRITE] HADDR=0x0000c0f2 AHB_BURST_INCR 4 beats
# UVM_INFO ../src/mst/ahb_master_driver.sv(85) @ 1035000: uvm_test_top.env.master_agent.drv [ahb_master_driver] Queueing [AHB_READ]: HADDR=0x0000c0f2, HBURST=AHB_BURST_INCR, HSIZE=AHB_SIZE_16B, 4 beats
# UVM_INFO ../src/mst/ahb_master_driver.sv(127) @ 1035000: uvm_test_top.env.master_agent.drv [ahb_master_driver] Driving [AHB_READ]: HADDR=0x0000c0f2, HBURST=AHB_BURST_INCR, HSIZE=AHB_SIZE_16B, 4 beats               
# UVM_INFO ../src/mst/ahb_master_driver.sv(332) @ 1085000: uvm_test_top.env.master_agent.drv [ahb_master_driver] Beat[0/4] addr=0x0000c0f2 trans=AHB_TRANS_NONSEQ resp=AHB_RESP_OKAY rdata=0xa6795033
# UVM_INFO ../src/slv/ahb_slave_driver.sv(184) @ 1085000: uvm_test_top.env.slave_agent.drv [ahb_slave_driver] Beat AHB_READ addr=0x0000c0f2 resp=AHB_RESP_OKAY waits=2 rdata=0xa6795033
# UVM_INFO ../src/mst/ahb_master_monitor.sv(128) @ 1085000: uvm_test_top.env.master_agent.mon [ahb_master_monitor] Beat[0] addr=0x0000c0f2 rdata=0xa6795033 resp=AHB_RESP_OKAY
# UVM_INFO ../src/mst/ahb_master_driver.sv(332) @ 1105000: uvm_test_top.env.master_agent.drv [ahb_master_driver] Beat[1/4] addr=0x0000c0f4 trans=AHB_TRANS_SEQ resp=AHB_RESP_OKAY rdata=0x3cf0af31
# UVM_INFO ../src/slv/ahb_slave_driver.sv(184) @ 1105000: uvm_test_top.env.slave_agent.drv [ahb_slave_driver] Beat AHB_READ addr=0x0000c0f4 resp=AHB_RESP_OKAY waits=1 rdata=0x3cf0af31
# UVM_INFO ../src/mst/ahb_master_monitor.sv(128) @ 1105000: uvm_test_top.env.master_agent.mon [ahb_master_monitor] Beat[1] addr=0x0000c0f4 rdata=0x3cf0af31 resp=AHB_RESP_OKAY
# UVM_INFO ../src/mst/ahb_master_driver.sv(332) @ 1125000: uvm_test_top.env.master_agent.drv [ahb_master_driver] Beat[2/4] addr=0x0000c0f6 trans=AHB_TRANS_SEQ resp=AHB_RESP_OKAY rdata=0xbd90580d
# UVM_INFO ../src/slv/ahb_slave_driver.sv(184) @ 1125000: uvm_test_top.env.slave_agent.drv [ahb_slave_driver] Beat AHB_READ addr=0x0000c0f6 resp=AHB_RESP_OKAY waits=1 rdata=0xbd90580d
# UVM_INFO ../src/mst/ahb_master_monitor.sv(128) @ 1125000: uvm_test_top.env.master_agent.mon [ahb_master_monitor] Beat[2] addr=0x0000c0f6 rdata=0xbd90580d resp=AHB_RESP_OKAY
# UVM_INFO ../src/mst/ahb_master_driver.sv(332) @ 1135000: uvm_test_top.env.master_agent.drv [ahb_master_driver] Beat[3/4] addr=0x0000c0f8 trans=AHB_TRANS_SEQ resp=AHB_RESP_OKAY rdata=0x43591d28
# UVM_INFO ../src/mst/ahb_master_driver.sv(376) @ 1135000: uvm_test_top.env.master_agent.drv [ahb_master_driver] Transaction complete: AHB_READ 0x0000c0f2, 4 beats, burst=AHB_BURST_INCR
# UVM_INFO ../src/slv/ahb_slave_driver.sv(184) @ 1135000: uvm_test_top.env.slave_agent.drv [ahb_slave_driver] Beat AHB_READ addr=0x0000c0f8 resp=AHB_RESP_OKAY waits=0 rdata=0x43591d28
# UVM_INFO ../src/slv/ahb_slave_monitor.sv(212) @ 1135000: uvm_test_top.env.slave_agent.mon [ahb_slave_monitor] Observed [AHB_READ]: HADDR=0x0000c0f2, HBURST=AHB_BURST_INCR, HSIZE=AHB_SIZE_16B, 4 beats
# UVM_INFO ../src/env/ahb_coverage.sv(174) @ 1135000: uvm_test_top.env.slave_cov [ahb_coverage] Sampled [AHB_READ]: burst=AHB_BURST_INCR size=AHB_SIZE_16B beats=4 error=0
# UVM_INFO ../src/mst/ahb_master_monitor.sv(128) @ 1135000: uvm_test_top.env.master_agent.mon [ahb_master_monitor] Beat[3] addr=0x0000c0f8 rdata=0x43591d28 resp=AHB_RESP_OKAY
# UVM_INFO ../src/mst/ahb_master_monitor.sv(231) @ 1135000: uvm_test_top.env.master_agent.mon [ahb_master_monitor] Observed [AHB_READ]: HADDR=0x0000c0f2, HBURST=AHB_BURST_INCR, HSIZE=AHB_SIZE_16B, 4 beats
# UVM_INFO ../src/env/ahb_coverage.sv(174) @ 1135000: uvm_test_top.env.master_cov [ahb_coverage] Sampled [AHB_READ]: burst=AHB_BURST_INCR size=AHB_SIZE_16B beats=4 error=0
# UVM_INFO ../src/env/ahb_scoreboard.sv(104) @ 1135000: uvm_test_top.env.scb [ahb_scoreboard] MATCH #8: [AHB_READ] HADDR=0x0000c0f2 AHB_BURST_INCR 4 beats
# UVM_INFO ../src/mst_seq/ahb_base_seq.sv(157) @ 1135000: uvm_test_top.env.master_agent.sqr@@seq [ahb_busy_seq] AHB_BURST_INCR AHB_SIZE_16B beat 0 @0x0000c0f2 ok
# UVM_INFO ../src/mst_seq/ahb_base_seq.sv(157) @ 1135000: uvm_test_top.env.master_agent.sqr@@seq [ahb_busy_seq] AHB_BURST_INCR AHB_SIZE_16B beat 1 @0x0000c0f4 ok
# UVM_INFO ../src/mst_seq/ahb_base_seq.sv(157) @ 1135000: uvm_test_top.env.master_agent.sqr@@seq [ahb_busy_seq] AHB_BURST_INCR AHB_SIZE_16B beat 2 @0x0000c0f6 ok
# UVM_INFO ../src/mst_seq/ahb_base_seq.sv(157) @ 1135000: uvm_test_top.env.master_agent.sqr@@seq [ahb_busy_seq] AHB_BURST_INCR AHB_SIZE_16B beat 3 @0x0000c0f8 ok
# UVM_INFO ../src/mst_seq/ahb_busy_seq.sv(105) @ 1135000: uvm_test_top.env.master_agent.sqr@@seq [ahb_busy_seq] AHB_BURST_WRAP4 AHB_SIZE_8B @0x0000c10d, 4 beats, retract=0
# UVM_INFO ../src/mst/ahb_master_driver.sv(85) @ 1135000: uvm_test_top.env.master_agent.drv [ahb_master_driver] Queueing [AHB_WRITE]: HADDR=0x0000c10d, HBURST=AHB_BURST_WRAP4, HSIZE=AHB_SIZE_8B, 4 beats
# UVM_INFO ../src/mst/ahb_master_driver.sv(127) @ 1135000: uvm_test_top.env.master_agent.drv [ahb_master_driver] Driving [AHB_WRITE]: HADDR=0x0000c10d, HBURST=AHB_BURST_WRAP4, HSIZE=AHB_SIZE_8B, 4 beats               
# UVM_INFO ../src/mst/ahb_master_driver.sv(332) @ 1185000: uvm_test_top.env.master_agent.drv [ahb_master_driver] Beat[0/4] addr=0x0000c10d trans=AHB_TRANS_NONSEQ resp=AHB_RESP_OKAY wdata=0xd8349027
# UVM_INFO ../src/slv/ahb_slave_driver.sv(184) @ 1185000: uvm_test_top.env.slave_agent.drv [ahb_slave_driver] Beat AHB_WRITE addr=0x0000c10d resp=AHB_RESP_OKAY waits=2 wdata=0xd8349027
# UVM_INFO ../src/mst/ahb_master_monitor.sv(128) @ 1185000: uvm_test_top.env.master_agent.mon [ahb_master_monitor] Beat[0] addr=0x0000c10d wdata=0xd8349027 resp=AHB_RESP_OKAY
# UVM_INFO ../src/mst/ahb_master_driver.sv(332) @ 1235000: uvm_test_top.env.master_agent.drv [ahb_master_driver] Beat[1/4] addr=0x0000c10e trans=AHB_TRANS_SEQ resp=AHB_RESP_OKAY wdata=0x204f55fd
# UVM_INFO ../src/slv/ahb_slave_driver.sv(184) @ 1235000: uvm_test_top.env.slave_agent.drv [ahb_slave_driver] Beat AHB_WRITE addr=0x0000c10e resp=AHB_RESP_OKAY waits=1 wdata=0x204f55fd
# UVM_INFO ../src/mst/ahb_master_monitor.sv(128) @ 1235000: uvm_test_top.env.master_agent.mon [ahb_master_monitor] Beat[1] addr=0x0000c10e wdata=0x204f55fd resp=AHB_RESP_OKAY
# UVM_INFO ../src/mst/ahb_master_driver.sv(332) @ 1285000: uvm_test_top.env.master_agent.drv [ahb_master_driver] Beat[2/4] addr=0x0000c10f trans=AHB_TRANS_SEQ resp=AHB_RESP_OKAY wdata=0x4c1c0dd7
# UVM_INFO ../src/slv/ahb_slave_driver.sv(184) @ 1285000: uvm_test_top.env.slave_agent.drv [ahb_slave_driver] Beat AHB_WRITE addr=0x0000c10f resp=AHB_RESP_OKAY waits=1 wdata=0x4c1c0dd7
# UVM_INFO ../src/mst/ahb_master_monitor.sv(128) @ 1285000: uvm_test_top.env.master_agent.mon [ahb_master_monitor] Beat[2] addr=0x0000c10f wdata=0x4c1c0dd7 resp=AHB_RESP_OKAY
# UVM_INFO ../src/mst/ahb_master_driver.sv(332) @ 1305000: uvm_test_top.env.master_agent.drv [ahb_master_driver] Beat[3/4] addr=0x0000c10c trans=AHB_TRANS_SEQ resp=AHB_RESP_OKAY wdata=0xa63baf6b
# UVM_INFO ../src/mst/ahb_master_driver.sv(376) @ 1305000: uvm_test_top.env.master_agent.drv [ahb_master_driver] Transaction complete: AHB_WRITE 0x0000c10d, 4 beats, burst=AHB_BURST_WRAP4
# UVM_INFO ../src/slv/ahb_slave_driver.sv(184) @ 1305000: uvm_test_top.env.slave_agent.drv [ahb_slave_driver] Beat AHB_WRITE addr=0x0000c10c resp=AHB_RESP_OKAY waits=0 wdata=0xa63baf6b
# UVM_INFO ../src/mst/ahb_master_monitor.sv(128) @ 1305000: uvm_test_top.env.master_agent.mon [ahb_master_monitor] Beat[3] addr=0x0000c10c wdata=0xa63baf6b resp=AHB_RESP_OKAY
# UVM_INFO ../src/mst/ahb_master_monitor.sv(231) @ 1305000: uvm_test_top.env.master_agent.mon [ahb_master_monitor] Observed [AHB_WRITE]: HADDR=0x0000c10d, HBURST=AHB_BURST_WRAP4, HSIZE=AHB_SIZE_8B, 4 beats
# UVM_INFO ../src/env/ahb_coverage.sv(174) @ 1305000: uvm_test_top.env.master_cov [ahb_coverage] Sampled [AHB_WRITE]: burst=AHB_BURST_WRAP4 size=AHB_SIZE_8B beats=4 error=0
# UVM_INFO ../src/slv/ahb_slave_monitor.sv(212) @ 1305000: uvm_test_top.env.slave_agent.mon [ahb_slave_monitor] Observed [AHB_WRITE]: HADDR=0x0000c10d, HBURST=AHB_BURST_WRAP4, HSIZE=AHB_SIZE_8B, 4 beats
# UVM_INFO ../src/env/ahb_scoreboard.sv(104) @ 1305000: uvm_test_top.env.scb [ahb_scoreboard] MATCH #9: [AHB_WRITE] HADDR=0x0000c10d AHB_BURST_WRAP4 4 beats
# UVM_INFO ../src/env/ahb_coverage.sv(174) @ 1305000: uvm_test_top.env.slave_cov [ahb_coverage] Sampled [AHB_WRITE]: burst=AHB_BURST_WRAP4 size=AHB_SIZE_8B beats=4 error=0
# UVM_INFO ../src/mst/ahb_master_driver.sv(85) @ 1305000: uvm_test_top.env.master_agent.drv [ahb_master_driver] Queueing [AHB_READ]: HADDR=0x0000c10d, HBURST=AHB_BURST_WRAP4, HSIZE=AHB_SIZE_8B, 4 beats
# UVM_INFO ../src/mst/ahb_master_driver.sv(127) @ 1305000: uvm_test_top.env.master_agent.drv [ahb_master_driver] Driving [AHB_READ]: HADDR=0x0000c10d, HBURST=AHB_BURST_WRAP4, HSIZE=AHB_SIZE_8B, 4 beats               
# UVM_INFO ../src/mst/ahb_master_driver.sv(332) @ 1345000: uvm_test_top.env.master_agent.drv [ahb_master_driver] Beat[0/4] addr=0x0000c10d trans=AHB_TRANS_NONSEQ resp=AHB_RESP_OKAY rdata=0xd8349027
# UVM_INFO ../src/slv/ahb_slave_driver.sv(184) @ 1345000: uvm_test_top.env.slave_agent.drv [ahb_slave_driver] Beat AHB_READ addr=0x0000c10d resp=AHB_RESP_OKAY waits=1 rdata=0xd8349027
# UVM_INFO ../src/mst/ahb_master_monitor.sv(128) @ 1345000: uvm_test_top.env.master_agent.mon [ahb_master_monitor] Beat[0] addr=0x0000c10d rdata=0xd8349027 resp=AHB_RESP_OKAY
# UVM_INFO ../src/mst/ahb_master_driver.sv(332) @ 1365000: uvm_test_top.env.master_agent.drv [ahb_master_driver] Beat[1/4] addr=0x0000c10e trans=AHB_TRANS_SEQ resp=AHB_RESP_OKAY rdata=0x204f55fd
# UVM_INFO ../src/slv/ahb_slave_driver.sv(184) @ 1365000: uvm_test_top.env.slave_agent.drv [ahb_slave_driver] Beat AHB_READ addr=0x0000c10e resp=AHB_RESP_OKAY waits=1 rdata=0x204f55fd
# UVM_INFO ../src/mst/ahb_master_monitor.sv(128) @ 1365000: uvm_test_top.env.master_agent.mon [ahb_master_monitor] Beat[1] addr=0x0000c10e rdata=0x204f55fd resp=AHB_RESP_OKAY
# UVM_INFO ../src/mst/ahb_master_driver.sv(332) @ 1385000: uvm_test_top.env.master_agent.drv [ahb_master_driver] Beat[2/4] addr=0x0000c10f trans=AHB_TRANS_SEQ resp=AHB_RESP_OKAY rdata=0x4c1c0dd7
# UVM_INFO ../src/slv/ahb_slave_driver.sv(184) @ 1385000: uvm_test_top.env.slave_agent.drv [ahb_slave_driver] Beat AHB_READ addr=0x0000c10f resp=AHB_RESP_OKAY waits=1 rdata=0x4c1c0dd7
# UVM_INFO ../src/mst/ahb_master_monitor.sv(128) @ 1385000: uvm_test_top.env.master_agent.mon [ahb_master_monitor] Beat[2] addr=0x0000c10f rdata=0x4c1c0dd7 resp=AHB_RESP_OKAY
# UVM_INFO ../src/mst/ahb_master_driver.sv(332) @ 1415000: uvm_test_top.env.master_agent.drv [ahb_master_driver] Beat[3/4] addr=0x0000c10c trans=AHB_TRANS_SEQ resp=AHB_RESP_OKAY rdata=0xa63baf6b
# UVM_INFO ../src/mst/ahb_master_driver.sv(376) @ 1415000: uvm_test_top.env.master_agent.drv [ahb_master_driver] Transaction complete: AHB_READ 0x0000c10d, 4 beats, burst=AHB_BURST_WRAP4
# UVM_INFO ../src/slv/ahb_slave_driver.sv(184) @ 1415000: uvm_test_top.env.slave_agent.drv [ahb_slave_driver] Beat AHB_READ addr=0x0000c10c resp=AHB_RESP_OKAY waits=2 rdata=0xa63baf6b
# UVM_INFO ../src/slv/ahb_slave_monitor.sv(212) @ 1415000: uvm_test_top.env.slave_agent.mon [ahb_slave_monitor] Observed [AHB_READ]: HADDR=0x0000c10d, HBURST=AHB_BURST_WRAP4, HSIZE=AHB_SIZE_8B, 4 beats
# UVM_INFO ../src/env/ahb_coverage.sv(174) @ 1415000: uvm_test_top.env.slave_cov [ahb_coverage] Sampled [AHB_READ]: burst=AHB_BURST_WRAP4 size=AHB_SIZE_8B beats=4 error=0
# UVM_INFO ../src/mst/ahb_master_monitor.sv(128) @ 1415000: uvm_test_top.env.master_agent.mon [ahb_master_monitor] Beat[3] addr=0x0000c10c rdata=0xa63baf6b resp=AHB_RESP_OKAY
# UVM_INFO ../src/mst/ahb_master_monitor.sv(231) @ 1415000: uvm_test_top.env.master_agent.mon [ahb_master_monitor] Observed [AHB_READ]: HADDR=0x0000c10d, HBURST=AHB_BURST_WRAP4, HSIZE=AHB_SIZE_8B, 4 beats
# UVM_INFO ../src/env/ahb_coverage.sv(174) @ 1415000: uvm_test_top.env.master_cov [ahb_coverage] Sampled [AHB_READ]: burst=AHB_BURST_WRAP4 size=AHB_SIZE_8B beats=4 error=0
# UVM_INFO ../src/env/ahb_scoreboard.sv(104) @ 1415000: uvm_test_top.env.scb [ahb_scoreboard] MATCH #10: [AHB_READ] HADDR=0x0000c10d AHB_BURST_WRAP4 4 beats
# UVM_INFO ../src/mst_seq/ahb_base_seq.sv(157) @ 1415000: uvm_test_top.env.master_agent.sqr@@seq [ahb_busy_seq] AHB_BURST_WRAP4 AHB_SIZE_8B beat 0 @0x0000c10d ok
# UVM_INFO ../src/mst_seq/ahb_base_seq.sv(157) @ 1415000: uvm_test_top.env.master_agent.sqr@@seq [ahb_busy_seq] AHB_BURST_WRAP4 AHB_SIZE_8B beat 1 @0x0000c10e ok
# UVM_INFO ../src/mst_seq/ahb_base_seq.sv(157) @ 1415000: uvm_test_top.env.master_agent.sqr@@seq [ahb_busy_seq] AHB_BURST_WRAP4 AHB_SIZE_8B beat 2 @0x0000c10f ok
# UVM_INFO ../src/mst_seq/ahb_base_seq.sv(157) @ 1415000: uvm_test_top.env.master_agent.sqr@@seq [ahb_busy_seq] AHB_BURST_WRAP4 AHB_SIZE_8B beat 3 @0x0000c10c ok
# UVM_INFO ../src/mst_seq/ahb_busy_seq.sv(105) @ 1415000: uvm_test_top.env.master_agent.sqr@@seq [ahb_busy_seq] AHB_BURST_INCR16 AHB_SIZE_16B @0x0000c15a, 16 beats, retract=0
# UVM_INFO ../src/mst/ahb_master_driver.sv(85) @ 1415000: uvm_test_top.env.master_agent.drv [ahb_master_driver] Queueing [AHB_WRITE]: HADDR=0x0000c15a, HBURST=AHB_BURST_INCR16, HSIZE=AHB_SIZE_16B, 16 beats
# UVM_INFO ../src/mst/ahb_master_driver.sv(127) @ 1415000: uvm_test_top.env.master_agent.drv [ahb_master_driver] Driving [AHB_WRITE]: HADDR=0x0000c15a, HBURST=AHB_BURST_INCR16, HSIZE=AHB_SIZE_16B, 16 beats               
# UVM_INFO ../src/mst/ahb_master_driver.sv(332) @ 1455000: uvm_test_top.env.master_agent.drv [ahb_master_driver] Beat[0/16] addr=0x0000c15a trans=AHB_TRANS_NONSEQ resp=AHB_RESP_OKAY wdata=0x7b493ebe
# UVM_INFO ../src/slv/ahb_slave_driver.sv(184) @ 1455000: uvm_test_top.env.slave_agent.drv [ahb_slave_driver] Beat AHB_WRITE addr=0x0000c15a resp=AHB_RESP_OKAY waits=1 wdata=0x7b493ebe
# UVM_INFO ../src/mst/ahb_master_monitor.sv(128) @ 1455000: uvm_test_top.env.master_agent.mon [ahb_master_monitor] Beat[0] addr=0x0000c15a wdata=0x7b493ebe resp=AHB_RESP_OKAY
# UVM_INFO ../src/mst/ahb_master_driver.sv(332) @ 1495000: uvm_test_top.env.master_agent.drv [ahb_master_driver] Beat[1/16] addr=0x0000c15c trans=AHB_TRANS_SEQ resp=AHB_RESP_OKAY wdata=0x3f4067f5
# UVM_INFO ../src/slv/ahb_slave_driver.sv(184) @ 1495000: uvm_test_top.env.slave_agent.drv [ahb_slave_driver] Beat AHB_WRITE addr=0x0000c15c resp=AHB_RESP_OKAY waits=2 wdata=0x3f4067f5
# UVM_INFO ../src/mst/ahb_master_monitor.sv(128) @ 1495000: uvm_test_top.env.master_agent.mon [ahb_master_monitor] Beat[1] addr=0x0000c15c wdata=0x3f4067f5 resp=AHB_RESP_OKAY
# UVM_INFO ../src/mst/ahb_master_driver.sv(332) @ 1525000: uvm_test_top.env.master_agent.drv [ahb_master_driver] Beat[2/16] addr=0x0000c15e trans=AHB_TRANS_SEQ resp=AHB_RESP_OKAY wdata=0xa6d4c5ad
# UVM_INFO ../src/slv/ahb_slave_driver.sv(184) @ 1525000: uvm_test_top.env.slave_agent.drv [ahb_slave_driver] Beat AHB_WRITE addr=0x0000c15e resp=AHB_RESP_OKAY waits=1 wdata=0xa6d4c5ad
# UVM_INFO ../src/mst/ahb_master_monitor.sv(128) @ 1525000: uvm_test_top.env.master_agent.mon [ahb_master_monitor] Beat[2] addr=0x0000c15e wdata=0xa6d4c5ad resp=AHB_RESP_OKAY
# UVM_INFO ../src/mst/ahb_master_driver.sv(332) @ 1585000: uvm_test_top.env.master_agent.drv [ahb_master_driver] Beat[3/16] addr=0x0000c160 trans=AHB_TRANS_SEQ resp=AHB_RESP_OKAY wdata=0x9bc88477
# UVM_INFO ../src/slv/ahb_slave_driver.sv(184) @ 1585000: uvm_test_top.env.slave_agent.drv [ahb_slave_driver] Beat AHB_WRITE addr=0x0000c160 resp=AHB_RESP_OKAY waits=2 wdata=0x9bc88477
# UVM_INFO ../src/mst/ahb_master_monitor.sv(128) @ 1585000: uvm_test_top.env.master_agent.mon [ahb_master_monitor] Beat[3] addr=0x0000c160 wdata=0x9bc88477 resp=AHB_RESP_OKAY
# UVM_INFO ../src/mst/ahb_master_driver.sv(332) @ 1615000: uvm_test_top.env.master_agent.drv [ahb_master_driver] Beat[4/16] addr=0x0000c162 trans=AHB_TRANS_SEQ resp=AHB_RESP_OKAY wdata=0xa88de544
# UVM_INFO ../src/slv/ahb_slave_driver.sv(184) @ 1615000: uvm_test_top.env.slave_agent.drv [ahb_slave_driver] Beat AHB_WRITE addr=0x0000c162 resp=AHB_RESP_OKAY waits=1 wdata=0xa88de544
# UVM_INFO ../src/mst/ahb_master_monitor.sv(128) @ 1615000: uvm_test_top.env.master_agent.mon [ahb_master_monitor] Beat[4] addr=0x0000c162 wdata=0xa88de544 resp=AHB_RESP_OKAY
# UVM_INFO ../src/mst/ahb_master_driver.sv(332) @ 1635000: uvm_test_top.env.master_agent.drv [ahb_master_driver] Beat[5/16] addr=0x0000c164 trans=AHB_TRANS_SEQ resp=AHB_RESP_OKAY wdata=0x9e03e5d9
# UVM_INFO ../src/slv/ahb_slave_driver.sv(184) @ 1635000: uvm_test_top.env.slave_agent.drv [ahb_slave_driver] Beat AHB_WRITE addr=0x0000c164 resp=AHB_RESP_OKAY waits=0 wdata=0x9e03e5d9
# UVM_INFO ../src/mst/ahb_master_monitor.sv(128) @ 1635000: uvm_test_top.env.master_agent.mon [ahb_master_monitor] Beat[5] addr=0x0000c164 wdata=0x9e03e5d9 resp=AHB_RESP_OKAY
# UVM_INFO ../src/mst/ahb_master_driver.sv(332) @ 1685000: uvm_test_top.env.master_agent.drv [ahb_master_driver] Beat[6/16] addr=0x0000c166 trans=AHB_TRANS_SEQ resp=AHB_RESP_OKAY wdata=0x06dae5fc
# UVM_INFO ../src/slv/ahb_slave_driver.sv(184) @ 1685000: uvm_test_top.env.slave_agent.drv [ahb_slave_driver] Beat AHB_WRITE addr=0x0000c166 resp=AHB_RESP_OKAY waits=2 wdata=0x06dae5fc
# UVM_INFO ../src/mst/ahb_master_monitor.sv(128) @ 1685000: uvm_test_top.env.master_agent.mon [ahb_master_monitor] Beat[6] addr=0x0000c166 wdata=0x06dae5fc resp=AHB_RESP_OKAY
# UVM_INFO ../src/mst/ahb_master_driver.sv(332) @ 1735000: uvm_test_top.env.master_agent.drv [ahb_master_driver] Beat[7/16] addr=0x0000c168 trans=AHB_TRANS_SEQ resp=AHB_RESP_OKAY wdata=0xc55ab138
# UVM_INFO ../src/slv/ahb_slave_driver.sv(184) @ 1735000: uvm_test_top.env.slave_agent.drv [ahb_slave_driver] Beat AHB_WRITE addr=0x0000c168 resp=AHB_RESP_OKAY waits=1 wdata=0xc55ab138
# UVM_INFO ../src/mst/ahb_master_monitor.sv(128) @ 1735000: uvm_test_top.env.master_agent.mon [ahb_master_monitor] Beat[7] addr=0x0000c168 wdata=0xc55ab138 resp=AHB_RESP_OKAY
# UVM_INFO ../src/mst/ahb_master_driver.sv(332) @ 1785000: uvm_test_top.env.master_agent.drv [ahb_master_driver] Beat[8/16] addr=0x0000c16a trans=AHB_TRANS_SEQ resp=AHB_RESP_OKAY wdata=0xa1ad9f92
# UVM_INFO ../src/slv/ahb_slave_driver.sv(184) @ 1785000: uvm_test_top.env.slave_agent.drv [ahb_slave_driver] Beat AHB_WRITE addr=0x0000c16a resp=AHB_RESP_OKAY waits=2 wdata=0xa1ad9f92
# UVM_INFO ../src/mst/ahb_master_monitor.sv(128) @ 1785000: uvm_test_top.env.master_agent.mon [ahb_master_monitor] Beat[8] addr=0x0000c16a wdata=0xa1ad9f92 resp=AHB_RESP_OKAY
# UVM_INFO ../src/mst/ahb_master_driver.sv(332) @ 1835000: uvm_test_top.env.master_agent.drv [ahb_master_driver] Beat[9/16] addr=0x0000c16c trans=AHB_TRANS_SEQ resp=AHB_RESP_OKAY wdata=0x8e7f2272
# UVM_INFO ../src/slv/ahb_slave_driver.sv(184) @ 1835000: uvm_test_top.env.slave_agent.drv [ahb_slave_driver] Beat AHB_WRITE addr=0x0000c16c resp=AHB_RESP_OKAY waits=1 wdata=0x8e7f2272
# UVM_INFO ../src/mst/ahb_master_monitor.sv(128) @ 1835000: uvm_test_top.env.master_agent.mon [ahb_master_monitor] Beat[9] addr=0x0000c16c wdata=0x8e7f2272 resp=AHB_RESP_OKAY
# UVM_INFO ../src/mst/ahb_master_driver.sv(332) @ 1875000: uvm_test_top.env.master_agent.drv [ahb_master_driver] Beat[10/16] addr=0x0000c16e trans=AHB_TRANS_SEQ resp=AHB_RESP_OKAY wdata=0xf7c19cb2
# UVM_INFO ../src/slv/ahb_slave_driver.sv(184) @ 1875000: uvm_test_top.env.slave_agent.drv [ahb_slave_driver] Beat AHB_WRITE addr=0x0000c16e resp=AHB_RESP_OKAY waits=2 wdata=0xf7c19cb2
# UVM_INFO ../src/mst/ahb_master_monitor.sv(128) @ 1875000: uvm_test_top.env.master_agent.mon [ahb_master_monitor] Beat[10] addr=0x0000c16e wdata=0xf7c19cb2 resp=AHB_RESP_OKAY
# UVM_INFO ../src/mst/ahb_master_driver.sv(332) @ 1905000: uvm_test_top.env.master_agent.drv [ahb_master_driver] Beat[11/16] addr=0x0000c170 trans=AHB_TRANS_SEQ resp=AHB_RESP_OKAY wdata=0x3cc871c6
# UVM_INFO ../src/slv/ahb_slave_driver.sv(184) @ 1905000: uvm_test_top.env.slave_agent.drv [ahb_slave_driver] Beat AHB_WRITE addr=0x0000c170 resp=AHB_RESP_OKAY waits=1 wdata=0x3cc871c6
# UVM_INFO ../src/mst/ahb_master_monitor.sv(128) @ 1905000: uvm_test_top.env.master_agent.mon [ahb_master_monitor] Beat[11] addr=0x0000c170 wdata=0x3cc871c6 resp=AHB_RESP_OKAY
# UVM_INFO ../src/mst/ahb_master_driver.sv(332) @ 1955000: uvm_test_top.env.master_agent.drv [ahb_master_driver] Beat[12/16] addr=0x0000c172 trans=AHB_TRANS_SEQ resp=AHB_RESP_OKAY wdata=0x62ae3ef1
# UVM_INFO ../src/slv/ahb_slave_driver.sv(184) @ 1955000: uvm_test_top.env.slave_agent.drv [ahb_slave_driver] Beat AHB_WRITE addr=0x0000c172 resp=AHB_RESP_OKAY waits=2 wdata=0x62ae3ef1
# UVM_INFO ../src/mst/ahb_master_monitor.sv(128) @ 1955000: uvm_test_top.env.master_agent.mon [ahb_master_monitor] Beat[12] addr=0x0000c172 wdata=0x62ae3ef1 resp=AHB_RESP_OKAY
# UVM_INFO ../src/mst/ahb_master_driver.sv(332) @ 1995000: uvm_test_top.env.master_agent.drv [ahb_master_driver] Beat[13/16] addr=0x0000c174 trans=AHB_TRANS_SEQ resp=AHB_RESP_OKAY wdata=0x0c15955d
# UVM_INFO ../src/slv/ahb_slave_driver.sv(184) @ 1995000: uvm_test_top.env.slave_agent.drv [ahb_slave_driver] Beat AHB_WRITE addr=0x0000c174 resp=AHB_RESP_OKAY waits=0 wdata=0x0c15955d
# UVM_INFO ../src/mst/ahb_master_monitor.sv(128) @ 1995000: uvm_test_top.env.master_agent.mon [ahb_master_monitor] Beat[13] addr=0x0000c174 wdata=0x0c15955d resp=AHB_RESP_OKAY
# UVM_INFO ../src/mst/ahb_master_driver.sv(332) @ 2015000: uvm_test_top.env.master_agent.drv [ahb_master_driver] Beat[14/16] addr=0x0000c176 trans=AHB_TRANS_SEQ resp=AHB_RESP_OKAY wdata=0xcc68213f
# UVM_INFO ../src/slv/ahb_slave_driver.sv(184) @ 2015000: uvm_test_top.env.slave_agent.drv [ahb_slave_driver] Beat AHB_WRITE addr=0x0000c176 resp=AHB_RESP_OKAY waits=0 wdata=0xcc68213f
# UVM_INFO ../src/mst/ahb_master_monitor.sv(128) @ 2015000: uvm_test_top.env.master_agent.mon [ahb_master_monitor] Beat[14] addr=0x0000c176 wdata=0xcc68213f resp=AHB_RESP_OKAY
# UVM_INFO ../src/mst/ahb_master_driver.sv(332) @ 2055000: uvm_test_top.env.master_agent.drv [ahb_master_driver] Beat[15/16] addr=0x0000c178 trans=AHB_TRANS_SEQ resp=AHB_RESP_OKAY wdata=0xdf575b45
# UVM_INFO ../src/mst/ahb_master_driver.sv(376) @ 2055000: uvm_test_top.env.master_agent.drv [ahb_master_driver] Transaction complete: AHB_WRITE 0x0000c15a, 16 beats, burst=AHB_BURST_INCR16
# UVM_INFO ../src/slv/ahb_slave_driver.sv(184) @ 2055000: uvm_test_top.env.slave_agent.drv [ahb_slave_driver] Beat AHB_WRITE addr=0x0000c178 resp=AHB_RESP_OKAY waits=2 wdata=0xdf575b45
# UVM_INFO ../src/slv/ahb_slave_monitor.sv(212) @ 2055000: uvm_test_top.env.slave_agent.mon [ahb_slave_monitor] Observed [AHB_WRITE]: HADDR=0x0000c15a, HBURST=AHB_BURST_INCR16, HSIZE=AHB_SIZE_16B, 16 beats
# UVM_INFO ../src/env/ahb_coverage.sv(174) @ 2055000: uvm_test_top.env.slave_cov [ahb_coverage] Sampled [AHB_WRITE]: burst=AHB_BURST_INCR16 size=AHB_SIZE_16B beats=16 error=0
# UVM_INFO ../src/mst/ahb_master_monitor.sv(128) @ 2055000: uvm_test_top.env.master_agent.mon [ahb_master_monitor] Beat[15] addr=0x0000c178 wdata=0xdf575b45 resp=AHB_RESP_OKAY
# UVM_INFO ../src/mst/ahb_master_monitor.sv(231) @ 2055000: uvm_test_top.env.master_agent.mon [ahb_master_monitor] Observed [AHB_WRITE]: HADDR=0x0000c15a, HBURST=AHB_BURST_INCR16, HSIZE=AHB_SIZE_16B, 16 beats
# UVM_INFO ../src/env/ahb_coverage.sv(174) @ 2055000: uvm_test_top.env.master_cov [ahb_coverage] Sampled [AHB_WRITE]: burst=AHB_BURST_INCR16 size=AHB_SIZE_16B beats=16 error=0
# UVM_INFO ../src/env/ahb_scoreboard.sv(104) @ 2055000: uvm_test_top.env.scb [ahb_scoreboard] MATCH #11: [AHB_WRITE] HADDR=0x0000c15a AHB_BURST_INCR16 16 beats
# UVM_INFO ../src/mst/ahb_master_driver.sv(85) @ 2055000: uvm_test_top.env.master_agent.drv [ahb_master_driver] Queueing [AHB_READ]: HADDR=0x0000c15a, HBURST=AHB_BURST_INCR16, HSIZE=AHB_SIZE_16B, 16 beats
# UVM_INFO ../src/mst/ahb_master_driver.sv(127) @ 2055000: uvm_test_top.env.master_agent.drv [ahb_master_driver] Driving [AHB_READ]: HADDR=0x0000c15a, HBURST=AHB_BURST_INCR16, HSIZE=AHB_SIZE_16B, 16 beats               
# UVM_INFO ../src/mst/ahb_master_driver.sv(332) @ 2085000: uvm_test_top.env.master_agent.drv [ahb_master_driver] Beat[0/16] addr=0x0000c15a trans=AHB_TRANS_NONSEQ resp=AHB_RESP_OKAY rdata=0x7b493ebe
# UVM_INFO ../src/slv/ahb_slave_driver.sv(184) @ 2085000: uvm_test_top.env.slave_agent.drv [ahb_slave_driver] Beat AHB_READ addr=0x0000c15a resp=AHB_RESP_OKAY waits=0 rdata=0x7b493ebe
# UVM_INFO ../src/mst/ahb_master_monitor.sv(128) @ 2085000: uvm_test_top.env.master_agent.mon [ahb_master_monitor] Beat[0] addr=0x0000c15a rdata=0x7b493ebe resp=AHB_RESP_OKAY
# UVM_INFO ../src/mst/ahb_master_driver.sv(332) @ 2095000: uvm_test_top.env.master_agent.drv [ahb_master_driver] Beat[1/16] addr=0x0000c15c trans=AHB_TRANS_SEQ resp=AHB_RESP_OKAY rdata=0x3f4067f5
# UVM_INFO ../src/slv/ahb_slave_driver.sv(184) @ 2095000: uvm_test_top.env.slave_agent.drv [ahb_slave_driver] Beat AHB_READ addr=0x0000c15c resp=AHB_RESP_OKAY waits=0 rdata=0x3f4067f5
# UVM_INFO ../src/mst/ahb_master_monitor.sv(128) @ 2095000: uvm_test_top.env.master_agent.mon [ahb_master_monitor] Beat[1] addr=0x0000c15c rdata=0x3f4067f5 resp=AHB_RESP_OKAY
# UVM_INFO ../src/mst/ahb_master_driver.sv(332) @ 2105000: uvm_test_top.env.master_agent.drv [ahb_master_driver] Beat[2/16] addr=0x0000c15e trans=AHB_TRANS_SEQ resp=AHB_RESP_OKAY rdata=0xa6d4c5ad
# UVM_INFO ../src/slv/ahb_slave_driver.sv(184) @ 2105000: uvm_test_top.env.slave_agent.drv [ahb_slave_driver] Beat AHB_READ addr=0x0000c15e resp=AHB_RESP_OKAY waits=0 rdata=0xa6d4c5ad
# UVM_INFO ../src/mst/ahb_master_monitor.sv(128) @ 2105000: uvm_test_top.env.master_agent.mon [ahb_master_monitor] Beat[2] addr=0x0000c15e rdata=0xa6d4c5ad resp=AHB_RESP_OKAY
# UVM_INFO ../src/mst/ahb_master_driver.sv(332) @ 2125000: uvm_test_top.env.master_agent.drv [ahb_master_driver] Beat[3/16] addr=0x0000c160 trans=AHB_TRANS_SEQ resp=AHB_RESP_OKAY rdata=0x9bc88477
# UVM_INFO ../src/slv/ahb_slave_driver.sv(184) @ 2125000: uvm_test_top.env.slave_agent.drv [ahb_slave_driver] Beat AHB_READ addr=0x0000c160 resp=AHB_RESP_OKAY waits=1 rdata=0x9bc88477
# UVM_INFO ../src/mst/ahb_master_monitor.sv(128) @ 2125000: uvm_test_top.env.master_agent.mon [ahb_master_monitor] Beat[3] addr=0x0000c160 rdata=0x9bc88477 resp=AHB_RESP_OKAY
# UVM_INFO ../src/mst/ahb_master_driver.sv(332) @ 2155000: uvm_test_top.env.master_agent.drv [ahb_master_driver] Beat[4/16] addr=0x0000c162 trans=AHB_TRANS_SEQ resp=AHB_RESP_OKAY rdata=0xa88de544
# UVM_INFO ../src/slv/ahb_slave_driver.sv(184) @ 2155000: uvm_test_top.env.slave_agent.drv [ahb_slave_driver] Beat AHB_READ addr=0x0000c162 resp=AHB_RESP_OKAY waits=2 rdata=0xa88de544
# UVM_INFO ../src/mst/ahb_master_monitor.sv(128) @ 2155000: uvm_test_top.env.master_agent.mon [ahb_master_monitor] Beat[4] addr=0x0000c162 rdata=0xa88de544 resp=AHB_RESP_OKAY
# UVM_INFO ../src/mst/ahb_master_driver.sv(332) @ 2185000: uvm_test_top.env.master_agent.drv [ahb_master_driver] Beat[5/16] addr=0x0000c164 trans=AHB_TRANS_SEQ resp=AHB_RESP_OKAY rdata=0x9e03e5d9
# UVM_INFO ../src/slv/ahb_slave_driver.sv(184) @ 2185000: uvm_test_top.env.slave_agent.drv [ahb_slave_driver] Beat AHB_READ addr=0x0000c164 resp=AHB_RESP_OKAY waits=2 rdata=0x9e03e5d9
# UVM_INFO ../src/mst/ahb_master_monitor.sv(128) @ 2185000: uvm_test_top.env.master_agent.mon [ahb_master_monitor] Beat[5] addr=0x0000c164 rdata=0x9e03e5d9 resp=AHB_RESP_OKAY
# UVM_INFO ../src/mst/ahb_master_driver.sv(332) @ 2205000: uvm_test_top.env.master_agent.drv [ahb_master_driver] Beat[6/16] addr=0x0000c166 trans=AHB_TRANS_SEQ resp=AHB_RESP_OKAY rdata=0x06dae5fc
# UVM_INFO ../src/slv/ahb_slave_driver.sv(184) @ 2205000: uvm_test_top.env.slave_agent.drv [ahb_slave_driver] Beat AHB_READ addr=0x0000c166 resp=AHB_RESP_OKAY waits=1 rdata=0x06dae5fc
# UVM_INFO ../src/mst/ahb_master_monitor.sv(128) @ 2205000: uvm_test_top.env.master_agent.mon [ahb_master_monitor] Beat[6] addr=0x0000c166 rdata=0x06dae5fc resp=AHB_RESP_OKAY
# UVM_INFO ../src/mst/ahb_master_driver.sv(332) @ 2215000: uvm_test_top.env.master_agent.drv [ahb_master_driver] Beat[7/16] addr=0x0000c168 trans=AHB_TRANS_SEQ resp=AHB_RESP_OKAY rdata=0xc55ab138
# UVM_INFO ../src/slv/ahb_slave_driver.sv(184) @ 2215000: uvm_test_top.env.slave_agent.drv [ahb_slave_driver] Beat AHB_READ addr=0x0000c168 resp=AHB_RESP_OKAY waits=0 rdata=0xc55ab138
# UVM_INFO ../src/mst/ahb_master_monitor.sv(128) @ 2215000: uvm_test_top.env.master_agent.mon [ahb_master_monitor] Beat[7] addr=0x0000c168 rdata=0xc55ab138 resp=AHB_RESP_OKAY
# UVM_INFO ../src/mst/ahb_master_driver.sv(332) @ 2245000: uvm_test_top.env.master_agent.drv [ahb_master_driver] Beat[8/16] addr=0x0000c16a trans=AHB_TRANS_SEQ resp=AHB_RESP_OKAY rdata=0xa1ad9f92
# UVM_INFO ../src/slv/ahb_slave_driver.sv(184) @ 2245000: uvm_test_top.env.slave_agent.drv [ahb_slave_driver] Beat AHB_READ addr=0x0000c16a resp=AHB_RESP_OKAY waits=2 rdata=0xa1ad9f92
# UVM_INFO ../src/mst/ahb_master_monitor.sv(128) @ 2245000: uvm_test_top.env.master_agent.mon [ahb_master_monitor] Beat[8] addr=0x0000c16a rdata=0xa1ad9f92 resp=AHB_RESP_OKAY
# UVM_INFO ../src/mst/ahb_master_driver.sv(332) @ 2255000: uvm_test_top.env.master_agent.drv [ahb_master_driver] Beat[9/16] addr=0x0000c16c trans=AHB_TRANS_SEQ resp=AHB_RESP_OKAY rdata=0x8e7f2272
# UVM_INFO ../src/slv/ahb_slave_driver.sv(184) @ 2255000: uvm_test_top.env.slave_agent.drv [ahb_slave_driver] Beat AHB_READ addr=0x0000c16c resp=AHB_RESP_OKAY waits=0 rdata=0x8e7f2272
# UVM_INFO ../src/mst/ahb_master_monitor.sv(128) @ 2255000: uvm_test_top.env.master_agent.mon [ahb_master_monitor] Beat[9] addr=0x0000c16c rdata=0x8e7f2272 resp=AHB_RESP_OKAY
# UVM_INFO ../src/mst/ahb_master_driver.sv(332) @ 2275000: uvm_test_top.env.master_agent.drv [ahb_master_driver] Beat[10/16] addr=0x0000c16e trans=AHB_TRANS_SEQ resp=AHB_RESP_OKAY rdata=0xf7c19cb2
# UVM_INFO ../src/slv/ahb_slave_driver.sv(184) @ 2275000: uvm_test_top.env.slave_agent.drv [ahb_slave_driver] Beat AHB_READ addr=0x0000c16e resp=AHB_RESP_OKAY waits=1 rdata=0xf7c19cb2
# UVM_INFO ../src/mst/ahb_master_monitor.sv(128) @ 2275000: uvm_test_top.env.master_agent.mon [ahb_master_monitor] Beat[10] addr=0x0000c16e rdata=0xf7c19cb2 resp=AHB_RESP_OKAY
# UVM_INFO ../src/mst/ahb_master_driver.sv(332) @ 2285000: uvm_test_top.env.master_agent.drv [ahb_master_driver] Beat[11/16] addr=0x0000c170 trans=AHB_TRANS_SEQ resp=AHB_RESP_OKAY rdata=0x3cc871c6
# UVM_INFO ../src/slv/ahb_slave_driver.sv(184) @ 2285000: uvm_test_top.env.slave_agent.drv [ahb_slave_driver] Beat AHB_READ addr=0x0000c170 resp=AHB_RESP_OKAY waits=0 rdata=0x3cc871c6
# UVM_INFO ../src/mst/ahb_master_monitor.sv(128) @ 2285000: uvm_test_top.env.master_agent.mon [ahb_master_monitor] Beat[11] addr=0x0000c170 rdata=0x3cc871c6 resp=AHB_RESP_OKAY
# UVM_INFO ../src/mst/ahb_master_driver.sv(332) @ 2305000: uvm_test_top.env.master_agent.drv [ahb_master_driver] Beat[12/16] addr=0x0000c172 trans=AHB_TRANS_SEQ resp=AHB_RESP_OKAY rdata=0x62ae3ef1
# UVM_INFO ../src/slv/ahb_slave_driver.sv(184) @ 2305000: uvm_test_top.env.slave_agent.drv [ahb_slave_driver] Beat AHB_READ addr=0x0000c172 resp=AHB_RESP_OKAY waits=1 rdata=0x62ae3ef1
# UVM_INFO ../src/mst/ahb_master_monitor.sv(128) @ 2305000: uvm_test_top.env.master_agent.mon [ahb_master_monitor] Beat[12] addr=0x0000c172 rdata=0x62ae3ef1 resp=AHB_RESP_OKAY
# UVM_INFO ../src/mst/ahb_master_driver.sv(332) @ 2335000: uvm_test_top.env.master_agent.drv [ahb_master_driver] Beat[13/16] addr=0x0000c174 trans=AHB_TRANS_SEQ resp=AHB_RESP_OKAY rdata=0x0c15955d
# UVM_INFO ../src/slv/ahb_slave_driver.sv(184) @ 2335000: uvm_test_top.env.slave_agent.drv [ahb_slave_driver] Beat AHB_READ addr=0x0000c174 resp=AHB_RESP_OKAY waits=2 rdata=0x0c15955d
# UVM_INFO ../src/mst/ahb_master_monitor.sv(128) @ 2335000: uvm_test_top.env.master_agent.mon [ahb_master_monitor] Beat[13] addr=0x0000c174 rdata=0x0c15955d resp=AHB_RESP_OKAY
# UVM_INFO ../src/mst/ahb_master_driver.sv(332) @ 2355000: uvm_test_top.env.master_agent.drv [ahb_master_driver] Beat[14/16] addr=0x0000c176 trans=AHB_TRANS_SEQ resp=AHB_RESP_OKAY rdata=0xcc68213f
# UVM_INFO ../src/slv/ahb_slave_driver.sv(184) @ 2355000: uvm_test_top.env.slave_agent.drv [ahb_slave_driver] Beat AHB_READ addr=0x0000c176 resp=AHB_RESP_OKAY waits=1 rdata=0xcc68213f
# UVM_INFO ../src/mst/ahb_master_monitor.sv(128) @ 2355000: uvm_test_top.env.master_agent.mon [ahb_master_monitor] Beat[14] addr=0x0000c176 rdata=0xcc68213f resp=AHB_RESP_OKAY
# UVM_INFO ../src/mst/ahb_master_driver.sv(332) @ 2375000: uvm_test_top.env.master_agent.drv [ahb_master_driver] Beat[15/16] addr=0x0000c178 trans=AHB_TRANS_SEQ resp=AHB_RESP_OKAY rdata=0xdf575b45
# UVM_INFO ../src/mst/ahb_master_driver.sv(376) @ 2375000: uvm_test_top.env.master_agent.drv [ahb_master_driver] Transaction complete: AHB_READ 0x0000c15a, 16 beats, burst=AHB_BURST_INCR16
# UVM_INFO ../src/slv/ahb_slave_driver.sv(184) @ 2375000: uvm_test_top.env.slave_agent.drv [ahb_slave_driver] Beat AHB_READ addr=0x0000c178 resp=AHB_RESP_OKAY waits=1 rdata=0xdf575b45
# UVM_INFO ../src/slv/ahb_slave_monitor.sv(212) @ 2375000: uvm_test_top.env.slave_agent.mon [ahb_slave_monitor] Observed [AHB_READ]: HADDR=0x0000c15a, HBURST=AHB_BURST_INCR16, HSIZE=AHB_SIZE_16B, 16 beats
# UVM_INFO ../src/env/ahb_coverage.sv(174) @ 2375000: uvm_test_top.env.slave_cov [ahb_coverage] Sampled [AHB_READ]: burst=AHB_BURST_INCR16 size=AHB_SIZE_16B beats=16 error=0
# UVM_INFO ../src/mst/ahb_master_monitor.sv(128) @ 2375000: uvm_test_top.env.master_agent.mon [ahb_master_monitor] Beat[15] addr=0x0000c178 rdata=0xdf575b45 resp=AHB_RESP_OKAY
# UVM_INFO ../src/mst/ahb_master_monitor.sv(231) @ 2375000: uvm_test_top.env.master_agent.mon [ahb_master_monitor] Observed [AHB_READ]: HADDR=0x0000c15a, HBURST=AHB_BURST_INCR16, HSIZE=AHB_SIZE_16B, 16 beats
# UVM_INFO ../src/env/ahb_coverage.sv(174) @ 2375000: uvm_test_top.env.master_cov [ahb_coverage] Sampled [AHB_READ]: burst=AHB_BURST_INCR16 size=AHB_SIZE_16B beats=16 error=0
# UVM_INFO ../src/env/ahb_scoreboard.sv(104) @ 2375000: uvm_test_top.env.scb [ahb_scoreboard] MATCH #12: [AHB_READ] HADDR=0x0000c15a AHB_BURST_INCR16 16 beats
# UVM_INFO ../src/mst_seq/ahb_base_seq.sv(157) @ 2375000: uvm_test_top.env.master_agent.sqr@@seq [ahb_busy_seq] AHB_BURST_INCR16 AHB_SIZE_16B beat 0 @0x0000c15a ok
# UVM_INFO ../src/mst_seq/ahb_base_seq.sv(157) @ 2375000: uvm_test_top.env.master_agent.sqr@@seq [ahb_busy_seq] AHB_BURST_INCR16 AHB_SIZE_16B beat 1 @0x0000c15c ok
# UVM_INFO ../src/mst_seq/ahb_base_seq.sv(157) @ 2375000: uvm_test_top.env.master_agent.sqr@@seq [ahb_busy_seq] AHB_BURST_INCR16 AHB_SIZE_16B beat 2 @0x0000c15e ok
# UVM_INFO ../src/mst_seq/ahb_base_seq.sv(157) @ 2375000: uvm_test_top.env.master_agent.sqr@@seq [ahb_busy_seq] AHB_BURST_INCR16 AHB_SIZE_16B beat 3 @0x0000c160 ok
# UVM_INFO ../src/mst_seq/ahb_base_seq.sv(157) @ 2375000: uvm_test_top.env.master_agent.sqr@@seq [ahb_busy_seq] AHB_BURST_INCR16 AHB_SIZE_16B beat 4 @0x0000c162 ok
# UVM_INFO ../src/mst_seq/ahb_base_seq.sv(157) @ 2375000: uvm_test_top.env.master_agent.sqr@@seq [ahb_busy_seq] AHB_BURST_INCR16 AHB_SIZE_16B beat 5 @0x0000c164 ok
# UVM_INFO ../src/mst_seq/ahb_base_seq.sv(157) @ 2375000: uvm_test_top.env.master_agent.sqr@@seq [ahb_busy_seq] AHB_BURST_INCR16 AHB_SIZE_16B beat 6 @0x0000c166 ok
# UVM_INFO ../src/mst_seq/ahb_base_seq.sv(157) @ 2375000: uvm_test_top.env.master_agent.sqr@@seq [ahb_busy_seq] AHB_BURST_INCR16 AHB_SIZE_16B beat 7 @0x0000c168 ok
# UVM_INFO ../src/mst_seq/ahb_base_seq.sv(157) @ 2375000: uvm_test_top.env.master_agent.sqr@@seq [ahb_busy_seq] AHB_BURST_INCR16 AHB_SIZE_16B beat 8 @0x0000c16a ok
# UVM_INFO ../src/mst_seq/ahb_base_seq.sv(157) @ 2375000: uvm_test_top.env.master_agent.sqr@@seq [ahb_busy_seq] AHB_BURST_INCR16 AHB_SIZE_16B beat 9 @0x0000c16c ok
# UVM_INFO ../src/mst_seq/ahb_base_seq.sv(157) @ 2375000: uvm_test_top.env.master_agent.sqr@@seq [ahb_busy_seq] AHB_BURST_INCR16 AHB_SIZE_16B beat 10 @0x0000c16e ok
# UVM_INFO ../src/mst_seq/ahb_base_seq.sv(157) @ 2375000: uvm_test_top.env.master_agent.sqr@@seq [ahb_busy_seq] AHB_BURST_INCR16 AHB_SIZE_16B beat 11 @0x0000c170 ok
# UVM_INFO ../src/mst_seq/ahb_base_seq.sv(157) @ 2375000: uvm_test_top.env.master_agent.sqr@@seq [ahb_busy_seq] AHB_BURST_INCR16 AHB_SIZE_16B beat 12 @0x0000c172 ok
# UVM_INFO ../src/mst_seq/ahb_base_seq.sv(157) @ 2375000: uvm_test_top.env.master_agent.sqr@@seq [ahb_busy_seq] AHB_BURST_INCR16 AHB_SIZE_16B beat 13 @0x0000c174 ok
# UVM_INFO ../src/mst_seq/ahb_base_seq.sv(157) @ 2375000: uvm_test_top.env.master_agent.sqr@@seq [ahb_busy_seq] AHB_BURST_INCR16 AHB_SIZE_16B beat 14 @0x0000c176 ok
# UVM_INFO ../src/mst_seq/ahb_base_seq.sv(157) @ 2375000: uvm_test_top.env.master_agent.sqr@@seq [ahb_busy_seq] AHB_BURST_INCR16 AHB_SIZE_16B beat 15 @0x0000c178 ok
# UVM_INFO ../src/mst_seq/ahb_busy_seq.sv(105) @ 2375000: uvm_test_top.env.master_agent.sqr@@seq [ahb_busy_seq] AHB_BURST_INCR8 AHB_SIZE_16B @0x0000c19c, 8 beats, retract=1
# UVM_INFO ../src/mst/ahb_master_driver.sv(85) @ 2375000: uvm_test_top.env.master_agent.drv [ahb_master_driver] Queueing [AHB_WRITE]: HADDR=0x0000c19c, HBURST=AHB_BURST_INCR8, HSIZE=AHB_SIZE_16B, 8 beats
# UVM_INFO ../src/mst/ahb_master_driver.sv(127) @ 2375000: uvm_test_top.env.master_agent.drv [ahb_master_driver] Driving [AHB_WRITE]: HADDR=0x0000c19c, HBURST=AHB_BURST_INCR8, HSIZE=AHB_SIZE_16B, 8 beats               
# UVM_INFO ../src/mst/ahb_master_driver.sv(332) @ 2405000: uvm_test_top.env.master_agent.drv [ahb_master_driver] Beat[0/8] addr=0x0000c19c trans=AHB_TRANS_NONSEQ resp=AHB_RESP_OKAY wdata=0x24a6f51c
# UVM_INFO ../src/slv/ahb_slave_driver.sv(184) @ 2405000: uvm_test_top.env.slave_agent.drv [ahb_slave_driver] Beat AHB_WRITE addr=0x0000c19c resp=AHB_RESP_OKAY waits=0 wdata=0x24a6f51c
# UVM_INFO ../src/mst/ahb_master_monitor.sv(128) @ 2405000: uvm_test_top.env.master_agent.mon [ahb_master_monitor] Beat[0] addr=0x0000c19c wdata=0x24a6f51c resp=AHB_RESP_OKAY
# UVM_INFO ../src/mst/ahb_master_driver.sv(332) @ 2425000: uvm_test_top.env.master_agent.drv [ahb_master_driver] Beat[1/8] addr=0x0000c19e trans=AHB_TRANS_SEQ resp=AHB_RESP_OKAY wdata=0x7ecef8dc
# UVM_INFO ../src/slv/ahb_slave_driver.sv(184) @ 2425000: uvm_test_top.env.slave_agent.drv [ahb_slave_driver] Beat AHB_WRITE addr=0x0000c19e resp=AHB_RESP_OKAY waits=0 wdata=0x7ecef8dc
# UVM_INFO ../src/mst/ahb_master_monitor.sv(128) @ 2425000: uvm_test_top.env.master_agent.mon [ahb_master_monitor] Beat[1] addr=0x0000c19e wdata=0x7ecef8dc resp=AHB_RESP_OKAY
# UVM_INFO ../src/mst/ahb_master_driver.sv(332) @ 2455000: uvm_test_top.env.master_agent.drv [ahb_master_driver] Beat[2/8] addr=0x0000c1a0 trans=AHB_TRANS_SEQ resp=AHB_RESP_OKAY wdata=0x754bba33
# UVM_INFO ../src/slv/ahb_slave_driver.sv(184) @ 2455000: uvm_test_top.env.slave_agent.drv [ahb_slave_driver] Beat AHB_WRITE addr=0x0000c1a0 resp=AHB_RESP_OKAY waits=1 wdata=0x754bba33
# UVM_INFO ../src/mst/ahb_master_monitor.sv(128) @ 2455000: uvm_test_top.env.master_agent.mon [ahb_master_monitor] Beat[2] addr=0x0000c1a0 wdata=0x754bba33 resp=AHB_RESP_OKAY
# UVM_INFO ../src/mst/ahb_master_driver.sv(332) @ 2465000: uvm_test_top.env.master_agent.drv [ahb_master_driver] Beat[3/8] addr=0x0000c1a2 trans=AHB_TRANS_SEQ resp=AHB_RESP_OKAY wdata=0xc9264725
# UVM_INFO ../src/slv/ahb_slave_driver.sv(184) @ 2465000: uvm_test_top.env.slave_agent.drv [ahb_slave_driver] Beat AHB_WRITE addr=0x0000c1a2 resp=AHB_RESP_OKAY waits=0 wdata=0xc9264725
# UVM_INFO ../src/mst/ahb_master_monitor.sv(128) @ 2465000: uvm_test_top.env.master_agent.mon [ahb_master_monitor] Beat[3] addr=0x0000c1a2 wdata=0xc9264725 resp=AHB_RESP_OKAY
# UVM_INFO ../src/mst/ahb_master_driver.sv(332) @ 2515000: uvm_test_top.env.master_agent.drv [ahb_master_driver] Beat[4/8] addr=0x0000c1a4 trans=AHB_TRANS_SEQ resp=AHB_RESP_OKAY wdata=0x013c9c82
# UVM_INFO ../src/slv/ahb_slave_driver.sv(184) @ 2515000: uvm_test_top.env.slave_agent.drv [ahb_slave_driver] Beat AHB_WRITE addr=0x0000c1a4 resp=AHB_RESP_OKAY waits=1 wdata=0x013c9c82
# UVM_INFO ../src/mst/ahb_master_monitor.sv(128) @ 2515000: uvm_test_top.env.master_agent.mon [ahb_master_monitor] Beat[4] addr=0x0000c1a4 wdata=0x013c9c82 resp=AHB_RESP_OKAY
# UVM_INFO ../src/mst/ahb_master_driver.sv(332) @ 2525000: uvm_test_top.env.master_agent.drv [ahb_master_driver] Beat[5/8] addr=0x0000c1a6 trans=AHB_TRANS_SEQ resp=AHB_RESP_OKAY wdata=0x4075c32c
# UVM_INFO ../src/slv/ahb_slave_driver.sv(184) @ 2525000: uvm_test_top.env.slave_agent.drv [ahb_slave_driver] Beat AHB_WRITE addr=0x0000c1a6 resp=AHB_RESP_OKAY waits=0 wdata=0x4075c32c
# UVM_INFO ../src/mst/ahb_master_monitor.sv(128) @ 2525000: uvm_test_top.env.master_agent.mon [ahb_master_monitor] Beat[5] addr=0x0000c1a6 wdata=0x4075c32c resp=AHB_RESP_OKAY
# UVM_INFO ../src/mst/ahb_master_driver.sv(332) @ 2555000: uvm_test_top.env.master_agent.drv [ahb_master_driver] Beat[6/8] addr=0x0000c1a8 trans=AHB_TRANS_SEQ resp=AHB_RESP_OKAY wdata=0xcf747cfa
# UVM_INFO ../src/slv/ahb_slave_driver.sv(184) @ 2555000: uvm_test_top.env.slave_agent.drv [ahb_slave_driver] Beat AHB_WRITE addr=0x0000c1a8 resp=AHB_RESP_OKAY waits=0 wdata=0xcf747cfa
# UVM_INFO ../src/mst/ahb_master_monitor.sv(128) @ 2555000: uvm_test_top.env.master_agent.mon [ahb_master_monitor] Beat[6] addr=0x0000c1a8 wdata=0xcf747cfa resp=AHB_RESP_OKAY
# UVM_INFO ../src/mst/ahb_master_driver.sv(332) @ 2595000: uvm_test_top.env.master_agent.drv [ahb_master_driver] Beat[7/8] addr=0x0000c1aa trans=AHB_TRANS_SEQ resp=AHB_RESP_OKAY wdata=0x1482ca26
# UVM_INFO ../src/mst/ahb_master_driver.sv(376) @ 2595000: uvm_test_top.env.master_agent.drv [ahb_master_driver] Transaction complete: AHB_WRITE 0x0000c19c, 8 beats, burst=AHB_BURST_INCR8
# UVM_INFO ../src/slv/ahb_slave_driver.sv(184) @ 2595000: uvm_test_top.env.slave_agent.drv [ahb_slave_driver] Beat AHB_WRITE addr=0x0000c1aa resp=AHB_RESP_OKAY waits=1 wdata=0x1482ca26
# UVM_INFO ../src/slv/ahb_slave_monitor.sv(212) @ 2595000: uvm_test_top.env.slave_agent.mon [ahb_slave_monitor] Observed [AHB_WRITE]: HADDR=0x0000c19c, HBURST=AHB_BURST_INCR8, HSIZE=AHB_SIZE_16B, 8 beats
# UVM_INFO ../src/env/ahb_coverage.sv(174) @ 2595000: uvm_test_top.env.slave_cov [ahb_coverage] Sampled [AHB_WRITE]: burst=AHB_BURST_INCR8 size=AHB_SIZE_16B beats=8 error=0
# UVM_INFO ../src/mst/ahb_master_monitor.sv(128) @ 2595000: uvm_test_top.env.master_agent.mon [ahb_master_monitor] Beat[7] addr=0x0000c1aa wdata=0x1482ca26 resp=AHB_RESP_OKAY
# UVM_INFO ../src/mst/ahb_master_monitor.sv(231) @ 2595000: uvm_test_top.env.master_agent.mon [ahb_master_monitor] Observed [AHB_WRITE]: HADDR=0x0000c19c, HBURST=AHB_BURST_INCR8, HSIZE=AHB_SIZE_16B, 8 beats
# UVM_INFO ../src/env/ahb_coverage.sv(174) @ 2595000: uvm_test_top.env.master_cov [ahb_coverage] Sampled [AHB_WRITE]: burst=AHB_BURST_INCR8 size=AHB_SIZE_16B beats=8 error=0
# UVM_INFO ../src/env/ahb_scoreboard.sv(104) @ 2595000: uvm_test_top.env.scb [ahb_scoreboard] MATCH #13: [AHB_WRITE] HADDR=0x0000c19c AHB_BURST_INCR8 8 beats
# UVM_INFO ../src/mst/ahb_master_driver.sv(85) @ 2595000: uvm_test_top.env.master_agent.drv [ahb_master_driver] Queueing [AHB_READ]: HADDR=0x0000c19c, HBURST=AHB_BURST_INCR8, HSIZE=AHB_SIZE_16B, 8 beats
# UVM_INFO ../src/mst/ahb_master_driver.sv(127) @ 2595000: uvm_test_top.env.master_agent.drv [ahb_master_driver] Driving [AHB_READ]: HADDR=0x0000c19c, HBURST=AHB_BURST_INCR8, HSIZE=AHB_SIZE_16B, 8 beats               
# UVM_INFO ../src/mst/ahb_master_driver.sv(332) @ 2635000: uvm_test_top.env.master_agent.drv [ahb_master_driver] Beat[0/8] addr=0x0000c19c trans=AHB_TRANS_NONSEQ resp=AHB_RESP_OKAY rdata=0x24a6f51c
# UVM_INFO ../src/slv/ahb_slave_driver.sv(184) @ 2635000: uvm_test_top.env.slave_agent.drv [ahb_slave_driver] Beat AHB_READ addr=0x0000c19c resp=AHB_RESP_OKAY waits=1 rdata=0x24a6f51c
# UVM_INFO ../src/mst/ahb_master_monitor.sv(128) @ 2635000: uvm_test_top.env.master_agent.mon [ahb_master_monitor] Beat[0] addr=0x0000c19c rdata=0x24a6f51c resp=AHB_RESP_OKAY
# UVM_INFO ../src/mst/ahb_master_driver.sv(332) @ 2655000: uvm_test_top.env.master_agent.drv [ahb_master_driver] Beat[1/8] addr=0x0000c19e trans=AHB_TRANS_SEQ resp=AHB_RESP_OKAY rdata=0x7ecef8dc
# UVM_INFO ../src/slv/ahb_slave_driver.sv(184) @ 2655000: uvm_test_top.env.slave_agent.drv [ahb_slave_driver] Beat AHB_READ addr=0x0000c19e resp=AHB_RESP_OKAY waits=1 rdata=0x7ecef8dc
# UVM_INFO ../src/mst/ahb_master_monitor.sv(128) @ 2655000: uvm_test_top.env.master_agent.mon [ahb_master_monitor] Beat[1] addr=0x0000c19e rdata=0x7ecef8dc resp=AHB_RESP_OKAY
# UVM_INFO ../src/mst/ahb_master_driver.sv(332) @ 2685000: uvm_test_top.env.master_agent.drv [ahb_master_driver] Beat[2/8] addr=0x0000c1a0 trans=AHB_TRANS_SEQ resp=AHB_RESP_OKAY rdata=0x754bba33
# UVM_INFO ../src/slv/ahb_slave_driver.sv(184) @ 2685000: uvm_test_top.env.slave_agent.drv [ahb_slave_driver] Beat AHB_READ addr=0x0000c1a0 resp=AHB_RESP_OKAY waits=2 rdata=0x754bba33
# UVM_INFO ../src/mst/ahb_master_monitor.sv(128) @ 2685000: uvm_test_top.env.master_agent.mon [ahb_master_monitor] Beat[2] addr=0x0000c1a0 rdata=0x754bba33 resp=AHB_RESP_OKAY
# UVM_INFO ../src/mst/ahb_master_driver.sv(332) @ 2705000: uvm_test_top.env.master_agent.drv [ahb_master_driver] Beat[3/8] addr=0x0000c1a2 trans=AHB_TRANS_SEQ resp=AHB_RESP_OKAY rdata=0xc9264725
# UVM_INFO ../src/slv/ahb_slave_driver.sv(184) @ 2705000: uvm_test_top.env.slave_agent.drv [ahb_slave_driver] Beat AHB_READ addr=0x0000c1a2 resp=AHB_RESP_OKAY waits=1 rdata=0xc9264725
# UVM_INFO ../src/mst/ahb_master_monitor.sv(128) @ 2705000: uvm_test_top.env.master_agent.mon [ahb_master_monitor] Beat[3] addr=0x0000c1a2 rdata=0xc9264725 resp=AHB_RESP_OKAY
# UVM_INFO ../src/mst/ahb_master_driver.sv(332) @ 2725000: uvm_test_top.env.master_agent.drv [ahb_master_driver] Beat[4/8] addr=0x0000c1a4 trans=AHB_TRANS_SEQ resp=AHB_RESP_OKAY rdata=0x013c9c82
# UVM_INFO ../src/slv/ahb_slave_driver.sv(184) @ 2725000: uvm_test_top.env.slave_agent.drv [ahb_slave_driver] Beat AHB_READ addr=0x0000c1a4 resp=AHB_RESP_OKAY waits=1 rdata=0x013c9c82
# UVM_INFO ../src/mst/ahb_master_monitor.sv(128) @ 2725000: uvm_test_top.env.master_agent.mon [ahb_master_monitor] Beat[4] addr=0x0000c1a4 rdata=0x013c9c82 resp=AHB_RESP_OKAY
# UVM_INFO ../src/mst/ahb_master_driver.sv(332) @ 2735000: uvm_test_top.env.master_agent.drv [ahb_master_driver] Beat[5/8] addr=0x0000c1a6 trans=AHB_TRANS_SEQ resp=AHB_RESP_OKAY rdata=0x4075c32c
# UVM_INFO ../src/slv/ahb_slave_driver.sv(184) @ 2735000: uvm_test_top.env.slave_agent.drv [ahb_slave_driver] Beat AHB_READ addr=0x0000c1a6 resp=AHB_RESP_OKAY waits=0 rdata=0x4075c32c
# UVM_INFO ../src/mst/ahb_master_monitor.sv(128) @ 2735000: uvm_test_top.env.master_agent.mon [ahb_master_monitor] Beat[5] addr=0x0000c1a6 rdata=0x4075c32c resp=AHB_RESP_OKAY
# UVM_INFO ../src/mst/ahb_master_driver.sv(332) @ 2755000: uvm_test_top.env.master_agent.drv [ahb_master_driver] Beat[6/8] addr=0x0000c1a8 trans=AHB_TRANS_SEQ resp=AHB_RESP_OKAY rdata=0xcf747cfa
# UVM_INFO ../src/slv/ahb_slave_driver.sv(184) @ 2755000: uvm_test_top.env.slave_agent.drv [ahb_slave_driver] Beat AHB_READ addr=0x0000c1a8 resp=AHB_RESP_OKAY waits=1 rdata=0xcf747cfa
# UVM_INFO ../src/mst/ahb_master_monitor.sv(128) @ 2755000: uvm_test_top.env.master_agent.mon [ahb_master_monitor] Beat[6] addr=0x0000c1a8 rdata=0xcf747cfa resp=AHB_RESP_OKAY
# UVM_INFO ../src/mst/ahb_master_driver.sv(332) @ 2765000: uvm_test_top.env.master_agent.drv [ahb_master_driver] Beat[7/8] addr=0x0000c1aa trans=AHB_TRANS_SEQ resp=AHB_RESP_OKAY rdata=0x1482ca26
# UVM_INFO ../src/mst/ahb_master_driver.sv(376) @ 2765000: uvm_test_top.env.master_agent.drv [ahb_master_driver] Transaction complete: AHB_READ 0x0000c19c, 8 beats, burst=AHB_BURST_INCR8
# UVM_INFO ../src/slv/ahb_slave_driver.sv(184) @ 2765000: uvm_test_top.env.slave_agent.drv [ahb_slave_driver] Beat AHB_READ addr=0x0000c1aa resp=AHB_RESP_OKAY waits=0 rdata=0x1482ca26
# UVM_INFO ../src/mst/ahb_master_monitor.sv(128) @ 2765000: uvm_test_top.env.master_agent.mon [ahb_master_monitor] Beat[7] addr=0x0000c1aa rdata=0x1482ca26 resp=AHB_RESP_OKAY
# UVM_INFO ../src/mst/ahb_master_monitor.sv(231) @ 2765000: uvm_test_top.env.master_agent.mon [ahb_master_monitor] Observed [AHB_READ]: HADDR=0x0000c19c, HBURST=AHB_BURST_INCR8, HSIZE=AHB_SIZE_16B, 8 beats
# UVM_INFO ../src/env/ahb_coverage.sv(174) @ 2765000: uvm_test_top.env.master_cov [ahb_coverage] Sampled [AHB_READ]: burst=AHB_BURST_INCR8 size=AHB_SIZE_16B beats=8 error=0
# UVM_INFO ../src/slv/ahb_slave_monitor.sv(212) @ 2765000: uvm_test_top.env.slave_agent.mon [ahb_slave_monitor] Observed [AHB_READ]: HADDR=0x0000c19c, HBURST=AHB_BURST_INCR8, HSIZE=AHB_SIZE_16B, 8 beats
# UVM_INFO ../src/env/ahb_scoreboard.sv(104) @ 2765000: uvm_test_top.env.scb [ahb_scoreboard] MATCH #14: [AHB_READ] HADDR=0x0000c19c AHB_BURST_INCR8 8 beats
# UVM_INFO ../src/env/ahb_coverage.sv(174) @ 2765000: uvm_test_top.env.slave_cov [ahb_coverage] Sampled [AHB_READ]: burst=AHB_BURST_INCR8 size=AHB_SIZE_16B beats=8 error=0
# UVM_INFO ../src/mst_seq/ahb_base_seq.sv(157) @ 2765000: uvm_test_top.env.master_agent.sqr@@seq [ahb_busy_seq] AHB_BURST_INCR8 AHB_SIZE_16B beat 0 @0x0000c19c ok
# UVM_INFO ../src/mst_seq/ahb_base_seq.sv(157) @ 2765000: uvm_test_top.env.master_agent.sqr@@seq [ahb_busy_seq] AHB_BURST_INCR8 AHB_SIZE_16B beat 1 @0x0000c19e ok
# UVM_INFO ../src/mst_seq/ahb_base_seq.sv(157) @ 2765000: uvm_test_top.env.master_agent.sqr@@seq [ahb_busy_seq] AHB_BURST_INCR8 AHB_SIZE_16B beat 2 @0x0000c1a0 ok
# UVM_INFO ../src/mst_seq/ahb_base_seq.sv(157) @ 2765000: uvm_test_top.env.master_agent.sqr@@seq [ahb_busy_seq] AHB_BURST_INCR8 AHB_SIZE_16B beat 3 @0x0000c1a2 ok
# UVM_INFO ../src/mst_seq/ahb_base_seq.sv(157) @ 2765000: uvm_test_top.env.master_agent.sqr@@seq [ahb_busy_seq] AHB_BURST_INCR8 AHB_SIZE_16B beat 4 @0x0000c1a4 ok
# UVM_INFO ../src/mst_seq/ahb_base_seq.sv(157) @ 2765000: uvm_test_top.env.master_agent.sqr@@seq [ahb_busy_seq] AHB_BURST_INCR8 AHB_SIZE_16B beat 5 @0x0000c1a6 ok
# UVM_INFO ../src/mst_seq/ahb_base_seq.sv(157) @ 2765000: uvm_test_top.env.master_agent.sqr@@seq [ahb_busy_seq] AHB_BURST_INCR8 AHB_SIZE_16B beat 6 @0x0000c1a8 ok
# UVM_INFO ../src/mst_seq/ahb_base_seq.sv(157) @ 2765000: uvm_test_top.env.master_agent.sqr@@seq [ahb_busy_seq] AHB_BURST_INCR8 AHB_SIZE_16B beat 7 @0x0000c1aa ok
# UVM_INFO ../src/mst_seq/ahb_busy_seq.sv(105) @ 2765000: uvm_test_top.env.master_agent.sqr@@seq [ahb_busy_seq] AHB_BURST_INCR AHB_SIZE_8B @0x0000c1df, 8 beats, retract=1
# UVM_INFO ../src/mst/ahb_master_driver.sv(85) @ 2765000: uvm_test_top.env.master_agent.drv [ahb_master_driver] Queueing [AHB_WRITE]: HADDR=0x0000c1df, HBURST=AHB_BURST_INCR, HSIZE=AHB_SIZE_8B, 8 beats
# UVM_INFO ../src/mst/ahb_master_driver.sv(127) @ 2765000: uvm_test_top.env.master_agent.drv [ahb_master_driver] Driving [AHB_WRITE]: HADDR=0x0000c1df, HBURST=AHB_BURST_INCR, HSIZE=AHB_SIZE_8B, 8 beats               
# UVM_INFO ../src/mst/ahb_master_driver.sv(332) @ 2795000: uvm_test_top.env.master_agent.drv [ahb_master_driver] Beat[0/8] addr=0x0000c1df trans=AHB_TRANS_NONSEQ resp=AHB_RESP_OKAY wdata=0xa8534633
# UVM_INFO ../src/slv/ahb_slave_driver.sv(184) @ 2795000: uvm_test_top.env.slave_agent.drv [ahb_slave_driver] Beat AHB_WRITE addr=0x0000c1df resp=AHB_RESP_OKAY waits=0 wdata=0xa8534633
# UVM_INFO ../src/mst/ahb_master_monitor.sv(128) @ 2795000: uvm_test_top.env.master_agent.mon [ahb_master_monitor] Beat[0] addr=0x0000c1df wdata=0xa8534633 resp=AHB_RESP_OKAY
# UVM_INFO ../src/mst/ahb_master_driver.sv(332) @ 2845000: uvm_test_top.env.master_agent.drv [ahb_master_driver] Beat[1/8] addr=0x0000c1e0 trans=AHB_TRANS_SEQ resp=AHB_RESP_OKAY wdata=0x49696a20
# UVM_INFO ../src/slv/ahb_slave_driver.sv(184) @ 2845000: uvm_test_top.env.slave_agent.drv [ahb_slave_driver] Beat AHB_WRITE addr=0x0000c1e0 resp=AHB_RESP_OKAY waits=1 wdata=0x49696a20
# UVM_INFO ../src/mst/ahb_master_monitor.sv(128) @ 2845000: uvm_test_top.env.master_agent.mon [ahb_master_monitor] Beat[1] addr=0x0000c1e0 wdata=0x49696a20 resp=AHB_RESP_OKAY
# UVM_INFO ../src/mst/ahb_master_driver.sv(332) @ 2865000: uvm_test_top.env.master_agent.drv [ahb_master_driver] Beat[2/8] addr=0x0000c1e1 trans=AHB_TRANS_SEQ resp=AHB_RESP_OKAY wdata=0xf1a18ec7
# UVM_INFO ../src/slv/ahb_slave_driver.sv(184) @ 2865000: uvm_test_top.env.slave_agent.drv [ahb_slave_driver] Beat AHB_WRITE addr=0x0000c1e1 resp=AHB_RESP_OKAY waits=1 wdata=0xf1a18ec7
# UVM_INFO ../src/mst/ahb_master_monitor.sv(128) @ 2865000: uvm_test_top.env.master_agent.mon [ahb_master_monitor] Beat[2] addr=0x0000c1e1 wdata=0xf1a18ec7 resp=AHB_RESP_OKAY
# UVM_INFO ../src/mst/ahb_master_driver.sv(332) @ 2885000: uvm_test_top.env.master_agent.drv [ahb_master_driver] Beat[3/8] addr=0x0000c1e2 trans=AHB_TRANS_SEQ resp=AHB_RESP_OKAY wdata=0xbc64a163
# UVM_INFO ../src/slv/ahb_slave_driver.sv(184) @ 2885000: uvm_test_top.env.slave_agent.drv [ahb_slave_driver] Beat AHB_WRITE addr=0x0000c1e2 resp=AHB_RESP_OKAY waits=1 wdata=0xbc64a163
# UVM_INFO ../src/mst/ahb_master_monitor.sv(128) @ 2885000: uvm_test_top.env.master_agent.mon [ahb_master_monitor] Beat[3] addr=0x0000c1e2 wdata=0xbc64a163 resp=AHB_RESP_OKAY
# UVM_INFO ../src/mst/ahb_master_driver.sv(332) @ 2895000: uvm_test_top.env.master_agent.drv [ahb_master_driver] Beat[4/8] addr=0x0000c1e3 trans=AHB_TRANS_SEQ resp=AHB_RESP_OKAY wdata=0xabf3f251
# UVM_INFO ../src/slv/ahb_slave_driver.sv(184) @ 2895000: uvm_test_top.env.slave_agent.drv [ahb_slave_driver] Beat AHB_WRITE addr=0x0000c1e3 resp=AHB_RESP_OKAY waits=0 wdata=0xabf3f251
# UVM_INFO ../src/mst/ahb_master_monitor.sv(128) @ 2895000: uvm_test_top.env.master_agent.mon [ahb_master_monitor] Beat[4] addr=0x0000c1e3 wdata=0xabf3f251 resp=AHB_RESP_OKAY
# UVM_INFO ../src/mst/ahb_master_driver.sv(332) @ 2945000: uvm_test_top.env.master_agent.drv [ahb_master_driver] Beat[5/8] addr=0x0000c1e4 trans=AHB_TRANS_SEQ resp=AHB_RESP_OKAY wdata=0x0ab03784
# UVM_INFO ../src/slv/ahb_slave_driver.sv(184) @ 2945000: uvm_test_top.env.slave_agent.drv [ahb_slave_driver] Beat AHB_WRITE addr=0x0000c1e4 resp=AHB_RESP_OKAY waits=1 wdata=0x0ab03784
# UVM_INFO ../src/mst/ahb_master_monitor.sv(128) @ 2945000: uvm_test_top.env.master_agent.mon [ahb_master_monitor] Beat[5] addr=0x0000c1e4 wdata=0x0ab03784 resp=AHB_RESP_OKAY
# UVM_INFO ../src/mst/ahb_master_driver.sv(332) @ 2965000: uvm_test_top.env.master_agent.drv [ahb_master_driver] Beat[6/8] addr=0x0000c1e5 trans=AHB_TRANS_SEQ resp=AHB_RESP_OKAY wdata=0xe6a673ea
# UVM_INFO ../src/slv/ahb_slave_driver.sv(184) @ 2965000: uvm_test_top.env.slave_agent.drv [ahb_slave_driver] Beat AHB_WRITE addr=0x0000c1e5 resp=AHB_RESP_OKAY waits=1 wdata=0xe6a673ea
# UVM_INFO ../src/mst/ahb_master_monitor.sv(128) @ 2965000: uvm_test_top.env.master_agent.mon [ahb_master_monitor] Beat[6] addr=0x0000c1e5 wdata=0xe6a673ea resp=AHB_RESP_OKAY
# UVM_INFO ../src/mst/ahb_master_driver.sv(332) @ 2975000: uvm_test_top.env.master_agent.drv [ahb_master_driver] Beat[7/8] addr=0x0000c1e6 trans=AHB_TRANS_SEQ resp=AHB_RESP_OKAY wdata=0xea1390b1
# UVM_INFO ../src/mst/ahb_master_driver.sv(376) @ 2975000: uvm_test_top.env.master_agent.drv [ahb_master_driver] Transaction complete: AHB_WRITE 0x0000c1df, 8 beats, burst=AHB_BURST_INCR
# UVM_INFO ../src/slv/ahb_slave_driver.sv(184) @ 2975000: uvm_test_top.env.slave_agent.drv [ahb_slave_driver] Beat AHB_WRITE addr=0x0000c1e6 resp=AHB_RESP_OKAY waits=0 wdata=0xea1390b1
# UVM_INFO ../src/slv/ahb_slave_monitor.sv(212) @ 2975000: uvm_test_top.env.slave_agent.mon [ahb_slave_monitor] Observed [AHB_WRITE]: HADDR=0x0000c1df, HBURST=AHB_BURST_INCR, HSIZE=AHB_SIZE_8B, 8 beats
# UVM_INFO ../src/env/ahb_coverage.sv(174) @ 2975000: uvm_test_top.env.slave_cov [ahb_coverage] Sampled [AHB_WRITE]: burst=AHB_BURST_INCR size=AHB_SIZE_8B beats=8 error=0
# UVM_INFO ../src/mst/ahb_master_monitor.sv(128) @ 2975000: uvm_test_top.env.master_agent.mon [ahb_master_monitor] Beat[7] addr=0x0000c1e6 wdata=0xea1390b1 resp=AHB_RESP_OKAY
# UVM_INFO ../src/mst/ahb_master_monitor.sv(231) @ 2975000: uvm_test_top.env.master_agent.mon [ahb_master_monitor] Observed [AHB_WRITE]: HADDR=0x0000c1df, HBURST=AHB_BURST_INCR, HSIZE=AHB_SIZE_8B, 8 beats
# UVM_INFO ../src/env/ahb_coverage.sv(174) @ 2975000: uvm_test_top.env.master_cov [ahb_coverage] Sampled [AHB_WRITE]: burst=AHB_BURST_INCR size=AHB_SIZE_8B beats=8 error=0
# UVM_INFO ../src/env/ahb_scoreboard.sv(104) @ 2975000: uvm_test_top.env.scb [ahb_scoreboard] MATCH #15: [AHB_WRITE] HADDR=0x0000c1df AHB_BURST_INCR 8 beats
# UVM_INFO ../src/mst/ahb_master_driver.sv(85) @ 2975000: uvm_test_top.env.master_agent.drv [ahb_master_driver] Queueing [AHB_READ]: HADDR=0x0000c1df, HBURST=AHB_BURST_INCR, HSIZE=AHB_SIZE_8B, 8 beats
# UVM_INFO ../src/mst/ahb_master_driver.sv(127) @ 2975000: uvm_test_top.env.master_agent.drv [ahb_master_driver] Driving [AHB_READ]: HADDR=0x0000c1df, HBURST=AHB_BURST_INCR, HSIZE=AHB_SIZE_8B, 8 beats               
# UVM_INFO ../src/mst/ahb_master_driver.sv(332) @ 3005000: uvm_test_top.env.master_agent.drv [ahb_master_driver] Beat[0/8] addr=0x0000c1df trans=AHB_TRANS_NONSEQ resp=AHB_RESP_OKAY rdata=0xa8534633
# UVM_INFO ../src/slv/ahb_slave_driver.sv(184) @ 3005000: uvm_test_top.env.slave_agent.drv [ahb_slave_driver] Beat AHB_READ addr=0x0000c1df resp=AHB_RESP_OKAY waits=0 rdata=0xa8534633
# UVM_INFO ../src/mst/ahb_master_monitor.sv(128) @ 3005000: uvm_test_top.env.master_agent.mon [ahb_master_monitor] Beat[0] addr=0x0000c1df rdata=0xa8534633 resp=AHB_RESP_OKAY
# UVM_INFO ../src/mst/ahb_master_driver.sv(332) @ 3015000: uvm_test_top.env.master_agent.drv [ahb_master_driver] Beat[1/8] addr=0x0000c1e0 trans=AHB_TRANS_SEQ resp=AHB_RESP_OKAY rdata=0x49696a20
# UVM_INFO ../src/slv/ahb_slave_driver.sv(184) @ 3015000: uvm_test_top.env.slave_agent.drv [ahb_slave_driver] Beat AHB_READ addr=0x0000c1e0 resp=AHB_RESP_OKAY waits=0 rdata=0x49696a20
# UVM_INFO ../src/mst/ahb_master_monitor.sv(128) @ 3015000: uvm_test_top.env.master_agent.mon [ahb_master_monitor] Beat[1] addr=0x0000c1e0 rdata=0x49696a20 resp=AHB_RESP_OKAY
# UVM_INFO ../src/mst/ahb_master_driver.sv(332) @ 3025000: uvm_test_top.env.master_agent.drv [ahb_master_driver] Beat[2/8] addr=0x0000c1e1 trans=AHB_TRANS_SEQ resp=AHB_RESP_OKAY rdata=0xf1a18ec7
# UVM_INFO ../src/slv/ahb_slave_driver.sv(184) @ 3025000: uvm_test_top.env.slave_agent.drv [ahb_slave_driver] Beat AHB_READ addr=0x0000c1e1 resp=AHB_RESP_OKAY waits=0 rdata=0xf1a18ec7
# UVM_INFO ../src/mst/ahb_master_monitor.sv(128) @ 3025000: uvm_test_top.env.master_agent.mon [ahb_master_monitor] Beat[2] addr=0x0000c1e1 rdata=0xf1a18ec7 resp=AHB_RESP_OKAY
# UVM_INFO ../src/mst/ahb_master_driver.sv(332) @ 3045000: uvm_test_top.env.master_agent.drv [ahb_master_driver] Beat[3/8] addr=0x0000c1e2 trans=AHB_TRANS_SEQ resp=AHB_RESP_OKAY rdata=0xbc64a163
# UVM_INFO ../src/slv/ahb_slave_driver.sv(184) @ 3045000: uvm_test_top.env.slave_agent.drv [ahb_slave_driver] Beat AHB_READ addr=0x0000c1e2 resp=AHB_RESP_OKAY waits=1 rdata=0xbc64a163
# UVM_INFO ../src/mst/ahb_master_monitor.sv(128) @ 3045000: uvm_test_top.env.master_agent.mon [ahb_master_monitor] Beat[3] addr=0x0000c1e2 rdata=0xbc64a163 resp=AHB_RESP_OKAY
