# vsim -c -coverage -sv_seed 49306611 "+UVM_TESTNAME=ahb_busy_test" "+UVM_VERBOSITY=UVM_HIGH" "+DUMP_VCD" -l ./report/logs/ahb_busy_test_run_4_seed_49306611.log -do "coverage save -onexit ./report/coverage/ahb_busy_test_run_4_seed_49306611.ucdb; run -all; quit -f" opt_tb_top 
# Start time: 09:00:10 on Aug 06,2026
# //  Questa Sim-64
# //  Version 10.6b linux_x86_64 May 25 2017
# //
# //  Copyright 1991-2017 Mentor Graphics Corporation
# //  All Rights Reserved.
# //
# //  QuestaSim and its associated documentation contain trade
# //  secrets and commercial or financial information that are the property of
# //  Mentor Graphics Corporation and are privileged, confidential,
# //  and exempt from disclosure under the Freedom of Information Act,
# //  5 U.S.C. Section 552. Furthermore, this information
# //  is prohibited from disclosure under the Trade Secrets Act,
# //  18 U.S.C. Section 1905.
# //
# Loading sv_std.std
# Loading work.ahb_if(fast)
# Loading mtiUvm.uvm_pkg
# Loading work.ahb_pkg(fast)
# Loading work.ahb_seq_pkg(fast)
# Loading work.ahb_test_pkg(fast)
# Loading work.tb_top(fast)
# Loading work.ahb_if(fast)
# Loading work.ahb_sva(fast)
# Loading mtiUvm.questa_uvm_pkg(fast)
# Loading /cadtools/mentor/Questa_10.6b/questasim/uvm-1.1d/linux_x86_64/uvm_dpi.so
# coverage save -onexit ./report/coverage/ahb_busy_test_run_4_seed_49306611.ucdb
#  run -all
# ----------------------------------------------------------------
# UVM-1.1d
# (C) 2007-2013 Mentor Graphics Corporation
# (C) 2007-2013 Cadence Design Systems, Inc.
# (C) 2006-2013 Synopsys, Inc.
# (C) 2011-2013 Cypress Semiconductor Corp.
# ----------------------------------------------------------------
# 
#   ***********       IMPORTANT RELEASE NOTES         ************
# 
#   You are using a version of the UVM library that has been compiled
#   with `UVM_NO_DEPRECATED undefined.
#   See http://www.eda.org/svdb/view.php?id=3313 for more details.
# 
#   You are using a version of the UVM library that has been compiled
#   with `UVM_OBJECT_MUST_HAVE_CONSTRUCTOR undefined.
#   See http://www.eda.org/svdb/view.php?id=3770 for more details.
# 
#       (Specify +UVM_NO_RELNOTES to turn off this notice)
# 
# UVM_INFO verilog_src/questa_uvm_pkg-1.2/src/questa_uvm_pkg.sv(215) @ 0: reporter [Questa UVM] QUESTA_UVM-1.2.3
# UVM_INFO verilog_src/questa_uvm_pkg-1.2/src/questa_uvm_pkg.sv(217) @ 0: reporter [Questa UVM]  questa_uvm::init(+struct)
# UVM_INFO ../src/tb_top.sv(126) @ 0: reporter [TB_TOP] Virtual interface set in config_db
# UVM_INFO @ 0: reporter [RNTST] Running test ahb_busy_test...
# UVM_INFO ../src/tb_top.sv(140) @ 0: reporter [TB_TOP] Waveform VCD dumping enabled (ahb_lite_vip.vcd)
# UVM_INFO ../src/env/ahb_vip_env.sv(64) @ 0: uvm_test_top.env [ahb_vip_env] slave_vif not set - reusing master_vif (passthrough mode)
# UVM_INFO ../src/env/ahb_vip_env.sv(72) @ 0: uvm_test_top.env [ahb_vip_env] Scoreboard created
# UVM_INFO ../src/env/ahb_vip_env.sv(78) @ 0: uvm_test_top.env [ahb_vip_env] Coverage collectors created
# UVM_INFO ../src/mst/ahb_master_agent.sv(61) @ 0: uvm_test_top.env.master_agent [ahb_master_agent] ACTIVE mode - driver + sequencer created
# UVM_INFO ../src/slv/ahb_slave_agent.sv(64) @ 0: uvm_test_top.env.slave_agent [ahb_slave_agent] ACTIVE mode - driver + sequencer created (    auto responses)
# UVM_INFO ../src/env/ahb_vip_env.sv(92) @ 0: uvm_test_top.env [ahb_vip_env] Scoreboard connected: master_mon.ap -> scb, slave_mon.ap -> scb
# UVM_INFO ../src/env/ahb_vip_env.sv(102) @ 0: uvm_test_top.env [ahb_vip_env] Coverage connected: master_mon.ap/trans_ap -> master_cov, slave_mon.ap/trans_ap -> slave_cov
# UVM_INFO @ 0: reporter [UVMTOP] UVM testbench topology:
# ---------------------------------------------------------------
# Name                       Type                     Size  Value
# ---------------------------------------------------------------
# uvm_test_top               ahb_busy_test            -     @475 
#   env                      ahb_vip_env              -     @490 
#     master_agent           ahb_master_agent         -     @505 
#       drv                  ahb_master_driver        -     @570 
#         rsp_port           uvm_analysis_port        -     @585 
#         seq_item_port      uvm_seq_item_pull_port   -     @577 
#       mon                  ahb_master_monitor       -     @563 
#         ap                 uvm_analysis_port        -     @704 
#         trans_ap           uvm_analysis_port        -     @712 
#       sqr                  ahb_master_sequencer     -     @593 
#         rsp_export         uvm_analysis_export      -     @600 
#         seq_item_export    uvm_seq_item_pull_imp    -     @694 
#         arbitration_queue  array                    0     -    
#         lock_queue         array                    0     -    
#         num_last_reqs      integral                 32    'd1  
#         num_last_rsps      integral                 32    'd1  
#     master_cov             ahb_coverage             -     @526 
#       analysis_imp         uvm_analysis_imp         -     @533 
#       trans_export         uvm_analysis_imp_trans   -     @726 
#     scb                    ahb_scoreboard           -     @519 
#       master_export        uvm_analysis_imp_master  -     @734 
#       slave_export         uvm_analysis_imp_slave   -     @742 
#     slave_agent            ahb_slave_agent          -     @512 
#       drv                  ahb_slave_driver         -     @764 
#         rsp_port           uvm_analysis_port        -     @779 
#         seq_item_port      uvm_seq_item_pull_port   -     @771 
#       mon                  ahb_slave_monitor        -     @757 
#         ap                 uvm_analysis_port        -     @898 
#         trans_ap           uvm_analysis_port        -     @906 
#       sqr                  ahb_slave_sequencer      -     @787 
#         rsp_export         uvm_analysis_export      -     @794 
#         seq_item_export    uvm_seq_item_pull_imp    -     @888 
#         arbitration_queue  array                    0     -    
#         lock_queue         array                    0     -    
#         num_last_reqs      integral                 32    'd1  
#         num_last_rsps      integral                 32    'd1  
#     slave_cov              ahb_coverage             -     @541 
#       analysis_imp         uvm_analysis_imp         -     @548 
#       trans_export         uvm_analysis_imp_trans   -     @920 
# ---------------------------------------------------------------
# 
# UVM_INFO verilog_src/questa_uvm_pkg-1.2/src/questa_uvm_pkg.sv(277) @ 0: reporter [Questa UVM] End Of Elaboration
# UVM_INFO ../src/mst_seq/ahb_busy_seq.sv(54) @ 0: uvm_test_top.env.master_agent.sqr@@seq [ahb_busy_seq] Starting BUSY traffic: 16 bursts from 0x0000c000
# UVM_INFO ../src/mst_seq/ahb_busy_seq.sv(105) @ 0: uvm_test_top.env.master_agent.sqr@@seq [ahb_busy_seq] AHB_BURST_INCR4 AHB_SIZE_8B @0x0000c033, 4 beats, retract=0
# UVM_INFO ../src/mst/ahb_master_driver.sv(183) @ 5000: uvm_test_top.env.master_agent.drv [ahb_master_driver] Flushed pending transactions (reset)
# UVM_INFO ../src/tb_top.sv(48) @ 95000: reporter [TB_TOP] Reset de-asserted
# UVM_INFO ../src/slv/ahb_slave_driver.sv(63) @ 95000: uvm_test_top.env.slave_agent.drv [ahb_slave_driver] Reset deasserted - slave driver active (    auto mode)
# UVM_INFO ../src/mst/ahb_master_driver.sv(72) @ 95000: uvm_test_top.env.master_agent.drv [ahb_master_driver] Reset deasserted - master driver active
# UVM_INFO ../src/mst/ahb_master_monitor.sv(81) @ 95000: uvm_test_top.env.master_agent.mon [ahb_master_monitor] Reset deasserted - master monitor active
# UVM_INFO ../src/slv/ahb_slave_monitor.sv(75) @ 95000: uvm_test_top.env.slave_agent.mon [ahb_slave_monitor] Reset deasserted - slave monitor active
# UVM_INFO ../src/mst/ahb_master_driver.sv(85) @ 95000: uvm_test_top.env.master_agent.drv [ahb_master_driver] Queueing [AHB_WRITE]: HADDR=0x0000c033, HBURST=AHB_BURST_INCR4, HSIZE=AHB_SIZE_8B, 4 beats
# UVM_INFO ../src/mst/ahb_master_driver.sv(127) @ 95000: uvm_test_top.env.master_agent.drv [ahb_master_driver] Driving [AHB_WRITE]: HADDR=0x0000c033, HBURST=AHB_BURST_INCR4, HSIZE=AHB_SIZE_8B, 4 beats               
# UVM_INFO ../src/mst/ahb_master_driver.sv(332) @ 125000: uvm_test_top.env.master_agent.drv [ahb_master_driver] Beat[0/4] addr=0x0000c033 trans=AHB_TRANS_NONSEQ resp=AHB_RESP_OKAY wdata=0xe8eb9b45
# UVM_INFO ../src/slv/ahb_slave_driver.sv(184) @ 125000: uvm_test_top.env.slave_agent.drv [ahb_slave_driver] Beat AHB_WRITE addr=0x0000c033 resp=AHB_RESP_OKAY waits=1 wdata=0xe8eb9b45
# UVM_INFO ../src/mst/ahb_master_monitor.sv(128) @ 125000: uvm_test_top.env.master_agent.mon [ahb_master_monitor] Beat[0] addr=0x0000c033 wdata=0xe8eb9b45 resp=AHB_RESP_OKAY
# UVM_INFO ../src/mst/ahb_master_driver.sv(332) @ 185000: uvm_test_top.env.master_agent.drv [ahb_master_driver] Beat[1/4] addr=0x0000c034 trans=AHB_TRANS_SEQ resp=AHB_RESP_OKAY wdata=0x65cc23eb
# UVM_INFO ../src/slv/ahb_slave_driver.sv(184) @ 185000: uvm_test_top.env.slave_agent.drv [ahb_slave_driver] Beat AHB_WRITE addr=0x0000c034 resp=AHB_RESP_OKAY waits=2 wdata=0x65cc23eb
# UVM_INFO ../src/mst/ahb_master_monitor.sv(128) @ 185000: uvm_test_top.env.master_agent.mon [ahb_master_monitor] Beat[1] addr=0x0000c034 wdata=0x65cc23eb resp=AHB_RESP_OKAY
# UVM_INFO ../src/mst/ahb_master_driver.sv(332) @ 235000: uvm_test_top.env.master_agent.drv [ahb_master_driver] Beat[2/4] addr=0x0000c035 trans=AHB_TRANS_SEQ resp=AHB_RESP_OKAY wdata=0x3694003d
# UVM_INFO ../src/slv/ahb_slave_driver.sv(184) @ 235000: uvm_test_top.env.slave_agent.drv [ahb_slave_driver] Beat AHB_WRITE addr=0x0000c035 resp=AHB_RESP_OKAY waits=2 wdata=0x3694003d
# UVM_INFO ../src/mst/ahb_master_monitor.sv(128) @ 235000: uvm_test_top.env.master_agent.mon [ahb_master_monitor] Beat[2] addr=0x0000c035 wdata=0x3694003d resp=AHB_RESP_OKAY
# UVM_INFO ../src/mst/ahb_master_driver.sv(332) @ 275000: uvm_test_top.env.master_agent.drv [ahb_master_driver] Beat[3/4] addr=0x0000c036 trans=AHB_TRANS_SEQ resp=AHB_RESP_OKAY wdata=0xbad6f298
# UVM_INFO ../src/mst/ahb_master_driver.sv(376) @ 275000: uvm_test_top.env.master_agent.drv [ahb_master_driver] Transaction complete: AHB_WRITE 0x0000c033, 4 beats, burst=AHB_BURST_INCR4
# UVM_INFO ../src/slv/ahb_slave_driver.sv(184) @ 275000: uvm_test_top.env.slave_agent.drv [ahb_slave_driver] Beat AHB_WRITE addr=0x0000c036 resp=AHB_RESP_OKAY waits=2 wdata=0xbad6f298
# UVM_INFO ../src/slv/ahb_slave_monitor.sv(208) @ 275000: uvm_test_top.env.slave_agent.mon [ahb_slave_monitor] Observed [AHB_WRITE]: HADDR=0x0000c033, HBURST=AHB_BURST_INCR4, HSIZE=AHB_SIZE_8B, 4 beats
# UVM_INFO ../src/env/ahb_coverage.sv(174) @ 275000: uvm_test_top.env.slave_cov [ahb_coverage] Sampled [AHB_WRITE]: burst=AHB_BURST_INCR4 size=AHB_SIZE_8B beats=4 error=0
# UVM_INFO ../src/mst/ahb_master_monitor.sv(128) @ 275000: uvm_test_top.env.master_agent.mon [ahb_master_monitor] Beat[3] addr=0x0000c036 wdata=0xbad6f298 resp=AHB_RESP_OKAY
# UVM_INFO ../src/mst/ahb_master_monitor.sv(231) @ 275000: uvm_test_top.env.master_agent.mon [ahb_master_monitor] Observed [AHB_WRITE]: HADDR=0x0000c033, HBURST=AHB_BURST_INCR4, HSIZE=AHB_SIZE_8B, 4 beats
# UVM_INFO ../src/env/ahb_coverage.sv(174) @ 275000: uvm_test_top.env.master_cov [ahb_coverage] Sampled [AHB_WRITE]: burst=AHB_BURST_INCR4 size=AHB_SIZE_8B beats=4 error=0
# UVM_INFO ../src/env/ahb_scoreboard.sv(104) @ 275000: uvm_test_top.env.scb [ahb_scoreboard] MATCH #1: [AHB_WRITE] HADDR=0x0000c033 AHB_BURST_INCR4 4 beats
# UVM_INFO ../src/mst/ahb_master_driver.sv(85) @ 275000: uvm_test_top.env.master_agent.drv [ahb_master_driver] Queueing [AHB_READ]: HADDR=0x0000c033, HBURST=AHB_BURST_INCR4, HSIZE=AHB_SIZE_8B, 4 beats
# UVM_INFO ../src/mst/ahb_master_driver.sv(127) @ 275000: uvm_test_top.env.master_agent.drv [ahb_master_driver] Driving [AHB_READ]: HADDR=0x0000c033, HBURST=AHB_BURST_INCR4, HSIZE=AHB_SIZE_8B, 4 beats               
# UVM_INFO ../src/mst/ahb_master_driver.sv(332) @ 305000: uvm_test_top.env.master_agent.drv [ahb_master_driver] Beat[0/4] addr=0x0000c033 trans=AHB_TRANS_NONSEQ resp=AHB_RESP_OKAY rdata=0xe8eb9b45
# UVM_INFO ../src/slv/ahb_slave_driver.sv(184) @ 305000: uvm_test_top.env.slave_agent.drv [ahb_slave_driver] Beat AHB_READ addr=0x0000c033 resp=AHB_RESP_OKAY waits=0 rdata=0xe8eb9b45
# UVM_INFO ../src/mst/ahb_master_monitor.sv(128) @ 305000: uvm_test_top.env.master_agent.mon [ahb_master_monitor] Beat[0] addr=0x0000c033 rdata=0xe8eb9b45 resp=AHB_RESP_OKAY
# UVM_INFO ../src/mst/ahb_master_driver.sv(332) @ 335000: uvm_test_top.env.master_agent.drv [ahb_master_driver] Beat[1/4] addr=0x0000c034 trans=AHB_TRANS_SEQ resp=AHB_RESP_OKAY rdata=0x65cc23eb
# UVM_INFO ../src/slv/ahb_slave_driver.sv(184) @ 335000: uvm_test_top.env.slave_agent.drv [ahb_slave_driver] Beat AHB_READ addr=0x0000c034 resp=AHB_RESP_OKAY waits=2 rdata=0x65cc23eb
# UVM_INFO ../src/mst/ahb_master_monitor.sv(128) @ 335000: uvm_test_top.env.master_agent.mon [ahb_master_monitor] Beat[1] addr=0x0000c034 rdata=0x65cc23eb resp=AHB_RESP_OKAY
# UVM_INFO ../src/mst/ahb_master_driver.sv(332) @ 355000: uvm_test_top.env.master_agent.drv [ahb_master_driver] Beat[2/4] addr=0x0000c035 trans=AHB_TRANS_SEQ resp=AHB_RESP_OKAY rdata=0x3694003d
# UVM_INFO ../src/slv/ahb_slave_driver.sv(184) @ 355000: uvm_test_top.env.slave_agent.drv [ahb_slave_driver] Beat AHB_READ addr=0x0000c035 resp=AHB_RESP_OKAY waits=1 rdata=0x3694003d
# UVM_INFO ../src/mst/ahb_master_monitor.sv(128) @ 355000: uvm_test_top.env.master_agent.mon [ahb_master_monitor] Beat[2] addr=0x0000c035 rdata=0x3694003d resp=AHB_RESP_OKAY
# UVM_INFO ../src/mst/ahb_master_driver.sv(332) @ 365000: uvm_test_top.env.master_agent.drv [ahb_master_driver] Beat[3/4] addr=0x0000c036 trans=AHB_TRANS_SEQ resp=AHB_RESP_OKAY rdata=0xbad6f298
# UVM_INFO ../src/mst/ahb_master_driver.sv(376) @ 365000: uvm_test_top.env.master_agent.drv [ahb_master_driver] Transaction complete: AHB_READ 0x0000c033, 4 beats, burst=AHB_BURST_INCR4
# UVM_INFO ../src/slv/ahb_slave_driver.sv(184) @ 365000: uvm_test_top.env.slave_agent.drv [ahb_slave_driver] Beat AHB_READ addr=0x0000c036 resp=AHB_RESP_OKAY waits=0 rdata=0xbad6f298
# UVM_INFO ../src/mst/ahb_master_monitor.sv(128) @ 365000: uvm_test_top.env.master_agent.mon [ahb_master_monitor] Beat[3] addr=0x0000c036 rdata=0xbad6f298 resp=AHB_RESP_OKAY
# UVM_INFO ../src/mst/ahb_master_monitor.sv(231) @ 365000: uvm_test_top.env.master_agent.mon [ahb_master_monitor] Observed [AHB_READ]: HADDR=0x0000c033, HBURST=AHB_BURST_INCR4, HSIZE=AHB_SIZE_8B, 4 beats
# UVM_INFO ../src/env/ahb_coverage.sv(174) @ 365000: uvm_test_top.env.master_cov [ahb_coverage] Sampled [AHB_READ]: burst=AHB_BURST_INCR4 size=AHB_SIZE_8B beats=4 error=0
# UVM_INFO ../src/slv/ahb_slave_monitor.sv(208) @ 365000: uvm_test_top.env.slave_agent.mon [ahb_slave_monitor] Observed [AHB_READ]: HADDR=0x0000c033, HBURST=AHB_BURST_INCR4, HSIZE=AHB_SIZE_8B, 4 beats
# UVM_INFO ../src/env/ahb_scoreboard.sv(104) @ 365000: uvm_test_top.env.scb [ahb_scoreboard] MATCH #2: [AHB_READ] HADDR=0x0000c033 AHB_BURST_INCR4 4 beats
# UVM_INFO ../src/env/ahb_coverage.sv(174) @ 365000: uvm_test_top.env.slave_cov [ahb_coverage] Sampled [AHB_READ]: burst=AHB_BURST_INCR4 size=AHB_SIZE_8B beats=4 error=0
# UVM_INFO ../src/mst_seq/ahb_base_seq.sv(157) @ 365000: uvm_test_top.env.master_agent.sqr@@seq [ahb_busy_seq] AHB_BURST_INCR4 AHB_SIZE_8B beat 0 @0x0000c033 ok
# UVM_INFO ../src/mst_seq/ahb_base_seq.sv(157) @ 365000: uvm_test_top.env.master_agent.sqr@@seq [ahb_busy_seq] AHB_BURST_INCR4 AHB_SIZE_8B beat 1 @0x0000c034 ok
# UVM_INFO ../src/mst_seq/ahb_base_seq.sv(157) @ 365000: uvm_test_top.env.master_agent.sqr@@seq [ahb_busy_seq] AHB_BURST_INCR4 AHB_SIZE_8B beat 2 @0x0000c035 ok
# UVM_INFO ../src/mst_seq/ahb_base_seq.sv(157) @ 365000: uvm_test_top.env.master_agent.sqr@@seq [ahb_busy_seq] AHB_BURST_INCR4 AHB_SIZE_8B beat 3 @0x0000c036 ok
# UVM_INFO ../src/mst_seq/ahb_busy_seq.sv(105) @ 365000: uvm_test_top.env.master_agent.sqr@@seq [ahb_busy_seq] AHB_BURST_INCR16 AHB_SIZE_32B @0x0000c040, 16 beats, retract=0
# UVM_INFO ../src/mst/ahb_master_driver.sv(85) @ 365000: uvm_test_top.env.master_agent.drv [ahb_master_driver] Queueing [AHB_WRITE]: HADDR=0x0000c040, HBURST=AHB_BURST_INCR16, HSIZE=AHB_SIZE_32B, 16 beats
# UVM_INFO ../src/mst/ahb_master_driver.sv(127) @ 365000: uvm_test_top.env.master_agent.drv [ahb_master_driver] Driving [AHB_WRITE]: HADDR=0x0000c040, HBURST=AHB_BURST_INCR16, HSIZE=AHB_SIZE_32B, 16 beats               
# UVM_INFO ../src/mst/ahb_master_driver.sv(332) @ 405000: uvm_test_top.env.master_agent.drv [ahb_master_driver] Beat[0/16] addr=0x0000c040 trans=AHB_TRANS_NONSEQ resp=AHB_RESP_OKAY wdata=0xe4089951
# UVM_INFO ../src/slv/ahb_slave_driver.sv(184) @ 405000: uvm_test_top.env.slave_agent.drv [ahb_slave_driver] Beat AHB_WRITE addr=0x0000c040 resp=AHB_RESP_OKAY waits=1 wdata=0xe4089951
# UVM_INFO ../src/mst/ahb_master_monitor.sv(128) @ 405000: uvm_test_top.env.master_agent.mon [ahb_master_monitor] Beat[0] addr=0x0000c040 wdata=0xe4089951 resp=AHB_RESP_OKAY
# UVM_INFO ../src/mst/ahb_master_driver.sv(332) @ 445000: uvm_test_top.env.master_agent.drv [ahb_master_driver] Beat[1/16] addr=0x0000c044 trans=AHB_TRANS_SEQ resp=AHB_RESP_OKAY wdata=0x829c6d22
# UVM_INFO ../src/slv/ahb_slave_driver.sv(184) @ 445000: uvm_test_top.env.slave_agent.drv [ahb_slave_driver] Beat AHB_WRITE addr=0x0000c044 resp=AHB_RESP_OKAY waits=1 wdata=0x829c6d22
# UVM_INFO ../src/mst/ahb_master_monitor.sv(128) @ 445000: uvm_test_top.env.master_agent.mon [ahb_master_monitor] Beat[1] addr=0x0000c044 wdata=0x829c6d22 resp=AHB_RESP_OKAY
# UVM_INFO ../src/mst/ahb_master_driver.sv(332) @ 495000: uvm_test_top.env.master_agent.drv [ahb_master_driver] Beat[2/16] addr=0x0000c048 trans=AHB_TRANS_SEQ resp=AHB_RESP_OKAY wdata=0xa20ebf16
# UVM_INFO ../src/slv/ahb_slave_driver.sv(184) @ 495000: uvm_test_top.env.slave_agent.drv [ahb_slave_driver] Beat AHB_WRITE addr=0x0000c048 resp=AHB_RESP_OKAY waits=1 wdata=0xa20ebf16
# UVM_INFO ../src/mst/ahb_master_monitor.sv(128) @ 495000: uvm_test_top.env.master_agent.mon [ahb_master_monitor] Beat[2] addr=0x0000c048 wdata=0xa20ebf16 resp=AHB_RESP_OKAY
# UVM_INFO ../src/mst/ahb_master_driver.sv(332) @ 515000: uvm_test_top.env.master_agent.drv [ahb_master_driver] Beat[3/16] addr=0x0000c04c trans=AHB_TRANS_SEQ resp=AHB_RESP_OKAY wdata=0xc9ac0577
# UVM_INFO ../src/slv/ahb_slave_driver.sv(184) @ 515000: uvm_test_top.env.slave_agent.drv [ahb_slave_driver] Beat AHB_WRITE addr=0x0000c04c resp=AHB_RESP_OKAY waits=0 wdata=0xc9ac0577
# UVM_INFO ../src/mst/ahb_master_monitor.sv(128) @ 515000: uvm_test_top.env.master_agent.mon [ahb_master_monitor] Beat[3] addr=0x0000c04c wdata=0xc9ac0577 resp=AHB_RESP_OKAY
# UVM_INFO ../src/mst/ahb_master_driver.sv(332) @ 555000: uvm_test_top.env.master_agent.drv [ahb_master_driver] Beat[4/16] addr=0x0000c050 trans=AHB_TRANS_SEQ resp=AHB_RESP_OKAY wdata=0xfbdedbf7
# UVM_INFO ../src/slv/ahb_slave_driver.sv(184) @ 555000: uvm_test_top.env.slave_agent.drv [ahb_slave_driver] Beat AHB_WRITE addr=0x0000c050 resp=AHB_RESP_OKAY waits=1 wdata=0xfbdedbf7
# UVM_INFO ../src/mst/ahb_master_monitor.sv(128) @ 555000: uvm_test_top.env.master_agent.mon [ahb_master_monitor] Beat[4] addr=0x0000c050 wdata=0xfbdedbf7 resp=AHB_RESP_OKAY
# UVM_INFO ../src/mst/ahb_master_driver.sv(332) @ 595000: uvm_test_top.env.master_agent.drv [ahb_master_driver] Beat[5/16] addr=0x0000c054 trans=AHB_TRANS_SEQ resp=AHB_RESP_OKAY wdata=0xf464783e
# UVM_INFO ../src/slv/ahb_slave_driver.sv(184) @ 595000: uvm_test_top.env.slave_agent.drv [ahb_slave_driver] Beat AHB_WRITE addr=0x0000c054 resp=AHB_RESP_OKAY waits=2 wdata=0xf464783e
# UVM_INFO ../src/mst/ahb_master_monitor.sv(128) @ 595000: uvm_test_top.env.master_agent.mon [ahb_master_monitor] Beat[5] addr=0x0000c054 wdata=0xf464783e resp=AHB_RESP_OKAY
# UVM_INFO ../src/mst/ahb_master_driver.sv(332) @ 655000: uvm_test_top.env.master_agent.drv [ahb_master_driver] Beat[6/16] addr=0x0000c058 trans=AHB_TRANS_SEQ resp=AHB_RESP_OKAY wdata=0xf3916046
# UVM_INFO ../src/slv/ahb_slave_driver.sv(184) @ 655000: uvm_test_top.env.slave_agent.drv [ahb_slave_driver] Beat AHB_WRITE addr=0x0000c058 resp=AHB_RESP_OKAY waits=2 wdata=0xf3916046
# UVM_INFO ../src/mst/ahb_master_monitor.sv(128) @ 655000: uvm_test_top.env.master_agent.mon [ahb_master_monitor] Beat[6] addr=0x0000c058 wdata=0xf3916046 resp=AHB_RESP_OKAY
# UVM_INFO ../src/mst/ahb_master_driver.sv(332) @ 715000: uvm_test_top.env.master_agent.drv [ahb_master_driver] Beat[7/16] addr=0x0000c05c trans=AHB_TRANS_SEQ resp=AHB_RESP_OKAY wdata=0xfabcd0cb
# UVM_INFO ../src/slv/ahb_slave_driver.sv(184) @ 715000: uvm_test_top.env.slave_agent.drv [ahb_slave_driver] Beat AHB_WRITE addr=0x0000c05c resp=AHB_RESP_OKAY waits=2 wdata=0xfabcd0cb
# UVM_INFO ../src/mst/ahb_master_monitor.sv(128) @ 715000: uvm_test_top.env.master_agent.mon [ahb_master_monitor] Beat[7] addr=0x0000c05c wdata=0xfabcd0cb resp=AHB_RESP_OKAY
# UVM_INFO ../src/mst/ahb_master_driver.sv(332) @ 735000: uvm_test_top.env.master_agent.drv [ahb_master_driver] Beat[8/16] addr=0x0000c060 trans=AHB_TRANS_SEQ resp=AHB_RESP_OKAY wdata=0xe79ff071
# UVM_INFO ../src/slv/ahb_slave_driver.sv(184) @ 735000: uvm_test_top.env.slave_agent.drv [ahb_slave_driver] Beat AHB_WRITE addr=0x0000c060 resp=AHB_RESP_OKAY waits=0 wdata=0xe79ff071
# UVM_INFO ../src/mst/ahb_master_monitor.sv(128) @ 735000: uvm_test_top.env.master_agent.mon [ahb_master_monitor] Beat[8] addr=0x0000c060 wdata=0xe79ff071 resp=AHB_RESP_OKAY
# UVM_INFO ../src/mst/ahb_master_driver.sv(332) @ 795000: uvm_test_top.env.master_agent.drv [ahb_master_driver] Beat[9/16] addr=0x0000c064 trans=AHB_TRANS_SEQ resp=AHB_RESP_OKAY wdata=0x82665e5c
# UVM_INFO ../src/slv/ahb_slave_driver.sv(184) @ 795000: uvm_test_top.env.slave_agent.drv [ahb_slave_driver] Beat AHB_WRITE addr=0x0000c064 resp=AHB_RESP_OKAY waits=2 wdata=0x82665e5c
# UVM_INFO ../src/mst/ahb_master_monitor.sv(128) @ 795000: uvm_test_top.env.master_agent.mon [ahb_master_monitor] Beat[9] addr=0x0000c064 wdata=0x82665e5c resp=AHB_RESP_OKAY
# UVM_INFO ../src/mst/ahb_master_driver.sv(332) @ 825000: uvm_test_top.env.master_agent.drv [ahb_master_driver] Beat[10/16] addr=0x0000c068 trans=AHB_TRANS_SEQ resp=AHB_RESP_OKAY wdata=0x5a42d9a2
# UVM_INFO ../src/slv/ahb_slave_driver.sv(184) @ 825000: uvm_test_top.env.slave_agent.drv [ahb_slave_driver] Beat AHB_WRITE addr=0x0000c068 resp=AHB_RESP_OKAY waits=1 wdata=0x5a42d9a2
# UVM_INFO ../src/mst/ahb_master_monitor.sv(128) @ 825000: uvm_test_top.env.master_agent.mon [ahb_master_monitor] Beat[10] addr=0x0000c068 wdata=0x5a42d9a2 resp=AHB_RESP_OKAY
# UVM_INFO ../src/mst/ahb_master_driver.sv(332) @ 845000: uvm_test_top.env.master_agent.drv [ahb_master_driver] Beat[11/16] addr=0x0000c06c trans=AHB_TRANS_SEQ resp=AHB_RESP_OKAY wdata=0x6a9d2d8f
# UVM_INFO ../src/slv/ahb_slave_driver.sv(184) @ 845000: uvm_test_top.env.slave_agent.drv [ahb_slave_driver] Beat AHB_WRITE addr=0x0000c06c resp=AHB_RESP_OKAY waits=0 wdata=0x6a9d2d8f
# UVM_INFO ../src/mst/ahb_master_monitor.sv(128) @ 845000: uvm_test_top.env.master_agent.mon [ahb_master_monitor] Beat[11] addr=0x0000c06c wdata=0x6a9d2d8f resp=AHB_RESP_OKAY
# UVM_INFO ../src/mst/ahb_master_driver.sv(332) @ 865000: uvm_test_top.env.master_agent.drv [ahb_master_driver] Beat[12/16] addr=0x0000c070 trans=AHB_TRANS_SEQ resp=AHB_RESP_OKAY wdata=0x1bd718bf
# UVM_INFO ../src/slv/ahb_slave_driver.sv(184) @ 865000: uvm_test_top.env.slave_agent.drv [ahb_slave_driver] Beat AHB_WRITE addr=0x0000c070 resp=AHB_RESP_OKAY waits=0 wdata=0x1bd718bf
# UVM_INFO ../src/mst/ahb_master_monitor.sv(128) @ 865000: uvm_test_top.env.master_agent.mon [ahb_master_monitor] Beat[12] addr=0x0000c070 wdata=0x1bd718bf resp=AHB_RESP_OKAY
# UVM_INFO ../src/mst/ahb_master_driver.sv(332) @ 905000: uvm_test_top.env.master_agent.drv [ahb_master_driver] Beat[13/16] addr=0x0000c074 trans=AHB_TRANS_SEQ resp=AHB_RESP_OKAY wdata=0x4358fee9
# UVM_INFO ../src/slv/ahb_slave_driver.sv(184) @ 905000: uvm_test_top.env.slave_agent.drv [ahb_slave_driver] Beat AHB_WRITE addr=0x0000c074 resp=AHB_RESP_OKAY waits=1 wdata=0x4358fee9
# UVM_INFO ../src/mst/ahb_master_monitor.sv(128) @ 905000: uvm_test_top.env.master_agent.mon [ahb_master_monitor] Beat[13] addr=0x0000c074 wdata=0x4358fee9 resp=AHB_RESP_OKAY
# UVM_INFO ../src/mst/ahb_master_driver.sv(332) @ 955000: uvm_test_top.env.master_agent.drv [ahb_master_driver] Beat[14/16] addr=0x0000c078 trans=AHB_TRANS_SEQ resp=AHB_RESP_OKAY wdata=0x4d1e822b
# UVM_INFO ../src/slv/ahb_slave_driver.sv(184) @ 955000: uvm_test_top.env.slave_agent.drv [ahb_slave_driver] Beat AHB_WRITE addr=0x0000c078 resp=AHB_RESP_OKAY waits=1 wdata=0x4d1e822b
# UVM_INFO ../src/mst/ahb_master_monitor.sv(128) @ 955000: uvm_test_top.env.master_agent.mon [ahb_master_monitor] Beat[14] addr=0x0000c078 wdata=0x4d1e822b resp=AHB_RESP_OKAY
# UVM_INFO ../src/mst/ahb_master_driver.sv(332) @ 1015000: uvm_test_top.env.master_agent.drv [ahb_master_driver] Beat[15/16] addr=0x0000c07c trans=AHB_TRANS_SEQ resp=AHB_RESP_OKAY wdata=0x0be229b7
# UVM_INFO ../src/mst/ahb_master_driver.sv(376) @ 1015000: uvm_test_top.env.master_agent.drv [ahb_master_driver] Transaction complete: AHB_WRITE 0x0000c040, 16 beats, burst=AHB_BURST_INCR16
# UVM_INFO ../src/slv/ahb_slave_driver.sv(184) @ 1015000: uvm_test_top.env.slave_agent.drv [ahb_slave_driver] Beat AHB_WRITE addr=0x0000c07c resp=AHB_RESP_OKAY waits=2 wdata=0x0be229b7
# UVM_INFO ../src/slv/ahb_slave_monitor.sv(208) @ 1015000: uvm_test_top.env.slave_agent.mon [ahb_slave_monitor] Observed [AHB_WRITE]: HADDR=0x0000c040, HBURST=AHB_BURST_INCR16, HSIZE=AHB_SIZE_32B, 16 beats
# UVM_INFO ../src/env/ahb_coverage.sv(174) @ 1015000: uvm_test_top.env.slave_cov [ahb_coverage] Sampled [AHB_WRITE]: burst=AHB_BURST_INCR16 size=AHB_SIZE_32B beats=16 error=0
# UVM_INFO ../src/mst/ahb_master_monitor.sv(128) @ 1015000: uvm_test_top.env.master_agent.mon [ahb_master_monitor] Beat[15] addr=0x0000c07c wdata=0x0be229b7 resp=AHB_RESP_OKAY
# UVM_INFO ../src/mst/ahb_master_monitor.sv(231) @ 1015000: uvm_test_top.env.master_agent.mon [ahb_master_monitor] Observed [AHB_WRITE]: HADDR=0x0000c040, HBURST=AHB_BURST_INCR16, HSIZE=AHB_SIZE_32B, 16 beats
# UVM_INFO ../src/env/ahb_coverage.sv(174) @ 1015000: uvm_test_top.env.master_cov [ahb_coverage] Sampled [AHB_WRITE]: burst=AHB_BURST_INCR16 size=AHB_SIZE_32B beats=16 error=0
# UVM_INFO ../src/env/ahb_scoreboard.sv(104) @ 1015000: uvm_test_top.env.scb [ahb_scoreboard] MATCH #3: [AHB_WRITE] HADDR=0x0000c040 AHB_BURST_INCR16 16 beats
# UVM_INFO ../src/mst/ahb_master_driver.sv(85) @ 1015000: uvm_test_top.env.master_agent.drv [ahb_master_driver] Queueing [AHB_READ]: HADDR=0x0000c040, HBURST=AHB_BURST_INCR16, HSIZE=AHB_SIZE_32B, 16 beats
# UVM_INFO ../src/mst/ahb_master_driver.sv(127) @ 1015000: uvm_test_top.env.master_agent.drv [ahb_master_driver] Driving [AHB_READ]: HADDR=0x0000c040, HBURST=AHB_BURST_INCR16, HSIZE=AHB_SIZE_32B, 16 beats               
# UVM_INFO ../src/mst/ahb_master_driver.sv(332) @ 1065000: uvm_test_top.env.master_agent.drv [ahb_master_driver] Beat[0/16] addr=0x0000c040 trans=AHB_TRANS_NONSEQ resp=AHB_RESP_OKAY rdata=0xe4089951
# UVM_INFO ../src/slv/ahb_slave_driver.sv(184) @ 1065000: uvm_test_top.env.slave_agent.drv [ahb_slave_driver] Beat AHB_READ addr=0x0000c040 resp=AHB_RESP_OKAY waits=2 rdata=0xe4089951
# UVM_INFO ../src/mst/ahb_master_monitor.sv(128) @ 1065000: uvm_test_top.env.master_agent.mon [ahb_master_monitor] Beat[0] addr=0x0000c040 rdata=0xe4089951 resp=AHB_RESP_OKAY
# UVM_INFO ../src/mst/ahb_master_driver.sv(332) @ 1085000: uvm_test_top.env.master_agent.drv [ahb_master_driver] Beat[1/16] addr=0x0000c044 trans=AHB_TRANS_SEQ resp=AHB_RESP_OKAY rdata=0x829c6d22
# UVM_INFO ../src/slv/ahb_slave_driver.sv(184) @ 1085000: uvm_test_top.env.slave_agent.drv [ahb_slave_driver] Beat AHB_READ addr=0x0000c044 resp=AHB_RESP_OKAY waits=1 rdata=0x829c6d22
# UVM_INFO ../src/mst/ahb_master_monitor.sv(128) @ 1085000: uvm_test_top.env.master_agent.mon [ahb_master_monitor] Beat[1] addr=0x0000c044 rdata=0x829c6d22 resp=AHB_RESP_OKAY
# UVM_INFO ../src/mst/ahb_master_driver.sv(332) @ 1105000: uvm_test_top.env.master_agent.drv [ahb_master_driver] Beat[2/16] addr=0x0000c048 trans=AHB_TRANS_SEQ resp=AHB_RESP_OKAY rdata=0xa20ebf16
# UVM_INFO ../src/slv/ahb_slave_driver.sv(184) @ 1105000: uvm_test_top.env.slave_agent.drv [ahb_slave_driver] Beat AHB_READ addr=0x0000c048 resp=AHB_RESP_OKAY waits=1 rdata=0xa20ebf16
# UVM_INFO ../src/mst/ahb_master_monitor.sv(128) @ 1105000: uvm_test_top.env.master_agent.mon [ahb_master_monitor] Beat[2] addr=0x0000c048 rdata=0xa20ebf16 resp=AHB_RESP_OKAY
# UVM_INFO ../src/mst/ahb_master_driver.sv(332) @ 1125000: uvm_test_top.env.master_agent.drv [ahb_master_driver] Beat[3/16] addr=0x0000c04c trans=AHB_TRANS_SEQ resp=AHB_RESP_OKAY rdata=0xc9ac0577
# UVM_INFO ../src/slv/ahb_slave_driver.sv(184) @ 1125000: uvm_test_top.env.slave_agent.drv [ahb_slave_driver] Beat AHB_READ addr=0x0000c04c resp=AHB_RESP_OKAY waits=1 rdata=0xc9ac0577
# UVM_INFO ../src/mst/ahb_master_monitor.sv(128) @ 1125000: uvm_test_top.env.master_agent.mon [ahb_master_monitor] Beat[3] addr=0x0000c04c rdata=0xc9ac0577 resp=AHB_RESP_OKAY
# UVM_INFO ../src/mst/ahb_master_driver.sv(332) @ 1145000: uvm_test_top.env.master_agent.drv [ahb_master_driver] Beat[4/16] addr=0x0000c050 trans=AHB_TRANS_SEQ resp=AHB_RESP_OKAY rdata=0xfbdedbf7
# UVM_INFO ../src/slv/ahb_slave_driver.sv(184) @ 1145000: uvm_test_top.env.slave_agent.drv [ahb_slave_driver] Beat AHB_READ addr=0x0000c050 resp=AHB_RESP_OKAY waits=1 rdata=0xfbdedbf7
# UVM_INFO ../src/mst/ahb_master_monitor.sv(128) @ 1145000: uvm_test_top.env.master_agent.mon [ahb_master_monitor] Beat[4] addr=0x0000c050 rdata=0xfbdedbf7 resp=AHB_RESP_OKAY
# UVM_INFO ../src/mst/ahb_master_driver.sv(332) @ 1165000: uvm_test_top.env.master_agent.drv [ahb_master_driver] Beat[5/16] addr=0x0000c054 trans=AHB_TRANS_SEQ resp=AHB_RESP_OKAY rdata=0xf464783e
# UVM_INFO ../src/slv/ahb_slave_driver.sv(184) @ 1165000: uvm_test_top.env.slave_agent.drv [ahb_slave_driver] Beat AHB_READ addr=0x0000c054 resp=AHB_RESP_OKAY waits=1 rdata=0xf464783e
# UVM_INFO ../src/mst/ahb_master_monitor.sv(128) @ 1165000: uvm_test_top.env.master_agent.mon [ahb_master_monitor] Beat[5] addr=0x0000c054 rdata=0xf464783e resp=AHB_RESP_OKAY
# UVM_INFO ../src/mst/ahb_master_driver.sv(332) @ 1195000: uvm_test_top.env.master_agent.drv [ahb_master_driver] Beat[6/16] addr=0x0000c058 trans=AHB_TRANS_SEQ resp=AHB_RESP_OKAY rdata=0xf3916046
# UVM_INFO ../src/slv/ahb_slave_driver.sv(184) @ 1195000: uvm_test_top.env.slave_agent.drv [ahb_slave_driver] Beat AHB_READ addr=0x0000c058 resp=AHB_RESP_OKAY waits=2 rdata=0xf3916046
# UVM_INFO ../src/mst/ahb_master_monitor.sv(128) @ 1195000: uvm_test_top.env.master_agent.mon [ahb_master_monitor] Beat[6] addr=0x0000c058 rdata=0xf3916046 resp=AHB_RESP_OKAY
# UVM_INFO ../src/mst/ahb_master_driver.sv(332) @ 1205000: uvm_test_top.env.master_agent.drv [ahb_master_driver] Beat[7/16] addr=0x0000c05c trans=AHB_TRANS_SEQ resp=AHB_RESP_OKAY rdata=0xfabcd0cb
# UVM_INFO ../src/slv/ahb_slave_driver.sv(184) @ 1205000: uvm_test_top.env.slave_agent.drv [ahb_slave_driver] Beat AHB_READ addr=0x0000c05c resp=AHB_RESP_OKAY waits=0 rdata=0xfabcd0cb
# UVM_INFO ../src/mst/ahb_master_monitor.sv(128) @ 1205000: uvm_test_top.env.master_agent.mon [ahb_master_monitor] Beat[7] addr=0x0000c05c rdata=0xfabcd0cb resp=AHB_RESP_OKAY
# UVM_INFO ../src/mst/ahb_master_driver.sv(332) @ 1215000: uvm_test_top.env.master_agent.drv [ahb_master_driver] Beat[8/16] addr=0x0000c060 trans=AHB_TRANS_SEQ resp=AHB_RESP_OKAY rdata=0xe79ff071
# UVM_INFO ../src/slv/ahb_slave_driver.sv(184) @ 1215000: uvm_test_top.env.slave_agent.drv [ahb_slave_driver] Beat AHB_READ addr=0x0000c060 resp=AHB_RESP_OKAY waits=0 rdata=0xe79ff071
# UVM_INFO ../src/mst/ahb_master_monitor.sv(128) @ 1215000: uvm_test_top.env.master_agent.mon [ahb_master_monitor] Beat[8] addr=0x0000c060 rdata=0xe79ff071 resp=AHB_RESP_OKAY
# UVM_INFO ../src/mst/ahb_master_driver.sv(332) @ 1235000: uvm_test_top.env.master_agent.drv [ahb_master_driver] Beat[9/16] addr=0x0000c064 trans=AHB_TRANS_SEQ resp=AHB_RESP_OKAY rdata=0x82665e5c
# UVM_INFO ../src/slv/ahb_slave_driver.sv(184) @ 1235000: uvm_test_top.env.slave_agent.drv [ahb_slave_driver] Beat AHB_READ addr=0x0000c064 resp=AHB_RESP_OKAY waits=1 rdata=0x82665e5c
# UVM_INFO ../src/mst/ahb_master_monitor.sv(128) @ 1235000: uvm_test_top.env.master_agent.mon [ahb_master_monitor] Beat[9] addr=0x0000c064 rdata=0x82665e5c resp=AHB_RESP_OKAY
# UVM_INFO ../src/mst/ahb_master_driver.sv(332) @ 1265000: uvm_test_top.env.master_agent.drv [ahb_master_driver] Beat[10/16] addr=0x0000c068 trans=AHB_TRANS_SEQ resp=AHB_RESP_OKAY rdata=0x5a42d9a2
# UVM_INFO ../src/slv/ahb_slave_driver.sv(184) @ 1265000: uvm_test_top.env.slave_agent.drv [ahb_slave_driver] Beat AHB_READ addr=0x0000c068 resp=AHB_RESP_OKAY waits=2 rdata=0x5a42d9a2
# UVM_INFO ../src/mst/ahb_master_monitor.sv(128) @ 1265000: uvm_test_top.env.master_agent.mon [ahb_master_monitor] Beat[10] addr=0x0000c068 rdata=0x5a42d9a2 resp=AHB_RESP_OKAY
# UVM_INFO ../src/mst/ahb_master_driver.sv(332) @ 1295000: uvm_test_top.env.master_agent.drv [ahb_master_driver] Beat[11/16] addr=0x0000c06c trans=AHB_TRANS_SEQ resp=AHB_RESP_OKAY rdata=0x6a9d2d8f
# UVM_INFO ../src/slv/ahb_slave_driver.sv(184) @ 1295000: uvm_test_top.env.slave_agent.drv [ahb_slave_driver] Beat AHB_READ addr=0x0000c06c resp=AHB_RESP_OKAY waits=2 rdata=0x6a9d2d8f
# UVM_INFO ../src/mst/ahb_master_monitor.sv(128) @ 1295000: uvm_test_top.env.master_agent.mon [ahb_master_monitor] Beat[11] addr=0x0000c06c rdata=0x6a9d2d8f resp=AHB_RESP_OKAY
# UVM_INFO ../src/mst/ahb_master_driver.sv(332) @ 1305000: uvm_test_top.env.master_agent.drv [ahb_master_driver] Beat[12/16] addr=0x0000c070 trans=AHB_TRANS_SEQ resp=AHB_RESP_OKAY rdata=0x1bd718bf
# UVM_INFO ../src/slv/ahb_slave_driver.sv(184) @ 1305000: uvm_test_top.env.slave_agent.drv [ahb_slave_driver] Beat AHB_READ addr=0x0000c070 resp=AHB_RESP_OKAY waits=0 rdata=0x1bd718bf
# UVM_INFO ../src/mst/ahb_master_monitor.sv(128) @ 1305000: uvm_test_top.env.master_agent.mon [ahb_master_monitor] Beat[12] addr=0x0000c070 rdata=0x1bd718bf resp=AHB_RESP_OKAY
# UVM_INFO ../src/mst/ahb_master_driver.sv(332) @ 1335000: uvm_test_top.env.master_agent.drv [ahb_master_driver] Beat[13/16] addr=0x0000c074 trans=AHB_TRANS_SEQ resp=AHB_RESP_OKAY rdata=0x4358fee9
# UVM_INFO ../src/slv/ahb_slave_driver.sv(184) @ 1335000: uvm_test_top.env.slave_agent.drv [ahb_slave_driver] Beat AHB_READ addr=0x0000c074 resp=AHB_RESP_OKAY waits=2 rdata=0x4358fee9
# UVM_INFO ../src/mst/ahb_master_monitor.sv(128) @ 1335000: uvm_test_top.env.master_agent.mon [ahb_master_monitor] Beat[13] addr=0x0000c074 rdata=0x4358fee9 resp=AHB_RESP_OKAY
# UVM_INFO ../src/mst/ahb_master_driver.sv(332) @ 1365000: uvm_test_top.env.master_agent.drv [ahb_master_driver] Beat[14/16] addr=0x0000c078 trans=AHB_TRANS_SEQ resp=AHB_RESP_OKAY rdata=0x4d1e822b
# UVM_INFO ../src/slv/ahb_slave_driver.sv(184) @ 1365000: uvm_test_top.env.slave_agent.drv [ahb_slave_driver] Beat AHB_READ addr=0x0000c078 resp=AHB_RESP_OKAY waits=2 rdata=0x4d1e822b
# UVM_INFO ../src/mst/ahb_master_monitor.sv(128) @ 1365000: uvm_test_top.env.master_agent.mon [ahb_master_monitor] Beat[14] addr=0x0000c078 rdata=0x4d1e822b resp=AHB_RESP_OKAY
# UVM_INFO ../src/mst/ahb_master_driver.sv(332) @ 1395000: uvm_test_top.env.master_agent.drv [ahb_master_driver] Beat[15/16] addr=0x0000c07c trans=AHB_TRANS_SEQ resp=AHB_RESP_OKAY rdata=0x0be229b7
# UVM_INFO ../src/mst/ahb_master_driver.sv(376) @ 1395000: uvm_test_top.env.master_agent.drv [ahb_master_driver] Transaction complete: AHB_READ 0x0000c040, 16 beats, burst=AHB_BURST_INCR16
# UVM_INFO ../src/slv/ahb_slave_driver.sv(184) @ 1395000: uvm_test_top.env.slave_agent.drv [ahb_slave_driver] Beat AHB_READ addr=0x0000c07c resp=AHB_RESP_OKAY waits=2 rdata=0x0be229b7
# UVM_INFO ../src/slv/ahb_slave_monitor.sv(208) @ 1395000: uvm_test_top.env.slave_agent.mon [ahb_slave_monitor] Observed [AHB_READ]: HADDR=0x0000c040, HBURST=AHB_BURST_INCR16, HSIZE=AHB_SIZE_32B, 16 beats
# UVM_INFO ../src/env/ahb_coverage.sv(174) @ 1395000: uvm_test_top.env.slave_cov [ahb_coverage] Sampled [AHB_READ]: burst=AHB_BURST_INCR16 size=AHB_SIZE_32B beats=16 error=0
# UVM_INFO ../src/mst/ahb_master_monitor.sv(128) @ 1395000: uvm_test_top.env.master_agent.mon [ahb_master_monitor] Beat[15] addr=0x0000c07c rdata=0x0be229b7 resp=AHB_RESP_OKAY
# UVM_INFO ../src/mst/ahb_master_monitor.sv(231) @ 1395000: uvm_test_top.env.master_agent.mon [ahb_master_monitor] Observed [AHB_READ]: HADDR=0x0000c040, HBURST=AHB_BURST_INCR16, HSIZE=AHB_SIZE_32B, 16 beats
# UVM_INFO ../src/env/ahb_coverage.sv(174) @ 1395000: uvm_test_top.env.master_cov [ahb_coverage] Sampled [AHB_READ]: burst=AHB_BURST_INCR16 size=AHB_SIZE_32B beats=16 error=0
# UVM_INFO ../src/env/ahb_scoreboard.sv(104) @ 1395000: uvm_test_top.env.scb [ahb_scoreboard] MATCH #4: [AHB_READ] HADDR=0x0000c040 AHB_BURST_INCR16 16 beats
# UVM_INFO ../src/mst_seq/ahb_base_seq.sv(157) @ 1395000: uvm_test_top.env.master_agent.sqr@@seq [ahb_busy_seq] AHB_BURST_INCR16 AHB_SIZE_32B beat 0 @0x0000c040 ok
# UVM_INFO ../src/mst_seq/ahb_base_seq.sv(157) @ 1395000: uvm_test_top.env.master_agent.sqr@@seq [ahb_busy_seq] AHB_BURST_INCR16 AHB_SIZE_32B beat 1 @0x0000c044 ok
# UVM_INFO ../src/mst_seq/ahb_base_seq.sv(157) @ 1395000: uvm_test_top.env.master_agent.sqr@@seq [ahb_busy_seq] AHB_BURST_INCR16 AHB_SIZE_32B beat 2 @0x0000c048 ok
# UVM_INFO ../src/mst_seq/ahb_base_seq.sv(157) @ 1395000: uvm_test_top.env.master_agent.sqr@@seq [ahb_busy_seq] AHB_BURST_INCR16 AHB_SIZE_32B beat 3 @0x0000c04c ok
# UVM_INFO ../src/mst_seq/ahb_base_seq.sv(157) @ 1395000: uvm_test_top.env.master_agent.sqr@@seq [ahb_busy_seq] AHB_BURST_INCR16 AHB_SIZE_32B beat 4 @0x0000c050 ok
# UVM_INFO ../src/mst_seq/ahb_base_seq.sv(157) @ 1395000: uvm_test_top.env.master_agent.sqr@@seq [ahb_busy_seq] AHB_BURST_INCR16 AHB_SIZE_32B beat 5 @0x0000c054 ok
# UVM_INFO ../src/mst_seq/ahb_base_seq.sv(157) @ 1395000: uvm_test_top.env.master_agent.sqr@@seq [ahb_busy_seq] AHB_BURST_INCR16 AHB_SIZE_32B beat 6 @0x0000c058 ok
# UVM_INFO ../src/mst_seq/ahb_base_seq.sv(157) @ 1395000: uvm_test_top.env.master_agent.sqr@@seq [ahb_busy_seq] AHB_BURST_INCR16 AHB_SIZE_32B beat 7 @0x0000c05c ok
# UVM_INFO ../src/mst_seq/ahb_base_seq.sv(157) @ 1395000: uvm_test_top.env.master_agent.sqr@@seq [ahb_busy_seq] AHB_BURST_INCR16 AHB_SIZE_32B beat 8 @0x0000c060 ok
# UVM_INFO ../src/mst_seq/ahb_base_seq.sv(157) @ 1395000: uvm_test_top.env.master_agent.sqr@@seq [ahb_busy_seq] AHB_BURST_INCR16 AHB_SIZE_32B beat 9 @0x0000c064 ok
# UVM_INFO ../src/mst_seq/ahb_base_seq.sv(157) @ 1395000: uvm_test_top.env.master_agent.sqr@@seq [ahb_busy_seq] AHB_BURST_INCR16 AHB_SIZE_32B beat 10 @0x0000c068 ok
# UVM_INFO ../src/mst_seq/ahb_base_seq.sv(157) @ 1395000: uvm_test_top.env.master_agent.sqr@@seq [ahb_busy_seq] AHB_BURST_INCR16 AHB_SIZE_32B beat 11 @0x0000c06c ok
# UVM_INFO ../src/mst_seq/ahb_base_seq.sv(157) @ 1395000: uvm_test_top.env.master_agent.sqr@@seq [ahb_busy_seq] AHB_BURST_INCR16 AHB_SIZE_32B beat 12 @0x0000c070 ok
# UVM_INFO ../src/mst_seq/ahb_base_seq.sv(157) @ 1395000: uvm_test_top.env.master_agent.sqr@@seq [ahb_busy_seq] AHB_BURST_INCR16 AHB_SIZE_32B beat 13 @0x0000c074 ok
# UVM_INFO ../src/mst_seq/ahb_base_seq.sv(157) @ 1395000: uvm_test_top.env.master_agent.sqr@@seq [ahb_busy_seq] AHB_BURST_INCR16 AHB_SIZE_32B beat 14 @0x0000c078 ok
# UVM_INFO ../src/mst_seq/ahb_base_seq.sv(157) @ 1395000: uvm_test_top.env.master_agent.sqr@@seq [ahb_busy_seq] AHB_BURST_INCR16 AHB_SIZE_32B beat 15 @0x0000c07c ok
# UVM_INFO ../src/mst_seq/ahb_busy_seq.sv(105) @ 1395000: uvm_test_top.env.master_agent.sqr@@seq [ahb_busy_seq] AHB_BURST_WRAP8 AHB_SIZE_16B @0x0000c0ba, 8 beats, retract=1
# UVM_INFO ../src/mst/ahb_master_driver.sv(85) @ 1395000: uvm_test_top.env.master_agent.drv [ahb_master_driver] Queueing [AHB_WRITE]: HADDR=0x0000c0ba, HBURST=AHB_BURST_WRAP8, HSIZE=AHB_SIZE_16B, 8 beats
# UVM_INFO ../src/mst/ahb_master_driver.sv(127) @ 1395000: uvm_test_top.env.master_agent.drv [ahb_master_driver] Driving [AHB_WRITE]: HADDR=0x0000c0ba, HBURST=AHB_BURST_WRAP8, HSIZE=AHB_SIZE_16B, 8 beats               
# UVM_INFO ../src/mst/ahb_master_driver.sv(332) @ 1425000: uvm_test_top.env.master_agent.drv [ahb_master_driver] Beat[0/8] addr=0x0000c0ba trans=AHB_TRANS_NONSEQ resp=AHB_RESP_OKAY wdata=0xf0b6a711
# UVM_INFO ../src/slv/ahb_slave_driver.sv(184) @ 1425000: uvm_test_top.env.slave_agent.drv [ahb_slave_driver] Beat AHB_WRITE addr=0x0000c0ba resp=AHB_RESP_OKAY waits=0 wdata=0xf0b6a711
# UVM_INFO ../src/mst/ahb_master_monitor.sv(128) @ 1425000: uvm_test_top.env.master_agent.mon [ahb_master_monitor] Beat[0] addr=0x0000c0ba wdata=0xf0b6a711 resp=AHB_RESP_OKAY
# UVM_INFO ../src/mst/ahb_master_driver.sv(332) @ 1475000: uvm_test_top.env.master_agent.drv [ahb_master_driver] Beat[1/8] addr=0x0000c0bc trans=AHB_TRANS_SEQ resp=AHB_RESP_OKAY wdata=0xc9f93fa1
# UVM_INFO ../src/slv/ahb_slave_driver.sv(184) @ 1475000: uvm_test_top.env.slave_agent.drv [ahb_slave_driver] Beat AHB_WRITE addr=0x0000c0bc resp=AHB_RESP_OKAY waits=2 wdata=0xc9f93fa1
# UVM_INFO ../src/mst/ahb_master_monitor.sv(128) @ 1475000: uvm_test_top.env.master_agent.mon [ahb_master_monitor] Beat[1] addr=0x0000c0bc wdata=0xc9f93fa1 resp=AHB_RESP_OKAY
# UVM_INFO ../src/mst/ahb_master_driver.sv(332) @ 1495000: uvm_test_top.env.master_agent.drv [ahb_master_driver] Beat[2/8] addr=0x0000c0be trans=AHB_TRANS_SEQ resp=AHB_RESP_OKAY wdata=0xb8fc884b
# UVM_INFO ../src/slv/ahb_slave_driver.sv(184) @ 1495000: uvm_test_top.env.slave_agent.drv [ahb_slave_driver] Beat AHB_WRITE addr=0x0000c0be resp=AHB_RESP_OKAY waits=1 wdata=0xb8fc884b
# UVM_INFO ../src/mst/ahb_master_monitor.sv(128) @ 1495000: uvm_test_top.env.master_agent.mon [ahb_master_monitor] Beat[2] addr=0x0000c0be wdata=0xb8fc884b resp=AHB_RESP_OKAY
# UVM_INFO ../src/mst/ahb_master_driver.sv(332) @ 1525000: uvm_test_top.env.master_agent.drv [ahb_master_driver] Beat[3/8] addr=0x0000c0b0 trans=AHB_TRANS_SEQ resp=AHB_RESP_OKAY wdata=0xa4488f5e
# UVM_INFO ../src/slv/ahb_slave_driver.sv(184) @ 1525000: uvm_test_top.env.slave_agent.drv [ahb_slave_driver] Beat AHB_WRITE addr=0x0000c0b0 resp=AHB_RESP_OKAY waits=2 wdata=0xa4488f5e
# UVM_INFO ../src/mst/ahb_master_monitor.sv(128) @ 1525000: uvm_test_top.env.master_agent.mon [ahb_master_monitor] Beat[3] addr=0x0000c0b0 wdata=0xa4488f5e resp=AHB_RESP_OKAY
# UVM_INFO ../src/mst/ahb_master_driver.sv(332) @ 1545000: uvm_test_top.env.master_agent.drv [ahb_master_driver] Beat[4/8] addr=0x0000c0b2 trans=AHB_TRANS_SEQ resp=AHB_RESP_OKAY wdata=0x17203e48
# UVM_INFO ../src/slv/ahb_slave_driver.sv(184) @ 1545000: uvm_test_top.env.slave_agent.drv [ahb_slave_driver] Beat AHB_WRITE addr=0x0000c0b2 resp=AHB_RESP_OKAY waits=1 wdata=0x17203e48
# UVM_INFO ../src/mst/ahb_master_monitor.sv(128) @ 1545000: uvm_test_top.env.master_agent.mon [ahb_master_monitor] Beat[4] addr=0x0000c0b2 wdata=0x17203e48 resp=AHB_RESP_OKAY
# UVM_INFO ../src/mst/ahb_master_driver.sv(332) @ 1575000: uvm_test_top.env.master_agent.drv [ahb_master_driver] Beat[5/8] addr=0x0000c0b4 trans=AHB_TRANS_SEQ resp=AHB_RESP_OKAY wdata=0xb1883fbd
# UVM_INFO ../src/slv/ahb_slave_driver.sv(184) @ 1575000: uvm_test_top.env.slave_agent.drv [ahb_slave_driver] Beat AHB_WRITE addr=0x0000c0b4 resp=AHB_RESP_OKAY waits=2 wdata=0xb1883fbd
# UVM_INFO ../src/mst/ahb_master_monitor.sv(128) @ 1575000: uvm_test_top.env.master_agent.mon [ahb_master_monitor] Beat[5] addr=0x0000c0b4 wdata=0xb1883fbd resp=AHB_RESP_OKAY
# UVM_INFO ../src/mst/ahb_master_driver.sv(332) @ 1585000: uvm_test_top.env.master_agent.drv [ahb_master_driver] Beat[6/8] addr=0x0000c0b6 trans=AHB_TRANS_SEQ resp=AHB_RESP_OKAY wdata=0xa493c8a3
# UVM_INFO ../src/slv/ahb_slave_driver.sv(184) @ 1585000: uvm_test_top.env.slave_agent.drv [ahb_slave_driver] Beat AHB_WRITE addr=0x0000c0b6 resp=AHB_RESP_OKAY waits=0 wdata=0xa493c8a3
# UVM_INFO ../src/mst/ahb_master_monitor.sv(128) @ 1585000: uvm_test_top.env.master_agent.mon [ahb_master_monitor] Beat[6] addr=0x0000c0b6 wdata=0xa493c8a3 resp=AHB_RESP_OKAY
# UVM_INFO ../src/mst/ahb_master_driver.sv(332) @ 1615000: uvm_test_top.env.master_agent.drv [ahb_master_driver] Beat[7/8] addr=0x0000c0b8 trans=AHB_TRANS_SEQ resp=AHB_RESP_OKAY wdata=0xd4ba2880
# UVM_INFO ../src/mst/ahb_master_driver.sv(376) @ 1615000: uvm_test_top.env.master_agent.drv [ahb_master_driver] Transaction complete: AHB_WRITE 0x0000c0ba, 8 beats, burst=AHB_BURST_WRAP8
# UVM_INFO ../src/slv/ahb_slave_driver.sv(184) @ 1615000: uvm_test_top.env.slave_agent.drv [ahb_slave_driver] Beat AHB_WRITE addr=0x0000c0b8 resp=AHB_RESP_OKAY waits=1 wdata=0xd4ba2880
# UVM_INFO ../src/slv/ahb_slave_monitor.sv(208) @ 1615000: uvm_test_top.env.slave_agent.mon [ahb_slave_monitor] Observed [AHB_WRITE]: HADDR=0x0000c0ba, HBURST=AHB_BURST_WRAP8, HSIZE=AHB_SIZE_16B, 8 beats
# UVM_INFO ../src/env/ahb_coverage.sv(174) @ 1615000: uvm_test_top.env.slave_cov [ahb_coverage] Sampled [AHB_WRITE]: burst=AHB_BURST_WRAP8 size=AHB_SIZE_16B beats=8 error=0
# UVM_INFO ../src/mst/ahb_master_monitor.sv(128) @ 1615000: uvm_test_top.env.master_agent.mon [ahb_master_monitor] Beat[7] addr=0x0000c0b8 wdata=0xd4ba2880 resp=AHB_RESP_OKAY
# UVM_INFO ../src/mst/ahb_master_monitor.sv(231) @ 1615000: uvm_test_top.env.master_agent.mon [ahb_master_monitor] Observed [AHB_WRITE]: HADDR=0x0000c0ba, HBURST=AHB_BURST_WRAP8, HSIZE=AHB_SIZE_16B, 8 beats
# UVM_INFO ../src/env/ahb_coverage.sv(174) @ 1615000: uvm_test_top.env.master_cov [ahb_coverage] Sampled [AHB_WRITE]: burst=AHB_BURST_WRAP8 size=AHB_SIZE_16B beats=8 error=0
# UVM_INFO ../src/env/ahb_scoreboard.sv(104) @ 1615000: uvm_test_top.env.scb [ahb_scoreboard] MATCH #5: [AHB_WRITE] HADDR=0x0000c0ba AHB_BURST_WRAP8 8 beats
# UVM_INFO ../src/mst/ahb_master_driver.sv(85) @ 1615000: uvm_test_top.env.master_agent.drv [ahb_master_driver] Queueing [AHB_READ]: HADDR=0x0000c0ba, HBURST=AHB_BURST_WRAP8, HSIZE=AHB_SIZE_16B, 8 beats
# UVM_INFO ../src/mst/ahb_master_driver.sv(127) @ 1615000: uvm_test_top.env.master_agent.drv [ahb_master_driver] Driving [AHB_READ]: HADDR=0x0000c0ba, HBURST=AHB_BURST_WRAP8, HSIZE=AHB_SIZE_16B, 8 beats               
# UVM_INFO ../src/mst/ahb_master_driver.sv(332) @ 1665000: uvm_test_top.env.master_agent.drv [ahb_master_driver] Beat[0/8] addr=0x0000c0ba trans=AHB_TRANS_NONSEQ resp=AHB_RESP_OKAY rdata=0xf0b6a711
# UVM_INFO ../src/slv/ahb_slave_driver.sv(184) @ 1665000: uvm_test_top.env.slave_agent.drv [ahb_slave_driver] Beat AHB_READ addr=0x0000c0ba resp=AHB_RESP_OKAY waits=2 rdata=0xf0b6a711
# UVM_INFO ../src/mst/ahb_master_monitor.sv(128) @ 1665000: uvm_test_top.env.master_agent.mon [ahb_master_monitor] Beat[0] addr=0x0000c0ba rdata=0xf0b6a711 resp=AHB_RESP_OKAY
# UVM_INFO ../src/mst/ahb_master_driver.sv(332) @ 1675000: uvm_test_top.env.master_agent.drv [ahb_master_driver] Beat[1/8] addr=0x0000c0bc trans=AHB_TRANS_SEQ resp=AHB_RESP_OKAY rdata=0xc9f93fa1
# UVM_INFO ../src/slv/ahb_slave_driver.sv(184) @ 1675000: uvm_test_top.env.slave_agent.drv [ahb_slave_driver] Beat AHB_READ addr=0x0000c0bc resp=AHB_RESP_OKAY waits=0 rdata=0xc9f93fa1
# UVM_INFO ../src/mst/ahb_master_monitor.sv(128) @ 1675000: uvm_test_top.env.master_agent.mon [ahb_master_monitor] Beat[1] addr=0x0000c0bc rdata=0xc9f93fa1 resp=AHB_RESP_OKAY
# UVM_INFO ../src/mst/ahb_master_driver.sv(332) @ 1705000: uvm_test_top.env.master_agent.drv [ahb_master_driver] Beat[2/8] addr=0x0000c0be trans=AHB_TRANS_SEQ resp=AHB_RESP_OKAY rdata=0xb8fc884b
# UVM_INFO ../src/slv/ahb_slave_driver.sv(184) @ 1705000: uvm_test_top.env.slave_agent.drv [ahb_slave_driver] Beat AHB_READ addr=0x0000c0be resp=AHB_RESP_OKAY waits=2 rdata=0xb8fc884b
# UVM_INFO ../src/mst/ahb_master_monitor.sv(128) @ 1705000: uvm_test_top.env.master_agent.mon [ahb_master_monitor] Beat[2] addr=0x0000c0be rdata=0xb8fc884b resp=AHB_RESP_OKAY
# UVM_INFO ../src/mst/ahb_master_driver.sv(332) @ 1725000: uvm_test_top.env.master_agent.drv [ahb_master_driver] Beat[3/8] addr=0x0000c0b0 trans=AHB_TRANS_SEQ resp=AHB_RESP_OKAY rdata=0xa4488f5e
# UVM_INFO ../src/slv/ahb_slave_driver.sv(184) @ 1725000: uvm_test_top.env.slave_agent.drv [ahb_slave_driver] Beat AHB_READ addr=0x0000c0b0 resp=AHB_RESP_OKAY waits=1 rdata=0xa4488f5e
# UVM_INFO ../src/mst/ahb_master_monitor.sv(128) @ 1725000: uvm_test_top.env.master_agent.mon [ahb_master_monitor] Beat[3] addr=0x0000c0b0 rdata=0xa4488f5e resp=AHB_RESP_OKAY
# UVM_INFO ../src/mst/ahb_master_driver.sv(332) @ 1755000: uvm_test_top.env.master_agent.drv [ahb_master_driver] Beat[4/8] addr=0x0000c0b2 trans=AHB_TRANS_SEQ resp=AHB_RESP_OKAY rdata=0x17203e48
# UVM_INFO ../src/slv/ahb_slave_driver.sv(184) @ 1755000: uvm_test_top.env.slave_agent.drv [ahb_slave_driver] Beat AHB_READ addr=0x0000c0b2 resp=AHB_RESP_OKAY waits=2 rdata=0x17203e48
# UVM_INFO ../src/mst/ahb_master_monitor.sv(128) @ 1755000: uvm_test_top.env.master_agent.mon [ahb_master_monitor] Beat[4] addr=0x0000c0b2 rdata=0x17203e48 resp=AHB_RESP_OKAY
# UVM_INFO ../src/mst/ahb_master_driver.sv(332) @ 1775000: uvm_test_top.env.master_agent.drv [ahb_master_driver] Beat[5/8] addr=0x0000c0b4 trans=AHB_TRANS_SEQ resp=AHB_RESP_OKAY rdata=0xb1883fbd
# UVM_INFO ../src/slv/ahb_slave_driver.sv(184) @ 1775000: uvm_test_top.env.slave_agent.drv [ahb_slave_driver] Beat AHB_READ addr=0x0000c0b4 resp=AHB_RESP_OKAY waits=1 rdata=0xb1883fbd
# UVM_INFO ../src/mst/ahb_master_monitor.sv(128) @ 1775000: uvm_test_top.env.master_agent.mon [ahb_master_monitor] Beat[5] addr=0x0000c0b4 rdata=0xb1883fbd resp=AHB_RESP_OKAY
# UVM_INFO ../src/mst/ahb_master_driver.sv(332) @ 1805000: uvm_test_top.env.master_agent.drv [ahb_master_driver] Beat[6/8] addr=0x0000c0b6 trans=AHB_TRANS_SEQ resp=AHB_RESP_OKAY rdata=0xa493c8a3
# UVM_INFO ../src/slv/ahb_slave_driver.sv(184) @ 1805000: uvm_test_top.env.slave_agent.drv [ahb_slave_driver] Beat AHB_READ addr=0x0000c0b6 resp=AHB_RESP_OKAY waits=2 rdata=0xa493c8a3
# UVM_INFO ../src/mst/ahb_master_monitor.sv(128) @ 1805000: uvm_test_top.env.master_agent.mon [ahb_master_monitor] Beat[6] addr=0x0000c0b6 rdata=0xa493c8a3 resp=AHB_RESP_OKAY
# UVM_INFO ../src/mst/ahb_master_driver.sv(332) @ 1815000: uvm_test_top.env.master_agent.drv [ahb_master_driver] Beat[7/8] addr=0x0000c0b8 trans=AHB_TRANS_SEQ resp=AHB_RESP_OKAY rdata=0xd4ba2880
# UVM_INFO ../src/mst/ahb_master_driver.sv(376) @ 1815000: uvm_test_top.env.master_agent.drv [ahb_master_driver] Transaction complete: AHB_READ 0x0000c0ba, 8 beats, burst=AHB_BURST_WRAP8
# UVM_INFO ../src/slv/ahb_slave_driver.sv(184) @ 1815000: uvm_test_top.env.slave_agent.drv [ahb_slave_driver] Beat AHB_READ addr=0x0000c0b8 resp=AHB_RESP_OKAY waits=0 rdata=0xd4ba2880
# UVM_INFO ../src/slv/ahb_slave_monitor.sv(208) @ 1815000: uvm_test_top.env.slave_agent.mon [ahb_slave_monitor] Observed [AHB_READ]: HADDR=0x0000c0ba, HBURST=AHB_BURST_WRAP8, HSIZE=AHB_SIZE_16B, 8 beats
# UVM_INFO ../src/env/ahb_coverage.sv(174) @ 1815000: uvm_test_top.env.slave_cov [ahb_coverage] Sampled [AHB_READ]: burst=AHB_BURST_WRAP8 size=AHB_SIZE_16B beats=8 error=0
# UVM_INFO ../src/mst/ahb_master_monitor.sv(128) @ 1815000: uvm_test_top.env.master_agent.mon [ahb_master_monitor] Beat[7] addr=0x0000c0b8 rdata=0xd4ba2880 resp=AHB_RESP_OKAY
# UVM_INFO ../src/mst/ahb_master_monitor.sv(231) @ 1815000: uvm_test_top.env.master_agent.mon [ahb_master_monitor] Observed [AHB_READ]: HADDR=0x0000c0ba, HBURST=AHB_BURST_WRAP8, HSIZE=AHB_SIZE_16B, 8 beats
# UVM_INFO ../src/env/ahb_coverage.sv(174) @ 1815000: uvm_test_top.env.master_cov [ahb_coverage] Sampled [AHB_READ]: burst=AHB_BURST_WRAP8 size=AHB_SIZE_16B beats=8 error=0
# UVM_INFO ../src/env/ahb_scoreboard.sv(104) @ 1815000: uvm_test_top.env.scb [ahb_scoreboard] MATCH #6: [AHB_READ] HADDR=0x0000c0ba AHB_BURST_WRAP8 8 beats
# UVM_INFO ../src/mst_seq/ahb_base_seq.sv(157) @ 1815000: uvm_test_top.env.master_agent.sqr@@seq [ahb_busy_seq] AHB_BURST_WRAP8 AHB_SIZE_16B beat 0 @0x0000c0ba ok
# UVM_INFO ../src/mst_seq/ahb_base_seq.sv(157) @ 1815000: uvm_test_top.env.master_agent.sqr@@seq [ahb_busy_seq] AHB_BURST_WRAP8 AHB_SIZE_16B beat 1 @0x0000c0bc ok
# UVM_INFO ../src/mst_seq/ahb_base_seq.sv(157) @ 1815000: uvm_test_top.env.master_agent.sqr@@seq [ahb_busy_seq] AHB_BURST_WRAP8 AHB_SIZE_16B beat 2 @0x0000c0be ok
# UVM_INFO ../src/mst_seq/ahb_base_seq.sv(157) @ 1815000: uvm_test_top.env.master_agent.sqr@@seq [ahb_busy_seq] AHB_BURST_WRAP8 AHB_SIZE_16B beat 3 @0x0000c0b0 ok
# UVM_INFO ../src/mst_seq/ahb_base_seq.sv(157) @ 1815000: uvm_test_top.env.master_agent.sqr@@seq [ahb_busy_seq] AHB_BURST_WRAP8 AHB_SIZE_16B beat 4 @0x0000c0b2 ok
# UVM_INFO ../src/mst_seq/ahb_base_seq.sv(157) @ 1815000: uvm_test_top.env.master_agent.sqr@@seq [ahb_busy_seq] AHB_BURST_WRAP8 AHB_SIZE_16B beat 5 @0x0000c0b4 ok
# UVM_INFO ../src/mst_seq/ahb_base_seq.sv(157) @ 1815000: uvm_test_top.env.master_agent.sqr@@seq [ahb_busy_seq] AHB_BURST_WRAP8 AHB_SIZE_16B beat 6 @0x0000c0b6 ok
# UVM_INFO ../src/mst_seq/ahb_base_seq.sv(157) @ 1815000: uvm_test_top.env.master_agent.sqr@@seq [ahb_busy_seq] AHB_BURST_WRAP8 AHB_SIZE_16B beat 7 @0x0000c0b8 ok
# UVM_INFO ../src/mst_seq/ahb_busy_seq.sv(105) @ 1815000: uvm_test_top.env.master_agent.sqr@@seq [ahb_busy_seq] AHB_BURST_INCR AHB_SIZE_16B @0x0000c0c4, 16 beats, retract=1
# UVM_INFO ../src/mst/ahb_master_driver.sv(85) @ 1815000: uvm_test_top.env.master_agent.drv [ahb_master_driver] Queueing [AHB_WRITE]: HADDR=0x0000c0c4, HBURST=AHB_BURST_INCR, HSIZE=AHB_SIZE_16B, 16 beats
# UVM_INFO ../src/mst/ahb_master_driver.sv(127) @ 1815000: uvm_test_top.env.master_agent.drv [ahb_master_driver] Driving [AHB_WRITE]: HADDR=0x0000c0c4, HBURST=AHB_BURST_INCR, HSIZE=AHB_SIZE_16B, 16 beats               
# UVM_INFO ../src/mst/ahb_master_driver.sv(332) @ 1845000: uvm_test_top.env.master_agent.drv [ahb_master_driver] Beat[0/16] addr=0x0000c0c4 trans=AHB_TRANS_NONSEQ resp=AHB_RESP_OKAY wdata=0x00ff9d14
# UVM_INFO ../src/slv/ahb_slave_driver.sv(184) @ 1845000: uvm_test_top.env.slave_agent.drv [ahb_slave_driver] Beat AHB_WRITE addr=0x0000c0c4 resp=AHB_RESP_OKAY waits=0 wdata=0x00ff9d14
# UVM_INFO ../src/mst/ahb_master_monitor.sv(128) @ 1845000: uvm_test_top.env.master_agent.mon [ahb_master_monitor] Beat[0] addr=0x0000c0c4 wdata=0x00ff9d14 resp=AHB_RESP_OKAY
# UVM_INFO ../src/mst/ahb_master_driver.sv(332) @ 1905000: uvm_test_top.env.master_agent.drv [ahb_master_driver] Beat[1/16] addr=0x0000c0c6 trans=AHB_TRANS_SEQ resp=AHB_RESP_OKAY wdata=0xe46687f4
# UVM_INFO ../src/slv/ahb_slave_driver.sv(184) @ 1905000: uvm_test_top.env.slave_agent.drv [ahb_slave_driver] Beat AHB_WRITE addr=0x0000c0c6 resp=AHB_RESP_OKAY waits=2 wdata=0xe46687f4
# UVM_INFO ../src/mst/ahb_master_monitor.sv(128) @ 1905000: uvm_test_top.env.master_agent.mon [ahb_master_monitor] Beat[1] addr=0x0000c0c6 wdata=0xe46687f4 resp=AHB_RESP_OKAY
# UVM_INFO ../src/mst/ahb_master_driver.sv(332) @ 1915000: uvm_test_top.env.master_agent.drv [ahb_master_driver] Beat[2/16] addr=0x0000c0c8 trans=AHB_TRANS_SEQ resp=AHB_RESP_OKAY wdata=0x47b1c937
# UVM_INFO ../src/slv/ahb_slave_driver.sv(184) @ 1915000: uvm_test_top.env.slave_agent.drv [ahb_slave_driver] Beat AHB_WRITE addr=0x0000c0c8 resp=AHB_RESP_OKAY waits=0 wdata=0x47b1c937
# UVM_INFO ../src/mst/ahb_master_monitor.sv(128) @ 1915000: uvm_test_top.env.master_agent.mon [ahb_master_monitor] Beat[2] addr=0x0000c0c8 wdata=0x47b1c937 resp=AHB_RESP_OKAY
# UVM_INFO ../src/mst/ahb_master_driver.sv(332) @ 1955000: uvm_test_top.env.master_agent.drv [ahb_master_driver] Beat[3/16] addr=0x0000c0ca trans=AHB_TRANS_SEQ resp=AHB_RESP_OKAY wdata=0x2b72da22
# UVM_INFO ../src/slv/ahb_slave_driver.sv(184) @ 1955000: uvm_test_top.env.slave_agent.drv [ahb_slave_driver] Beat AHB_WRITE addr=0x0000c0ca resp=AHB_RESP_OKAY waits=1 wdata=0x2b72da22
# UVM_INFO ../src/mst/ahb_master_monitor.sv(128) @ 1955000: uvm_test_top.env.master_agent.mon [ahb_master_monitor] Beat[3] addr=0x0000c0ca wdata=0x2b72da22 resp=AHB_RESP_OKAY
# UVM_INFO ../src/mst/ahb_master_driver.sv(332) @ 1965000: uvm_test_top.env.master_agent.drv [ahb_master_driver] Beat[4/16] addr=0x0000c0cc trans=AHB_TRANS_SEQ resp=AHB_RESP_OKAY wdata=0x3f1aa09c
# UVM_INFO ../src/slv/ahb_slave_driver.sv(184) @ 1965000: uvm_test_top.env.slave_agent.drv [ahb_slave_driver] Beat AHB_WRITE addr=0x0000c0cc resp=AHB_RESP_OKAY waits=0 wdata=0x3f1aa09c
# UVM_INFO ../src/mst/ahb_master_monitor.sv(128) @ 1965000: uvm_test_top.env.master_agent.mon [ahb_master_monitor] Beat[4] addr=0x0000c0cc wdata=0x3f1aa09c resp=AHB_RESP_OKAY
# UVM_INFO ../src/mst/ahb_master_driver.sv(332) @ 1995000: uvm_test_top.env.master_agent.drv [ahb_master_driver] Beat[5/16] addr=0x0000c0ce trans=AHB_TRANS_SEQ resp=AHB_RESP_OKAY wdata=0x9c9b3f10
# UVM_INFO ../src/slv/ahb_slave_driver.sv(184) @ 1995000: uvm_test_top.env.slave_agent.drv [ahb_slave_driver] Beat AHB_WRITE addr=0x0000c0ce resp=AHB_RESP_OKAY waits=0 wdata=0x9c9b3f10
# UVM_INFO ../src/mst/ahb_master_monitor.sv(128) @ 1995000: uvm_test_top.env.master_agent.mon [ahb_master_monitor] Beat[5] addr=0x0000c0ce wdata=0x9c9b3f10 resp=AHB_RESP_OKAY
# UVM_INFO ../src/mst/ahb_master_driver.sv(332) @ 2035000: uvm_test_top.env.master_agent.drv [ahb_master_driver] Beat[6/16] addr=0x0000c0d0 trans=AHB_TRANS_SEQ resp=AHB_RESP_OKAY wdata=0xc25065aa
# UVM_INFO ../src/slv/ahb_slave_driver.sv(184) @ 2035000: uvm_test_top.env.slave_agent.drv [ahb_slave_driver] Beat AHB_WRITE addr=0x0000c0d0 resp=AHB_RESP_OKAY waits=2 wdata=0xc25065aa
# UVM_INFO ../src/mst/ahb_master_monitor.sv(128) @ 2035000: uvm_test_top.env.master_agent.mon [ahb_master_monitor] Beat[6] addr=0x0000c0d0 wdata=0xc25065aa resp=AHB_RESP_OKAY
# UVM_INFO ../src/mst/ahb_master_driver.sv(332) @ 2045000: uvm_test_top.env.master_agent.drv [ahb_master_driver] Beat[7/16] addr=0x0000c0d2 trans=AHB_TRANS_SEQ resp=AHB_RESP_OKAY wdata=0x8732c0a3
# UVM_INFO ../src/slv/ahb_slave_driver.sv(184) @ 2045000: uvm_test_top.env.slave_agent.drv [ahb_slave_driver] Beat AHB_WRITE addr=0x0000c0d2 resp=AHB_RESP_OKAY waits=0 wdata=0x8732c0a3
# UVM_INFO ../src/mst/ahb_master_monitor.sv(128) @ 2045000: uvm_test_top.env.master_agent.mon [ahb_master_monitor] Beat[7] addr=0x0000c0d2 wdata=0x8732c0a3 resp=AHB_RESP_OKAY
# UVM_INFO ../src/mst/ahb_master_driver.sv(332) @ 2095000: uvm_test_top.env.master_agent.drv [ahb_master_driver] Beat[8/16] addr=0x0000c0d4 trans=AHB_TRANS_SEQ resp=AHB_RESP_OKAY wdata=0x407eddb8
# UVM_INFO ../src/slv/ahb_slave_driver.sv(184) @ 2095000: uvm_test_top.env.slave_agent.drv [ahb_slave_driver] Beat AHB_WRITE addr=0x0000c0d4 resp=AHB_RESP_OKAY waits=1 wdata=0x407eddb8
# UVM_INFO ../src/mst/ahb_master_monitor.sv(128) @ 2095000: uvm_test_top.env.master_agent.mon [ahb_master_monitor] Beat[8] addr=0x0000c0d4 wdata=0x407eddb8 resp=AHB_RESP_OKAY
# UVM_INFO ../src/mst/ahb_master_driver.sv(332) @ 2105000: uvm_test_top.env.master_agent.drv [ahb_master_driver] Beat[9/16] addr=0x0000c0d6 trans=AHB_TRANS_SEQ resp=AHB_RESP_OKAY wdata=0xea989795
# UVM_INFO ../src/slv/ahb_slave_driver.sv(184) @ 2105000: uvm_test_top.env.slave_agent.drv [ahb_slave_driver] Beat AHB_WRITE addr=0x0000c0d6 resp=AHB_RESP_OKAY waits=0 wdata=0xea989795
# UVM_INFO ../src/mst/ahb_master_monitor.sv(128) @ 2105000: uvm_test_top.env.master_agent.mon [ahb_master_monitor] Beat[9] addr=0x0000c0d6 wdata=0xea989795 resp=AHB_RESP_OKAY
# UVM_INFO ../src/mst/ahb_master_driver.sv(332) @ 2145000: uvm_test_top.env.master_agent.drv [ahb_master_driver] Beat[10/16] addr=0x0000c0d8 trans=AHB_TRANS_SEQ resp=AHB_RESP_OKAY wdata=0xfada93b6
# UVM_INFO ../src/slv/ahb_slave_driver.sv(184) @ 2145000: uvm_test_top.env.slave_agent.drv [ahb_slave_driver] Beat AHB_WRITE addr=0x0000c0d8 resp=AHB_RESP_OKAY waits=2 wdata=0xfada93b6
# UVM_INFO ../src/mst/ahb_master_monitor.sv(128) @ 2145000: uvm_test_top.env.master_agent.mon [ahb_master_monitor] Beat[10] addr=0x0000c0d8 wdata=0xfada93b6 resp=AHB_RESP_OKAY
# UVM_INFO ../src/mst/ahb_master_driver.sv(332) @ 2165000: uvm_test_top.env.master_agent.drv [ahb_master_driver] Beat[11/16] addr=0x0000c0da trans=AHB_TRANS_SEQ resp=AHB_RESP_OKAY wdata=0x5a20562a
# UVM_INFO ../src/slv/ahb_slave_driver.sv(184) @ 2165000: uvm_test_top.env.slave_agent.drv [ahb_slave_driver] Beat AHB_WRITE addr=0x0000c0da resp=AHB_RESP_OKAY waits=1 wdata=0x5a20562a
# UVM_INFO ../src/mst/ahb_master_monitor.sv(128) @ 2165000: uvm_test_top.env.master_agent.mon [ahb_master_monitor] Beat[11] addr=0x0000c0da wdata=0x5a20562a resp=AHB_RESP_OKAY
# UVM_INFO ../src/mst/ahb_master_driver.sv(332) @ 2175000: uvm_test_top.env.master_agent.drv [ahb_master_driver] Beat[12/16] addr=0x0000c0dc trans=AHB_TRANS_SEQ resp=AHB_RESP_OKAY wdata=0x559e9d08
# UVM_INFO ../src/slv/ahb_slave_driver.sv(184) @ 2175000: uvm_test_top.env.slave_agent.drv [ahb_slave_driver] Beat AHB_WRITE addr=0x0000c0dc resp=AHB_RESP_OKAY waits=0 wdata=0x559e9d08
# UVM_INFO ../src/mst/ahb_master_monitor.sv(128) @ 2175000: uvm_test_top.env.master_agent.mon [ahb_master_monitor] Beat[12] addr=0x0000c0dc wdata=0x559e9d08 resp=AHB_RESP_OKAY
# UVM_INFO ../src/mst/ahb_master_driver.sv(332) @ 2215000: uvm_test_top.env.master_agent.drv [ahb_master_driver] Beat[13/16] addr=0x0000c0de trans=AHB_TRANS_SEQ resp=AHB_RESP_OKAY wdata=0xed56bc9c
# UVM_INFO ../src/slv/ahb_slave_driver.sv(184) @ 2215000: uvm_test_top.env.slave_agent.drv [ahb_slave_driver] Beat AHB_WRITE addr=0x0000c0de resp=AHB_RESP_OKAY waits=2 wdata=0xed56bc9c
# UVM_INFO ../src/mst/ahb_master_monitor.sv(128) @ 2215000: uvm_test_top.env.master_agent.mon [ahb_master_monitor] Beat[13] addr=0x0000c0de wdata=0xed56bc9c resp=AHB_RESP_OKAY
# UVM_INFO ../src/mst/ahb_master_driver.sv(332) @ 2245000: uvm_test_top.env.master_agent.drv [ahb_master_driver] Beat[14/16] addr=0x0000c0e0 trans=AHB_TRANS_SEQ resp=AHB_RESP_OKAY wdata=0xc1cb2718
# UVM_INFO ../src/slv/ahb_slave_driver.sv(184) @ 2245000: uvm_test_top.env.slave_agent.drv [ahb_slave_driver] Beat AHB_WRITE addr=0x0000c0e0 resp=AHB_RESP_OKAY waits=2 wdata=0xc1cb2718
# UVM_INFO ../src/mst/ahb_master_monitor.sv(128) @ 2245000: uvm_test_top.env.master_agent.mon [ahb_master_monitor] Beat[14] addr=0x0000c0e0 wdata=0xc1cb2718 resp=AHB_RESP_OKAY
# UVM_INFO ../src/mst/ahb_master_driver.sv(332) @ 2265000: uvm_test_top.env.master_agent.drv [ahb_master_driver] Beat[15/16] addr=0x0000c0e2 trans=AHB_TRANS_SEQ resp=AHB_RESP_OKAY wdata=0x44b408b6
# UVM_INFO ../src/mst/ahb_master_driver.sv(376) @ 2265000: uvm_test_top.env.master_agent.drv [ahb_master_driver] Transaction complete: AHB_WRITE 0x0000c0c4, 16 beats, burst=AHB_BURST_INCR
# UVM_INFO ../src/slv/ahb_slave_driver.sv(184) @ 2265000: uvm_test_top.env.slave_agent.drv [ahb_slave_driver] Beat AHB_WRITE addr=0x0000c0e2 resp=AHB_RESP_OKAY waits=1 wdata=0x44b408b6
# UVM_INFO ../src/mst/ahb_master_monitor.sv(128) @ 2265000: uvm_test_top.env.master_agent.mon [ahb_master_monitor] Beat[15] addr=0x0000c0e2 wdata=0x44b408b6 resp=AHB_RESP_OKAY
# UVM_INFO ../src/mst/ahb_master_monitor.sv(231) @ 2265000: uvm_test_top.env.master_agent.mon [ahb_master_monitor] Observed [AHB_WRITE]: HADDR=0x0000c0c4, HBURST=AHB_BURST_INCR, HSIZE=AHB_SIZE_16B, 16 beats
# UVM_INFO ../src/env/ahb_coverage.sv(174) @ 2265000: uvm_test_top.env.master_cov [ahb_coverage] Sampled [AHB_WRITE]: burst=AHB_BURST_INCR size=AHB_SIZE_16B beats=16 error=0
# UVM_INFO ../src/slv/ahb_slave_monitor.sv(208) @ 2265000: uvm_test_top.env.slave_agent.mon [ahb_slave_monitor] Observed [AHB_WRITE]: HADDR=0x0000c0c4, HBURST=AHB_BURST_INCR, HSIZE=AHB_SIZE_16B, 16 beats
# UVM_INFO ../src/env/ahb_scoreboard.sv(104) @ 2265000: uvm_test_top.env.scb [ahb_scoreboard] MATCH #7: [AHB_WRITE] HADDR=0x0000c0c4 AHB_BURST_INCR 16 beats
# UVM_INFO ../src/env/ahb_coverage.sv(174) @ 2265000: uvm_test_top.env.slave_cov [ahb_coverage] Sampled [AHB_WRITE]: burst=AHB_BURST_INCR size=AHB_SIZE_16B beats=16 error=0
# UVM_INFO ../src/mst/ahb_master_driver.sv(85) @ 2265000: uvm_test_top.env.master_agent.drv [ahb_master_driver] Queueing [AHB_READ]: HADDR=0x0000c0c4, HBURST=AHB_BURST_INCR, HSIZE=AHB_SIZE_16B, 16 beats
# UVM_INFO ../src/mst/ahb_master_driver.sv(127) @ 2265000: uvm_test_top.env.master_agent.drv [ahb_master_driver] Driving [AHB_READ]: HADDR=0x0000c0c4, HBURST=AHB_BURST_INCR, HSIZE=AHB_SIZE_16B, 16 beats               
# UVM_INFO ../src/mst/ahb_master_driver.sv(332) @ 2295000: uvm_test_top.env.master_agent.drv [ahb_master_driver] Beat[0/16] addr=0x0000c0c4 trans=AHB_TRANS_NONSEQ resp=AHB_RESP_OKAY rdata=0x00ff9d14
# UVM_INFO ../src/slv/ahb_slave_driver.sv(184) @ 2295000: uvm_test_top.env.slave_agent.drv [ahb_slave_driver] Beat AHB_READ addr=0x0000c0c4 resp=AHB_RESP_OKAY waits=0 rdata=0x00ff9d14
# UVM_INFO ../src/mst/ahb_master_monitor.sv(128) @ 2295000: uvm_test_top.env.master_agent.mon [ahb_master_monitor] Beat[0] addr=0x0000c0c4 rdata=0x00ff9d14 resp=AHB_RESP_OKAY
# UVM_INFO ../src/mst/ahb_master_driver.sv(332) @ 2305000: uvm_test_top.env.master_agent.drv [ahb_master_driver] Beat[1/16] addr=0x0000c0c6 trans=AHB_TRANS_SEQ resp=AHB_RESP_OKAY rdata=0xe46687f4
# UVM_INFO ../src/slv/ahb_slave_driver.sv(184) @ 2305000: uvm_test_top.env.slave_agent.drv [ahb_slave_driver] Beat AHB_READ addr=0x0000c0c6 resp=AHB_RESP_OKAY waits=0 rdata=0xe46687f4
# UVM_INFO ../src/mst/ahb_master_monitor.sv(128) @ 2305000: uvm_test_top.env.master_agent.mon [ahb_master_monitor] Beat[1] addr=0x0000c0c6 rdata=0xe46687f4 resp=AHB_RESP_OKAY
# UVM_INFO ../src/mst/ahb_master_driver.sv(332) @ 2325000: uvm_test_top.env.master_agent.drv [ahb_master_driver] Beat[2/16] addr=0x0000c0c8 trans=AHB_TRANS_SEQ resp=AHB_RESP_OKAY rdata=0x47b1c937
# UVM_INFO ../src/slv/ahb_slave_driver.sv(184) @ 2325000: uvm_test_top.env.slave_agent.drv [ahb_slave_driver] Beat AHB_READ addr=0x0000c0c8 resp=AHB_RESP_OKAY waits=1 rdata=0x47b1c937
# UVM_INFO ../src/mst/ahb_master_monitor.sv(128) @ 2325000: uvm_test_top.env.master_agent.mon [ahb_master_monitor] Beat[2] addr=0x0000c0c8 rdata=0x47b1c937 resp=AHB_RESP_OKAY
# UVM_INFO ../src/mst/ahb_master_driver.sv(332) @ 2335000: uvm_test_top.env.master_agent.drv [ahb_master_driver] Beat[3/16] addr=0x0000c0ca trans=AHB_TRANS_SEQ resp=AHB_RESP_OKAY rdata=0x2b72da22
# UVM_INFO ../src/slv/ahb_slave_driver.sv(184) @ 2335000: uvm_test_top.env.slave_agent.drv [ahb_slave_driver] Beat AHB_READ addr=0x0000c0ca resp=AHB_RESP_OKAY waits=0 rdata=0x2b72da22
# UVM_INFO ../src/mst/ahb_master_monitor.sv(128) @ 2335000: uvm_test_top.env.master_agent.mon [ahb_master_monitor] Beat[3] addr=0x0000c0ca rdata=0x2b72da22 resp=AHB_RESP_OKAY
# UVM_INFO ../src/mst/ahb_master_driver.sv(332) @ 2365000: uvm_test_top.env.master_agent.drv [ahb_master_driver] Beat[4/16] addr=0x0000c0cc trans=AHB_TRANS_SEQ resp=AHB_RESP_OKAY rdata=0x3f1aa09c
# UVM_INFO ../src/slv/ahb_slave_driver.sv(184) @ 2365000: uvm_test_top.env.slave_agent.drv [ahb_slave_driver] Beat AHB_READ addr=0x0000c0cc resp=AHB_RESP_OKAY waits=2 rdata=0x3f1aa09c
# UVM_INFO ../src/mst/ahb_master_monitor.sv(128) @ 2365000: uvm_test_top.env.master_agent.mon [ahb_master_monitor] Beat[4] addr=0x0000c0cc rdata=0x3f1aa09c resp=AHB_RESP_OKAY
# UVM_INFO ../src/mst/ahb_master_driver.sv(332) @ 2375000: uvm_test_top.env.master_agent.drv [ahb_master_driver] Beat[5/16] addr=0x0000c0ce trans=AHB_TRANS_SEQ resp=AHB_RESP_OKAY rdata=0x9c9b3f10
# UVM_INFO ../src/slv/ahb_slave_driver.sv(184) @ 2375000: uvm_test_top.env.slave_agent.drv [ahb_slave_driver] Beat AHB_READ addr=0x0000c0ce resp=AHB_RESP_OKAY waits=0 rdata=0x9c9b3f10
# UVM_INFO ../src/mst/ahb_master_monitor.sv(128) @ 2375000: uvm_test_top.env.master_agent.mon [ahb_master_monitor] Beat[5] addr=0x0000c0ce rdata=0x9c9b3f10 resp=AHB_RESP_OKAY
# UVM_INFO ../src/mst/ahb_master_driver.sv(332) @ 2395000: uvm_test_top.env.master_agent.drv [ahb_master_driver] Beat[6/16] addr=0x0000c0d0 trans=AHB_TRANS_SEQ resp=AHB_RESP_OKAY rdata=0xc25065aa
# UVM_INFO ../src/slv/ahb_slave_driver.sv(184) @ 2395000: uvm_test_top.env.slave_agent.drv [ahb_slave_driver] Beat AHB_READ addr=0x0000c0d0 resp=AHB_RESP_OKAY waits=1 rdata=0xc25065aa
# UVM_INFO ../src/mst/ahb_master_monitor.sv(128) @ 2395000: uvm_test_top.env.master_agent.mon [ahb_master_monitor] Beat[6] addr=0x0000c0d0 rdata=0xc25065aa resp=AHB_RESP_OKAY
# UVM_INFO ../src/mst/ahb_master_driver.sv(332) @ 2405000: uvm_test_top.env.master_agent.drv [ahb_master_driver] Beat[7/16] addr=0x0000c0d2 trans=AHB_TRANS_SEQ resp=AHB_RESP_OKAY rdata=0x8732c0a3
# UVM_INFO ../src/slv/ahb_slave_driver.sv(184) @ 2405000: uvm_test_top.env.slave_agent.drv [ahb_slave_driver] Beat AHB_READ addr=0x0000c0d2 resp=AHB_RESP_OKAY waits=0 rdata=0x8732c0a3
# UVM_INFO ../src/mst/ahb_master_monitor.sv(128) @ 2405000: uvm_test_top.env.master_agent.mon [ahb_master_monitor] Beat[7] addr=0x0000c0d2 rdata=0x8732c0a3 resp=AHB_RESP_OKAY
# UVM_INFO ../src/mst/ahb_master_driver.sv(332) @ 2435000: uvm_test_top.env.master_agent.drv [ahb_master_driver] Beat[8/16] addr=0x0000c0d4 trans=AHB_TRANS_SEQ resp=AHB_RESP_OKAY rdata=0x407eddb8
# UVM_INFO ../src/slv/ahb_slave_driver.sv(184) @ 2435000: uvm_test_top.env.slave_agent.drv [ahb_slave_driver] Beat AHB_READ addr=0x0000c0d4 resp=AHB_RESP_OKAY waits=2 rdata=0x407eddb8
# UVM_INFO ../src/mst/ahb_master_monitor.sv(128) @ 2435000: uvm_test_top.env.master_agent.mon [ahb_master_monitor] Beat[8] addr=0x0000c0d4 rdata=0x407eddb8 resp=AHB_RESP_OKAY
# UVM_INFO ../src/mst/ahb_master_driver.sv(332) @ 2445000: uvm_test_top.env.master_agent.drv [ahb_master_driver] Beat[9/16] addr=0x0000c0d6 trans=AHB_TRANS_SEQ resp=AHB_RESP_OKAY rdata=0xea989795
# UVM_INFO ../src/slv/ahb_slave_driver.sv(184) @ 2445000: uvm_test_top.env.slave_agent.drv [ahb_slave_driver] Beat AHB_READ addr=0x0000c0d6 resp=AHB_RESP_OKAY waits=0 rdata=0xea989795
# UVM_INFO ../src/mst/ahb_master_monitor.sv(128) @ 2445000: uvm_test_top.env.master_agent.mon [ahb_master_monitor] Beat[9] addr=0x0000c0d6 rdata=0xea989795 resp=AHB_RESP_OKAY
# UVM_INFO ../src/mst/ahb_master_driver.sv(332) @ 2475000: uvm_test_top.env.master_agent.drv [ahb_master_driver] Beat[10/16] addr=0x0000c0d8 trans=AHB_TRANS_SEQ resp=AHB_RESP_OKAY rdata=0xfada93b6
# UVM_INFO ../src/slv/ahb_slave_driver.sv(184) @ 2475000: uvm_test_top.env.slave_agent.drv [ahb_slave_driver] Beat AHB_READ addr=0x0000c0d8 resp=AHB_RESP_OKAY waits=2 rdata=0xfada93b6
# UVM_INFO ../src/mst/ahb_master_monitor.sv(128) @ 2475000: uvm_test_top.env.master_agent.mon [ahb_master_monitor] Beat[10] addr=0x0000c0d8 rdata=0xfada93b6 resp=AHB_RESP_OKAY
# UVM_INFO ../src/mst/ahb_master_driver.sv(332) @ 2495000: uvm_test_top.env.master_agent.drv [ahb_master_driver] Beat[11/16] addr=0x0000c0da trans=AHB_TRANS_SEQ resp=AHB_RESP_OKAY rdata=0x5a20562a
# UVM_INFO ../src/slv/ahb_slave_driver.sv(184) @ 2495000: uvm_test_top.env.slave_agent.drv [ahb_slave_driver] Beat AHB_READ addr=0x0000c0da resp=AHB_RESP_OKAY waits=1 rdata=0x5a20562a
# UVM_INFO ../src/mst/ahb_master_monitor.sv(128) @ 2495000: uvm_test_top.env.master_agent.mon [ahb_master_monitor] Beat[11] addr=0x0000c0da rdata=0x5a20562a resp=AHB_RESP_OKAY
# UVM_INFO ../src/mst/ahb_master_driver.sv(332) @ 2515000: uvm_test_top.env.master_agent.drv [ahb_master_driver] Beat[12/16] addr=0x0000c0dc trans=AHB_TRANS_SEQ resp=AHB_RESP_OKAY rdata=0x559e9d08
# UVM_INFO ../src/slv/ahb_slave_driver.sv(184) @ 2515000: uvm_test_top.env.slave_agent.drv [ahb_slave_driver] Beat AHB_READ addr=0x0000c0dc resp=AHB_RESP_OKAY waits=1 rdata=0x559e9d08
# UVM_INFO ../src/mst/ahb_master_monitor.sv(128) @ 2515000: uvm_test_top.env.master_agent.mon [ahb_master_monitor] Beat[12] addr=0x0000c0dc rdata=0x559e9d08 resp=AHB_RESP_OKAY
# UVM_INFO ../src/mst/ahb_master_driver.sv(332) @ 2525000: uvm_test_top.env.master_agent.drv [ahb_master_driver] Beat[13/16] addr=0x0000c0de trans=AHB_TRANS_SEQ resp=AHB_RESP_OKAY rdata=0xed56bc9c
# UVM_INFO ../src/slv/ahb_slave_driver.sv(184) @ 2525000: uvm_test_top.env.slave_agent.drv [ahb_slave_driver] Beat AHB_READ addr=0x0000c0de resp=AHB_RESP_OKAY waits=0 rdata=0xed56bc9c
# UVM_INFO ../src/mst/ahb_master_monitor.sv(128) @ 2525000: uvm_test_top.env.master_agent.mon [ahb_master_monitor] Beat[13] addr=0x0000c0de rdata=0xed56bc9c resp=AHB_RESP_OKAY
# UVM_INFO ../src/mst/ahb_master_driver.sv(332) @ 2545000: uvm_test_top.env.master_agent.drv [ahb_master_driver] Beat[14/16] addr=0x0000c0e0 trans=AHB_TRANS_SEQ resp=AHB_RESP_OKAY rdata=0xc1cb2718
# UVM_INFO ../src/slv/ahb_slave_driver.sv(184) @ 2545000: uvm_test_top.env.slave_agent.drv [ahb_slave_driver] Beat AHB_READ addr=0x0000c0e0 resp=AHB_RESP_OKAY waits=1 rdata=0xc1cb2718
# UVM_INFO ../src/mst/ahb_master_monitor.sv(128) @ 2545000: uvm_test_top.env.master_agent.mon [ahb_master_monitor] Beat[14] addr=0x0000c0e0 rdata=0xc1cb2718 resp=AHB_RESP_OKAY
# UVM_INFO ../src/mst/ahb_master_driver.sv(332) @ 2555000: uvm_test_top.env.master_agent.drv [ahb_master_driver] Beat[15/16] addr=0x0000c0e2 trans=AHB_TRANS_SEQ resp=AHB_RESP_OKAY rdata=0x44b408b6
# UVM_INFO ../src/mst/ahb_master_driver.sv(376) @ 2555000: uvm_test_top.env.master_agent.drv [ahb_master_driver] Transaction complete: AHB_READ 0x0000c0c4, 16 beats, burst=AHB_BURST_INCR
# UVM_INFO ../src/slv/ahb_slave_driver.sv(184) @ 2555000: uvm_test_top.env.slave_agent.drv [ahb_slave_driver] Beat AHB_READ addr=0x0000c0e2 resp=AHB_RESP_OKAY waits=0 rdata=0x44b408b6
# UVM_INFO ../src/slv/ahb_slave_monitor.sv(208) @ 2555000: uvm_test_top.env.slave_agent.mon [ahb_slave_monitor] Observed [AHB_READ]: HADDR=0x0000c0c4, HBURST=AHB_BURST_INCR, HSIZE=AHB_SIZE_16B, 16 beats
# UVM_INFO ../src/env/ahb_coverage.sv(174) @ 2555000: uvm_test_top.env.slave_cov [ahb_coverage] Sampled [AHB_READ]: burst=AHB_BURST_INCR size=AHB_SIZE_16B beats=16 error=0
# UVM_INFO ../src/mst/ahb_master_monitor.sv(128) @ 2555000: uvm_test_top.env.master_agent.mon [ahb_master_monitor] Beat[15] addr=0x0000c0e2 rdata=0x44b408b6 resp=AHB_RESP_OKAY
# UVM_INFO ../src/mst/ahb_master_monitor.sv(231) @ 2555000: uvm_test_top.env.master_agent.mon [ahb_master_monitor] Observed [AHB_READ]: HADDR=0x0000c0c4, HBURST=AHB_BURST_INCR, HSIZE=AHB_SIZE_16B, 16 beats
# UVM_INFO ../src/env/ahb_coverage.sv(174) @ 2555000: uvm_test_top.env.master_cov [ahb_coverage] Sampled [AHB_READ]: burst=AHB_BURST_INCR size=AHB_SIZE_16B beats=16 error=0
# UVM_INFO ../src/env/ahb_scoreboard.sv(104) @ 2555000: uvm_test_top.env.scb [ahb_scoreboard] MATCH #8: [AHB_READ] HADDR=0x0000c0c4 AHB_BURST_INCR 16 beats
# UVM_INFO ../src/mst_seq/ahb_base_seq.sv(157) @ 2555000: uvm_test_top.env.master_agent.sqr@@seq [ahb_busy_seq] AHB_BURST_INCR AHB_SIZE_16B beat 0 @0x0000c0c4 ok
# UVM_INFO ../src/mst_seq/ahb_base_seq.sv(157) @ 2555000: uvm_test_top.env.master_agent.sqr@@seq [ahb_busy_seq] AHB_BURST_INCR AHB_SIZE_16B beat 1 @0x0000c0c6 ok
# UVM_INFO ../src/mst_seq/ahb_base_seq.sv(157) @ 2555000: uvm_test_top.env.master_agent.sqr@@seq [ahb_busy_seq] AHB_BURST_INCR AHB_SIZE_16B beat 2 @0x0000c0c8 ok
# UVM_INFO ../src/mst_seq/ahb_base_seq.sv(157) @ 2555000: uvm_test_top.env.master_agent.sqr@@seq [ahb_busy_seq] AHB_BURST_INCR AHB_SIZE_16B beat 3 @0x0000c0ca ok
# UVM_INFO ../src/mst_seq/ahb_base_seq.sv(157) @ 2555000: uvm_test_top.env.master_agent.sqr@@seq [ahb_busy_seq] AHB_BURST_INCR AHB_SIZE_16B beat 4 @0x0000c0cc ok
# UVM_INFO ../src/mst_seq/ahb_base_seq.sv(157) @ 2555000: uvm_test_top.env.master_agent.sqr@@seq [ahb_busy_seq] AHB_BURST_INCR AHB_SIZE_16B beat 5 @0x0000c0ce ok
# UVM_INFO ../src/mst_seq/ahb_base_seq.sv(157) @ 2555000: uvm_test_top.env.master_agent.sqr@@seq [ahb_busy_seq] AHB_BURST_INCR AHB_SIZE_16B beat 6 @0x0000c0d0 ok
# UVM_INFO ../src/mst_seq/ahb_base_seq.sv(157) @ 2555000: uvm_test_top.env.master_agent.sqr@@seq [ahb_busy_seq] AHB_BURST_INCR AHB_SIZE_16B beat 7 @0x0000c0d2 ok
# UVM_INFO ../src/mst_seq/ahb_base_seq.sv(157) @ 2555000: uvm_test_top.env.master_agent.sqr@@seq [ahb_busy_seq] AHB_BURST_INCR AHB_SIZE_16B beat 8 @0x0000c0d4 ok
# UVM_INFO ../src/mst_seq/ahb_base_seq.sv(157) @ 2555000: uvm_test_top.env.master_agent.sqr@@seq [ahb_busy_seq] AHB_BURST_INCR AHB_SIZE_16B beat 9 @0x0000c0d6 ok
# UVM_INFO ../src/mst_seq/ahb_base_seq.sv(157) @ 2555000: uvm_test_top.env.master_agent.sqr@@seq [ahb_busy_seq] AHB_BURST_INCR AHB_SIZE_16B beat 10 @0x0000c0d8 ok
# UVM_INFO ../src/mst_seq/ahb_base_seq.sv(157) @ 2555000: uvm_test_top.env.master_agent.sqr@@seq [ahb_busy_seq] AHB_BURST_INCR AHB_SIZE_16B beat 11 @0x0000c0da ok
# UVM_INFO ../src/mst_seq/ahb_base_seq.sv(157) @ 2555000: uvm_test_top.env.master_agent.sqr@@seq [ahb_busy_seq] AHB_BURST_INCR AHB_SIZE_16B beat 12 @0x0000c0dc ok
# UVM_INFO ../src/mst_seq/ahb_base_seq.sv(157) @ 2555000: uvm_test_top.env.master_agent.sqr@@seq [ahb_busy_seq] AHB_BURST_INCR AHB_SIZE_16B beat 13 @0x0000c0de ok
# UVM_INFO ../src/mst_seq/ahb_base_seq.sv(157) @ 2555000: uvm_test_top.env.master_agent.sqr@@seq [ahb_busy_seq] AHB_BURST_INCR AHB_SIZE_16B beat 14 @0x0000c0e0 ok
# UVM_INFO ../src/mst_seq/ahb_base_seq.sv(157) @ 2555000: uvm_test_top.env.master_agent.sqr@@seq [ahb_busy_seq] AHB_BURST_INCR AHB_SIZE_16B beat 15 @0x0000c0e2 ok
# UVM_INFO ../src/mst_seq/ahb_busy_seq.sv(105) @ 2555000: uvm_test_top.env.master_agent.sqr@@seq [ahb_busy_seq] AHB_BURST_INCR8 AHB_SIZE_16B @0x0000c114, 8 beats, retract=0
# UVM_INFO ../src/mst/ahb_master_driver.sv(85) @ 2555000: uvm_test_top.env.master_agent.drv [ahb_master_driver] Queueing [AHB_WRITE]: HADDR=0x0000c114, HBURST=AHB_BURST_INCR8, HSIZE=AHB_SIZE_16B, 8 beats
# UVM_INFO ../src/mst/ahb_master_driver.sv(127) @ 2555000: uvm_test_top.env.master_agent.drv [ahb_master_driver] Driving [AHB_WRITE]: HADDR=0x0000c114, HBURST=AHB_BURST_INCR8, HSIZE=AHB_SIZE_16B, 8 beats               
# UVM_INFO ../src/mst/ahb_master_driver.sv(332) @ 2605000: uvm_test_top.env.master_agent.drv [ahb_master_driver] Beat[0/8] addr=0x0000c114 trans=AHB_TRANS_NONSEQ resp=AHB_RESP_OKAY wdata=0xa4fb045d
# UVM_INFO ../src/slv/ahb_slave_driver.sv(184) @ 2605000: uvm_test_top.env.slave_agent.drv [ahb_slave_driver] Beat AHB_WRITE addr=0x0000c114 resp=AHB_RESP_OKAY waits=2 wdata=0xa4fb045d
# UVM_INFO ../src/mst/ahb_master_monitor.sv(128) @ 2605000: uvm_test_top.env.master_agent.mon [ahb_master_monitor] Beat[0] addr=0x0000c114 wdata=0xa4fb045d resp=AHB_RESP_OKAY
# UVM_INFO ../src/mst/ahb_master_driver.sv(332) @ 2655000: uvm_test_top.env.master_agent.drv [ahb_master_driver] Beat[1/8] addr=0x0000c116 trans=AHB_TRANS_SEQ resp=AHB_RESP_OKAY wdata=0x27f4e932
# UVM_INFO ../src/slv/ahb_slave_driver.sv(184) @ 2655000: uvm_test_top.env.slave_agent.drv [ahb_slave_driver] Beat AHB_WRITE addr=0x0000c116 resp=AHB_RESP_OKAY waits=1 wdata=0x27f4e932
# UVM_INFO ../src/mst/ahb_master_monitor.sv(128) @ 2655000: uvm_test_top.env.master_agent.mon [ahb_master_monitor] Beat[1] addr=0x0000c116 wdata=0x27f4e932 resp=AHB_RESP_OKAY
# UVM_INFO ../src/mst/ahb_master_driver.sv(332) @ 2705000: uvm_test_top.env.master_agent.drv [ahb_master_driver] Beat[2/8] addr=0x0000c118 trans=AHB_TRANS_SEQ resp=AHB_RESP_OKAY wdata=0x9b697cba
# UVM_INFO ../src/slv/ahb_slave_driver.sv(184) @ 2705000: uvm_test_top.env.slave_agent.drv [ahb_slave_driver] Beat AHB_WRITE addr=0x0000c118 resp=AHB_RESP_OKAY waits=1 wdata=0x9b697cba
# UVM_INFO ../src/mst/ahb_master_monitor.sv(128) @ 2705000: uvm_test_top.env.master_agent.mon [ahb_master_monitor] Beat[2] addr=0x0000c118 wdata=0x9b697cba resp=AHB_RESP_OKAY
# UVM_INFO ../src/mst/ahb_master_driver.sv(332) @ 2755000: uvm_test_top.env.master_agent.drv [ahb_master_driver] Beat[3/8] addr=0x0000c11a trans=AHB_TRANS_SEQ resp=AHB_RESP_OKAY wdata=0xb16d85ae
# UVM_INFO ../src/slv/ahb_slave_driver.sv(184) @ 2755000: uvm_test_top.env.slave_agent.drv [ahb_slave_driver] Beat AHB_WRITE addr=0x0000c11a resp=AHB_RESP_OKAY waits=1 wdata=0xb16d85ae
# UVM_INFO ../src/mst/ahb_master_monitor.sv(128) @ 2755000: uvm_test_top.env.master_agent.mon [ahb_master_monitor] Beat[3] addr=0x0000c11a wdata=0xb16d85ae resp=AHB_RESP_OKAY
# UVM_INFO ../src/mst/ahb_master_driver.sv(332) @ 2785000: uvm_test_top.env.master_agent.drv [ahb_master_driver] Beat[4/8] addr=0x0000c11c trans=AHB_TRANS_SEQ resp=AHB_RESP_OKAY wdata=0xd1d1fa63
# UVM_INFO ../src/slv/ahb_slave_driver.sv(184) @ 2785000: uvm_test_top.env.slave_agent.drv [ahb_slave_driver] Beat AHB_WRITE addr=0x0000c11c resp=AHB_RESP_OKAY waits=1 wdata=0xd1d1fa63
# UVM_INFO ../src/mst/ahb_master_monitor.sv(128) @ 2785000: uvm_test_top.env.master_agent.mon [ahb_master_monitor] Beat[4] addr=0x0000c11c wdata=0xd1d1fa63 resp=AHB_RESP_OKAY
# UVM_INFO ../src/mst/ahb_master_driver.sv(332) @ 2815000: uvm_test_top.env.master_agent.drv [ahb_master_driver] Beat[5/8] addr=0x0000c11e trans=AHB_TRANS_SEQ resp=AHB_RESP_OKAY wdata=0x8cf93390
# UVM_INFO ../src/slv/ahb_slave_driver.sv(184) @ 2815000: uvm_test_top.env.slave_agent.drv [ahb_slave_driver] Beat AHB_WRITE addr=0x0000c11e resp=AHB_RESP_OKAY waits=1 wdata=0x8cf93390
# UVM_INFO ../src/mst/ahb_master_monitor.sv(128) @ 2815000: uvm_test_top.env.master_agent.mon [ahb_master_monitor] Beat[5] addr=0x0000c11e wdata=0x8cf93390 resp=AHB_RESP_OKAY
# UVM_INFO ../src/mst/ahb_master_driver.sv(332) @ 2865000: uvm_test_top.env.master_agent.drv [ahb_master_driver] Beat[6/8] addr=0x0000c120 trans=AHB_TRANS_SEQ resp=AHB_RESP_OKAY wdata=0xa7331246
# UVM_INFO ../src/slv/ahb_slave_driver.sv(184) @ 2865000: uvm_test_top.env.slave_agent.drv [ahb_slave_driver] Beat AHB_WRITE addr=0x0000c120 resp=AHB_RESP_OKAY waits=2 wdata=0xa7331246
# UVM_INFO ../src/mst/ahb_master_monitor.sv(128) @ 2865000: uvm_test_top.env.master_agent.mon [ahb_master_monitor] Beat[6] addr=0x0000c120 wdata=0xa7331246 resp=AHB_RESP_OKAY
# UVM_INFO ../src/mst/ahb_master_driver.sv(332) @ 2905000: uvm_test_top.env.master_agent.drv [ahb_master_driver] Beat[7/8] addr=0x0000c122 trans=AHB_TRANS_SEQ resp=AHB_RESP_OKAY wdata=0xea856d52
# UVM_INFO ../src/mst/ahb_master_driver.sv(376) @ 2905000: uvm_test_top.env.master_agent.drv [ahb_master_driver] Transaction complete: AHB_WRITE 0x0000c114, 8 beats, burst=AHB_BURST_INCR8
# UVM_INFO ../src/slv/ahb_slave_driver.sv(184) @ 2905000: uvm_test_top.env.slave_agent.drv [ahb_slave_driver] Beat AHB_WRITE addr=0x0000c122 resp=AHB_RESP_OKAY waits=0 wdata=0xea856d52
# UVM_INFO ../src/mst/ahb_master_monitor.sv(128) @ 2905000: uvm_test_top.env.master_agent.mon [ahb_master_monitor] Beat[7] addr=0x0000c122 wdata=0xea856d52 resp=AHB_RESP_OKAY
# UVM_INFO ../src/mst/ahb_master_monitor.sv(231) @ 2905000: uvm_test_top.env.master_agent.mon [ahb_master_monitor] Observed [AHB_WRITE]: HADDR=0x0000c114, HBURST=AHB_BURST_INCR8, HSIZE=AHB_SIZE_16B, 8 beats
# UVM_INFO ../src/env/ahb_coverage.sv(174) @ 2905000: uvm_test_top.env.master_cov [ahb_coverage] Sampled [AHB_WRITE]: burst=AHB_BURST_INCR8 size=AHB_SIZE_16B beats=8 error=0
# UVM_INFO ../src/slv/ahb_slave_monitor.sv(208) @ 2905000: uvm_test_top.env.slave_agent.mon [ahb_slave_monitor] Observed [AHB_WRITE]: HADDR=0x0000c114, HBURST=AHB_BURST_INCR8, HSIZE=AHB_SIZE_16B, 8 beats
# UVM_INFO ../src/env/ahb_scoreboard.sv(104) @ 2905000: uvm_test_top.env.scb [ahb_scoreboard] MATCH #9: [AHB_WRITE] HADDR=0x0000c114 AHB_BURST_INCR8 8 beats
# UVM_INFO ../src/env/ahb_coverage.sv(174) @ 2905000: uvm_test_top.env.slave_cov [ahb_coverage] Sampled [AHB_WRITE]: burst=AHB_BURST_INCR8 size=AHB_SIZE_16B beats=8 error=0
# UVM_INFO ../src/mst/ahb_master_driver.sv(85) @ 2905000: uvm_test_top.env.master_agent.drv [ahb_master_driver] Queueing [AHB_READ]: HADDR=0x0000c114, HBURST=AHB_BURST_INCR8, HSIZE=AHB_SIZE_16B, 8 beats
# UVM_INFO ../src/mst/ahb_master_driver.sv(127) @ 2905000: uvm_test_top.env.master_agent.drv [ahb_master_driver] Driving [AHB_READ]: HADDR=0x0000c114, HBURST=AHB_BURST_INCR8, HSIZE=AHB_SIZE_16B, 8 beats               
# UVM_INFO ../src/mst/ahb_master_driver.sv(332) @ 2945000: uvm_test_top.env.master_agent.drv [ahb_master_driver] Beat[0/8] addr=0x0000c114 trans=AHB_TRANS_NONSEQ resp=AHB_RESP_OKAY rdata=0xa4fb045d
# UVM_INFO ../src/slv/ahb_slave_driver.sv(184) @ 2945000: uvm_test_top.env.slave_agent.drv [ahb_slave_driver] Beat AHB_READ addr=0x0000c114 resp=AHB_RESP_OKAY waits=1 rdata=0xa4fb045d
# UVM_INFO ../src/mst/ahb_master_monitor.sv(128) @ 2945000: uvm_test_top.env.master_agent.mon [ahb_master_monitor] Beat[0] addr=0x0000c114 rdata=0xa4fb045d resp=AHB_RESP_OKAY
# UVM_INFO ../src/mst/ahb_master_driver.sv(332) @ 2975000: uvm_test_top.env.master_agent.drv [ahb_master_driver] Beat[1/8] addr=0x0000c116 trans=AHB_TRANS_SEQ resp=AHB_RESP_OKAY rdata=0x27f4e932
# UVM_INFO ../src/slv/ahb_slave_driver.sv(184) @ 2975000: uvm_test_top.env.slave_agent.drv [ahb_slave_driver] Beat AHB_READ addr=0x0000c116 resp=AHB_RESP_OKAY waits=2 rdata=0x27f4e932
# UVM_INFO ../src/mst/ahb_master_monitor.sv(128) @ 2975000: uvm_test_top.env.master_agent.mon [ahb_master_monitor] Beat[1] addr=0x0000c116 rdata=0x27f4e932 resp=AHB_RESP_OKAY
# UVM_INFO ../src/mst/ahb_master_driver.sv(332) @ 2985000: uvm_test_top.env.master_agent.drv [ahb_master_driver] Beat[2/8] addr=0x0000c118 trans=AHB_TRANS_SEQ resp=AHB_RESP_OKAY rdata=0x9b697cba
# UVM_INFO ../src/slv/ahb_slave_driver.sv(184) @ 2985000: uvm_test_top.env.slave_agent.drv [ahb_slave_driver] Beat AHB_READ addr=0x0000c118 resp=AHB_RESP_OKAY waits=0 rdata=0x9b697cba
# UVM_INFO ../src/mst/ahb_master_monitor.sv(128) @ 2985000: uvm_test_top.env.master_agent.mon [ahb_master_monitor] Beat[2] addr=0x0000c118 rdata=0x9b697cba resp=AHB_RESP_OKAY
# UVM_INFO ../src/mst/ahb_master_driver.sv(332) @ 2995000: uvm_test_top.env.master_agent.drv [ahb_master_driver] Beat[3/8] addr=0x0000c11a trans=AHB_TRANS_SEQ resp=AHB_RESP_OKAY rdata=0xb16d85ae
# UVM_INFO ../src/slv/ahb_slave_driver.sv(184) @ 2995000: uvm_test_top.env.slave_agent.drv [ahb_slave_driver] Beat AHB_READ addr=0x0000c11a resp=AHB_RESP_OKAY waits=0 rdata=0xb16d85ae
# UVM_INFO ../src/mst/ahb_master_monitor.sv(128) @ 2995000: uvm_test_top.env.master_agent.mon [ahb_master_monitor] Beat[3] addr=0x0000c11a rdata=0xb16d85ae resp=AHB_RESP_OKAY
# UVM_INFO ../src/mst/ahb_master_driver.sv(332) @ 3025000: uvm_test_top.env.master_agent.drv [ahb_master_driver] Beat[4/8] addr=0x0000c11c trans=AHB_TRANS_SEQ resp=AHB_RESP_OKAY rdata=0xd1d1fa63
# UVM_INFO ../src/slv/ahb_slave_driver.sv(184) @ 3025000: uvm_test_top.env.slave_agent.drv [ahb_slave_driver] Beat AHB_READ addr=0x0000c11c resp=AHB_RESP_OKAY waits=2 rdata=0xd1d1fa63
# UVM_INFO ../src/mst/ahb_master_monitor.sv(128) @ 3025000: uvm_test_top.env.master_agent.mon [ahb_master_monitor] Beat[4] addr=0x0000c11c rdata=0xd1d1fa63 resp=AHB_RESP_OKAY
# UVM_INFO ../src/mst/ahb_master_driver.sv(332) @ 3035000: uvm_test_top.env.master_agent.drv [ahb_master_driver] Beat[5/8] addr=0x0000c11e trans=AHB_TRANS_SEQ resp=AHB_RESP_OKAY rdata=0x8cf93390
# UVM_INFO ../src/slv/ahb_slave_driver.sv(184) @ 3035000: uvm_test_top.env.slave_agent.drv [ahb_slave_driver] Beat AHB_READ addr=0x0000c11e resp=AHB_RESP_OKAY waits=0 rdata=0x8cf93390
# UVM_INFO ../src/mst/ahb_master_monitor.sv(128) @ 3035000: uvm_test_top.env.master_agent.mon [ahb_master_monitor] Beat[5] addr=0x0000c11e rdata=0x8cf93390 resp=AHB_RESP_OKAY
# UVM_INFO ../src/mst/ahb_master_driver.sv(332) @ 3065000: uvm_test_top.env.master_agent.drv [ahb_master_driver] Beat[6/8] addr=0x0000c120 trans=AHB_TRANS_SEQ resp=AHB_RESP_OKAY rdata=0xa7331246
# UVM_INFO ../src/slv/ahb_slave_driver.sv(184) @ 3065000: uvm_test_top.env.slave_agent.drv [ahb_slave_driver] Beat AHB_READ addr=0x0000c120 resp=AHB_RESP_OKAY waits=2 rdata=0xa7331246
# UVM_INFO ../src/mst/ahb_master_monitor.sv(128) @ 3065000: uvm_test_top.env.master_agent.mon [ahb_master_monitor] Beat[6] addr=0x0000c120 rdata=0xa7331246 resp=AHB_RESP_OKAY
# UVM_INFO ../src/mst/ahb_master_driver.sv(332) @ 3095000: uvm_test_top.env.master_agent.drv [ahb_master_driver] Beat[7/8] addr=0x0000c122 trans=AHB_TRANS_SEQ resp=AHB_RESP_OKAY rdata=0xea856d52
# UVM_INFO ../src/mst/ahb_master_driver.sv(376) @ 3095000: uvm_test_top.env.master_agent.drv [ahb_master_driver] Transaction complete: AHB_READ 0x0000c114, 8 beats, burst=AHB_BURST_INCR8
# UVM_INFO ../src/slv/ahb_slave_driver.sv(184) @ 3095000: uvm_test_top.env.slave_agent.drv [ahb_slave_driver] Beat AHB_READ addr=0x0000c122 resp=AHB_RESP_OKAY waits=2 rdata=0xea856d52
# UVM_INFO ../src/slv/ahb_slave_monitor.sv(208) @ 3095000: uvm_test_top.env.slave_agent.mon [ahb_slave_monitor] Observed [AHB_READ]: HADDR=0x0000c114, HBURST=AHB_BURST_INCR8, HSIZE=AHB_SIZE_16B, 8 beats
# UVM_INFO ../src/env/ahb_coverage.sv(174) @ 3095000: uvm_test_top.env.slave_cov [ahb_coverage] Sampled [AHB_READ]: burst=AHB_BURST_INCR8 size=AHB_SIZE_16B beats=8 error=0
# UVM_INFO ../src/mst/ahb_master_monitor.sv(128) @ 3095000: uvm_test_top.env.master_agent.mon [ahb_master_monitor] Beat[7] addr=0x0000c122 rdata=0xea856d52 resp=AHB_RESP_OKAY
# UVM_INFO ../src/mst/ahb_master_monitor.sv(231) @ 3095000: uvm_test_top.env.master_agent.mon [ahb_master_monitor] Observed [AHB_READ]: HADDR=0x0000c114, HBURST=AHB_BURST_INCR8, HSIZE=AHB_SIZE_16B, 8 beats
# UVM_INFO ../src/env/ahb_coverage.sv(174) @ 3095000: uvm_test_top.env.master_cov [ahb_coverage] Sampled [AHB_READ]: burst=AHB_BURST_INCR8 size=AHB_SIZE_16B beats=8 error=0
# UVM_INFO ../src/env/ahb_scoreboard.sv(104) @ 3095000: uvm_test_top.env.scb [ahb_scoreboard] MATCH #10: [AHB_READ] HADDR=0x0000c114 AHB_BURST_INCR8 8 beats
# UVM_INFO ../src/mst_seq/ahb_base_seq.sv(157) @ 3095000: uvm_test_top.env.master_agent.sqr@@seq [ahb_busy_seq] AHB_BURST_INCR8 AHB_SIZE_16B beat 0 @0x0000c114 ok
# UVM_INFO ../src/mst_seq/ahb_base_seq.sv(157) @ 3095000: uvm_test_top.env.master_agent.sqr@@seq [ahb_busy_seq] AHB_BURST_INCR8 AHB_SIZE_16B beat 1 @0x0000c116 ok
# UVM_INFO ../src/mst_seq/ahb_base_seq.sv(157) @ 3095000: uvm_test_top.env.master_agent.sqr@@seq [ahb_busy_seq] AHB_BURST_INCR8 AHB_SIZE_16B beat 2 @0x0000c118 ok
# UVM_INFO ../src/mst_seq/ahb_base_seq.sv(157) @ 3095000: uvm_test_top.env.master_agent.sqr@@seq [ahb_busy_seq] AHB_BURST_INCR8 AHB_SIZE_16B beat 3 @0x0000c11a ok
# UVM_INFO ../src/mst_seq/ahb_base_seq.sv(157) @ 3095000: uvm_test_top.env.master_agent.sqr@@seq [ahb_busy_seq] AHB_BURST_INCR8 AHB_SIZE_16B beat 4 @0x0000c11c ok
# UVM_INFO ../src/mst_seq/ahb_base_seq.sv(157) @ 3095000: uvm_test_top.env.master_agent.sqr@@seq [ahb_busy_seq] AHB_BURST_INCR8 AHB_SIZE_16B beat 5 @0x0000c11e ok
# UVM_INFO ../src/mst_seq/ahb_base_seq.sv(157) @ 3095000: uvm_test_top.env.master_agent.sqr@@seq [ahb_busy_seq] AHB_BURST_INCR8 AHB_SIZE_16B beat 6 @0x0000c120 ok
# UVM_INFO ../src/mst_seq/ahb_base_seq.sv(157) @ 3095000: uvm_test_top.env.master_agent.sqr@@seq [ahb_busy_seq] AHB_BURST_INCR8 AHB_SIZE_16B beat 7 @0x0000c122 ok
# UVM_INFO ../src/mst_seq/ahb_busy_seq.sv(105) @ 3095000: uvm_test_top.env.master_agent.sqr@@seq [ahb_busy_seq] AHB_BURST_INCR4 AHB_SIZE_8B @0x0000c16e, 4 beats, retract=0
# UVM_INFO ../src/mst/ahb_master_driver.sv(85) @ 3095000: uvm_test_top.env.master_agent.drv [ahb_master_driver] Queueing [AHB_WRITE]: HADDR=0x0000c16e, HBURST=AHB_BURST_INCR4, HSIZE=AHB_SIZE_8B, 4 beats
# UVM_INFO ../src/mst/ahb_master_driver.sv(127) @ 3095000: uvm_test_top.env.master_agent.drv [ahb_master_driver] Driving [AHB_WRITE]: HADDR=0x0000c16e, HBURST=AHB_BURST_INCR4, HSIZE=AHB_SIZE_8B, 4 beats               
# UVM_INFO ../src/mst/ahb_master_driver.sv(332) @ 3135000: uvm_test_top.env.master_agent.drv [ahb_master_driver] Beat[0/4] addr=0x0000c16e trans=AHB_TRANS_NONSEQ resp=AHB_RESP_OKAY wdata=0xd9e062d5
# UVM_INFO ../src/slv/ahb_slave_driver.sv(184) @ 3135000: uvm_test_top.env.slave_agent.drv [ahb_slave_driver] Beat AHB_WRITE addr=0x0000c16e resp=AHB_RESP_OKAY waits=1 wdata=0xd9e062d5
# UVM_INFO ../src/mst/ahb_master_monitor.sv(128) @ 3135000: uvm_test_top.env.master_agent.mon [ahb_master_monitor] Beat[0] addr=0x0000c16e wdata=0xd9e062d5 resp=AHB_RESP_OKAY
# UVM_INFO ../src/mst/ahb_master_driver.sv(332) @ 3175000: uvm_test_top.env.master_agent.drv [ahb_master_driver] Beat[1/4] addr=0x0000c16f trans=AHB_TRANS_SEQ resp=AHB_RESP_OKAY wdata=0xe5997667
# UVM_INFO ../src/slv/ahb_slave_driver.sv(184) @ 3175000: uvm_test_top.env.slave_agent.drv [ahb_slave_driver] Beat AHB_WRITE addr=0x0000c16f resp=AHB_RESP_OKAY waits=0 wdata=0xe5997667
# UVM_INFO ../src/mst/ahb_master_monitor.sv(128) @ 3175000: uvm_test_top.env.master_agent.mon [ahb_master_monitor] Beat[1] addr=0x0000c16f wdata=0xe5997667 resp=AHB_RESP_OKAY
# UVM_INFO ../src/mst/ahb_master_driver.sv(332) @ 3225000: uvm_test_top.env.master_agent.drv [ahb_master_driver] Beat[2/4] addr=0x0000c170 trans=AHB_TRANS_SEQ resp=AHB_RESP_OKAY wdata=0xc3a5302b
# UVM_INFO ../src/slv/ahb_slave_driver.sv(184) @ 3225000: uvm_test_top.env.slave_agent.drv [ahb_slave_driver] Beat AHB_WRITE addr=0x0000c170 resp=AHB_RESP_OKAY waits=2 wdata=0xc3a5302b
# UVM_INFO ../src/mst/ahb_master_monitor.sv(128) @ 3225000: uvm_test_top.env.master_agent.mon [ahb_master_monitor] Beat[2] addr=0x0000c170 wdata=0xc3a5302b resp=AHB_RESP_OKAY
# UVM_INFO ../src/mst/ahb_master_driver.sv(332) @ 3245000: uvm_test_top.env.master_agent.drv [ahb_master_driver] Beat[3/4] addr=0x0000c171 trans=AHB_TRANS_SEQ resp=AHB_RESP_OKAY wdata=0xa77f648c
# UVM_INFO ../src/mst/ahb_master_driver.sv(376) @ 3245000: uvm_test_top.env.master_agent.drv [ahb_master_driver] Transaction complete: AHB_WRITE 0x0000c16e, 4 beats, burst=AHB_BURST_INCR4
# UVM_INFO ../src/slv/ahb_slave_driver.sv(184) @ 3245000: uvm_test_top.env.slave_agent.drv [ahb_slave_driver] Beat AHB_WRITE addr=0x0000c171 resp=AHB_RESP_OKAY waits=0 wdata=0xa77f648c
# UVM_INFO ../src/mst/ahb_master_monitor.sv(128) @ 3245000: uvm_test_top.env.master_agent.mon [ahb_master_monitor] Beat[3] addr=0x0000c171 wdata=0xa77f648c resp=AHB_RESP_OKAY
# UVM_INFO ../src/mst/ahb_master_monitor.sv(231) @ 3245000: uvm_test_top.env.master_agent.mon [ahb_master_monitor] Observed [AHB_WRITE]: HADDR=0x0000c16e, HBURST=AHB_BURST_INCR4, HSIZE=AHB_SIZE_8B, 4 beats
# UVM_INFO ../src/env/ahb_coverage.sv(174) @ 3245000: uvm_test_top.env.master_cov [ahb_coverage] Sampled [AHB_WRITE]: burst=AHB_BURST_INCR4 size=AHB_SIZE_8B beats=4 error=0
# UVM_INFO ../src/slv/ahb_slave_monitor.sv(208) @ 3245000: uvm_test_top.env.slave_agent.mon [ahb_slave_monitor] Observed [AHB_WRITE]: HADDR=0x0000c16e, HBURST=AHB_BURST_INCR4, HSIZE=AHB_SIZE_8B, 4 beats
# UVM_INFO ../src/env/ahb_scoreboard.sv(104) @ 3245000: uvm_test_top.env.scb [ahb_scoreboard] MATCH #11: [AHB_WRITE] HADDR=0x0000c16e AHB_BURST_INCR4 4 beats
# UVM_INFO ../src/env/ahb_coverage.sv(174) @ 3245000: uvm_test_top.env.slave_cov [ahb_coverage] Sampled [AHB_WRITE]: burst=AHB_BURST_INCR4 size=AHB_SIZE_8B beats=4 error=0
# UVM_INFO ../src/mst/ahb_master_driver.sv(85) @ 3245000: uvm_test_top.env.master_agent.drv [ahb_master_driver] Queueing [AHB_READ]: HADDR=0x0000c16e, HBURST=AHB_BURST_INCR4, HSIZE=AHB_SIZE_8B, 4 beats
# UVM_INFO ../src/mst/ahb_master_driver.sv(127) @ 3245000: uvm_test_top.env.master_agent.drv [ahb_master_driver] Driving [AHB_READ]: HADDR=0x0000c16e, HBURST=AHB_BURST_INCR4, HSIZE=AHB_SIZE_8B, 4 beats               
# UVM_INFO ../src/mst/ahb_master_driver.sv(332) @ 3295000: uvm_test_top.env.master_agent.drv [ahb_master_driver] Beat[0/4] addr=0x0000c16e trans=AHB_TRANS_NONSEQ resp=AHB_RESP_OKAY rdata=0xd9e062d5
# UVM_INFO ../src/slv/ahb_slave_driver.sv(184) @ 3295000: uvm_test_top.env.slave_agent.drv [ahb_slave_driver] Beat AHB_READ addr=0x0000c16e resp=AHB_RESP_OKAY waits=2 rdata=0xd9e062d5
# UVM_INFO ../src/mst/ahb_master_monitor.sv(128) @ 3295000: uvm_test_top.env.master_agent.mon [ahb_master_monitor] Beat[0] addr=0x0000c16e rdata=0xd9e062d5 resp=AHB_RESP_OKAY
# UVM_INFO ../src/mst/ahb_master_driver.sv(332) @ 3325000: uvm_test_top.env.master_agent.drv [ahb_master_driver] Beat[1/4] addr=0x0000c16f trans=AHB_TRANS_SEQ resp=AHB_RESP_OKAY rdata=0xe5997667
# UVM_INFO ../src/slv/ahb_slave_driver.sv(184) @ 3325000: uvm_test_top.env.slave_agent.drv [ahb_slave_driver] Beat AHB_READ addr=0x0000c16f resp=AHB_RESP_OKAY waits=2 rdata=0xe5997667
# UVM_INFO ../src/mst/ahb_master_monitor.sv(128) @ 3325000: uvm_test_top.env.master_agent.mon [ahb_master_monitor] Beat[1] addr=0x0000c16f rdata=0xe5997667 resp=AHB_RESP_OKAY
# UVM_INFO ../src/mst/ahb_master_driver.sv(332) @ 3345000: uvm_test_top.env.master_agent.drv [ahb_master_driver] Beat[2/4] addr=0x0000c170 trans=AHB_TRANS_SEQ resp=AHB_RESP_OKAY rdata=0xc3a5302b
# UVM_INFO ../src/slv/ahb_slave_driver.sv(184) @ 3345000: uvm_test_top.env.slave_agent.drv [ahb_slave_driver] Beat AHB_READ addr=0x0000c170 resp=AHB_RESP_OKAY waits=1 rdata=0xc3a5302b
# UVM_INFO ../src/mst/ahb_master_monitor.sv(128) @ 3345000: uvm_test_top.env.master_agent.mon [ahb_master_monitor] Beat[2] addr=0x0000c170 rdata=0xc3a5302b resp=AHB_RESP_OKAY
# UVM_INFO ../src/mst/ahb_master_driver.sv(332) @ 3355000: uvm_test_top.env.master_agent.drv [ahb_master_driver] Beat[3/4] addr=0x0000c171 trans=AHB_TRANS_SEQ resp=AHB_RESP_OKAY rdata=0xa77f648c
# UVM_INFO ../src/mst/ahb_master_driver.sv(376) @ 3355000: uvm_test_top.env.master_agent.drv [ahb_master_driver] Transaction complete: AHB_READ 0x0000c16e, 4 beats, burst=AHB_BURST_INCR4
# UVM_INFO ../src/slv/ahb_slave_driver.sv(184) @ 3355000: uvm_test_top.env.slave_agent.drv [ahb_slave_driver] Beat AHB_READ addr=0x0000c171 resp=AHB_RESP_OKAY waits=0 rdata=0xa77f648c
# UVM_INFO ../src/slv/ahb_slave_monitor.sv(208) @ 3355000: uvm_test_top.env.slave_agent.mon [ahb_slave_monitor] Observed [AHB_READ]: HADDR=0x0000c16e, HBURST=AHB_BURST_INCR4, HSIZE=AHB_SIZE_8B, 4 beats
# UVM_INFO ../src/env/ahb_coverage.sv(174) @ 3355000: uvm_test_top.env.slave_cov [ahb_coverage] Sampled [AHB_READ]: burst=AHB_BURST_INCR4 size=AHB_SIZE_8B beats=4 error=0
# UVM_INFO ../src/mst/ahb_master_monitor.sv(128) @ 3355000: uvm_test_top.env.master_agent.mon [ahb_master_monitor] Beat[3] addr=0x0000c171 rdata=0xa77f648c resp=AHB_RESP_OKAY
# UVM_INFO ../src/mst/ahb_master_monitor.sv(231) @ 3355000: uvm_test_top.env.master_agent.mon [ahb_master_monitor] Observed [AHB_READ]: HADDR=0x0000c16e, HBURST=AHB_BURST_INCR4, HSIZE=AHB_SIZE_8B, 4 beats
# UVM_INFO ../src/env/ahb_coverage.sv(174) @ 3355000: uvm_test_top.env.master_cov [ahb_coverage] Sampled [AHB_READ]: burst=AHB_BURST_INCR4 size=AHB_SIZE_8B beats=4 error=0
# UVM_INFO ../src/env/ahb_scoreboard.sv(104) @ 3355000: uvm_test_top.env.scb [ahb_scoreboard] MATCH #12: [AHB_READ] HADDR=0x0000c16e AHB_BURST_INCR4 4 beats
# UVM_INFO ../src/mst_seq/ahb_base_seq.sv(157) @ 3355000: uvm_test_top.env.master_agent.sqr@@seq [ahb_busy_seq] AHB_BURST_INCR4 AHB_SIZE_8B beat 0 @0x0000c16e ok
# UVM_INFO ../src/mst_seq/ahb_base_seq.sv(157) @ 3355000: uvm_test_top.env.master_agent.sqr@@seq [ahb_busy_seq] AHB_BURST_INCR4 AHB_SIZE_8B beat 1 @0x0000c16f ok
# UVM_INFO ../src/mst_seq/ahb_base_seq.sv(157) @ 3355000: uvm_test_top.env.master_agent.sqr@@seq [ahb_busy_seq] AHB_BURST_INCR4 AHB_SIZE_8B beat 2 @0x0000c170 ok
# UVM_INFO ../src/mst_seq/ahb_base_seq.sv(157) @ 3355000: uvm_test_top.env.master_agent.sqr@@seq [ahb_busy_seq] AHB_BURST_INCR4 AHB_SIZE_8B beat 3 @0x0000c171 ok
# UVM_INFO ../src/mst_seq/ahb_busy_seq.sv(105) @ 3355000: uvm_test_top.env.master_agent.sqr@@seq [ahb_busy_seq] AHB_BURST_INCR4 AHB_SIZE_8B @0x0000c192, 4 beats, retract=1
# UVM_INFO ../src/mst/ahb_master_driver.sv(85) @ 3355000: uvm_test_top.env.master_agent.drv [ahb_master_driver] Queueing [AHB_WRITE]: HADDR=0x0000c192, HBURST=AHB_BURST_INCR4, HSIZE=AHB_SIZE_8B, 4 beats
# UVM_INFO ../src/mst/ahb_master_driver.sv(127) @ 3355000: uvm_test_top.env.master_agent.drv [ahb_master_driver] Driving [AHB_WRITE]: HADDR=0x0000c192, HBURST=AHB_BURST_INCR4, HSIZE=AHB_SIZE_8B, 4 beats               
# UVM_INFO ../src/mst/ahb_master_driver.sv(332) @ 3385000: uvm_test_top.env.master_agent.drv [ahb_master_driver] Beat[0/4] addr=0x0000c192 trans=AHB_TRANS_NONSEQ resp=AHB_RESP_OKAY wdata=0x027a7192
# UVM_INFO ../src/slv/ahb_slave_driver.sv(184) @ 3385000: uvm_test_top.env.slave_agent.drv [ahb_slave_driver] Beat AHB_WRITE addr=0x0000c192 resp=AHB_RESP_OKAY waits=0 wdata=0x027a7192
# UVM_INFO ../src/mst/ahb_master_monitor.sv(128) @ 3385000: uvm_test_top.env.master_agent.mon [ahb_master_monitor] Beat[0] addr=0x0000c192 wdata=0x027a7192 resp=AHB_RESP_OKAY
# UVM_INFO ../src/mst/ahb_master_driver.sv(332) @ 3425000: uvm_test_top.env.master_agent.drv [ahb_master_driver] Beat[1/4] addr=0x0000c193 trans=AHB_TRANS_SEQ resp=AHB_RESP_OKAY wdata=0x803e02aa
# UVM_INFO ../src/slv/ahb_slave_driver.sv(184) @ 3425000: uvm_test_top.env.slave_agent.drv [ahb_slave_driver] Beat AHB_WRITE addr=0x0000c193 resp=AHB_RESP_OKAY waits=2 wdata=0x803e02aa
# UVM_INFO ../src/mst/ahb_master_monitor.sv(128) @ 3425000: uvm_test_top.env.master_agent.mon [ahb_master_monitor] Beat[1] addr=0x0000c193 wdata=0x803e02aa resp=AHB_RESP_OKAY
