# vsim -c -coverage -sv_seed 74037120 "+UVM_TESTNAME=ahb_wait_state_test" "+UVM_VERBOSITY=UVM_HIGH" "+DUMP_VCD" -l ./report/logs/ahb_wait_state_test_run_2_seed_74037120.log -do "coverage save -onexit ./report/coverage/ahb_wait_state_test_run_2_seed_74037120.ucdb; run -all; quit -f" opt_tb_top 
# Start time: 11:01:31 on Aug 05,2026
# //  Questa Sim-64
# //  Version 10.6b linux_x86_64 May 25 2017
# //
# //  Copyright 1991-2017 Mentor Graphics Corporation
# //  All Rights Reserved.
# //
# //  QuestaSim and its associated documentation contain trade
# //  secrets and commercial or financial information that are the property of
# //  Mentor Graphics Corporation and are privileged, confidential,
# //  and exempt from disclosure under the Freedom of Information Act,
# //  5 U.S.C. Section 552. Furthermore, this information
# //  is prohibited from disclosure under the Trade Secrets Act,
# //  18 U.S.C. Section 1905.
# //
# Loading sv_std.std
# Loading work.ahb_if(fast)
# Loading mtiUvm.uvm_pkg
# Loading work.ahb_pkg(fast)
# Loading work.ahb_seq_pkg(fast)
# Loading work.ahb_test_pkg(fast)
# Loading work.tb_top(fast)
# Loading work.ahb_if(fast)
# Loading work.ahb_sva(fast)
# Loading mtiUvm.questa_uvm_pkg(fast)
# Loading /cadtools/mentor/Questa_10.6b/questasim/uvm-1.1d/linux_x86_64/uvm_dpi.so
# coverage save -onexit ./report/coverage/ahb_wait_state_test_run_2_seed_74037120.ucdb
#  run -all
# ----------------------------------------------------------------
# UVM-1.1d
# (C) 2007-2013 Mentor Graphics Corporation
# (C) 2007-2013 Cadence Design Systems, Inc.
# (C) 2006-2013 Synopsys, Inc.
# (C) 2011-2013 Cypress Semiconductor Corp.
# ----------------------------------------------------------------
# 
#   ***********       IMPORTANT RELEASE NOTES         ************
# 
#   You are using a version of the UVM library that has been compiled
#   with `UVM_NO_DEPRECATED undefined.
#   See http://www.eda.org/svdb/view.php?id=3313 for more details.
# 
#   You are using a version of the UVM library that has been compiled
#   with `UVM_OBJECT_MUST_HAVE_CONSTRUCTOR undefined.
#   See http://www.eda.org/svdb/view.php?id=3770 for more details.
# 
#       (Specify +UVM_NO_RELNOTES to turn off this notice)
# 
# UVM_INFO verilog_src/questa_uvm_pkg-1.2/src/questa_uvm_pkg.sv(215) @ 0: reporter [Questa UVM] QUESTA_UVM-1.2.3
# UVM_INFO verilog_src/questa_uvm_pkg-1.2/src/questa_uvm_pkg.sv(217) @ 0: reporter [Questa UVM]  questa_uvm::init(+struct)
# UVM_INFO ../src/tb_top.sv(126) @ 0: reporter [TB_TOP] Virtual interface set in config_db
# UVM_INFO @ 0: reporter [RNTST] Running test ahb_wait_state_test...
# UVM_INFO ../src/tb_top.sv(140) @ 0: reporter [TB_TOP] Waveform VCD dumping enabled (ahb_lite_vip.vcd)
# UVM_INFO ../src/env/ahb_vip_env.sv(64) @ 0: uvm_test_top.env [ahb_vip_env] slave_vif not set - reusing master_vif (passthrough mode)
# UVM_INFO ../src/env/ahb_vip_env.sv(72) @ 0: uvm_test_top.env [ahb_vip_env] Scoreboard created
# UVM_INFO ../src/env/ahb_vip_env.sv(78) @ 0: uvm_test_top.env [ahb_vip_env] Coverage collectors created
# UVM_INFO ../src/mst/ahb_master_agent.sv(61) @ 0: uvm_test_top.env.master_agent [ahb_master_agent] ACTIVE mode - driver + sequencer created
# UVM_INFO ../src/slv/ahb_slave_agent.sv(64) @ 0: uvm_test_top.env.slave_agent [ahb_slave_agent] ACTIVE mode - driver + sequencer created (    auto responses)
# UVM_INFO ../src/env/ahb_vip_env.sv(92) @ 0: uvm_test_top.env [ahb_vip_env] Scoreboard connected: master_mon.ap -> scb, slave_mon.ap -> scb
# UVM_INFO ../src/env/ahb_vip_env.sv(99) @ 0: uvm_test_top.env [ahb_vip_env] Coverage connected: master_mon.ap -> master_cov, slave_mon.ap -> slave_cov
# UVM_INFO @ 0: reporter [UVMTOP] UVM testbench topology:
# ---------------------------------------------------------------
# Name                       Type                     Size  Value
# ---------------------------------------------------------------
# uvm_test_top               ahb_wait_state_test      -     @475 
#   env                      ahb_vip_env              -     @490 
#     master_agent           ahb_master_agent         -     @505 
#       drv                  ahb_master_driver        -     @570 
#         rsp_port           uvm_analysis_port        -     @585 
#         seq_item_port      uvm_seq_item_pull_port   -     @577 
#       mon                  ahb_master_monitor       -     @563 
#         ap                 uvm_analysis_port        -     @704 
#       sqr                  ahb_master_sequencer     -     @593 
#         rsp_export         uvm_analysis_export      -     @600 
#         seq_item_export    uvm_seq_item_pull_imp    -     @694 
#         arbitration_queue  array                    0     -    
#         lock_queue         array                    0     -    
#         num_last_reqs      integral                 32    'd1  
#         num_last_rsps      integral                 32    'd1  
#     master_cov             ahb_coverage             -     @526 
#       analysis_imp         uvm_analysis_imp         -     @533 
#     scb                    ahb_scoreboard           -     @519 
#       master_export        uvm_analysis_imp_master  -     @718 
#       slave_export         uvm_analysis_imp_slave   -     @726 
#     slave_agent            ahb_slave_agent          -     @512 
#       drv                  ahb_slave_driver         -     @748 
#         rsp_port           uvm_analysis_port        -     @763 
#         seq_item_port      uvm_seq_item_pull_port   -     @755 
#       mon                  ahb_slave_monitor        -     @741 
#         ap                 uvm_analysis_port        -     @882 
#       sqr                  ahb_slave_sequencer      -     @771 
#         rsp_export         uvm_analysis_export      -     @778 
#         seq_item_export    uvm_seq_item_pull_imp    -     @872 
#         arbitration_queue  array                    0     -    
#         lock_queue         array                    0     -    
#         num_last_reqs      integral                 32    'd1  
#         num_last_rsps      integral                 32    'd1  
#     slave_cov              ahb_coverage             -     @541 
#       analysis_imp         uvm_analysis_imp         -     @548 
# ---------------------------------------------------------------
# 
# UVM_INFO verilog_src/questa_uvm_pkg-1.2/src/questa_uvm_pkg.sv(277) @ 0: reporter [Questa UVM] End Of Elaboration
# UVM_INFO ../src/mst_seq/ahb_wait_state_seq.sv(113) @ 0: uvm_test_top.env.master_agent.sqr@@seq [ahb_wait_state_seq] Starting wait-state sweep: 24 bursts from 0x0000d000, up to 16 wait states per beat
# UVM_INFO ../src/mst_seq/ahb_wait_state_seq.sv(166) @ 0: uvm_test_top.env.master_agent.sqr@@seq [ahb_wait_state_seq] AHB_BURST_SINGLE AHB_SIZE_32B @0x0000d028, 1 beats, waits=0:0, pipelined=0
# UVM_INFO ../src/mst/ahb_master_driver.sv(183) @ 5000: uvm_test_top.env.master_agent.drv [ahb_master_driver] Flushed pending transactions (reset)
# UVM_INFO ../src/tb_top.sv(48) @ 95000: reporter [TB_TOP] Reset de-asserted
# UVM_INFO ../src/slv/ahb_slave_driver.sv(63) @ 95000: uvm_test_top.env.slave_agent.drv [ahb_slave_driver] Reset deasserted - slave driver active (    auto mode)
# UVM_INFO ../src/mst/ahb_master_driver.sv(72) @ 95000: uvm_test_top.env.master_agent.drv [ahb_master_driver] Reset deasserted - master driver active
# UVM_INFO ../src/mst/ahb_master_monitor.sv(75) @ 95000: uvm_test_top.env.master_agent.mon [ahb_master_monitor] Reset deasserted - master monitor active
# UVM_INFO ../src/slv/ahb_slave_monitor.sv(69) @ 95000: uvm_test_top.env.slave_agent.mon [ahb_slave_monitor] Reset deasserted - slave monitor active
# UVM_INFO ../src/mst/ahb_master_driver.sv(85) @ 95000: uvm_test_top.env.master_agent.drv [ahb_master_driver] Queueing [AHB_WRITE]: HADDR=0x0000d028, HBURST=AHB_BURST_SINGLE, HSIZE=AHB_SIZE_32B, 1 beats
# UVM_INFO ../src/mst/ahb_master_driver.sv(127) @ 95000: uvm_test_top.env.master_agent.drv [ahb_master_driver] Driving [AHB_WRITE]: HADDR=0x0000d028, HBURST=AHB_BURST_SINGLE, HSIZE=AHB_SIZE_32B, 1 beats               
# UVM_INFO ../src/mst/ahb_master_driver.sv(332) @ 115000: uvm_test_top.env.master_agent.drv [ahb_master_driver] Beat[0/1] addr=0x0000d028 trans=AHB_TRANS_NONSEQ resp=AHB_RESP_OKAY wdata=0x081bb586
# UVM_INFO ../src/mst/ahb_master_driver.sv(376) @ 115000: uvm_test_top.env.master_agent.drv [ahb_master_driver] Transaction complete: AHB_WRITE 0x0000d028, 1 beats, burst=AHB_BURST_SINGLE
# UVM_INFO ../src/slv/ahb_slave_driver.sv(184) @ 115000: uvm_test_top.env.slave_agent.drv [ahb_slave_driver] Beat AHB_WRITE addr=0x0000d028 resp=AHB_RESP_OKAY waits=0 wdata=0x081bb586
# UVM_INFO ../src/slv/ahb_slave_monitor.sv(197) @ 115000: uvm_test_top.env.slave_agent.mon [ahb_slave_monitor] Observed [AHB_WRITE]: HADDR=0x0000d028, HBURST=AHB_BURST_SINGLE, HSIZE=AHB_SIZE_32B, 1 beats
# UVM_INFO ../src/env/ahb_coverage.sv(126) @ 115000: uvm_test_top.env.slave_cov [ahb_coverage] Sampled [AHB_WRITE]: burst=AHB_BURST_SINGLE size=AHB_SIZE_32B beats=1 error=0
# UVM_INFO ../src/mst/ahb_master_monitor.sv(117) @ 115000: uvm_test_top.env.master_agent.mon [ahb_master_monitor] Beat[0] addr=0x0000d028 wdata=0x081bb586 resp=AHB_RESP_OKAY
# UVM_INFO ../src/mst/ahb_master_monitor.sv(220) @ 115000: uvm_test_top.env.master_agent.mon [ahb_master_monitor] Observed [AHB_WRITE]: HADDR=0x0000d028, HBURST=AHB_BURST_SINGLE, HSIZE=AHB_SIZE_32B, 1 beats
# UVM_INFO ../src/env/ahb_coverage.sv(126) @ 115000: uvm_test_top.env.master_cov [ahb_coverage] Sampled [AHB_WRITE]: burst=AHB_BURST_SINGLE size=AHB_SIZE_32B beats=1 error=0
# UVM_INFO ../src/env/ahb_scoreboard.sv(104) @ 115000: uvm_test_top.env.scb [ahb_scoreboard] MATCH #1: [AHB_WRITE] HADDR=0x0000d028 AHB_BURST_SINGLE 1 beats
# UVM_INFO ../src/mst/ahb_master_driver.sv(85) @ 115000: uvm_test_top.env.master_agent.drv [ahb_master_driver] Queueing [AHB_READ]: HADDR=0x0000d028, HBURST=AHB_BURST_SINGLE, HSIZE=AHB_SIZE_32B, 1 beats
# UVM_INFO ../src/mst/ahb_master_driver.sv(127) @ 115000: uvm_test_top.env.master_agent.drv [ahb_master_driver] Driving [AHB_READ]: HADDR=0x0000d028, HBURST=AHB_BURST_SINGLE, HSIZE=AHB_SIZE_32B, 1 beats               
# UVM_INFO ../src/mst/ahb_master_driver.sv(332) @ 145000: uvm_test_top.env.master_agent.drv [ahb_master_driver] Beat[0/1] addr=0x0000d028 trans=AHB_TRANS_NONSEQ resp=AHB_RESP_OKAY rdata=0x081bb586
# UVM_INFO ../src/mst/ahb_master_driver.sv(376) @ 145000: uvm_test_top.env.master_agent.drv [ahb_master_driver] Transaction complete: AHB_READ 0x0000d028, 1 beats, burst=AHB_BURST_SINGLE
# UVM_INFO ../src/slv/ahb_slave_driver.sv(184) @ 145000: uvm_test_top.env.slave_agent.drv [ahb_slave_driver] Beat AHB_READ addr=0x0000d028 resp=AHB_RESP_OKAY waits=0 rdata=0x081bb586
# UVM_INFO ../src/mst/ahb_master_monitor.sv(117) @ 145000: uvm_test_top.env.master_agent.mon [ahb_master_monitor] Beat[0] addr=0x0000d028 rdata=0x081bb586 resp=AHB_RESP_OKAY
# UVM_INFO ../src/mst/ahb_master_monitor.sv(220) @ 145000: uvm_test_top.env.master_agent.mon [ahb_master_monitor] Observed [AHB_READ]: HADDR=0x0000d028, HBURST=AHB_BURST_SINGLE, HSIZE=AHB_SIZE_32B, 1 beats
# UVM_INFO ../src/env/ahb_coverage.sv(126) @ 145000: uvm_test_top.env.master_cov [ahb_coverage] Sampled [AHB_READ]: burst=AHB_BURST_SINGLE size=AHB_SIZE_32B beats=1 error=0
# UVM_INFO ../src/slv/ahb_slave_monitor.sv(197) @ 145000: uvm_test_top.env.slave_agent.mon [ahb_slave_monitor] Observed [AHB_READ]: HADDR=0x0000d028, HBURST=AHB_BURST_SINGLE, HSIZE=AHB_SIZE_32B, 1 beats
# UVM_INFO ../src/env/ahb_scoreboard.sv(104) @ 145000: uvm_test_top.env.scb [ahb_scoreboard] MATCH #2: [AHB_READ] HADDR=0x0000d028 AHB_BURST_SINGLE 1 beats
# UVM_INFO ../src/env/ahb_coverage.sv(126) @ 145000: uvm_test_top.env.slave_cov [ahb_coverage] Sampled [AHB_READ]: burst=AHB_BURST_SINGLE size=AHB_SIZE_32B beats=1 error=0
# UVM_INFO ../src/mst_seq/ahb_base_seq.sv(157) @ 145000: uvm_test_top.env.master_agent.sqr@@seq [ahb_wait_state_seq] AHB_BURST_SINGLE AHB_SIZE_32B beat 0 @0x0000d028 ok
# UVM_INFO ../src/mst_seq/ahb_wait_state_seq.sv(166) @ 145000: uvm_test_top.env.master_agent.sqr@@seq [ahb_wait_state_seq] AHB_BURST_SINGLE AHB_SIZE_32B @0x0000d074, 1 beats, waits=1:1, pipelined=1
# UVM_INFO ../src/mst/ahb_master_driver.sv(85) @ 145000: uvm_test_top.env.master_agent.drv [ahb_master_driver] Queueing [AHB_WRITE]: HADDR=0x0000d074, HBURST=AHB_BURST_SINGLE, HSIZE=AHB_SIZE_32B, 1 beats
# UVM_INFO ../src/mst/ahb_master_driver.sv(127) @ 145000: uvm_test_top.env.master_agent.drv [ahb_master_driver] Driving [AHB_WRITE]: HADDR=0x0000d074, HBURST=AHB_BURST_SINGLE, HSIZE=AHB_SIZE_32B, 1 beats               
# UVM_INFO ../src/mst/ahb_master_driver.sv(85) @ 145000: uvm_test_top.env.master_agent.drv [ahb_master_driver] Queueing [AHB_READ]: HADDR=0x0000d074, HBURST=AHB_BURST_SINGLE, HSIZE=AHB_SIZE_32B, 1 beats
# UVM_INFO ../src/mst/ahb_master_driver.sv(332) @ 185000: uvm_test_top.env.master_agent.drv [ahb_master_driver] Beat[0/1] addr=0x0000d074 trans=AHB_TRANS_NONSEQ resp=AHB_RESP_OKAY wdata=0x5db3ff37
# UVM_INFO ../src/mst/ahb_master_driver.sv(376) @ 185000: uvm_test_top.env.master_agent.drv [ahb_master_driver] Transaction complete: AHB_WRITE 0x0000d074, 1 beats, burst=AHB_BURST_SINGLE
# UVM_INFO ../src/mst/ahb_master_driver.sv(127) @ 185000: uvm_test_top.env.master_agent.drv [ahb_master_driver] Driving [AHB_READ]: HADDR=0x0000d074, HBURST=AHB_BURST_SINGLE, HSIZE=AHB_SIZE_32B, 1 beats (back-to-back)
# UVM_INFO ../src/slv/ahb_slave_driver.sv(184) @ 185000: uvm_test_top.env.slave_agent.drv [ahb_slave_driver] Beat AHB_WRITE addr=0x0000d074 resp=AHB_RESP_OKAY waits=1 wdata=0x5db3ff37
# UVM_INFO ../src/mst/ahb_master_monitor.sv(117) @ 185000: uvm_test_top.env.master_agent.mon [ahb_master_monitor] Beat[0] addr=0x0000d074 wdata=0x5db3ff37 resp=AHB_RESP_OKAY
# UVM_INFO ../src/mst/ahb_master_monitor.sv(220) @ 185000: uvm_test_top.env.master_agent.mon [ahb_master_monitor] Observed [AHB_WRITE]: HADDR=0x0000d074, HBURST=AHB_BURST_SINGLE, HSIZE=AHB_SIZE_32B, 1 beats
# UVM_INFO ../src/env/ahb_coverage.sv(126) @ 185000: uvm_test_top.env.master_cov [ahb_coverage] Sampled [AHB_WRITE]: burst=AHB_BURST_SINGLE size=AHB_SIZE_32B beats=1 error=0
# UVM_INFO ../src/slv/ahb_slave_monitor.sv(197) @ 185000: uvm_test_top.env.slave_agent.mon [ahb_slave_monitor] Observed [AHB_WRITE]: HADDR=0x0000d074, HBURST=AHB_BURST_SINGLE, HSIZE=AHB_SIZE_32B, 1 beats
# UVM_INFO ../src/env/ahb_scoreboard.sv(104) @ 185000: uvm_test_top.env.scb [ahb_scoreboard] MATCH #3: [AHB_WRITE] HADDR=0x0000d074 AHB_BURST_SINGLE 1 beats
# UVM_INFO ../src/env/ahb_coverage.sv(126) @ 185000: uvm_test_top.env.slave_cov [ahb_coverage] Sampled [AHB_WRITE]: burst=AHB_BURST_SINGLE size=AHB_SIZE_32B beats=1 error=0
# UVM_INFO ../src/mst/ahb_master_driver.sv(332) @ 205000: uvm_test_top.env.master_agent.drv [ahb_master_driver] Beat[0/1] addr=0x0000d074 trans=AHB_TRANS_NONSEQ resp=AHB_RESP_OKAY rdata=0x5db3ff37
# UVM_INFO ../src/mst/ahb_master_driver.sv(376) @ 205000: uvm_test_top.env.master_agent.drv [ahb_master_driver] Transaction complete: AHB_READ 0x0000d074, 1 beats, burst=AHB_BURST_SINGLE
# UVM_INFO ../src/slv/ahb_slave_driver.sv(184) @ 205000: uvm_test_top.env.slave_agent.drv [ahb_slave_driver] Beat AHB_READ addr=0x0000d074 resp=AHB_RESP_OKAY waits=1 rdata=0x5db3ff37
# UVM_INFO ../src/mst/ahb_master_monitor.sv(117) @ 205000: uvm_test_top.env.master_agent.mon [ahb_master_monitor] Beat[0] addr=0x0000d074 rdata=0x5db3ff37 resp=AHB_RESP_OKAY
# UVM_INFO ../src/mst/ahb_master_monitor.sv(220) @ 205000: uvm_test_top.env.master_agent.mon [ahb_master_monitor] Observed [AHB_READ]: HADDR=0x0000d074, HBURST=AHB_BURST_SINGLE, HSIZE=AHB_SIZE_32B, 1 beats
# UVM_INFO ../src/env/ahb_coverage.sv(126) @ 205000: uvm_test_top.env.master_cov [ahb_coverage] Sampled [AHB_READ]: burst=AHB_BURST_SINGLE size=AHB_SIZE_32B beats=1 error=0
# UVM_INFO ../src/slv/ahb_slave_monitor.sv(197) @ 205000: uvm_test_top.env.slave_agent.mon [ahb_slave_monitor] Observed [AHB_READ]: HADDR=0x0000d074, HBURST=AHB_BURST_SINGLE, HSIZE=AHB_SIZE_32B, 1 beats
# UVM_INFO ../src/env/ahb_scoreboard.sv(104) @ 205000: uvm_test_top.env.scb [ahb_scoreboard] MATCH #4: [AHB_READ] HADDR=0x0000d074 AHB_BURST_SINGLE 1 beats
# UVM_INFO ../src/env/ahb_coverage.sv(126) @ 205000: uvm_test_top.env.slave_cov [ahb_coverage] Sampled [AHB_READ]: burst=AHB_BURST_SINGLE size=AHB_SIZE_32B beats=1 error=0
# UVM_INFO ../src/mst_seq/ahb_base_seq.sv(157) @ 205000: uvm_test_top.env.master_agent.sqr@@seq [ahb_wait_state_seq] AHB_BURST_SINGLE AHB_SIZE_32B beat 0 @0x0000d074 ok
# UVM_INFO ../src/mst_seq/ahb_wait_state_seq.sv(166) @ 205000: uvm_test_top.env.master_agent.sqr@@seq [ahb_wait_state_seq] AHB_BURST_INCR8 AHB_SIZE_8B @0x0000d0ad, 8 beats, waits=2:2, pipelined=0
# UVM_INFO ../src/mst/ahb_master_driver.sv(85) @ 205000: uvm_test_top.env.master_agent.drv [ahb_master_driver] Queueing [AHB_WRITE]: HADDR=0x0000d0ad, HBURST=AHB_BURST_INCR8, HSIZE=AHB_SIZE_8B, 8 beats
# UVM_INFO ../src/mst/ahb_master_driver.sv(127) @ 205000: uvm_test_top.env.master_agent.drv [ahb_master_driver] Driving [AHB_WRITE]: HADDR=0x0000d0ad, HBURST=AHB_BURST_INCR8, HSIZE=AHB_SIZE_8B, 8 beats               
# UVM_INFO ../src/mst/ahb_master_driver.sv(332) @ 255000: uvm_test_top.env.master_agent.drv [ahb_master_driver] Beat[0/8] addr=0x0000d0ad trans=AHB_TRANS_NONSEQ resp=AHB_RESP_OKAY wdata=0xefbaba15
# UVM_INFO ../src/slv/ahb_slave_driver.sv(184) @ 255000: uvm_test_top.env.slave_agent.drv [ahb_slave_driver] Beat AHB_WRITE addr=0x0000d0ad resp=AHB_RESP_OKAY waits=2 wdata=0xefbaba15
# UVM_INFO ../src/mst/ahb_master_monitor.sv(117) @ 255000: uvm_test_top.env.master_agent.mon [ahb_master_monitor] Beat[0] addr=0x0000d0ad wdata=0xefbaba15 resp=AHB_RESP_OKAY
# UVM_INFO ../src/mst/ahb_master_driver.sv(332) @ 285000: uvm_test_top.env.master_agent.drv [ahb_master_driver] Beat[1/8] addr=0x0000d0ae trans=AHB_TRANS_SEQ resp=AHB_RESP_OKAY wdata=0x18e22304
# UVM_INFO ../src/slv/ahb_slave_driver.sv(184) @ 285000: uvm_test_top.env.slave_agent.drv [ahb_slave_driver] Beat AHB_WRITE addr=0x0000d0ae resp=AHB_RESP_OKAY waits=2 wdata=0x18e22304
# UVM_INFO ../src/mst/ahb_master_monitor.sv(117) @ 285000: uvm_test_top.env.master_agent.mon [ahb_master_monitor] Beat[1] addr=0x0000d0ae wdata=0x18e22304 resp=AHB_RESP_OKAY
# UVM_INFO ../src/mst/ahb_master_driver.sv(332) @ 315000: uvm_test_top.env.master_agent.drv [ahb_master_driver] Beat[2/8] addr=0x0000d0af trans=AHB_TRANS_SEQ resp=AHB_RESP_OKAY wdata=0xb7d9f848
# UVM_INFO ../src/slv/ahb_slave_driver.sv(184) @ 315000: uvm_test_top.env.slave_agent.drv [ahb_slave_driver] Beat AHB_WRITE addr=0x0000d0af resp=AHB_RESP_OKAY waits=2 wdata=0xb7d9f848
# UVM_INFO ../src/mst/ahb_master_monitor.sv(117) @ 315000: uvm_test_top.env.master_agent.mon [ahb_master_monitor] Beat[2] addr=0x0000d0af wdata=0xb7d9f848 resp=AHB_RESP_OKAY
# UVM_INFO ../src/mst/ahb_master_driver.sv(332) @ 345000: uvm_test_top.env.master_agent.drv [ahb_master_driver] Beat[3/8] addr=0x0000d0b0 trans=AHB_TRANS_SEQ resp=AHB_RESP_OKAY wdata=0xfad378dd
# UVM_INFO ../src/slv/ahb_slave_driver.sv(184) @ 345000: uvm_test_top.env.slave_agent.drv [ahb_slave_driver] Beat AHB_WRITE addr=0x0000d0b0 resp=AHB_RESP_OKAY waits=2 wdata=0xfad378dd
# UVM_INFO ../src/mst/ahb_master_monitor.sv(117) @ 345000: uvm_test_top.env.master_agent.mon [ahb_master_monitor] Beat[3] addr=0x0000d0b0 wdata=0xfad378dd resp=AHB_RESP_OKAY
# UVM_INFO ../src/mst/ahb_master_driver.sv(332) @ 375000: uvm_test_top.env.master_agent.drv [ahb_master_driver] Beat[4/8] addr=0x0000d0b1 trans=AHB_TRANS_SEQ resp=AHB_RESP_OKAY wdata=0x89e9a2c1
# UVM_INFO ../src/slv/ahb_slave_driver.sv(184) @ 375000: uvm_test_top.env.slave_agent.drv [ahb_slave_driver] Beat AHB_WRITE addr=0x0000d0b1 resp=AHB_RESP_OKAY waits=2 wdata=0x89e9a2c1
# UVM_INFO ../src/mst/ahb_master_monitor.sv(117) @ 375000: uvm_test_top.env.master_agent.mon [ahb_master_monitor] Beat[4] addr=0x0000d0b1 wdata=0x89e9a2c1 resp=AHB_RESP_OKAY
# UVM_INFO ../src/mst/ahb_master_driver.sv(332) @ 405000: uvm_test_top.env.master_agent.drv [ahb_master_driver] Beat[5/8] addr=0x0000d0b2 trans=AHB_TRANS_SEQ resp=AHB_RESP_OKAY wdata=0x6a00aef8
# UVM_INFO ../src/slv/ahb_slave_driver.sv(184) @ 405000: uvm_test_top.env.slave_agent.drv [ahb_slave_driver] Beat AHB_WRITE addr=0x0000d0b2 resp=AHB_RESP_OKAY waits=2 wdata=0x6a00aef8
# UVM_INFO ../src/mst/ahb_master_monitor.sv(117) @ 405000: uvm_test_top.env.master_agent.mon [ahb_master_monitor] Beat[5] addr=0x0000d0b2 wdata=0x6a00aef8 resp=AHB_RESP_OKAY
# UVM_INFO ../src/mst/ahb_master_driver.sv(332) @ 435000: uvm_test_top.env.master_agent.drv [ahb_master_driver] Beat[6/8] addr=0x0000d0b3 trans=AHB_TRANS_SEQ resp=AHB_RESP_OKAY wdata=0x5de94146
# UVM_INFO ../src/slv/ahb_slave_driver.sv(184) @ 435000: uvm_test_top.env.slave_agent.drv [ahb_slave_driver] Beat AHB_WRITE addr=0x0000d0b3 resp=AHB_RESP_OKAY waits=2 wdata=0x5de94146
# UVM_INFO ../src/mst/ahb_master_monitor.sv(117) @ 435000: uvm_test_top.env.master_agent.mon [ahb_master_monitor] Beat[6] addr=0x0000d0b3 wdata=0x5de94146 resp=AHB_RESP_OKAY
# UVM_INFO ../src/mst/ahb_master_driver.sv(332) @ 465000: uvm_test_top.env.master_agent.drv [ahb_master_driver] Beat[7/8] addr=0x0000d0b4 trans=AHB_TRANS_SEQ resp=AHB_RESP_OKAY wdata=0x261fd879
# UVM_INFO ../src/mst/ahb_master_driver.sv(376) @ 465000: uvm_test_top.env.master_agent.drv [ahb_master_driver] Transaction complete: AHB_WRITE 0x0000d0ad, 8 beats, burst=AHB_BURST_INCR8
# UVM_INFO ../src/slv/ahb_slave_driver.sv(184) @ 465000: uvm_test_top.env.slave_agent.drv [ahb_slave_driver] Beat AHB_WRITE addr=0x0000d0b4 resp=AHB_RESP_OKAY waits=2 wdata=0x261fd879
# UVM_INFO ../src/mst/ahb_master_monitor.sv(117) @ 465000: uvm_test_top.env.master_agent.mon [ahb_master_monitor] Beat[7] addr=0x0000d0b4 wdata=0x261fd879 resp=AHB_RESP_OKAY
# UVM_INFO ../src/mst/ahb_master_monitor.sv(220) @ 465000: uvm_test_top.env.master_agent.mon [ahb_master_monitor] Observed [AHB_WRITE]: HADDR=0x0000d0ad, HBURST=AHB_BURST_INCR8, HSIZE=AHB_SIZE_8B, 8 beats
# UVM_INFO ../src/env/ahb_coverage.sv(126) @ 465000: uvm_test_top.env.master_cov [ahb_coverage] Sampled [AHB_WRITE]: burst=AHB_BURST_INCR8 size=AHB_SIZE_8B beats=8 error=0
# UVM_INFO ../src/slv/ahb_slave_monitor.sv(197) @ 465000: uvm_test_top.env.slave_agent.mon [ahb_slave_monitor] Observed [AHB_WRITE]: HADDR=0x0000d0ad, HBURST=AHB_BURST_INCR8, HSIZE=AHB_SIZE_8B, 8 beats
# UVM_INFO ../src/env/ahb_scoreboard.sv(104) @ 465000: uvm_test_top.env.scb [ahb_scoreboard] MATCH #5: [AHB_WRITE] HADDR=0x0000d0ad AHB_BURST_INCR8 8 beats
# UVM_INFO ../src/env/ahb_coverage.sv(126) @ 465000: uvm_test_top.env.slave_cov [ahb_coverage] Sampled [AHB_WRITE]: burst=AHB_BURST_INCR8 size=AHB_SIZE_8B beats=8 error=0
# UVM_INFO ../src/mst/ahb_master_driver.sv(85) @ 465000: uvm_test_top.env.master_agent.drv [ahb_master_driver] Queueing [AHB_READ]: HADDR=0x0000d0ad, HBURST=AHB_BURST_INCR8, HSIZE=AHB_SIZE_8B, 8 beats
# UVM_INFO ../src/mst/ahb_master_driver.sv(127) @ 465000: uvm_test_top.env.master_agent.drv [ahb_master_driver] Driving [AHB_READ]: HADDR=0x0000d0ad, HBURST=AHB_BURST_INCR8, HSIZE=AHB_SIZE_8B, 8 beats               
# UVM_INFO ../src/mst/ahb_master_driver.sv(332) @ 515000: uvm_test_top.env.master_agent.drv [ahb_master_driver] Beat[0/8] addr=0x0000d0ad trans=AHB_TRANS_NONSEQ resp=AHB_RESP_OKAY rdata=0xefbaba15
# UVM_INFO ../src/slv/ahb_slave_driver.sv(184) @ 515000: uvm_test_top.env.slave_agent.drv [ahb_slave_driver] Beat AHB_READ addr=0x0000d0ad resp=AHB_RESP_OKAY waits=2 rdata=0xefbaba15
# UVM_INFO ../src/mst/ahb_master_monitor.sv(117) @ 515000: uvm_test_top.env.master_agent.mon [ahb_master_monitor] Beat[0] addr=0x0000d0ad rdata=0xefbaba15 resp=AHB_RESP_OKAY
# UVM_INFO ../src/mst/ahb_master_driver.sv(332) @ 545000: uvm_test_top.env.master_agent.drv [ahb_master_driver] Beat[1/8] addr=0x0000d0ae trans=AHB_TRANS_SEQ resp=AHB_RESP_OKAY rdata=0x18e22304
# UVM_INFO ../src/slv/ahb_slave_driver.sv(184) @ 545000: uvm_test_top.env.slave_agent.drv [ahb_slave_driver] Beat AHB_READ addr=0x0000d0ae resp=AHB_RESP_OKAY waits=2 rdata=0x18e22304
# UVM_INFO ../src/mst/ahb_master_monitor.sv(117) @ 545000: uvm_test_top.env.master_agent.mon [ahb_master_monitor] Beat[1] addr=0x0000d0ae rdata=0x18e22304 resp=AHB_RESP_OKAY
# UVM_INFO ../src/mst/ahb_master_driver.sv(332) @ 575000: uvm_test_top.env.master_agent.drv [ahb_master_driver] Beat[2/8] addr=0x0000d0af trans=AHB_TRANS_SEQ resp=AHB_RESP_OKAY rdata=0xb7d9f848
# UVM_INFO ../src/slv/ahb_slave_driver.sv(184) @ 575000: uvm_test_top.env.slave_agent.drv [ahb_slave_driver] Beat AHB_READ addr=0x0000d0af resp=AHB_RESP_OKAY waits=2 rdata=0xb7d9f848
# UVM_INFO ../src/mst/ahb_master_monitor.sv(117) @ 575000: uvm_test_top.env.master_agent.mon [ahb_master_monitor] Beat[2] addr=0x0000d0af rdata=0xb7d9f848 resp=AHB_RESP_OKAY
# UVM_INFO ../src/mst/ahb_master_driver.sv(332) @ 605000: uvm_test_top.env.master_agent.drv [ahb_master_driver] Beat[3/8] addr=0x0000d0b0 trans=AHB_TRANS_SEQ resp=AHB_RESP_OKAY rdata=0xfad378dd
# UVM_INFO ../src/slv/ahb_slave_driver.sv(184) @ 605000: uvm_test_top.env.slave_agent.drv [ahb_slave_driver] Beat AHB_READ addr=0x0000d0b0 resp=AHB_RESP_OKAY waits=2 rdata=0xfad378dd
# UVM_INFO ../src/mst/ahb_master_monitor.sv(117) @ 605000: uvm_test_top.env.master_agent.mon [ahb_master_monitor] Beat[3] addr=0x0000d0b0 rdata=0xfad378dd resp=AHB_RESP_OKAY
# UVM_INFO ../src/mst/ahb_master_driver.sv(332) @ 635000: uvm_test_top.env.master_agent.drv [ahb_master_driver] Beat[4/8] addr=0x0000d0b1 trans=AHB_TRANS_SEQ resp=AHB_RESP_OKAY rdata=0x89e9a2c1
# UVM_INFO ../src/slv/ahb_slave_driver.sv(184) @ 635000: uvm_test_top.env.slave_agent.drv [ahb_slave_driver] Beat AHB_READ addr=0x0000d0b1 resp=AHB_RESP_OKAY waits=2 rdata=0x89e9a2c1
# UVM_INFO ../src/mst/ahb_master_monitor.sv(117) @ 635000: uvm_test_top.env.master_agent.mon [ahb_master_monitor] Beat[4] addr=0x0000d0b1 rdata=0x89e9a2c1 resp=AHB_RESP_OKAY
# UVM_INFO ../src/mst/ahb_master_driver.sv(332) @ 665000: uvm_test_top.env.master_agent.drv [ahb_master_driver] Beat[5/8] addr=0x0000d0b2 trans=AHB_TRANS_SEQ resp=AHB_RESP_OKAY rdata=0x6a00aef8
# UVM_INFO ../src/slv/ahb_slave_driver.sv(184) @ 665000: uvm_test_top.env.slave_agent.drv [ahb_slave_driver] Beat AHB_READ addr=0x0000d0b2 resp=AHB_RESP_OKAY waits=2 rdata=0x6a00aef8
# UVM_INFO ../src/mst/ahb_master_monitor.sv(117) @ 665000: uvm_test_top.env.master_agent.mon [ahb_master_monitor] Beat[5] addr=0x0000d0b2 rdata=0x6a00aef8 resp=AHB_RESP_OKAY
# UVM_INFO ../src/mst/ahb_master_driver.sv(332) @ 695000: uvm_test_top.env.master_agent.drv [ahb_master_driver] Beat[6/8] addr=0x0000d0b3 trans=AHB_TRANS_SEQ resp=AHB_RESP_OKAY rdata=0x5de94146
# UVM_INFO ../src/slv/ahb_slave_driver.sv(184) @ 695000: uvm_test_top.env.slave_agent.drv [ahb_slave_driver] Beat AHB_READ addr=0x0000d0b3 resp=AHB_RESP_OKAY waits=2 rdata=0x5de94146
# UVM_INFO ../src/mst/ahb_master_monitor.sv(117) @ 695000: uvm_test_top.env.master_agent.mon [ahb_master_monitor] Beat[6] addr=0x0000d0b3 rdata=0x5de94146 resp=AHB_RESP_OKAY
# UVM_INFO ../src/mst/ahb_master_driver.sv(332) @ 725000: uvm_test_top.env.master_agent.drv [ahb_master_driver] Beat[7/8] addr=0x0000d0b4 trans=AHB_TRANS_SEQ resp=AHB_RESP_OKAY rdata=0x261fd879
# UVM_INFO ../src/mst/ahb_master_driver.sv(376) @ 725000: uvm_test_top.env.master_agent.drv [ahb_master_driver] Transaction complete: AHB_READ 0x0000d0ad, 8 beats, burst=AHB_BURST_INCR8
# UVM_INFO ../src/slv/ahb_slave_driver.sv(184) @ 725000: uvm_test_top.env.slave_agent.drv [ahb_slave_driver] Beat AHB_READ addr=0x0000d0b4 resp=AHB_RESP_OKAY waits=2 rdata=0x261fd879
# UVM_INFO ../src/mst/ahb_master_monitor.sv(117) @ 725000: uvm_test_top.env.master_agent.mon [ahb_master_monitor] Beat[7] addr=0x0000d0b4 rdata=0x261fd879 resp=AHB_RESP_OKAY
# UVM_INFO ../src/mst/ahb_master_monitor.sv(220) @ 725000: uvm_test_top.env.master_agent.mon [ahb_master_monitor] Observed [AHB_READ]: HADDR=0x0000d0ad, HBURST=AHB_BURST_INCR8, HSIZE=AHB_SIZE_8B, 8 beats
# UVM_INFO ../src/env/ahb_coverage.sv(126) @ 725000: uvm_test_top.env.master_cov [ahb_coverage] Sampled [AHB_READ]: burst=AHB_BURST_INCR8 size=AHB_SIZE_8B beats=8 error=0
# UVM_INFO ../src/slv/ahb_slave_monitor.sv(197) @ 725000: uvm_test_top.env.slave_agent.mon [ahb_slave_monitor] Observed [AHB_READ]: HADDR=0x0000d0ad, HBURST=AHB_BURST_INCR8, HSIZE=AHB_SIZE_8B, 8 beats
# UVM_INFO ../src/env/ahb_scoreboard.sv(104) @ 725000: uvm_test_top.env.scb [ahb_scoreboard] MATCH #6: [AHB_READ] HADDR=0x0000d0ad AHB_BURST_INCR8 8 beats
# UVM_INFO ../src/env/ahb_coverage.sv(126) @ 725000: uvm_test_top.env.slave_cov [ahb_coverage] Sampled [AHB_READ]: burst=AHB_BURST_INCR8 size=AHB_SIZE_8B beats=8 error=0
# UVM_INFO ../src/mst_seq/ahb_base_seq.sv(157) @ 725000: uvm_test_top.env.master_agent.sqr@@seq [ahb_wait_state_seq] AHB_BURST_INCR8 AHB_SIZE_8B beat 0 @0x0000d0ad ok
# UVM_INFO ../src/mst_seq/ahb_base_seq.sv(157) @ 725000: uvm_test_top.env.master_agent.sqr@@seq [ahb_wait_state_seq] AHB_BURST_INCR8 AHB_SIZE_8B beat 1 @0x0000d0ae ok
# UVM_INFO ../src/mst_seq/ahb_base_seq.sv(157) @ 725000: uvm_test_top.env.master_agent.sqr@@seq [ahb_wait_state_seq] AHB_BURST_INCR8 AHB_SIZE_8B beat 2 @0x0000d0af ok
# UVM_INFO ../src/mst_seq/ahb_base_seq.sv(157) @ 725000: uvm_test_top.env.master_agent.sqr@@seq [ahb_wait_state_seq] AHB_BURST_INCR8 AHB_SIZE_8B beat 3 @0x0000d0b0 ok
# UVM_INFO ../src/mst_seq/ahb_base_seq.sv(157) @ 725000: uvm_test_top.env.master_agent.sqr@@seq [ahb_wait_state_seq] AHB_BURST_INCR8 AHB_SIZE_8B beat 4 @0x0000d0b1 ok
# UVM_INFO ../src/mst_seq/ahb_base_seq.sv(157) @ 725000: uvm_test_top.env.master_agent.sqr@@seq [ahb_wait_state_seq] AHB_BURST_INCR8 AHB_SIZE_8B beat 5 @0x0000d0b2 ok
# UVM_INFO ../src/mst_seq/ahb_base_seq.sv(157) @ 725000: uvm_test_top.env.master_agent.sqr@@seq [ahb_wait_state_seq] AHB_BURST_INCR8 AHB_SIZE_8B beat 6 @0x0000d0b3 ok
# UVM_INFO ../src/mst_seq/ahb_base_seq.sv(157) @ 725000: uvm_test_top.env.master_agent.sqr@@seq [ahb_wait_state_seq] AHB_BURST_INCR8 AHB_SIZE_8B beat 7 @0x0000d0b4 ok
# UVM_INFO ../src/mst_seq/ahb_wait_state_seq.sv(166) @ 725000: uvm_test_top.env.master_agent.sqr@@seq [ahb_wait_state_seq] AHB_BURST_INCR AHB_SIZE_8B @0x0000d0f7, 8 beats, waits=3:3, pipelined=1
# UVM_INFO ../src/mst/ahb_master_driver.sv(85) @ 725000: uvm_test_top.env.master_agent.drv [ahb_master_driver] Queueing [AHB_WRITE]: HADDR=0x0000d0f7, HBURST=AHB_BURST_INCR, HSIZE=AHB_SIZE_8B, 8 beats
# UVM_INFO ../src/mst/ahb_master_driver.sv(127) @ 725000: uvm_test_top.env.master_agent.drv [ahb_master_driver] Driving [AHB_WRITE]: HADDR=0x0000d0f7, HBURST=AHB_BURST_INCR, HSIZE=AHB_SIZE_8B, 8 beats               
# UVM_INFO ../src/mst/ahb_master_driver.sv(85) @ 725000: uvm_test_top.env.master_agent.drv [ahb_master_driver] Queueing [AHB_READ]: HADDR=0x0000d0f7, HBURST=AHB_BURST_INCR, HSIZE=AHB_SIZE_8B, 8 beats
# UVM_INFO ../src/mst/ahb_master_driver.sv(332) @ 785000: uvm_test_top.env.master_agent.drv [ahb_master_driver] Beat[0/8] addr=0x0000d0f7 trans=AHB_TRANS_NONSEQ resp=AHB_RESP_OKAY wdata=0x6c88ae3f
# UVM_INFO ../src/slv/ahb_slave_driver.sv(184) @ 785000: uvm_test_top.env.slave_agent.drv [ahb_slave_driver] Beat AHB_WRITE addr=0x0000d0f7 resp=AHB_RESP_OKAY waits=3 wdata=0x6c88ae3f
# UVM_INFO ../src/mst/ahb_master_monitor.sv(117) @ 785000: uvm_test_top.env.master_agent.mon [ahb_master_monitor] Beat[0] addr=0x0000d0f7 wdata=0x6c88ae3f resp=AHB_RESP_OKAY
# UVM_INFO ../src/mst/ahb_master_driver.sv(332) @ 825000: uvm_test_top.env.master_agent.drv [ahb_master_driver] Beat[1/8] addr=0x0000d0f8 trans=AHB_TRANS_SEQ resp=AHB_RESP_OKAY wdata=0x2ae7344a
# UVM_INFO ../src/slv/ahb_slave_driver.sv(184) @ 825000: uvm_test_top.env.slave_agent.drv [ahb_slave_driver] Beat AHB_WRITE addr=0x0000d0f8 resp=AHB_RESP_OKAY waits=3 wdata=0x2ae7344a
# UVM_INFO ../src/mst/ahb_master_monitor.sv(117) @ 825000: uvm_test_top.env.master_agent.mon [ahb_master_monitor] Beat[1] addr=0x0000d0f8 wdata=0x2ae7344a resp=AHB_RESP_OKAY
# UVM_INFO ../src/mst/ahb_master_driver.sv(332) @ 865000: uvm_test_top.env.master_agent.drv [ahb_master_driver] Beat[2/8] addr=0x0000d0f9 trans=AHB_TRANS_SEQ resp=AHB_RESP_OKAY wdata=0x1f2614d2
# UVM_INFO ../src/slv/ahb_slave_driver.sv(184) @ 865000: uvm_test_top.env.slave_agent.drv [ahb_slave_driver] Beat AHB_WRITE addr=0x0000d0f9 resp=AHB_RESP_OKAY waits=3 wdata=0x1f2614d2
# UVM_INFO ../src/mst/ahb_master_monitor.sv(117) @ 865000: uvm_test_top.env.master_agent.mon [ahb_master_monitor] Beat[2] addr=0x0000d0f9 wdata=0x1f2614d2 resp=AHB_RESP_OKAY
# UVM_INFO ../src/mst/ahb_master_driver.sv(332) @ 905000: uvm_test_top.env.master_agent.drv [ahb_master_driver] Beat[3/8] addr=0x0000d0fa trans=AHB_TRANS_SEQ resp=AHB_RESP_OKAY wdata=0xaf3c7305
# UVM_INFO ../src/slv/ahb_slave_driver.sv(184) @ 905000: uvm_test_top.env.slave_agent.drv [ahb_slave_driver] Beat AHB_WRITE addr=0x0000d0fa resp=AHB_RESP_OKAY waits=3 wdata=0xaf3c7305
# UVM_INFO ../src/mst/ahb_master_monitor.sv(117) @ 905000: uvm_test_top.env.master_agent.mon [ahb_master_monitor] Beat[3] addr=0x0000d0fa wdata=0xaf3c7305 resp=AHB_RESP_OKAY
# UVM_INFO ../src/mst/ahb_master_driver.sv(332) @ 945000: uvm_test_top.env.master_agent.drv [ahb_master_driver] Beat[4/8] addr=0x0000d0fb trans=AHB_TRANS_SEQ resp=AHB_RESP_OKAY wdata=0x23aa906f
# UVM_INFO ../src/slv/ahb_slave_driver.sv(184) @ 945000: uvm_test_top.env.slave_agent.drv [ahb_slave_driver] Beat AHB_WRITE addr=0x0000d0fb resp=AHB_RESP_OKAY waits=3 wdata=0x23aa906f
# UVM_INFO ../src/mst/ahb_master_monitor.sv(117) @ 945000: uvm_test_top.env.master_agent.mon [ahb_master_monitor] Beat[4] addr=0x0000d0fb wdata=0x23aa906f resp=AHB_RESP_OKAY
# UVM_INFO ../src/mst/ahb_master_driver.sv(332) @ 985000: uvm_test_top.env.master_agent.drv [ahb_master_driver] Beat[5/8] addr=0x0000d0fc trans=AHB_TRANS_SEQ resp=AHB_RESP_OKAY wdata=0x9f31bf24
# UVM_INFO ../src/slv/ahb_slave_driver.sv(184) @ 985000: uvm_test_top.env.slave_agent.drv [ahb_slave_driver] Beat AHB_WRITE addr=0x0000d0fc resp=AHB_RESP_OKAY waits=3 wdata=0x9f31bf24
# UVM_INFO ../src/mst/ahb_master_monitor.sv(117) @ 985000: uvm_test_top.env.master_agent.mon [ahb_master_monitor] Beat[5] addr=0x0000d0fc wdata=0x9f31bf24 resp=AHB_RESP_OKAY
# UVM_INFO ../src/mst/ahb_master_driver.sv(332) @ 1025000: uvm_test_top.env.master_agent.drv [ahb_master_driver] Beat[6/8] addr=0x0000d0fd trans=AHB_TRANS_SEQ resp=AHB_RESP_OKAY wdata=0xb4a6ebd1
# UVM_INFO ../src/slv/ahb_slave_driver.sv(184) @ 1025000: uvm_test_top.env.slave_agent.drv [ahb_slave_driver] Beat AHB_WRITE addr=0x0000d0fd resp=AHB_RESP_OKAY waits=3 wdata=0xb4a6ebd1
# UVM_INFO ../src/mst/ahb_master_monitor.sv(117) @ 1025000: uvm_test_top.env.master_agent.mon [ahb_master_monitor] Beat[6] addr=0x0000d0fd wdata=0xb4a6ebd1 resp=AHB_RESP_OKAY
# UVM_INFO ../src/mst/ahb_master_driver.sv(332) @ 1065000: uvm_test_top.env.master_agent.drv [ahb_master_driver] Beat[7/8] addr=0x0000d0fe trans=AHB_TRANS_SEQ resp=AHB_RESP_OKAY wdata=0xcc4a31c8
# UVM_INFO ../src/mst/ahb_master_driver.sv(376) @ 1065000: uvm_test_top.env.master_agent.drv [ahb_master_driver] Transaction complete: AHB_WRITE 0x0000d0f7, 8 beats, burst=AHB_BURST_INCR
# UVM_INFO ../src/mst/ahb_master_driver.sv(127) @ 1065000: uvm_test_top.env.master_agent.drv [ahb_master_driver] Driving [AHB_READ]: HADDR=0x0000d0f7, HBURST=AHB_BURST_INCR, HSIZE=AHB_SIZE_8B, 8 beats (back-to-back)
# UVM_INFO ../src/slv/ahb_slave_driver.sv(184) @ 1065000: uvm_test_top.env.slave_agent.drv [ahb_slave_driver] Beat AHB_WRITE addr=0x0000d0fe resp=AHB_RESP_OKAY waits=3 wdata=0xcc4a31c8
# UVM_INFO ../src/mst/ahb_master_monitor.sv(117) @ 1065000: uvm_test_top.env.master_agent.mon [ahb_master_monitor] Beat[7] addr=0x0000d0fe wdata=0xcc4a31c8 resp=AHB_RESP_OKAY
# UVM_INFO ../src/mst/ahb_master_monitor.sv(220) @ 1065000: uvm_test_top.env.master_agent.mon [ahb_master_monitor] Observed [AHB_WRITE]: HADDR=0x0000d0f7, HBURST=AHB_BURST_INCR, HSIZE=AHB_SIZE_8B, 8 beats
# UVM_INFO ../src/env/ahb_coverage.sv(126) @ 1065000: uvm_test_top.env.master_cov [ahb_coverage] Sampled [AHB_WRITE]: burst=AHB_BURST_INCR size=AHB_SIZE_8B beats=8 error=0
# UVM_INFO ../src/slv/ahb_slave_monitor.sv(197) @ 1065000: uvm_test_top.env.slave_agent.mon [ahb_slave_monitor] Observed [AHB_WRITE]: HADDR=0x0000d0f7, HBURST=AHB_BURST_INCR, HSIZE=AHB_SIZE_8B, 8 beats
# UVM_INFO ../src/env/ahb_scoreboard.sv(104) @ 1065000: uvm_test_top.env.scb [ahb_scoreboard] MATCH #7: [AHB_WRITE] HADDR=0x0000d0f7 AHB_BURST_INCR 8 beats
# UVM_INFO ../src/env/ahb_coverage.sv(126) @ 1065000: uvm_test_top.env.slave_cov [ahb_coverage] Sampled [AHB_WRITE]: burst=AHB_BURST_INCR size=AHB_SIZE_8B beats=8 error=0
# UVM_INFO ../src/mst/ahb_master_driver.sv(332) @ 1105000: uvm_test_top.env.master_agent.drv [ahb_master_driver] Beat[0/8] addr=0x0000d0f7 trans=AHB_TRANS_NONSEQ resp=AHB_RESP_OKAY rdata=0x6c88ae3f
# UVM_INFO ../src/slv/ahb_slave_driver.sv(184) @ 1105000: uvm_test_top.env.slave_agent.drv [ahb_slave_driver] Beat AHB_READ addr=0x0000d0f7 resp=AHB_RESP_OKAY waits=3 rdata=0x6c88ae3f
# UVM_INFO ../src/mst/ahb_master_monitor.sv(117) @ 1105000: uvm_test_top.env.master_agent.mon [ahb_master_monitor] Beat[0] addr=0x0000d0f7 rdata=0x6c88ae3f resp=AHB_RESP_OKAY
# UVM_INFO ../src/mst/ahb_master_driver.sv(332) @ 1145000: uvm_test_top.env.master_agent.drv [ahb_master_driver] Beat[1/8] addr=0x0000d0f8 trans=AHB_TRANS_SEQ resp=AHB_RESP_OKAY rdata=0x2ae7344a
# UVM_INFO ../src/slv/ahb_slave_driver.sv(184) @ 1145000: uvm_test_top.env.slave_agent.drv [ahb_slave_driver] Beat AHB_READ addr=0x0000d0f8 resp=AHB_RESP_OKAY waits=3 rdata=0x2ae7344a
# UVM_INFO ../src/mst/ahb_master_monitor.sv(117) @ 1145000: uvm_test_top.env.master_agent.mon [ahb_master_monitor] Beat[1] addr=0x0000d0f8 rdata=0x2ae7344a resp=AHB_RESP_OKAY
# UVM_INFO ../src/mst/ahb_master_driver.sv(332) @ 1185000: uvm_test_top.env.master_agent.drv [ahb_master_driver] Beat[2/8] addr=0x0000d0f9 trans=AHB_TRANS_SEQ resp=AHB_RESP_OKAY rdata=0x1f2614d2
# UVM_INFO ../src/slv/ahb_slave_driver.sv(184) @ 1185000: uvm_test_top.env.slave_agent.drv [ahb_slave_driver] Beat AHB_READ addr=0x0000d0f9 resp=AHB_RESP_OKAY waits=3 rdata=0x1f2614d2
# UVM_INFO ../src/mst/ahb_master_monitor.sv(117) @ 1185000: uvm_test_top.env.master_agent.mon [ahb_master_monitor] Beat[2] addr=0x0000d0f9 rdata=0x1f2614d2 resp=AHB_RESP_OKAY
# UVM_INFO ../src/mst/ahb_master_driver.sv(332) @ 1225000: uvm_test_top.env.master_agent.drv [ahb_master_driver] Beat[3/8] addr=0x0000d0fa trans=AHB_TRANS_SEQ resp=AHB_RESP_OKAY rdata=0xaf3c7305
# UVM_INFO ../src/slv/ahb_slave_driver.sv(184) @ 1225000: uvm_test_top.env.slave_agent.drv [ahb_slave_driver] Beat AHB_READ addr=0x0000d0fa resp=AHB_RESP_OKAY waits=3 rdata=0xaf3c7305
# UVM_INFO ../src/mst/ahb_master_monitor.sv(117) @ 1225000: uvm_test_top.env.master_agent.mon [ahb_master_monitor] Beat[3] addr=0x0000d0fa rdata=0xaf3c7305 resp=AHB_RESP_OKAY
# UVM_INFO ../src/mst/ahb_master_driver.sv(332) @ 1265000: uvm_test_top.env.master_agent.drv [ahb_master_driver] Beat[4/8] addr=0x0000d0fb trans=AHB_TRANS_SEQ resp=AHB_RESP_OKAY rdata=0x23aa906f
# UVM_INFO ../src/slv/ahb_slave_driver.sv(184) @ 1265000: uvm_test_top.env.slave_agent.drv [ahb_slave_driver] Beat AHB_READ addr=0x0000d0fb resp=AHB_RESP_OKAY waits=3 rdata=0x23aa906f
# UVM_INFO ../src/mst/ahb_master_monitor.sv(117) @ 1265000: uvm_test_top.env.master_agent.mon [ahb_master_monitor] Beat[4] addr=0x0000d0fb rdata=0x23aa906f resp=AHB_RESP_OKAY
# UVM_INFO ../src/mst/ahb_master_driver.sv(332) @ 1305000: uvm_test_top.env.master_agent.drv [ahb_master_driver] Beat[5/8] addr=0x0000d0fc trans=AHB_TRANS_SEQ resp=AHB_RESP_OKAY rdata=0x9f31bf24
# UVM_INFO ../src/slv/ahb_slave_driver.sv(184) @ 1305000: uvm_test_top.env.slave_agent.drv [ahb_slave_driver] Beat AHB_READ addr=0x0000d0fc resp=AHB_RESP_OKAY waits=3 rdata=0x9f31bf24
# UVM_INFO ../src/mst/ahb_master_monitor.sv(117) @ 1305000: uvm_test_top.env.master_agent.mon [ahb_master_monitor] Beat[5] addr=0x0000d0fc rdata=0x9f31bf24 resp=AHB_RESP_OKAY
# UVM_INFO ../src/mst/ahb_master_driver.sv(332) @ 1345000: uvm_test_top.env.master_agent.drv [ahb_master_driver] Beat[6/8] addr=0x0000d0fd trans=AHB_TRANS_SEQ resp=AHB_RESP_OKAY rdata=0xb4a6ebd1
# UVM_INFO ../src/slv/ahb_slave_driver.sv(184) @ 1345000: uvm_test_top.env.slave_agent.drv [ahb_slave_driver] Beat AHB_READ addr=0x0000d0fd resp=AHB_RESP_OKAY waits=3 rdata=0xb4a6ebd1
# UVM_INFO ../src/mst/ahb_master_monitor.sv(117) @ 1345000: uvm_test_top.env.master_agent.mon [ahb_master_monitor] Beat[6] addr=0x0000d0fd rdata=0xb4a6ebd1 resp=AHB_RESP_OKAY
# UVM_INFO ../src/mst/ahb_master_driver.sv(332) @ 1385000: uvm_test_top.env.master_agent.drv [ahb_master_driver] Beat[7/8] addr=0x0000d0fe trans=AHB_TRANS_SEQ resp=AHB_RESP_OKAY rdata=0xcc4a31c8
# UVM_INFO ../src/mst/ahb_master_driver.sv(376) @ 1385000: uvm_test_top.env.master_agent.drv [ahb_master_driver] Transaction complete: AHB_READ 0x0000d0f7, 8 beats, burst=AHB_BURST_INCR
# UVM_INFO ../src/slv/ahb_slave_driver.sv(184) @ 1385000: uvm_test_top.env.slave_agent.drv [ahb_slave_driver] Beat AHB_READ addr=0x0000d0fe resp=AHB_RESP_OKAY waits=3 rdata=0xcc4a31c8
# UVM_INFO ../src/mst/ahb_master_monitor.sv(117) @ 1385000: uvm_test_top.env.master_agent.mon [ahb_master_monitor] Beat[7] addr=0x0000d0fe rdata=0xcc4a31c8 resp=AHB_RESP_OKAY
# UVM_INFO ../src/mst/ahb_master_monitor.sv(220) @ 1385000: uvm_test_top.env.master_agent.mon [ahb_master_monitor] Observed [AHB_READ]: HADDR=0x0000d0f7, HBURST=AHB_BURST_INCR, HSIZE=AHB_SIZE_8B, 8 beats
# UVM_INFO ../src/env/ahb_coverage.sv(126) @ 1385000: uvm_test_top.env.master_cov [ahb_coverage] Sampled [AHB_READ]: burst=AHB_BURST_INCR size=AHB_SIZE_8B beats=8 error=0
# UVM_INFO ../src/slv/ahb_slave_monitor.sv(197) @ 1385000: uvm_test_top.env.slave_agent.mon [ahb_slave_monitor] Observed [AHB_READ]: HADDR=0x0000d0f7, HBURST=AHB_BURST_INCR, HSIZE=AHB_SIZE_8B, 8 beats
# UVM_INFO ../src/env/ahb_scoreboard.sv(104) @ 1385000: uvm_test_top.env.scb [ahb_scoreboard] MATCH #8: [AHB_READ] HADDR=0x0000d0f7 AHB_BURST_INCR 8 beats
# UVM_INFO ../src/env/ahb_coverage.sv(126) @ 1385000: uvm_test_top.env.slave_cov [ahb_coverage] Sampled [AHB_READ]: burst=AHB_BURST_INCR size=AHB_SIZE_8B beats=8 error=0
# UVM_INFO ../src/mst_seq/ahb_base_seq.sv(157) @ 1385000: uvm_test_top.env.master_agent.sqr@@seq [ahb_wait_state_seq] AHB_BURST_INCR AHB_SIZE_8B beat 0 @0x0000d0f7 ok
# UVM_INFO ../src/mst_seq/ahb_base_seq.sv(157) @ 1385000: uvm_test_top.env.master_agent.sqr@@seq [ahb_wait_state_seq] AHB_BURST_INCR AHB_SIZE_8B beat 1 @0x0000d0f8 ok
# UVM_INFO ../src/mst_seq/ahb_base_seq.sv(157) @ 1385000: uvm_test_top.env.master_agent.sqr@@seq [ahb_wait_state_seq] AHB_BURST_INCR AHB_SIZE_8B beat 2 @0x0000d0f9 ok
# UVM_INFO ../src/mst_seq/ahb_base_seq.sv(157) @ 1385000: uvm_test_top.env.master_agent.sqr@@seq [ahb_wait_state_seq] AHB_BURST_INCR AHB_SIZE_8B beat 3 @0x0000d0fa ok
# UVM_INFO ../src/mst_seq/ahb_base_seq.sv(157) @ 1385000: uvm_test_top.env.master_agent.sqr@@seq [ahb_wait_state_seq] AHB_BURST_INCR AHB_SIZE_8B beat 4 @0x0000d0fb ok
# UVM_INFO ../src/mst_seq/ahb_base_seq.sv(157) @ 1385000: uvm_test_top.env.master_agent.sqr@@seq [ahb_wait_state_seq] AHB_BURST_INCR AHB_SIZE_8B beat 5 @0x0000d0fc ok
# UVM_INFO ../src/mst_seq/ahb_base_seq.sv(157) @ 1385000: uvm_test_top.env.master_agent.sqr@@seq [ahb_wait_state_seq] AHB_BURST_INCR AHB_SIZE_8B beat 6 @0x0000d0fd ok
# UVM_INFO ../src/mst_seq/ahb_base_seq.sv(157) @ 1385000: uvm_test_top.env.master_agent.sqr@@seq [ahb_wait_state_seq] AHB_BURST_INCR AHB_SIZE_8B beat 7 @0x0000d0fe ok
# UVM_INFO ../src/mst_seq/ahb_wait_state_seq.sv(166) @ 1385000: uvm_test_top.env.master_agent.sqr@@seq [ahb_wait_state_seq] AHB_BURST_SINGLE AHB_SIZE_8B @0x0000d139, 1 beats, waits=1:7, pipelined=0
# UVM_INFO ../src/mst/ahb_master_driver.sv(85) @ 1385000: uvm_test_top.env.master_agent.drv [ahb_master_driver] Queueing [AHB_WRITE]: HADDR=0x0000d139, HBURST=AHB_BURST_SINGLE, HSIZE=AHB_SIZE_8B, 1 beats
# UVM_INFO ../src/mst/ahb_master_driver.sv(127) @ 1385000: uvm_test_top.env.master_agent.drv [ahb_master_driver] Driving [AHB_WRITE]: HADDR=0x0000d139, HBURST=AHB_BURST_SINGLE, HSIZE=AHB_SIZE_8B, 1 beats               
# UVM_INFO ../src/mst/ahb_master_driver.sv(332) @ 1435000: uvm_test_top.env.master_agent.drv [ahb_master_driver] Beat[0/1] addr=0x0000d139 trans=AHB_TRANS_NONSEQ resp=AHB_RESP_OKAY wdata=0xcde07196
# UVM_INFO ../src/mst/ahb_master_driver.sv(376) @ 1435000: uvm_test_top.env.master_agent.drv [ahb_master_driver] Transaction complete: AHB_WRITE 0x0000d139, 1 beats, burst=AHB_BURST_SINGLE
# UVM_INFO ../src/slv/ahb_slave_driver.sv(184) @ 1435000: uvm_test_top.env.slave_agent.drv [ahb_slave_driver] Beat AHB_WRITE addr=0x0000d139 resp=AHB_RESP_OKAY waits=2 wdata=0xcde07196
# UVM_INFO ../src/slv/ahb_slave_monitor.sv(197) @ 1435000: uvm_test_top.env.slave_agent.mon [ahb_slave_monitor] Observed [AHB_WRITE]: HADDR=0x0000d139, HBURST=AHB_BURST_SINGLE, HSIZE=AHB_SIZE_8B, 1 beats
# UVM_INFO ../src/env/ahb_coverage.sv(126) @ 1435000: uvm_test_top.env.slave_cov [ahb_coverage] Sampled [AHB_WRITE]: burst=AHB_BURST_SINGLE size=AHB_SIZE_8B beats=1 error=0
# UVM_INFO ../src/mst/ahb_master_monitor.sv(117) @ 1435000: uvm_test_top.env.master_agent.mon [ahb_master_monitor] Beat[0] addr=0x0000d139 wdata=0xcde07196 resp=AHB_RESP_OKAY
# UVM_INFO ../src/mst/ahb_master_monitor.sv(220) @ 1435000: uvm_test_top.env.master_agent.mon [ahb_master_monitor] Observed [AHB_WRITE]: HADDR=0x0000d139, HBURST=AHB_BURST_SINGLE, HSIZE=AHB_SIZE_8B, 1 beats
# UVM_INFO ../src/env/ahb_coverage.sv(126) @ 1435000: uvm_test_top.env.master_cov [ahb_coverage] Sampled [AHB_WRITE]: burst=AHB_BURST_SINGLE size=AHB_SIZE_8B beats=1 error=0
# UVM_INFO ../src/env/ahb_scoreboard.sv(104) @ 1435000: uvm_test_top.env.scb [ahb_scoreboard] MATCH #9: [AHB_WRITE] HADDR=0x0000d139 AHB_BURST_SINGLE 1 beats
# UVM_INFO ../src/mst/ahb_master_driver.sv(85) @ 1435000: uvm_test_top.env.master_agent.drv [ahb_master_driver] Queueing [AHB_READ]: HADDR=0x0000d139, HBURST=AHB_BURST_SINGLE, HSIZE=AHB_SIZE_8B, 1 beats
# UVM_INFO ../src/mst/ahb_master_driver.sv(127) @ 1435000: uvm_test_top.env.master_agent.drv [ahb_master_driver] Driving [AHB_READ]: HADDR=0x0000d139, HBURST=AHB_BURST_SINGLE, HSIZE=AHB_SIZE_8B, 1 beats               
# UVM_INFO ../src/mst/ahb_master_driver.sv(332) @ 1535000: uvm_test_top.env.master_agent.drv [ahb_master_driver] Beat[0/1] addr=0x0000d139 trans=AHB_TRANS_NONSEQ resp=AHB_RESP_OKAY rdata=0xcde07196
# UVM_INFO ../src/mst/ahb_master_driver.sv(376) @ 1535000: uvm_test_top.env.master_agent.drv [ahb_master_driver] Transaction complete: AHB_READ 0x0000d139, 1 beats, burst=AHB_BURST_SINGLE
# UVM_INFO ../src/slv/ahb_slave_driver.sv(184) @ 1535000: uvm_test_top.env.slave_agent.drv [ahb_slave_driver] Beat AHB_READ addr=0x0000d139 resp=AHB_RESP_OKAY waits=7 rdata=0xcde07196
# UVM_INFO ../src/slv/ahb_slave_monitor.sv(197) @ 1535000: uvm_test_top.env.slave_agent.mon [ahb_slave_monitor] Observed [AHB_READ]: HADDR=0x0000d139, HBURST=AHB_BURST_SINGLE, HSIZE=AHB_SIZE_8B, 1 beats
# UVM_INFO ../src/env/ahb_coverage.sv(126) @ 1535000: uvm_test_top.env.slave_cov [ahb_coverage] Sampled [AHB_READ]: burst=AHB_BURST_SINGLE size=AHB_SIZE_8B beats=1 error=0
# UVM_INFO ../src/mst/ahb_master_monitor.sv(117) @ 1535000: uvm_test_top.env.master_agent.mon [ahb_master_monitor] Beat[0] addr=0x0000d139 rdata=0xcde07196 resp=AHB_RESP_OKAY
# UVM_INFO ../src/mst/ahb_master_monitor.sv(220) @ 1535000: uvm_test_top.env.master_agent.mon [ahb_master_monitor] Observed [AHB_READ]: HADDR=0x0000d139, HBURST=AHB_BURST_SINGLE, HSIZE=AHB_SIZE_8B, 1 beats
# UVM_INFO ../src/env/ahb_coverage.sv(126) @ 1535000: uvm_test_top.env.master_cov [ahb_coverage] Sampled [AHB_READ]: burst=AHB_BURST_SINGLE size=AHB_SIZE_8B beats=1 error=0
# UVM_INFO ../src/env/ahb_scoreboard.sv(104) @ 1535000: uvm_test_top.env.scb [ahb_scoreboard] MATCH #10: [AHB_READ] HADDR=0x0000d139 AHB_BURST_SINGLE 1 beats
# UVM_INFO ../src/mst_seq/ahb_base_seq.sv(157) @ 1535000: uvm_test_top.env.master_agent.sqr@@seq [ahb_wait_state_seq] AHB_BURST_SINGLE AHB_SIZE_8B beat 0 @0x0000d139 ok
# UVM_INFO ../src/mst_seq/ahb_wait_state_seq.sv(166) @ 1535000: uvm_test_top.env.master_agent.sqr@@seq [ahb_wait_state_seq] AHB_BURST_INCR4 AHB_SIZE_16B @0x0000d16e, 4 beats, waits=8:15, pipelined=1
# UVM_INFO ../src/mst/ahb_master_driver.sv(85) @ 1535000: uvm_test_top.env.master_agent.drv [ahb_master_driver] Queueing [AHB_WRITE]: HADDR=0x0000d16e, HBURST=AHB_BURST_INCR4, HSIZE=AHB_SIZE_16B, 4 beats
# UVM_INFO ../src/mst/ahb_master_driver.sv(127) @ 1535000: uvm_test_top.env.master_agent.drv [ahb_master_driver] Driving [AHB_WRITE]: HADDR=0x0000d16e, HBURST=AHB_BURST_INCR4, HSIZE=AHB_SIZE_16B, 4 beats               
# UVM_INFO ../src/mst/ahb_master_driver.sv(85) @ 1535000: uvm_test_top.env.master_agent.drv [ahb_master_driver] Queueing [AHB_READ]: HADDR=0x0000d16e, HBURST=AHB_BURST_INCR4, HSIZE=AHB_SIZE_16B, 4 beats
# UVM_INFO ../src/mst/ahb_master_driver.sv(332) @ 1685000: uvm_test_top.env.master_agent.drv [ahb_master_driver] Beat[0/4] addr=0x0000d16e trans=AHB_TRANS_NONSEQ resp=AHB_RESP_OKAY wdata=0x9ff06a90
# UVM_INFO ../src/slv/ahb_slave_driver.sv(184) @ 1685000: uvm_test_top.env.slave_agent.drv [ahb_slave_driver] Beat AHB_WRITE addr=0x0000d16e resp=AHB_RESP_OKAY waits=12 wdata=0x9ff06a90
# UVM_INFO ../src/mst/ahb_master_monitor.sv(117) @ 1685000: uvm_test_top.env.master_agent.mon [ahb_master_monitor] Beat[0] addr=0x0000d16e wdata=0x9ff06a90 resp=AHB_RESP_OKAY
# UVM_INFO ../src/mst/ahb_master_driver.sv(332) @ 1815000: uvm_test_top.env.master_agent.drv [ahb_master_driver] Beat[1/4] addr=0x0000d170 trans=AHB_TRANS_SEQ resp=AHB_RESP_OKAY wdata=0x8280269c
# UVM_INFO ../src/slv/ahb_slave_driver.sv(184) @ 1815000: uvm_test_top.env.slave_agent.drv [ahb_slave_driver] Beat AHB_WRITE addr=0x0000d170 resp=AHB_RESP_OKAY waits=12 wdata=0x8280269c
# UVM_INFO ../src/mst/ahb_master_monitor.sv(117) @ 1815000: uvm_test_top.env.master_agent.mon [ahb_master_monitor] Beat[1] addr=0x0000d170 wdata=0x8280269c resp=AHB_RESP_OKAY
# UVM_INFO ../src/mst/ahb_master_driver.sv(332) @ 1905000: uvm_test_top.env.master_agent.drv [ahb_master_driver] Beat[2/4] addr=0x0000d172 trans=AHB_TRANS_SEQ resp=AHB_RESP_OKAY wdata=0x4c913a3f
# UVM_INFO ../src/slv/ahb_slave_driver.sv(184) @ 1905000: uvm_test_top.env.slave_agent.drv [ahb_slave_driver] Beat AHB_WRITE addr=0x0000d172 resp=AHB_RESP_OKAY waits=8 wdata=0x4c913a3f
# UVM_INFO ../src/mst/ahb_master_monitor.sv(117) @ 1905000: uvm_test_top.env.master_agent.mon [ahb_master_monitor] Beat[2] addr=0x0000d172 wdata=0x4c913a3f resp=AHB_RESP_OKAY
# UVM_INFO ../src/mst/ahb_master_driver.sv(332) @ 2055000: uvm_test_top.env.master_agent.drv [ahb_master_driver] Beat[3/4] addr=0x0000d174 trans=AHB_TRANS_SEQ resp=AHB_RESP_OKAY wdata=0x71426d31
# UVM_INFO ../src/mst/ahb_master_driver.sv(376) @ 2055000: uvm_test_top.env.master_agent.drv [ahb_master_driver] Transaction complete: AHB_WRITE 0x0000d16e, 4 beats, burst=AHB_BURST_INCR4
# UVM_INFO ../src/mst/ahb_master_driver.sv(127) @ 2055000: uvm_test_top.env.master_agent.drv [ahb_master_driver] Driving [AHB_READ]: HADDR=0x0000d16e, HBURST=AHB_BURST_INCR4, HSIZE=AHB_SIZE_16B, 4 beats (back-to-back)
# UVM_INFO ../src/slv/ahb_slave_driver.sv(184) @ 2055000: uvm_test_top.env.slave_agent.drv [ahb_slave_driver] Beat AHB_WRITE addr=0x0000d174 resp=AHB_RESP_OKAY waits=14 wdata=0x71426d31
# UVM_INFO ../src/slv/ahb_slave_monitor.sv(197) @ 2055000: uvm_test_top.env.slave_agent.mon [ahb_slave_monitor] Observed [AHB_WRITE]: HADDR=0x0000d16e, HBURST=AHB_BURST_INCR4, HSIZE=AHB_SIZE_16B, 4 beats
# UVM_INFO ../src/env/ahb_coverage.sv(126) @ 2055000: uvm_test_top.env.slave_cov [ahb_coverage] Sampled [AHB_WRITE]: burst=AHB_BURST_INCR4 size=AHB_SIZE_16B beats=4 error=0
# UVM_INFO ../src/mst/ahb_master_monitor.sv(117) @ 2055000: uvm_test_top.env.master_agent.mon [ahb_master_monitor] Beat[3] addr=0x0000d174 wdata=0x71426d31 resp=AHB_RESP_OKAY
# UVM_INFO ../src/mst/ahb_master_monitor.sv(220) @ 2055000: uvm_test_top.env.master_agent.mon [ahb_master_monitor] Observed [AHB_WRITE]: HADDR=0x0000d16e, HBURST=AHB_BURST_INCR4, HSIZE=AHB_SIZE_16B, 4 beats
# UVM_INFO ../src/env/ahb_coverage.sv(126) @ 2055000: uvm_test_top.env.master_cov [ahb_coverage] Sampled [AHB_WRITE]: burst=AHB_BURST_INCR4 size=AHB_SIZE_16B beats=4 error=0
# UVM_INFO ../src/env/ahb_scoreboard.sv(104) @ 2055000: uvm_test_top.env.scb [ahb_scoreboard] MATCH #11: [AHB_WRITE] HADDR=0x0000d16e AHB_BURST_INCR4 4 beats
# UVM_INFO ../src/mst/ahb_master_driver.sv(332) @ 2155000: uvm_test_top.env.master_agent.drv [ahb_master_driver] Beat[0/4] addr=0x0000d16e trans=AHB_TRANS_NONSEQ resp=AHB_RESP_OKAY rdata=0x9ff06a90
# UVM_INFO ../src/slv/ahb_slave_driver.sv(184) @ 2155000: uvm_test_top.env.slave_agent.drv [ahb_slave_driver] Beat AHB_READ addr=0x0000d16e resp=AHB_RESP_OKAY waits=9 rdata=0x9ff06a90
# UVM_INFO ../src/mst/ahb_master_monitor.sv(117) @ 2155000: uvm_test_top.env.master_agent.mon [ahb_master_monitor] Beat[0] addr=0x0000d16e rdata=0x9ff06a90 resp=AHB_RESP_OKAY
# UVM_INFO ../src/mst/ahb_master_driver.sv(332) @ 2255000: uvm_test_top.env.master_agent.drv [ahb_master_driver] Beat[1/4] addr=0x0000d170 trans=AHB_TRANS_SEQ resp=AHB_RESP_OKAY rdata=0x8280269c
# UVM_INFO ../src/slv/ahb_slave_driver.sv(184) @ 2255000: uvm_test_top.env.slave_agent.drv [ahb_slave_driver] Beat AHB_READ addr=0x0000d170 resp=AHB_RESP_OKAY waits=9 rdata=0x8280269c
# UVM_INFO ../src/mst/ahb_master_monitor.sv(117) @ 2255000: uvm_test_top.env.master_agent.mon [ahb_master_monitor] Beat[1] addr=0x0000d170 rdata=0x8280269c resp=AHB_RESP_OKAY
# UVM_INFO ../src/mst/ahb_master_driver.sv(332) @ 2365000: uvm_test_top.env.master_agent.drv [ahb_master_driver] Beat[2/4] addr=0x0000d172 trans=AHB_TRANS_SEQ resp=AHB_RESP_OKAY rdata=0x4c913a3f
# UVM_INFO ../src/slv/ahb_slave_driver.sv(184) @ 2365000: uvm_test_top.env.slave_agent.drv [ahb_slave_driver] Beat AHB_READ addr=0x0000d172 resp=AHB_RESP_OKAY waits=10 rdata=0x4c913a3f
# UVM_INFO ../src/mst/ahb_master_monitor.sv(117) @ 2365000: uvm_test_top.env.master_agent.mon [ahb_master_monitor] Beat[2] addr=0x0000d172 rdata=0x4c913a3f resp=AHB_RESP_OKAY
# UVM_INFO ../src/mst/ahb_master_driver.sv(332) @ 2455000: uvm_test_top.env.master_agent.drv [ahb_master_driver] Beat[3/4] addr=0x0000d174 trans=AHB_TRANS_SEQ resp=AHB_RESP_OKAY rdata=0x71426d31
# UVM_INFO ../src/mst/ahb_master_driver.sv(376) @ 2455000: uvm_test_top.env.master_agent.drv [ahb_master_driver] Transaction complete: AHB_READ 0x0000d16e, 4 beats, burst=AHB_BURST_INCR4
# UVM_INFO ../src/slv/ahb_slave_driver.sv(184) @ 2455000: uvm_test_top.env.slave_agent.drv [ahb_slave_driver] Beat AHB_READ addr=0x0000d174 resp=AHB_RESP_OKAY waits=8 rdata=0x71426d31
# UVM_INFO ../src/slv/ahb_slave_monitor.sv(197) @ 2455000: uvm_test_top.env.slave_agent.mon [ahb_slave_monitor] Observed [AHB_READ]: HADDR=0x0000d16e, HBURST=AHB_BURST_INCR4, HSIZE=AHB_SIZE_16B, 4 beats
# UVM_INFO ../src/env/ahb_coverage.sv(126) @ 2455000: uvm_test_top.env.slave_cov [ahb_coverage] Sampled [AHB_READ]: burst=AHB_BURST_INCR4 size=AHB_SIZE_16B beats=4 error=0
# UVM_INFO ../src/mst/ahb_master_monitor.sv(117) @ 2455000: uvm_test_top.env.master_agent.mon [ahb_master_monitor] Beat[3] addr=0x0000d174 rdata=0x71426d31 resp=AHB_RESP_OKAY
# UVM_INFO ../src/mst/ahb_master_monitor.sv(220) @ 2455000: uvm_test_top.env.master_agent.mon [ahb_master_monitor] Observed [AHB_READ]: HADDR=0x0000d16e, HBURST=AHB_BURST_INCR4, HSIZE=AHB_SIZE_16B, 4 beats
# UVM_INFO ../src/env/ahb_coverage.sv(126) @ 2455000: uvm_test_top.env.master_cov [ahb_coverage] Sampled [AHB_READ]: burst=AHB_BURST_INCR4 size=AHB_SIZE_16B beats=4 error=0
# UVM_INFO ../src/env/ahb_scoreboard.sv(104) @ 2455000: uvm_test_top.env.scb [ahb_scoreboard] MATCH #12: [AHB_READ] HADDR=0x0000d16e AHB_BURST_INCR4 4 beats
# UVM_INFO ../src/mst_seq/ahb_base_seq.sv(157) @ 2455000: uvm_test_top.env.master_agent.sqr@@seq [ahb_wait_state_seq] AHB_BURST_INCR4 AHB_SIZE_16B beat 0 @0x0000d16e ok
# UVM_INFO ../src/mst_seq/ahb_base_seq.sv(157) @ 2455000: uvm_test_top.env.master_agent.sqr@@seq [ahb_wait_state_seq] AHB_BURST_INCR4 AHB_SIZE_16B beat 1 @0x0000d170 ok
# UVM_INFO ../src/mst_seq/ahb_base_seq.sv(157) @ 2455000: uvm_test_top.env.master_agent.sqr@@seq [ahb_wait_state_seq] AHB_BURST_INCR4 AHB_SIZE_16B beat 2 @0x0000d172 ok
# UVM_INFO ../src/mst_seq/ahb_base_seq.sv(157) @ 2455000: uvm_test_top.env.master_agent.sqr@@seq [ahb_wait_state_seq] AHB_BURST_INCR4 AHB_SIZE_16B beat 3 @0x0000d174 ok
# UVM_INFO ../src/mst_seq/ahb_wait_state_seq.sv(166) @ 2455000: uvm_test_top.env.master_agent.sqr@@seq [ahb_wait_state_seq] AHB_BURST_SINGLE AHB_SIZE_32B @0x0000d19c, 1 beats, waits=16:16, pipelined=0
# UVM_INFO ../src/mst/ahb_master_driver.sv(85) @ 2455000: uvm_test_top.env.master_agent.drv [ahb_master_driver] Queueing [AHB_WRITE]: HADDR=0x0000d19c, HBURST=AHB_BURST_SINGLE, HSIZE=AHB_SIZE_32B, 1 beats
# UVM_INFO ../src/mst/ahb_master_driver.sv(127) @ 2455000: uvm_test_top.env.master_agent.drv [ahb_master_driver] Driving [AHB_WRITE]: HADDR=0x0000d19c, HBURST=AHB_BURST_SINGLE, HSIZE=AHB_SIZE_32B, 1 beats               
# UVM_INFO ../src/mst/ahb_master_driver.sv(332) @ 2645000: uvm_test_top.env.master_agent.drv [ahb_master_driver] Beat[0/1] addr=0x0000d19c trans=AHB_TRANS_NONSEQ resp=AHB_RESP_OKAY wdata=0x0f40702c
# UVM_INFO ../src/mst/ahb_master_driver.sv(376) @ 2645000: uvm_test_top.env.master_agent.drv [ahb_master_driver] Transaction complete: AHB_WRITE 0x0000d19c, 1 beats, burst=AHB_BURST_SINGLE
# UVM_INFO ../src/slv/ahb_slave_driver.sv(184) @ 2645000: uvm_test_top.env.slave_agent.drv [ahb_slave_driver] Beat AHB_WRITE addr=0x0000d19c resp=AHB_RESP_OKAY waits=16 wdata=0x0f40702c
# UVM_INFO ../src/mst/ahb_master_monitor.sv(117) @ 2645000: uvm_test_top.env.master_agent.mon [ahb_master_monitor] Beat[0] addr=0x0000d19c wdata=0x0f40702c resp=AHB_RESP_OKAY
# UVM_INFO ../src/mst/ahb_master_monitor.sv(220) @ 2645000: uvm_test_top.env.master_agent.mon [ahb_master_monitor] Observed [AHB_WRITE]: HADDR=0x0000d19c, HBURST=AHB_BURST_SINGLE, HSIZE=AHB_SIZE_32B, 1 beats
# UVM_INFO ../src/env/ahb_coverage.sv(126) @ 2645000: uvm_test_top.env.master_cov [ahb_coverage] Sampled [AHB_WRITE]: burst=AHB_BURST_SINGLE size=AHB_SIZE_32B beats=1 error=0
# UVM_INFO ../src/slv/ahb_slave_monitor.sv(197) @ 2645000: uvm_test_top.env.slave_agent.mon [ahb_slave_monitor] Observed [AHB_WRITE]: HADDR=0x0000d19c, HBURST=AHB_BURST_SINGLE, HSIZE=AHB_SIZE_32B, 1 beats
# UVM_INFO ../src/env/ahb_scoreboard.sv(104) @ 2645000: uvm_test_top.env.scb [ahb_scoreboard] MATCH #13: [AHB_WRITE] HADDR=0x0000d19c AHB_BURST_SINGLE 1 beats
# UVM_INFO ../src/env/ahb_coverage.sv(126) @ 2645000: uvm_test_top.env.slave_cov [ahb_coverage] Sampled [AHB_WRITE]: burst=AHB_BURST_SINGLE size=AHB_SIZE_32B beats=1 error=0
# UVM_INFO ../src/mst/ahb_master_driver.sv(85) @ 2645000: uvm_test_top.env.master_agent.drv [ahb_master_driver] Queueing [AHB_READ]: HADDR=0x0000d19c, HBURST=AHB_BURST_SINGLE, HSIZE=AHB_SIZE_32B, 1 beats
# UVM_INFO ../src/mst/ahb_master_driver.sv(127) @ 2645000: uvm_test_top.env.master_agent.drv [ahb_master_driver] Driving [AHB_READ]: HADDR=0x0000d19c, HBURST=AHB_BURST_SINGLE, HSIZE=AHB_SIZE_32B, 1 beats               
# UVM_INFO ../src/mst/ahb_master_driver.sv(332) @ 2835000: uvm_test_top.env.master_agent.drv [ahb_master_driver] Beat[0/1] addr=0x0000d19c trans=AHB_TRANS_NONSEQ resp=AHB_RESP_OKAY rdata=0x0f40702c
# UVM_INFO ../src/mst/ahb_master_driver.sv(376) @ 2835000: uvm_test_top.env.master_agent.drv [ahb_master_driver] Transaction complete: AHB_READ 0x0000d19c, 1 beats, burst=AHB_BURST_SINGLE
# UVM_INFO ../src/slv/ahb_slave_driver.sv(184) @ 2835000: uvm_test_top.env.slave_agent.drv [ahb_slave_driver] Beat AHB_READ addr=0x0000d19c resp=AHB_RESP_OKAY waits=16 rdata=0x0f40702c
# UVM_INFO ../src/slv/ahb_slave_monitor.sv(197) @ 2835000: uvm_test_top.env.slave_agent.mon [ahb_slave_monitor] Observed [AHB_READ]: HADDR=0x0000d19c, HBURST=AHB_BURST_SINGLE, HSIZE=AHB_SIZE_32B, 1 beats
# UVM_INFO ../src/env/ahb_coverage.sv(126) @ 2835000: uvm_test_top.env.slave_cov [ahb_coverage] Sampled [AHB_READ]: burst=AHB_BURST_SINGLE size=AHB_SIZE_32B beats=1 error=0
# UVM_INFO ../src/mst/ahb_master_monitor.sv(117) @ 2835000: uvm_test_top.env.master_agent.mon [ahb_master_monitor] Beat[0] addr=0x0000d19c rdata=0x0f40702c resp=AHB_RESP_OKAY
# UVM_INFO ../src/mst/ahb_master_monitor.sv(220) @ 2835000: uvm_test_top.env.master_agent.mon [ahb_master_monitor] Observed [AHB_READ]: HADDR=0x0000d19c, HBURST=AHB_BURST_SINGLE, HSIZE=AHB_SIZE_32B, 1 beats
# UVM_INFO ../src/env/ahb_coverage.sv(126) @ 2835000: uvm_test_top.env.master_cov [ahb_coverage] Sampled [AHB_READ]: burst=AHB_BURST_SINGLE size=AHB_SIZE_32B beats=1 error=0
# UVM_INFO ../src/env/ahb_scoreboard.sv(104) @ 2835000: uvm_test_top.env.scb [ahb_scoreboard] MATCH #14: [AHB_READ] HADDR=0x0000d19c AHB_BURST_SINGLE 1 beats
# UVM_INFO ../src/mst_seq/ahb_base_seq.sv(157) @ 2835000: uvm_test_top.env.master_agent.sqr@@seq [ahb_wait_state_seq] AHB_BURST_SINGLE AHB_SIZE_32B beat 0 @0x0000d19c ok
# UVM_INFO ../src/mst_seq/ahb_wait_state_seq.sv(166) @ 2835000: uvm_test_top.env.master_agent.sqr@@seq [ahb_wait_state_seq] AHB_BURST_WRAP4 AHB_SIZE_16B @0x0000d1d6, 4 beats, waits=0:16, pipelined=1
# UVM_INFO ../src/mst/ahb_master_driver.sv(85) @ 2835000: uvm_test_top.env.master_agent.drv [ahb_master_driver] Queueing [AHB_WRITE]: HADDR=0x0000d1d6, HBURST=AHB_BURST_WRAP4, HSIZE=AHB_SIZE_16B, 4 beats
# UVM_INFO ../src/mst/ahb_master_driver.sv(127) @ 2835000: uvm_test_top.env.master_agent.drv [ahb_master_driver] Driving [AHB_WRITE]: HADDR=0x0000d1d6, HBURST=AHB_BURST_WRAP4, HSIZE=AHB_SIZE_16B, 4 beats               
# UVM_INFO ../src/mst/ahb_master_driver.sv(85) @ 2835000: uvm_test_top.env.master_agent.drv [ahb_master_driver] Queueing [AHB_READ]: HADDR=0x0000d1d6, HBURST=AHB_BURST_WRAP4, HSIZE=AHB_SIZE_16B, 4 beats
# UVM_INFO ../src/mst/ahb_master_driver.sv(332) @ 2885000: uvm_test_top.env.master_agent.drv [ahb_master_driver] Beat[0/4] addr=0x0000d1d6 trans=AHB_TRANS_NONSEQ resp=AHB_RESP_OKAY wdata=0xedf5900b
# UVM_INFO ../src/slv/ahb_slave_driver.sv(184) @ 2885000: uvm_test_top.env.slave_agent.drv [ahb_slave_driver] Beat AHB_WRITE addr=0x0000d1d6 resp=AHB_RESP_OKAY waits=2 wdata=0xedf5900b
# UVM_INFO ../src/mst/ahb_master_monitor.sv(117) @ 2885000: uvm_test_top.env.master_agent.mon [ahb_master_monitor] Beat[0] addr=0x0000d1d6 wdata=0xedf5900b resp=AHB_RESP_OKAY
# UVM_INFO ../src/mst/ahb_master_driver.sv(332) @ 2925000: uvm_test_top.env.master_agent.drv [ahb_master_driver] Beat[1/4] addr=0x0000d1d0 trans=AHB_TRANS_SEQ resp=AHB_RESP_OKAY wdata=0xade1760f
# UVM_INFO ../src/slv/ahb_slave_driver.sv(184) @ 2925000: uvm_test_top.env.slave_agent.drv [ahb_slave_driver] Beat AHB_WRITE addr=0x0000d1d0 resp=AHB_RESP_OKAY waits=3 wdata=0xade1760f
# UVM_INFO ../src/mst/ahb_master_monitor.sv(117) @ 2925000: uvm_test_top.env.master_agent.mon [ahb_master_monitor] Beat[1] addr=0x0000d1d0 wdata=0xade1760f resp=AHB_RESP_OKAY
# UVM_INFO ../src/mst/ahb_master_driver.sv(332) @ 3075000: uvm_test_top.env.master_agent.drv [ahb_master_driver] Beat[2/4] addr=0x0000d1d2 trans=AHB_TRANS_SEQ resp=AHB_RESP_OKAY wdata=0xc0b31c78
# UVM_INFO ../src/slv/ahb_slave_driver.sv(184) @ 3075000: uvm_test_top.env.slave_agent.drv [ahb_slave_driver] Beat AHB_WRITE addr=0x0000d1d2 resp=AHB_RESP_OKAY waits=14 wdata=0xc0b31c78
# UVM_INFO ../src/mst/ahb_master_monitor.sv(117) @ 3075000: uvm_test_top.env.master_agent.mon [ahb_master_monitor] Beat[2] addr=0x0000d1d2 wdata=0xc0b31c78 resp=AHB_RESP_OKAY
# UVM_INFO ../src/mst/ahb_master_driver.sv(332) @ 3145000: uvm_test_top.env.master_agent.drv [ahb_master_driver] Beat[3/4] addr=0x0000d1d4 trans=AHB_TRANS_SEQ resp=AHB_RESP_OKAY wdata=0xc7845490
# UVM_INFO ../src/mst/ahb_master_driver.sv(376) @ 3145000: uvm_test_top.env.master_agent.drv [ahb_master_driver] Transaction complete: AHB_WRITE 0x0000d1d6, 4 beats, burst=AHB_BURST_WRAP4
# UVM_INFO ../src/mst/ahb_master_driver.sv(127) @ 3145000: uvm_test_top.env.master_agent.drv [ahb_master_driver] Driving [AHB_READ]: HADDR=0x0000d1d6, HBURST=AHB_BURST_WRAP4, HSIZE=AHB_SIZE_16B, 4 beats (back-to-back)
# UVM_INFO ../src/slv/ahb_slave_driver.sv(184) @ 3145000: uvm_test_top.env.slave_agent.drv [ahb_slave_driver] Beat AHB_WRITE addr=0x0000d1d4 resp=AHB_RESP_OKAY waits=6 wdata=0xc7845490
# UVM_INFO ../src/mst/ahb_master_monitor.sv(117) @ 3145000: uvm_test_top.env.master_agent.mon [ahb_master_monitor] Beat[3] addr=0x0000d1d4 wdata=0xc7845490 resp=AHB_RESP_OKAY
# UVM_INFO ../src/mst/ahb_master_monitor.sv(220) @ 3145000: uvm_test_top.env.master_agent.mon [ahb_master_monitor] Observed [AHB_WRITE]: HADDR=0x0000d1d6, HBURST=AHB_BURST_WRAP4, HSIZE=AHB_SIZE_16B, 4 beats
# UVM_INFO ../src/env/ahb_coverage.sv(126) @ 3145000: uvm_test_top.env.master_cov [ahb_coverage] Sampled [AHB_WRITE]: burst=AHB_BURST_WRAP4 size=AHB_SIZE_16B beats=4 error=0
# UVM_INFO ../src/slv/ahb_slave_monitor.sv(197) @ 3145000: uvm_test_top.env.slave_agent.mon [ahb_slave_monitor] Observed [AHB_WRITE]: HADDR=0x0000d1d6, HBURST=AHB_BURST_WRAP4, HSIZE=AHB_SIZE_16B, 4 beats
# UVM_INFO ../src/env/ahb_scoreboard.sv(104) @ 3145000: uvm_test_top.env.scb [ahb_scoreboard] MATCH #15: [AHB_WRITE] HADDR=0x0000d1d6 AHB_BURST_WRAP4 4 beats
# UVM_INFO ../src/env/ahb_coverage.sv(126) @ 3145000: uvm_test_top.env.slave_cov [ahb_coverage] Sampled [AHB_WRITE]: burst=AHB_BURST_WRAP4 size=AHB_SIZE_16B beats=4 error=0
# UVM_INFO ../src/mst/ahb_master_driver.sv(332) @ 3315000: uvm_test_top.env.master_agent.drv [ahb_master_driver] Beat[0/4] addr=0x0000d1d6 trans=AHB_TRANS_NONSEQ resp=AHB_RESP_OKAY rdata=0xedf5900b
# UVM_INFO ../src/slv/ahb_slave_driver.sv(184) @ 3315000: uvm_test_top.env.slave_agent.drv [ahb_slave_driver] Beat AHB_READ addr=0x0000d1d6 resp=AHB_RESP_OKAY waits=16 rdata=0xedf5900b
# UVM_INFO ../src/mst/ahb_master_monitor.sv(117) @ 3315000: uvm_test_top.env.master_agent.mon [ahb_master_monitor] Beat[0] addr=0x0000d1d6 rdata=0xedf5900b resp=AHB_RESP_OKAY
# UVM_INFO ../src/mst/ahb_master_driver.sv(332) @ 3435000: uvm_test_top.env.master_agent.drv [ahb_master_driver] Beat[1/4] addr=0x0000d1d0 trans=AHB_TRANS_SEQ resp=AHB_RESP_OKAY rdata=0xade1760f
# UVM_INFO ../src/slv/ahb_slave_driver.sv(184) @ 3435000: uvm_test_top.env.slave_agent.drv [ahb_slave_driver] Beat AHB_READ addr=0x0000d1d0 resp=AHB_RESP_OKAY waits=11 rdata=0xade1760f
# UVM_INFO ../src/mst/ahb_master_monitor.sv(117) @ 3435000: uvm_test_top.env.master_agent.mon [ahb_master_monitor] Beat[1] addr=0x0000d1d0 rdata=0xade1760f resp=AHB_RESP_OKAY
# UVM_INFO ../src/mst/ahb_master_driver.sv(332) @ 3445000: uvm_test_top.env.master_agent.drv [ahb_master_driver] Beat[2/4] addr=0x0000d1d2 trans=AHB_TRANS_SEQ resp=AHB_RESP_OKAY rdata=0xc0b31c78
# UVM_INFO ../src/slv/ahb_slave_driver.sv(184) @ 3445000: uvm_test_top.env.slave_agent.drv [ahb_slave_driver] Beat AHB_READ addr=0x0000d1d2 resp=AHB_RESP_OKAY waits=0 rdata=0xc0b31c78
# UVM_INFO ../src/mst/ahb_master_monitor.sv(117) @ 3445000: uvm_test_top.env.master_agent.mon [ahb_master_monitor] Beat[2] addr=0x0000d1d2 rdata=0xc0b31c78 resp=AHB_RESP_OKAY
# UVM_INFO ../src/mst/ahb_master_driver.sv(332) @ 3555000: uvm_test_top.env.master_agent.drv [ahb_master_driver] Beat[3/4] addr=0x0000d1d4 trans=AHB_TRANS_SEQ resp=AHB_RESP_OKAY rdata=0xc7845490
# UVM_INFO ../src/mst/ahb_master_driver.sv(376) @ 3555000: uvm_test_top.env.master_agent.drv [ahb_master_driver] Transaction complete: AHB_READ 0x0000d1d6, 4 beats, burst=AHB_BURST_WRAP4
# UVM_INFO ../src/slv/ahb_slave_driver.sv(184) @ 3555000: uvm_test_top.env.slave_agent.drv [ahb_slave_driver] Beat AHB_READ addr=0x0000d1d4 resp=AHB_RESP_OKAY waits=10 rdata=0xc7845490
# UVM_INFO ../src/slv/ahb_slave_monitor.sv(197) @ 3555000: uvm_test_top.env.slave_agent.mon [ahb_slave_monitor] Observed [AHB_READ]: HADDR=0x0000d1d6, HBURST=AHB_BURST_WRAP4, HSIZE=AHB_SIZE_16B, 4 beats
# UVM_INFO ../src/env/ahb_coverage.sv(126) @ 3555000: uvm_test_top.env.slave_cov [ahb_coverage] Sampled [AHB_READ]: burst=AHB_BURST_WRAP4 size=AHB_SIZE_16B beats=4 error=0
# UVM_INFO ../src/mst/ahb_master_monitor.sv(117) @ 3555000: uvm_test_top.env.master_agent.mon [ahb_master_monitor] Beat[3] addr=0x0000d1d4 rdata=0xc7845490 resp=AHB_RESP_OKAY
# UVM_INFO ../src/mst/ahb_master_monitor.sv(220) @ 3555000: uvm_test_top.env.master_agent.mon [ahb_master_monitor] Observed [AHB_READ]: HADDR=0x0000d1d6, HBURST=AHB_BURST_WRAP4, HSIZE=AHB_SIZE_16B, 4 beats
# UVM_INFO ../src/env/ahb_coverage.sv(126) @ 3555000: uvm_test_top.env.master_cov [ahb_coverage] Sampled [AHB_READ]: burst=AHB_BURST_WRAP4 size=AHB_SIZE_16B beats=4 error=0
# UVM_INFO ../src/env/ahb_scoreboard.sv(104) @ 3555000: uvm_test_top.env.scb [ahb_scoreboard] MATCH #16: [AHB_READ] HADDR=0x0000d1d6 AHB_BURST_WRAP4 4 beats
# UVM_INFO ../src/mst_seq/ahb_base_seq.sv(157) @ 3555000: uvm_test_top.env.master_agent.sqr@@seq [ahb_wait_state_seq] AHB_BURST_WRAP4 AHB_SIZE_16B beat 0 @0x0000d1d6 ok
# UVM_INFO ../src/mst_seq/ahb_base_seq.sv(157) @ 3555000: uvm_test_top.env.master_agent.sqr@@seq [ahb_wait_state_seq] AHB_BURST_WRAP4 AHB_SIZE_16B beat 1 @0x0000d1d0 ok
# UVM_INFO ../src/mst_seq/ahb_base_seq.sv(157) @ 3555000: uvm_test_top.env.master_agent.sqr@@seq [ahb_wait_state_seq] AHB_BURST_WRAP4 AHB_SIZE_16B beat 2 @0x0000d1d2 ok
# UVM_INFO ../src/mst_seq/ahb_base_seq.sv(157) @ 3555000: uvm_test_top.env.master_agent.sqr@@seq [ahb_wait_state_seq] AHB_BURST_WRAP4 AHB_SIZE_16B beat 3 @0x0000d1d4 ok
# UVM_INFO ../src/mst_seq/ahb_wait_state_seq.sv(166) @ 3555000: uvm_test_top.env.master_agent.sqr@@seq [ahb_wait_state_seq] AHB_BURST_INCR4 AHB_SIZE_16B @0x0000d218, 4 beats, waits=0:0, pipelined=0
# UVM_INFO ../src/mst/ahb_master_driver.sv(85) @ 3555000: uvm_test_top.env.master_agent.drv [ahb_master_driver] Queueing [AHB_WRITE]: HADDR=0x0000d218, HBURST=AHB_BURST_INCR4, HSIZE=AHB_SIZE_16B, 4 beats
# UVM_INFO ../src/mst/ahb_master_driver.sv(127) @ 3555000: uvm_test_top.env.master_agent.drv [ahb_master_driver] Driving [AHB_WRITE]: HADDR=0x0000d218, HBURST=AHB_BURST_INCR4, HSIZE=AHB_SIZE_16B, 4 beats               
# UVM_INFO ../src/mst/ahb_master_driver.sv(332) @ 3585000: uvm_test_top.env.master_agent.drv [ahb_master_driver] Beat[0/4] addr=0x0000d218 trans=AHB_TRANS_NONSEQ resp=AHB_RESP_OKAY wdata=0x376f9bca
# UVM_INFO ../src/slv/ahb_slave_driver.sv(184) @ 3585000: uvm_test_top.env.slave_agent.drv [ahb_slave_driver] Beat AHB_WRITE addr=0x0000d218 resp=AHB_RESP_OKAY waits=0 wdata=0x376f9bca
# UVM_INFO ../src/mst/ahb_master_monitor.sv(117) @ 3585000: uvm_test_top.env.master_agent.mon [ahb_master_monitor] Beat[0] addr=0x0000d218 wdata=0x376f9bca resp=AHB_RESP_OKAY
# UVM_INFO ../src/mst/ahb_master_driver.sv(332) @ 3595000: uvm_test_top.env.master_agent.drv [ahb_master_driver] Beat[1/4] addr=0x0000d21a trans=AHB_TRANS_SEQ resp=AHB_RESP_OKAY wdata=0x20465b5d
# UVM_INFO ../src/slv/ahb_slave_driver.sv(184) @ 3595000: uvm_test_top.env.slave_agent.drv [ahb_slave_driver] Beat AHB_WRITE addr=0x0000d21a resp=AHB_RESP_OKAY waits=0 wdata=0x20465b5d
# UVM_INFO ../src/mst/ahb_master_monitor.sv(117) @ 3595000: uvm_test_top.env.master_agent.mon [ahb_master_monitor] Beat[1] addr=0x0000d21a wdata=0x20465b5d resp=AHB_RESP_OKAY
# UVM_INFO ../src/mst/ahb_master_driver.sv(332) @ 3605000: uvm_test_top.env.master_agent.drv [ahb_master_driver] Beat[2/4] addr=0x0000d21c trans=AHB_TRANS_SEQ resp=AHB_RESP_OKAY wdata=0x6d3e8711
# UVM_INFO ../src/slv/ahb_slave_driver.sv(184) @ 3605000: uvm_test_top.env.slave_agent.drv [ahb_slave_driver] Beat AHB_WRITE addr=0x0000d21c resp=AHB_RESP_OKAY waits=0 wdata=0x6d3e8711
# UVM_INFO ../src/mst/ahb_master_monitor.sv(117) @ 3605000: uvm_test_top.env.master_agent.mon [ahb_master_monitor] Beat[2] addr=0x0000d21c wdata=0x6d3e8711 resp=AHB_RESP_OKAY
# UVM_INFO ../src/mst/ahb_master_driver.sv(332) @ 3615000: uvm_test_top.env.master_agent.drv [ahb_master_driver] Beat[3/4] addr=0x0000d21e trans=AHB_TRANS_SEQ resp=AHB_RESP_OKAY wdata=0x54c471bb
# UVM_INFO ../src/mst/ahb_master_driver.sv(376) @ 3615000: uvm_test_top.env.master_agent.drv [ahb_master_driver] Transaction complete: AHB_WRITE 0x0000d218, 4 beats, burst=AHB_BURST_INCR4
# UVM_INFO ../src/slv/ahb_slave_driver.sv(184) @ 3615000: uvm_test_top.env.slave_agent.drv [ahb_slave_driver] Beat AHB_WRITE addr=0x0000d21e resp=AHB_RESP_OKAY waits=0 wdata=0x54c471bb
# UVM_INFO ../src/slv/ahb_slave_monitor.sv(197) @ 3615000: uvm_test_top.env.slave_agent.mon [ahb_slave_monitor] Observed [AHB_WRITE]: HADDR=0x0000d218, HBURST=AHB_BURST_INCR4, HSIZE=AHB_SIZE_16B, 4 beats
# UVM_INFO ../src/env/ahb_coverage.sv(126) @ 3615000: uvm_test_top.env.slave_cov [ahb_coverage] Sampled [AHB_WRITE]: burst=AHB_BURST_INCR4 size=AHB_SIZE_16B beats=4 error=0
# UVM_INFO ../src/mst/ahb_master_monitor.sv(117) @ 3615000: uvm_test_top.env.master_agent.mon [ahb_master_monitor] Beat[3] addr=0x0000d21e wdata=0x54c471bb resp=AHB_RESP_OKAY
# UVM_INFO ../src/mst/ahb_master_monitor.sv(220) @ 3615000: uvm_test_top.env.master_agent.mon [ahb_master_monitor] Observed [AHB_WRITE]: HADDR=0x0000d218, HBURST=AHB_BURST_INCR4, HSIZE=AHB_SIZE_16B, 4 beats
# UVM_INFO ../src/env/ahb_coverage.sv(126) @ 3615000: uvm_test_top.env.master_cov [ahb_coverage] Sampled [AHB_WRITE]: burst=AHB_BURST_INCR4 size=AHB_SIZE_16B beats=4 error=0
# UVM_INFO ../src/env/ahb_scoreboard.sv(104) @ 3615000: uvm_test_top.env.scb [ahb_scoreboard] MATCH #17: [AHB_WRITE] HADDR=0x0000d218 AHB_BURST_INCR4 4 beats
# UVM_INFO ../src/mst/ahb_master_driver.sv(85) @ 3615000: uvm_test_top.env.master_agent.drv [ahb_master_driver] Queueing [AHB_READ]: HADDR=0x0000d218, HBURST=AHB_BURST_INCR4, HSIZE=AHB_SIZE_16B, 4 beats
# UVM_INFO ../src/mst/ahb_master_driver.sv(127) @ 3615000: uvm_test_top.env.master_agent.drv [ahb_master_driver] Driving [AHB_READ]: HADDR=0x0000d218, HBURST=AHB_BURST_INCR4, HSIZE=AHB_SIZE_16B, 4 beats               
# UVM_INFO ../src/mst/ahb_master_driver.sv(332) @ 3645000: uvm_test_top.env.master_agent.drv [ahb_master_driver] Beat[0/4] addr=0x0000d218 trans=AHB_TRANS_NONSEQ resp=AHB_RESP_OKAY rdata=0x376f9bca
# UVM_INFO ../src/slv/ahb_slave_driver.sv(184) @ 3645000: uvm_test_top.env.slave_agent.drv [ahb_slave_driver] Beat AHB_READ addr=0x0000d218 resp=AHB_RESP_OKAY waits=0 rdata=0x376f9bca
# UVM_INFO ../src/mst/ahb_master_monitor.sv(117) @ 3645000: uvm_test_top.env.master_agent.mon [ahb_master_monitor] Beat[0] addr=0x0000d218 rdata=0x376f9bca resp=AHB_RESP_OKAY
# UVM_INFO ../src/mst/ahb_master_driver.sv(332) @ 3655000: uvm_test_top.env.master_agent.drv [ahb_master_driver] Beat[1/4] addr=0x0000d21a trans=AHB_TRANS_SEQ resp=AHB_RESP_OKAY rdata=0x20465b5d
# UVM_INFO ../src/slv/ahb_slave_driver.sv(184) @ 3655000: uvm_test_top.env.slave_agent.drv [ahb_slave_driver] Beat AHB_READ addr=0x0000d21a resp=AHB_RESP_OKAY waits=0 rdata=0x20465b5d
# UVM_INFO ../src/mst/ahb_master_monitor.sv(117) @ 3655000: uvm_test_top.env.master_agent.mon [ahb_master_monitor] Beat[1] addr=0x0000d21a rdata=0x20465b5d resp=AHB_RESP_OKAY
# UVM_INFO ../src/mst/ahb_master_driver.sv(332) @ 3665000: uvm_test_top.env.master_agent.drv [ahb_master_driver] Beat[2/4] addr=0x0000d21c trans=AHB_TRANS_SEQ resp=AHB_RESP_OKAY rdata=0x6d3e8711
# UVM_INFO ../src/slv/ahb_slave_driver.sv(184) @ 3665000: uvm_test_top.env.slave_agent.drv [ahb_slave_driver] Beat AHB_READ addr=0x0000d21c resp=AHB_RESP_OKAY waits=0 rdata=0x6d3e8711
# UVM_INFO ../src/mst/ahb_master_monitor.sv(117) @ 3665000: uvm_test_top.env.master_agent.mon [ahb_master_monitor] Beat[2] addr=0x0000d21c rdata=0x6d3e8711 resp=AHB_RESP_OKAY
# UVM_INFO ../src/mst/ahb_master_driver.sv(332) @ 3675000: uvm_test_top.env.master_agent.drv [ahb_master_driver] Beat[3/4] addr=0x0000d21e trans=AHB_TRANS_SEQ resp=AHB_RESP_OKAY rdata=0x54c471bb
# UVM_INFO ../src/mst/ahb_master_driver.sv(376) @ 3675000: uvm_test_top.env.master_agent.drv [ahb_master_driver] Transaction complete: AHB_READ 0x0000d218, 4 beats, burst=AHB_BURST_INCR4
# UVM_INFO ../src/slv/ahb_slave_driver.sv(184) @ 3675000: uvm_test_top.env.slave_agent.drv [ahb_slave_driver] Beat AHB_READ addr=0x0000d21e resp=AHB_RESP_OKAY waits=0 rdata=0x54c471bb
# UVM_INFO ../src/slv/ahb_slave_monitor.sv(197) @ 3675000: uvm_test_top.env.slave_agent.mon [ahb_slave_monitor] Observed [AHB_READ]: HADDR=0x0000d218, HBURST=AHB_BURST_INCR4, HSIZE=AHB_SIZE_16B, 4 beats
# UVM_INFO ../src/env/ahb_coverage.sv(126) @ 3675000: uvm_test_top.env.slave_cov [ahb_coverage] Sampled [AHB_READ]: burst=AHB_BURST_INCR4 size=AHB_SIZE_16B beats=4 error=0
# UVM_INFO ../src/mst/ahb_master_monitor.sv(117) @ 3675000: uvm_test_top.env.master_agent.mon [ahb_master_monitor] Beat[3] addr=0x0000d21e rdata=0x54c471bb resp=AHB_RESP_OKAY
# UVM_INFO ../src/mst/ahb_master_monitor.sv(220) @ 3675000: uvm_test_top.env.master_agent.mon [ahb_master_monitor] Observed [AHB_READ]: HADDR=0x0000d218, HBURST=AHB_BURST_INCR4, HSIZE=AHB_SIZE_16B, 4 beats
# UVM_INFO ../src/env/ahb_coverage.sv(126) @ 3675000: uvm_test_top.env.master_cov [ahb_coverage] Sampled [AHB_READ]: burst=AHB_BURST_INCR4 size=AHB_SIZE_16B beats=4 error=0
# UVM_INFO ../src/env/ahb_scoreboard.sv(104) @ 3675000: uvm_test_top.env.scb [ahb_scoreboard] MATCH #18: [AHB_READ] HADDR=0x0000d218 AHB_BURST_INCR4 4 beats
# UVM_INFO ../src/mst_seq/ahb_base_seq.sv(157) @ 3675000: uvm_test_top.env.master_agent.sqr@@seq [ahb_wait_state_seq] AHB_BURST_INCR4 AHB_SIZE_16B beat 0 @0x0000d218 ok
# UVM_INFO ../src/mst_seq/ahb_base_seq.sv(157) @ 3675000: uvm_test_top.env.master_agent.sqr@@seq [ahb_wait_state_seq] AHB_BURST_INCR4 AHB_SIZE_16B beat 1 @0x0000d21a ok
# UVM_INFO ../src/mst_seq/ahb_base_seq.sv(157) @ 3675000: uvm_test_top.env.master_agent.sqr@@seq [ahb_wait_state_seq] AHB_BURST_INCR4 AHB_SIZE_16B beat 2 @0x0000d21c ok
# UVM_INFO ../src/mst_seq/ahb_base_seq.sv(157) @ 3675000: uvm_test_top.env.master_agent.sqr@@seq [ahb_wait_state_seq] AHB_BURST_INCR4 AHB_SIZE_16B beat 3 @0x0000d21e ok
# UVM_INFO ../src/mst_seq/ahb_wait_state_seq.sv(166) @ 3675000: uvm_test_top.env.master_agent.sqr@@seq [ahb_wait_state_seq] AHB_BURST_WRAP8 AHB_SIZE_8B @0x0000d269, 8 beats, waits=1:1, pipelined=1
# UVM_INFO ../src/mst/ahb_master_driver.sv(85) @ 3675000: uvm_test_top.env.master_agent.drv [ahb_master_driver] Queueing [AHB_WRITE]: HADDR=0x0000d269, HBURST=AHB_BURST_WRAP8, HSIZE=AHB_SIZE_8B, 8 beats
# UVM_INFO ../src/mst/ahb_master_driver.sv(127) @ 3675000: uvm_test_top.env.master_agent.drv [ahb_master_driver] Driving [AHB_WRITE]: HADDR=0x0000d269, HBURST=AHB_BURST_WRAP8, HSIZE=AHB_SIZE_8B, 8 beats               
# UVM_INFO ../src/mst/ahb_master_driver.sv(85) @ 3675000: uvm_test_top.env.master_agent.drv [ahb_master_driver] Queueing [AHB_READ]: HADDR=0x0000d269, HBURST=AHB_BURST_WRAP8, HSIZE=AHB_SIZE_8B, 8 beats
# UVM_INFO ../src/mst/ahb_master_driver.sv(332) @ 3715000: uvm_test_top.env.master_agent.drv [ahb_master_driver] Beat[0/8] addr=0x0000d269 trans=AHB_TRANS_NONSEQ resp=AHB_RESP_OKAY wdata=0x9f4ca844
# UVM_INFO ../src/slv/ahb_slave_driver.sv(184) @ 3715000: uvm_test_top.env.slave_agent.drv [ahb_slave_driver] Beat AHB_WRITE addr=0x0000d269 resp=AHB_RESP_OKAY waits=1 wdata=0x9f4ca844
# UVM_INFO ../src/mst/ahb_master_monitor.sv(117) @ 3715000: uvm_test_top.env.master_agent.mon [ahb_master_monitor] Beat[0] addr=0x0000d269 wdata=0x9f4ca844 resp=AHB_RESP_OKAY
# UVM_INFO ../src/mst/ahb_master_driver.sv(332) @ 3735000: uvm_test_top.env.master_agent.drv [ahb_master_driver] Beat[1/8] addr=0x0000d26a trans=AHB_TRANS_SEQ resp=AHB_RESP_OKAY wdata=0xe651be08
# UVM_INFO ../src/slv/ahb_slave_driver.sv(184) @ 3735000: uvm_test_top.env.slave_agent.drv [ahb_slave_driver] Beat AHB_WRITE addr=0x0000d26a resp=AHB_RESP_OKAY waits=1 wdata=0xe651be08
# UVM_INFO ../src/mst/ahb_master_monitor.sv(117) @ 3735000: uvm_test_top.env.master_agent.mon [ahb_master_monitor] Beat[1] addr=0x0000d26a wdata=0xe651be08 resp=AHB_RESP_OKAY
# UVM_INFO ../src/mst/ahb_master_driver.sv(332) @ 3755000: uvm_test_top.env.master_agent.drv [ahb_master_driver] Beat[2/8] addr=0x0000d26b trans=AHB_TRANS_SEQ resp=AHB_RESP_OKAY wdata=0x9fbb8565
# UVM_INFO ../src/slv/ahb_slave_driver.sv(184) @ 3755000: uvm_test_top.env.slave_agent.drv [ahb_slave_driver] Beat AHB_WRITE addr=0x0000d26b resp=AHB_RESP_OKAY waits=1 wdata=0x9fbb8565
# UVM_INFO ../src/mst/ahb_master_monitor.sv(117) @ 3755000: uvm_test_top.env.master_agent.mon [ahb_master_monitor] Beat[2] addr=0x0000d26b wdata=0x9fbb8565 resp=AHB_RESP_OKAY
# UVM_INFO ../src/mst/ahb_master_driver.sv(332) @ 3775000: uvm_test_top.env.master_agent.drv [ahb_master_driver] Beat[3/8] addr=0x0000d26c trans=AHB_TRANS_SEQ resp=AHB_RESP_OKAY wdata=0x406ab1d1
# UVM_INFO ../src/slv/ahb_slave_driver.sv(184) @ 3775000: uvm_test_top.env.slave_agent.drv [ahb_slave_driver] Beat AHB_WRITE addr=0x0000d26c resp=AHB_RESP_OKAY waits=1 wdata=0x406ab1d1
# UVM_INFO ../src/mst/ahb_master_monitor.sv(117) @ 3775000: uvm_test_top.env.master_agent.mon [ahb_master_monitor] Beat[3] addr=0x0000d26c wdata=0x406ab1d1 resp=AHB_RESP_OKAY
# UVM_INFO ../src/mst/ahb_master_driver.sv(332) @ 3795000: uvm_test_top.env.master_agent.drv [ahb_master_driver] Beat[4/8] addr=0x0000d26d trans=AHB_TRANS_SEQ resp=AHB_RESP_OKAY wdata=0x1266e53b
# UVM_INFO ../src/slv/ahb_slave_driver.sv(184) @ 3795000: uvm_test_top.env.slave_agent.drv [ahb_slave_driver] Beat AHB_WRITE addr=0x0000d26d resp=AHB_RESP_OKAY waits=1 wdata=0x1266e53b
# UVM_INFO ../src/mst/ahb_master_monitor.sv(117) @ 3795000: uvm_test_top.env.master_agent.mon [ahb_master_monitor] Beat[4] addr=0x0000d26d wdata=0x1266e53b resp=AHB_RESP_OKAY
# UVM_INFO ../src/mst/ahb_master_driver.sv(332) @ 3815000: uvm_test_top.env.master_agent.drv [ahb_master_driver] Beat[5/8] addr=0x0000d26e trans=AHB_TRANS_SEQ resp=AHB_RESP_OKAY wdata=0xd2e8ed31
# UVM_INFO ../src/slv/ahb_slave_driver.sv(184) @ 3815000: uvm_test_top.env.slave_agent.drv [ahb_slave_driver] Beat AHB_WRITE addr=0x0000d26e resp=AHB_RESP_OKAY waits=1 wdata=0xd2e8ed31
# UVM_INFO ../src/mst/ahb_master_monitor.sv(117) @ 3815000: uvm_test_top.env.master_agent.mon [ahb_master_monitor] Beat[5] addr=0x0000d26e wdata=0xd2e8ed31 resp=AHB_RESP_OKAY
# UVM_INFO ../src/mst/ahb_master_driver.sv(332) @ 3835000: uvm_test_top.env.master_agent.drv [ahb_master_driver] Beat[6/8] addr=0x0000d26f trans=AHB_TRANS_SEQ resp=AHB_RESP_OKAY wdata=0xbfdadc27
# UVM_INFO ../src/slv/ahb_slave_driver.sv(184) @ 3835000: uvm_test_top.env.slave_agent.drv [ahb_slave_driver] Beat AHB_WRITE addr=0x0000d26f resp=AHB_RESP_OKAY waits=1 wdata=0xbfdadc27
# UVM_INFO ../src/mst/ahb_master_monitor.sv(117) @ 3835000: uvm_test_top.env.master_agent.mon [ahb_master_monitor] Beat[6] addr=0x0000d26f wdata=0xbfdadc27 resp=AHB_RESP_OKAY
# UVM_INFO ../src/mst/ahb_master_driver.sv(332) @ 3855000: uvm_test_top.env.master_agent.drv [ahb_master_driver] Beat[7/8] addr=0x0000d268 trans=AHB_TRANS_SEQ resp=AHB_RESP_OKAY wdata=0x21c44012
# UVM_INFO ../src/mst/ahb_master_driver.sv(376) @ 3855000: uvm_test_top.env.master_agent.drv [ahb_master_driver] Transaction complete: AHB_WRITE 0x0000d269, 8 beats, burst=AHB_BURST_WRAP8
# UVM_INFO ../src/mst/ahb_master_driver.sv(127) @ 3855000: uvm_test_top.env.master_agent.drv [ahb_master_driver] Driving [AHB_READ]: HADDR=0x0000d269, HBURST=AHB_BURST_WRAP8, HSIZE=AHB_SIZE_8B, 8 beats (back-to-back)
# UVM_INFO ../src/slv/ahb_slave_driver.sv(184) @ 3855000: uvm_test_top.env.slave_agent.drv [ahb_slave_driver] Beat AHB_WRITE addr=0x0000d268 resp=AHB_RESP_OKAY waits=1 wdata=0x21c44012
# UVM_INFO ../src/slv/ahb_slave_monitor.sv(197) @ 3855000: uvm_test_top.env.slave_agent.mon [ahb_slave_monitor] Observed [AHB_WRITE]: HADDR=0x0000d269, HBURST=AHB_BURST_WRAP8, HSIZE=AHB_SIZE_8B, 8 beats
# UVM_INFO ../src/env/ahb_coverage.sv(126) @ 3855000: uvm_test_top.env.slave_cov [ahb_coverage] Sampled [AHB_WRITE]: burst=AHB_BURST_WRAP8 size=AHB_SIZE_8B beats=8 error=0
# UVM_INFO ../src/mst/ahb_master_monitor.sv(117) @ 3855000: uvm_test_top.env.master_agent.mon [ahb_master_monitor] Beat[7] addr=0x0000d268 wdata=0x21c44012 resp=AHB_RESP_OKAY
# UVM_INFO ../src/mst/ahb_master_monitor.sv(220) @ 3855000: uvm_test_top.env.master_agent.mon [ahb_master_monitor] Observed [AHB_WRITE]: HADDR=0x0000d269, HBURST=AHB_BURST_WRAP8, HSIZE=AHB_SIZE_8B, 8 beats
# UVM_INFO ../src/env/ahb_coverage.sv(126) @ 3855000: uvm_test_top.env.master_cov [ahb_coverage] Sampled [AHB_WRITE]: burst=AHB_BURST_WRAP8 size=AHB_SIZE_8B beats=8 error=0
# UVM_INFO ../src/env/ahb_scoreboard.sv(104) @ 3855000: uvm_test_top.env.scb [ahb_scoreboard] MATCH #19: [AHB_WRITE] HADDR=0x0000d269 AHB_BURST_WRAP8 8 beats
# UVM_INFO ../src/mst/ahb_master_driver.sv(332) @ 3875000: uvm_test_top.env.master_agent.drv [ahb_master_driver] Beat[0/8] addr=0x0000d269 trans=AHB_TRANS_NONSEQ resp=AHB_RESP_OKAY rdata=0x9f4ca844
# UVM_INFO ../src/slv/ahb_slave_driver.sv(184) @ 3875000: uvm_test_top.env.slave_agent.drv [ahb_slave_driver] Beat AHB_READ addr=0x0000d269 resp=AHB_RESP_OKAY waits=1 rdata=0x9f4ca844
# UVM_INFO ../src/mst/ahb_master_monitor.sv(117) @ 3875000: uvm_test_top.env.master_agent.mon [ahb_master_monitor] Beat[0] addr=0x0000d269 rdata=0x9f4ca844 resp=AHB_RESP_OKAY
# UVM_INFO ../src/mst/ahb_master_driver.sv(332) @ 3895000: uvm_test_top.env.master_agent.drv [ahb_master_driver] Beat[1/8] addr=0x0000d26a trans=AHB_TRANS_SEQ resp=AHB_RESP_OKAY rdata=0xe651be08
# UVM_INFO ../src/slv/ahb_slave_driver.sv(184) @ 3895000: uvm_test_top.env.slave_agent.drv [ahb_slave_driver] Beat AHB_READ addr=0x0000d26a resp=AHB_RESP_OKAY waits=1 rdata=0xe651be08
# UVM_INFO ../src/mst/ahb_master_monitor.sv(117) @ 3895000: uvm_test_top.env.master_agent.mon [ahb_master_monitor] Beat[1] addr=0x0000d26a rdata=0xe651be08 resp=AHB_RESP_OKAY
# UVM_INFO ../src/mst/ahb_master_driver.sv(332) @ 3915000: uvm_test_top.env.master_agent.drv [ahb_master_driver] Beat[2/8] addr=0x0000d26b trans=AHB_TRANS_SEQ resp=AHB_RESP_OKAY rdata=0x9fbb8565
# UVM_INFO ../src/slv/ahb_slave_driver.sv(184) @ 3915000: uvm_test_top.env.slave_agent.drv [ahb_slave_driver] Beat AHB_READ addr=0x0000d26b resp=AHB_RESP_OKAY waits=1 rdata=0x9fbb8565
# UVM_INFO ../src/mst/ahb_master_monitor.sv(117) @ 3915000: uvm_test_top.env.master_agent.mon [ahb_master_monitor] Beat[2] addr=0x0000d26b rdata=0x9fbb8565 resp=AHB_RESP_OKAY
# UVM_INFO ../src/mst/ahb_master_driver.sv(332) @ 3935000: uvm_test_top.env.master_agent.drv [ahb_master_driver] Beat[3/8] addr=0x0000d26c trans=AHB_TRANS_SEQ resp=AHB_RESP_OKAY rdata=0x406ab1d1
# UVM_INFO ../src/slv/ahb_slave_driver.sv(184) @ 3935000: uvm_test_top.env.slave_agent.drv [ahb_slave_driver] Beat AHB_READ addr=0x0000d26c resp=AHB_RESP_OKAY waits=1 rdata=0x406ab1d1
# UVM_INFO ../src/mst/ahb_master_monitor.sv(117) @ 3935000: uvm_test_top.env.master_agent.mon [ahb_master_monitor] Beat[3] addr=0x0000d26c rdata=0x406ab1d1 resp=AHB_RESP_OKAY
# UVM_INFO ../src/mst/ahb_master_driver.sv(332) @ 3955000: uvm_test_top.env.master_agent.drv [ahb_master_driver] Beat[4/8] addr=0x0000d26d trans=AHB_TRANS_SEQ resp=AHB_RESP_OKAY rdata=0x1266e53b
# UVM_INFO ../src/slv/ahb_slave_driver.sv(184) @ 3955000: uvm_test_top.env.slave_agent.drv [ahb_slave_driver] Beat AHB_READ addr=0x0000d26d resp=AHB_RESP_OKAY waits=1 rdata=0x1266e53b
# UVM_INFO ../src/mst/ahb_master_monitor.sv(117) @ 3955000: uvm_test_top.env.master_agent.mon [ahb_master_monitor] Beat[4] addr=0x0000d26d rdata=0x1266e53b resp=AHB_RESP_OKAY
# UVM_INFO ../src/mst/ahb_master_driver.sv(332) @ 3975000: uvm_test_top.env.master_agent.drv [ahb_master_driver] Beat[5/8] addr=0x0000d26e trans=AHB_TRANS_SEQ resp=AHB_RESP_OKAY rdata=0xd2e8ed31
# UVM_INFO ../src/slv/ahb_slave_driver.sv(184) @ 3975000: uvm_test_top.env.slave_agent.drv [ahb_slave_driver] Beat AHB_READ addr=0x0000d26e resp=AHB_RESP_OKAY waits=1 rdata=0xd2e8ed31
# UVM_INFO ../src/mst/ahb_master_monitor.sv(117) @ 3975000: uvm_test_top.env.master_agent.mon [ahb_master_monitor] Beat[5] addr=0x0000d26e rdata=0xd2e8ed31 resp=AHB_RESP_OKAY
# UVM_INFO ../src/mst/ahb_master_driver.sv(332) @ 3995000: uvm_test_top.env.master_agent.drv [ahb_master_driver] Beat[6/8] addr=0x0000d26f trans=AHB_TRANS_SEQ resp=AHB_RESP_OKAY rdata=0xbfdadc27
# UVM_INFO ../src/slv/ahb_slave_driver.sv(184) @ 3995000: uvm_test_top.env.slave_agent.drv [ahb_slave_driver] Beat AHB_READ addr=0x0000d26f resp=AHB_RESP_OKAY waits=1 rdata=0xbfdadc27
# UVM_INFO ../src/mst/ahb_master_monitor.sv(117) @ 3995000: uvm_test_top.env.master_agent.mon [ahb_master_monitor] Beat[6] addr=0x0000d26f rdata=0xbfdadc27 resp=AHB_RESP_OKAY
# UVM_INFO ../src/mst/ahb_master_driver.sv(332) @ 4015000: uvm_test_top.env.master_agent.drv [ahb_master_driver] Beat[7/8] addr=0x0000d268 trans=AHB_TRANS_SEQ resp=AHB_RESP_OKAY rdata=0x21c44012
# UVM_INFO ../src/mst/ahb_master_driver.sv(376) @ 4015000: uvm_test_top.env.master_agent.drv [ahb_master_driver] Transaction complete: AHB_READ 0x0000d269, 8 beats, burst=AHB_BURST_WRAP8
# UVM_INFO ../src/slv/ahb_slave_driver.sv(184) @ 4015000: uvm_test_top.env.slave_agent.drv [ahb_slave_driver] Beat AHB_READ addr=0x0000d268 resp=AHB_RESP_OKAY waits=1 rdata=0x21c44012
# UVM_INFO ../src/slv/ahb_slave_monitor.sv(197) @ 4015000: uvm_test_top.env.slave_agent.mon [ahb_slave_monitor] Observed [AHB_READ]: HADDR=0x0000d269, HBURST=AHB_BURST_WRAP8, HSIZE=AHB_SIZE_8B, 8 beats
# UVM_INFO ../src/env/ahb_coverage.sv(126) @ 4015000: uvm_test_top.env.slave_cov [ahb_coverage] Sampled [AHB_READ]: burst=AHB_BURST_WRAP8 size=AHB_SIZE_8B beats=8 error=0
# UVM_INFO ../src/mst/ahb_master_monitor.sv(117) @ 4015000: uvm_test_top.env.master_agent.mon [ahb_master_monitor] Beat[7] addr=0x0000d268 rdata=0x21c44012 resp=AHB_RESP_OKAY
# UVM_INFO ../src/mst/ahb_master_monitor.sv(220) @ 4015000: uvm_test_top.env.master_agent.mon [ahb_master_monitor] Observed [AHB_READ]: HADDR=0x0000d269, HBURST=AHB_BURST_WRAP8, HSIZE=AHB_SIZE_8B, 8 beats
# UVM_INFO ../src/env/ahb_coverage.sv(126) @ 4015000: uvm_test_top.env.master_cov [ahb_coverage] Sampled [AHB_READ]: burst=AHB_BURST_WRAP8 size=AHB_SIZE_8B beats=8 error=0
# UVM_INFO ../src/env/ahb_scoreboard.sv(104) @ 4015000: uvm_test_top.env.scb [ahb_scoreboard] MATCH #20: [AHB_READ] HADDR=0x0000d269 AHB_BURST_WRAP8 8 beats
# UVM_INFO ../src/mst_seq/ahb_base_seq.sv(157) @ 4015000: uvm_test_top.env.master_agent.sqr@@seq [ahb_wait_state_seq] AHB_BURST_WRAP8 AHB_SIZE_8B beat 0 @0x0000d269 ok
# UVM_INFO ../src/mst_seq/ahb_base_seq.sv(157) @ 4015000: uvm_test_top.env.master_agent.sqr@@seq [ahb_wait_state_seq] AHB_BURST_WRAP8 AHB_SIZE_8B beat 1 @0x0000d26a ok
# UVM_INFO ../src/mst_seq/ahb_base_seq.sv(157) @ 4015000: uvm_test_top.env.master_agent.sqr@@seq [ahb_wait_state_seq] AHB_BURST_WRAP8 AHB_SIZE_8B beat 2 @0x0000d26b ok
# UVM_INFO ../src/mst_seq/ahb_base_seq.sv(157) @ 4015000: uvm_test_top.env.master_agent.sqr@@seq [ahb_wait_state_seq] AHB_BURST_WRAP8 AHB_SIZE_8B beat 3 @0x0000d26c ok
# UVM_INFO ../src/mst_seq/ahb_base_seq.sv(157) @ 4015000: uvm_test_top.env.master_agent.sqr@@seq [ahb_wait_state_seq] AHB_BURST_WRAP8 AHB_SIZE_8B beat 4 @0x0000d26d ok
# UVM_INFO ../src/mst_seq/ahb_base_seq.sv(157) @ 4015000: uvm_test_top.env.master_agent.sqr@@seq [ahb_wait_state_seq] AHB_BURST_WRAP8 AHB_SIZE_8B beat 5 @0x0000d26e ok
# UVM_INFO ../src/mst_seq/ahb_base_seq.sv(157) @ 4015000: uvm_test_top.env.master_agent.sqr@@seq [ahb_wait_state_seq] AHB_BURST_WRAP8 AHB_SIZE_8B beat 6 @0x0000d26f ok
# UVM_INFO ../src/mst_seq/ahb_base_seq.sv(157) @ 4015000: uvm_test_top.env.master_agent.sqr@@seq [ahb_wait_state_seq] AHB_BURST_WRAP8 AHB_SIZE_8B beat 7 @0x0000d268 ok
# UVM_INFO ../src/mst_seq/ahb_wait_state_seq.sv(166) @ 4015000: uvm_test_top.env.master_agent.sqr@@seq [ahb_wait_state_seq] AHB_BURST_SINGLE AHB_SIZE_32B @0x0000d290, 1 beats, waits=2:2, pipelined=0
# UVM_INFO ../src/mst/ahb_master_driver.sv(85) @ 4015000: uvm_test_top.env.master_agent.drv [ahb_master_driver] Queueing [AHB_WRITE]: HADDR=0x0000d290, HBURST=AHB_BURST_SINGLE, HSIZE=AHB_SIZE_32B, 1 beats
# UVM_INFO ../src/mst/ahb_master_driver.sv(127) @ 4015000: uvm_test_top.env.master_agent.drv [ahb_master_driver] Driving [AHB_WRITE]: HADDR=0x0000d290, HBURST=AHB_BURST_SINGLE, HSIZE=AHB_SIZE_32B, 1 beats               
# UVM_INFO ../src/mst/ahb_master_driver.sv(332) @ 4065000: uvm_test_top.env.master_agent.drv [ahb_master_driver] Beat[0/1] addr=0x0000d290 trans=AHB_TRANS_NONSEQ resp=AHB_RESP_OKAY wdata=0x11ca2e52
# UVM_INFO ../src/mst/ahb_master_driver.sv(376) @ 4065000: uvm_test_top.env.master_agent.drv [ahb_master_driver] Transaction complete: AHB_WRITE 0x0000d290, 1 beats, burst=AHB_BURST_SINGLE
# UVM_INFO ../src/slv/ahb_slave_driver.sv(184) @ 4065000: uvm_test_top.env.slave_agent.drv [ahb_slave_driver] Beat AHB_WRITE addr=0x0000d290 resp=AHB_RESP_OKAY waits=2 wdata=0x11ca2e52
# UVM_INFO ../src/mst/ahb_master_monitor.sv(117) @ 4065000: uvm_test_top.env.master_agent.mon [ahb_master_monitor] Beat[0] addr=0x0000d290 wdata=0x11ca2e52 resp=AHB_RESP_OKAY
# UVM_INFO ../src/mst/ahb_master_monitor.sv(220) @ 4065000: uvm_test_top.env.master_agent.mon [ahb_master_monitor] Observed [AHB_WRITE]: HADDR=0x0000d290, HBURST=AHB_BURST_SINGLE, HSIZE=AHB_SIZE_32B, 1 beats
# UVM_INFO ../src/env/ahb_coverage.sv(126) @ 4065000: uvm_test_top.env.master_cov [ahb_coverage] Sampled [AHB_WRITE]: burst=AHB_BURST_SINGLE size=AHB_SIZE_32B beats=1 error=0
# UVM_INFO ../src/slv/ahb_slave_monitor.sv(197) @ 4065000: uvm_test_top.env.slave_agent.mon [ahb_slave_monitor] Observed [AHB_WRITE]: HADDR=0x0000d290, HBURST=AHB_BURST_SINGLE, HSIZE=AHB_SIZE_32B, 1 beats
# UVM_INFO ../src/env/ahb_scoreboard.sv(104) @ 4065000: uvm_test_top.env.scb [ahb_scoreboard] MATCH #21: [AHB_WRITE] HADDR=0x0000d290 AHB_BURST_SINGLE 1 beats
# UVM_INFO ../src/env/ahb_coverage.sv(126) @ 4065000: uvm_test_top.env.slave_cov [ahb_coverage] Sampled [AHB_WRITE]: burst=AHB_BURST_SINGLE size=AHB_SIZE_32B beats=1 error=0
# UVM_INFO ../src/mst/ahb_master_driver.sv(85) @ 4065000: uvm_test_top.env.master_agent.drv [ahb_master_driver] Queueing [AHB_READ]: HADDR=0x0000d290, HBURST=AHB_BURST_SINGLE, HSIZE=AHB_SIZE_32B, 1 beats
# UVM_INFO ../src/mst/ahb_master_driver.sv(127) @ 4065000: uvm_test_top.env.master_agent.drv [ahb_master_driver] Driving [AHB_READ]: HADDR=0x0000d290, HBURST=AHB_BURST_SINGLE, HSIZE=AHB_SIZE_32B, 1 beats               
# UVM_INFO ../src/mst/ahb_master_driver.sv(332) @ 4115000: uvm_test_top.env.master_agent.drv [ahb_master_driver] Beat[0/1] addr=0x0000d290 trans=AHB_TRANS_NONSEQ resp=AHB_RESP_OKAY rdata=0x11ca2e52
# UVM_INFO ../src/mst/ahb_master_driver.sv(376) @ 4115000: uvm_test_top.env.master_agent.drv [ahb_master_driver] Transaction complete: AHB_READ 0x0000d290, 1 beats, burst=AHB_BURST_SINGLE
# UVM_INFO ../src/slv/ahb_slave_driver.sv(184) @ 4115000: uvm_test_top.env.slave_agent.drv [ahb_slave_driver] Beat AHB_READ addr=0x0000d290 resp=AHB_RESP_OKAY waits=2 rdata=0x11ca2e52
# UVM_INFO ../src/slv/ahb_slave_monitor.sv(197) @ 4115000: uvm_test_top.env.slave_agent.mon [ahb_slave_monitor] Observed [AHB_READ]: HADDR=0x0000d290, HBURST=AHB_BURST_SINGLE, HSIZE=AHB_SIZE_32B, 1 beats
# UVM_INFO ../src/env/ahb_coverage.sv(126) @ 4115000: uvm_test_top.env.slave_cov [ahb_coverage] Sampled [AHB_READ]: burst=AHB_BURST_SINGLE size=AHB_SIZE_32B beats=1 error=0
# UVM_INFO ../src/mst/ahb_master_monitor.sv(117) @ 4115000: uvm_test_top.env.master_agent.mon [ahb_master_monitor] Beat[0] addr=0x0000d290 rdata=0x11ca2e52 resp=AHB_RESP_OKAY
# UVM_INFO ../src/mst/ahb_master_monitor.sv(220) @ 4115000: uvm_test_top.env.master_agent.mon [ahb_master_monitor] Observed [AHB_READ]: HADDR=0x0000d290, HBURST=AHB_BURST_SINGLE, HSIZE=AHB_SIZE_32B, 1 beats
# UVM_INFO ../src/env/ahb_coverage.sv(126) @ 4115000: uvm_test_top.env.master_cov [ahb_coverage] Sampled [AHB_READ]: burst=AHB_BURST_SINGLE size=AHB_SIZE_32B beats=1 error=0
# UVM_INFO ../src/env/ahb_scoreboard.sv(104) @ 4115000: uvm_test_top.env.scb [ahb_scoreboard] MATCH #22: [AHB_READ] HADDR=0x0000d290 AHB_BURST_SINGLE 1 beats
# UVM_INFO ../src/mst_seq/ahb_base_seq.sv(157) @ 4115000: uvm_test_top.env.master_agent.sqr@@seq [ahb_wait_state_seq] AHB_BURST_SINGLE AHB_SIZE_32B beat 0 @0x0000d290 ok
# UVM_INFO ../src/mst_seq/ahb_wait_state_seq.sv(166) @ 4115000: uvm_test_top.env.master_agent.sqr@@seq [ahb_wait_state_seq] AHB_BURST_INCR8 AHB_SIZE_32B @0x0000d2e0, 8 beats, waits=3:3, pipelined=1
# UVM_INFO ../src/mst/ahb_master_driver.sv(85) @ 4115000: uvm_test_top.env.master_agent.drv [ahb_master_driver] Queueing [AHB_WRITE]: HADDR=0x0000d2e0, HBURST=AHB_BURST_INCR8, HSIZE=AHB_SIZE_32B, 8 beats
# UVM_INFO ../src/mst/ahb_master_driver.sv(127) @ 4115000: uvm_test_top.env.master_agent.drv [ahb_master_driver] Driving [AHB_WRITE]: HADDR=0x0000d2e0, HBURST=AHB_BURST_INCR8, HSIZE=AHB_SIZE_32B, 8 beats               
# UVM_INFO ../src/mst/ahb_master_driver.sv(85) @ 4115000: uvm_test_top.env.master_agent.drv [ahb_master_driver] Queueing [AHB_READ]: HADDR=0x0000d2e0, HBURST=AHB_BURST_INCR8, HSIZE=AHB_SIZE_32B, 8 beats
# UVM_INFO ../src/mst/ahb_master_driver.sv(332) @ 4175000: uvm_test_top.env.master_agent.drv [ahb_master_driver] Beat[0/8] addr=0x0000d2e0 trans=AHB_TRANS_NONSEQ resp=AHB_RESP_OKAY wdata=0x4a259190
# UVM_INFO ../src/slv/ahb_slave_driver.sv(184) @ 4175000: uvm_test_top.env.slave_agent.drv [ahb_slave_driver] Beat AHB_WRITE addr=0x0000d2e0 resp=AHB_RESP_OKAY waits=3 wdata=0x4a259190
# UVM_INFO ../src/mst/ahb_master_monitor.sv(117) @ 4175000: uvm_test_top.env.master_agent.mon [ahb_master_monitor] Beat[0] addr=0x0000d2e0 wdata=0x4a259190 resp=AHB_RESP_OKAY
# UVM_INFO ../src/mst/ahb_master_driver.sv(332) @ 4215000: uvm_test_top.env.master_agent.drv [ahb_master_driver] Beat[1/8] addr=0x0000d2e4 trans=AHB_TRANS_SEQ resp=AHB_RESP_OKAY wdata=0xf0cf9f40
# UVM_INFO ../src/slv/ahb_slave_driver.sv(184) @ 4215000: uvm_test_top.env.slave_agent.drv [ahb_slave_driver] Beat AHB_WRITE addr=0x0000d2e4 resp=AHB_RESP_OKAY waits=3 wdata=0xf0cf9f40
# UVM_INFO ../src/mst/ahb_master_monitor.sv(117) @ 4215000: uvm_test_top.env.master_agent.mon [ahb_master_monitor] Beat[1] addr=0x0000d2e4 wdata=0xf0cf9f40 resp=AHB_RESP_OKAY
# UVM_INFO ../src/mst/ahb_master_driver.sv(332) @ 4255000: uvm_test_top.env.master_agent.drv [ahb_master_driver] Beat[2/8] addr=0x0000d2e8 trans=AHB_TRANS_SEQ resp=AHB_RESP_OKAY wdata=0x3e953fa3
# UVM_INFO ../src/slv/ahb_slave_driver.sv(184) @ 4255000: uvm_test_top.env.slave_agent.drv [ahb_slave_driver] Beat AHB_WRITE addr=0x0000d2e8 resp=AHB_RESP_OKAY waits=3 wdata=0x3e953fa3
# UVM_INFO ../src/mst/ahb_master_monitor.sv(117) @ 4255000: uvm_test_top.env.master_agent.mon [ahb_master_monitor] Beat[2] addr=0x0000d2e8 wdata=0x3e953fa3 resp=AHB_RESP_OKAY
# UVM_INFO ../src/mst/ahb_master_driver.sv(332) @ 4295000: uvm_test_top.env.master_agent.drv [ahb_master_driver] Beat[3/8] addr=0x0000d2ec trans=AHB_TRANS_SEQ resp=AHB_RESP_OKAY wdata=0x2fb4bfc6
# UVM_INFO ../src/slv/ahb_slave_driver.sv(184) @ 4295000: uvm_test_top.env.slave_agent.drv [ahb_slave_driver] Beat AHB_WRITE addr=0x0000d2ec resp=AHB_RESP_OKAY waits=3 wdata=0x2fb4bfc6
# UVM_INFO ../src/mst/ahb_master_monitor.sv(117) @ 4295000: uvm_test_top.env.master_agent.mon [ahb_master_monitor] Beat[3] addr=0x0000d2ec wdata=0x2fb4bfc6 resp=AHB_RESP_OKAY
# UVM_INFO ../src/mst/ahb_master_driver.sv(332) @ 4335000: uvm_test_top.env.master_agent.drv [ahb_master_driver] Beat[4/8] addr=0x0000d2f0 trans=AHB_TRANS_SEQ resp=AHB_RESP_OKAY wdata=0x6387171c
# UVM_INFO ../src/slv/ahb_slave_driver.sv(184) @ 4335000: uvm_test_top.env.slave_agent.drv [ahb_slave_driver] Beat AHB_WRITE addr=0x0000d2f0 resp=AHB_RESP_OKAY waits=3 wdata=0x6387171c
# UVM_INFO ../src/mst/ahb_master_monitor.sv(117) @ 4335000: uvm_test_top.env.master_agent.mon [ahb_master_monitor] Beat[4] addr=0x0000d2f0 wdata=0x6387171c resp=AHB_RESP_OKAY
# UVM_INFO ../src/mst/ahb_master_driver.sv(332) @ 4375000: uvm_test_top.env.master_agent.drv [ahb_master_driver] Beat[5/8] addr=0x0000d2f4 trans=AHB_TRANS_SEQ resp=AHB_RESP_OKAY wdata=0x7c6cbf28
# UVM_INFO ../src/slv/ahb_slave_driver.sv(184) @ 4375000: uvm_test_top.env.slave_agent.drv [ahb_slave_driver] Beat AHB_WRITE addr=0x0000d2f4 resp=AHB_RESP_OKAY waits=3 wdata=0x7c6cbf28
# UVM_INFO ../src/mst/ahb_master_monitor.sv(117) @ 4375000: uvm_test_top.env.master_agent.mon [ahb_master_monitor] Beat[5] addr=0x0000d2f4 wdata=0x7c6cbf28 resp=AHB_RESP_OKAY
# UVM_INFO ../src/mst/ahb_master_driver.sv(332) @ 4415000: uvm_test_top.env.master_agent.drv [ahb_master_driver] Beat[6/8] addr=0x0000d2f8 trans=AHB_TRANS_SEQ resp=AHB_RESP_OKAY wdata=0x7ad1c692
# UVM_INFO ../src/slv/ahb_slave_driver.sv(184) @ 4415000: uvm_test_top.env.slave_agent.drv [ahb_slave_driver] Beat AHB_WRITE addr=0x0000d2f8 resp=AHB_RESP_OKAY waits=3 wdata=0x7ad1c692
