# vsim -c -coverage -sv_seed 47437703 "+UVM_TESTNAME=ahb_reset_test" "+UVM_VERBOSITY=UVM_HIGH" "+DUMP_VCD" -l ./report/logs/ahb_reset_test_run_4_seed_47437703.log -do "coverage save -onexit ./report/coverage/ahb_reset_test_run_4_seed_47437703.ucdb; run -all; quit -f" opt_tb_top 
# Start time: 14:14:45 on Aug 06,2026
# //  Questa Sim-64
# //  Version 10.6b linux_x86_64 May 25 2017
# //
# //  Copyright 1991-2017 Mentor Graphics Corporation
# //  All Rights Reserved.
# //
# //  QuestaSim and its associated documentation contain trade
# //  secrets and commercial or financial information that are the property of
# //  Mentor Graphics Corporation and are privileged, confidential,
# //  and exempt from disclosure under the Freedom of Information Act,
# //  5 U.S.C. Section 552. Furthermore, this information
# //  is prohibited from disclosure under the Trade Secrets Act,
# //  18 U.S.C. Section 1905.
# //
# Loading sv_std.std
# Loading work.ahb_if(fast)
# Loading mtiUvm.uvm_pkg
# Loading work.ahb_pkg(fast)
# Loading work.ahb_seq_pkg(fast)
# Loading work.ahb_test_pkg(fast)
# Loading work.tb_top(fast)
# Loading work.ahb_if(fast)
# Loading work.ahb_sva(fast)
# Loading mtiUvm.questa_uvm_pkg(fast)
# Loading /cadtools/mentor/Questa_10.6b/questasim/uvm-1.1d/linux_x86_64/uvm_dpi.so
# coverage save -onexit ./report/coverage/ahb_reset_test_run_4_seed_47437703.ucdb
#  run -all
# ----------------------------------------------------------------
# UVM-1.1d
# (C) 2007-2013 Mentor Graphics Corporation
# (C) 2007-2013 Cadence Design Systems, Inc.
# (C) 2006-2013 Synopsys, Inc.
# (C) 2011-2013 Cypress Semiconductor Corp.
# ----------------------------------------------------------------
# 
#   ***********       IMPORTANT RELEASE NOTES         ************
# 
#   You are using a version of the UVM library that has been compiled
#   with `UVM_NO_DEPRECATED undefined.
#   See http://www.eda.org/svdb/view.php?id=3313 for more details.
# 
#   You are using a version of the UVM library that has been compiled
#   with `UVM_OBJECT_MUST_HAVE_CONSTRUCTOR undefined.
#   See http://www.eda.org/svdb/view.php?id=3770 for more details.
# 
#       (Specify +UVM_NO_RELNOTES to turn off this notice)
# 
# UVM_INFO verilog_src/questa_uvm_pkg-1.2/src/questa_uvm_pkg.sv(215) @ 0: reporter [Questa UVM] QUESTA_UVM-1.2.3
# UVM_INFO verilog_src/questa_uvm_pkg-1.2/src/questa_uvm_pkg.sv(217) @ 0: reporter [Questa UVM]  questa_uvm::init(+struct)
# UVM_INFO ../src/tb_top.sv(126) @ 0: reporter [TB_TOP] Virtual interface set in config_db
# UVM_INFO @ 0: reporter [RNTST] Running test ahb_reset_test...
# UVM_INFO ../src/tb_top.sv(140) @ 0: reporter [TB_TOP] Waveform VCD dumping enabled (ahb_lite_vip.vcd)
# UVM_INFO ../src/env/ahb_vip_env.sv(64) @ 0: uvm_test_top.env [ahb_vip_env] slave_vif not set - reusing master_vif (passthrough mode)
# UVM_INFO ../src/env/ahb_vip_env.sv(72) @ 0: uvm_test_top.env [ahb_vip_env] Scoreboard created
# UVM_INFO ../src/env/ahb_vip_env.sv(78) @ 0: uvm_test_top.env [ahb_vip_env] Coverage collectors created
# UVM_INFO ../src/mst/ahb_master_agent.sv(61) @ 0: uvm_test_top.env.master_agent [ahb_master_agent] ACTIVE mode - driver + sequencer created
# UVM_INFO ../src/slv/ahb_slave_agent.sv(64) @ 0: uvm_test_top.env.slave_agent [ahb_slave_agent] ACTIVE mode - driver + sequencer created (    auto responses)
# UVM_INFO ../src/env/ahb_vip_env.sv(92) @ 0: uvm_test_top.env [ahb_vip_env] Scoreboard connected: master_mon.ap -> scb, slave_mon.ap -> scb
# UVM_INFO ../src/env/ahb_vip_env.sv(102) @ 0: uvm_test_top.env [ahb_vip_env] Coverage connected: master_mon.ap/trans_ap -> master_cov, slave_mon.ap/trans_ap -> slave_cov
# UVM_INFO @ 0: reporter [UVMTOP] UVM testbench topology:
# ---------------------------------------------------------------
# Name                       Type                     Size  Value
# ---------------------------------------------------------------
# uvm_test_top               ahb_reset_test           -     @475 
#   env                      ahb_vip_env              -     @490 
#     master_agent           ahb_master_agent         -     @505 
#       drv                  ahb_master_driver        -     @570 
#         rsp_port           uvm_analysis_port        -     @585 
#         seq_item_port      uvm_seq_item_pull_port   -     @577 
#       mon                  ahb_master_monitor       -     @563 
#         ap                 uvm_analysis_port        -     @704 
#         trans_ap           uvm_analysis_port        -     @712 
#       sqr                  ahb_master_sequencer     -     @593 
#         rsp_export         uvm_analysis_export      -     @600 
#         seq_item_export    uvm_seq_item_pull_imp    -     @694 
#         arbitration_queue  array                    0     -    
#         lock_queue         array                    0     -    
#         num_last_reqs      integral                 32    'd1  
#         num_last_rsps      integral                 32    'd1  
#     master_cov             ahb_coverage             -     @526 
#       analysis_imp         uvm_analysis_imp         -     @533 
#       trans_export         uvm_analysis_imp_trans   -     @726 
#     scb                    ahb_scoreboard           -     @519 
#       master_export        uvm_analysis_imp_master  -     @734 
#       slave_export         uvm_analysis_imp_slave   -     @742 
#     slave_agent            ahb_slave_agent          -     @512 
#       drv                  ahb_slave_driver         -     @764 
#         rsp_port           uvm_analysis_port        -     @779 
#         seq_item_port      uvm_seq_item_pull_port   -     @771 
#       mon                  ahb_slave_monitor        -     @757 
#         ap                 uvm_analysis_port        -     @898 
#         trans_ap           uvm_analysis_port        -     @906 
#       sqr                  ahb_slave_sequencer      -     @787 
#         rsp_export         uvm_analysis_export      -     @794 
#         seq_item_export    uvm_seq_item_pull_imp    -     @888 
#         arbitration_queue  array                    0     -    
#         lock_queue         array                    0     -    
#         num_last_reqs      integral                 32    'd1  
#         num_last_rsps      integral                 32    'd1  
#     slave_cov              ahb_coverage             -     @541 
#       analysis_imp         uvm_analysis_imp         -     @548 
#       trans_export         uvm_analysis_imp_trans   -     @920 
# ---------------------------------------------------------------
# 
# UVM_INFO verilog_src/questa_uvm_pkg-1.2/src/questa_uvm_pkg.sv(277) @ 0: reporter [Questa UVM] End Of Elaboration
# UVM_INFO ../src/mst_seq/ahb_reset_seq.sv(64) @ 0: uvm_test_top.env.master_agent.sqr@@seq [ahb_reset_seq] Reset phase: 18 bursts, reset on every 3th
# UVM_INFO ../src/mst/ahb_master_driver.sv(183) @ 5000: uvm_test_top.env.master_agent.drv [ahb_master_driver] Flushed pending transactions (reset)
# UVM_INFO ../src/tb_top.sv(48) @ 95000: reporter [TB_TOP] Reset de-asserted
# UVM_INFO ../src/slv/ahb_slave_driver.sv(63) @ 95000: uvm_test_top.env.slave_agent.drv [ahb_slave_driver] Reset deasserted - slave driver active (    auto mode)
# UVM_INFO ../src/mst/ahb_master_driver.sv(72) @ 95000: uvm_test_top.env.master_agent.drv [ahb_master_driver] Reset deasserted - master driver active
# UVM_INFO ../src/mst/ahb_master_monitor.sv(81) @ 95000: uvm_test_top.env.master_agent.mon [ahb_master_monitor] Reset deasserted - master monitor active
# UVM_INFO ../src/slv/ahb_slave_monitor.sv(79) @ 95000: uvm_test_top.env.slave_agent.mon [ahb_slave_monitor] Reset deasserted - slave monitor active
# UVM_INFO ../src/mst/ahb_master_driver.sv(85) @ 95000: uvm_test_top.env.master_agent.drv [ahb_master_driver] Queueing [AHB_WRITE]: HADDR=0x0000a000, HBURST=AHB_BURST_INCR16, HSIZE=AHB_SIZE_32B, 16 beats
# UVM_INFO ../src/mst/ahb_master_driver.sv(127) @ 95000: uvm_test_top.env.master_agent.drv [ahb_master_driver] Driving [AHB_WRITE]: HADDR=0x0000a000, HBURST=AHB_BURST_INCR16, HSIZE=AHB_SIZE_32B, 16 beats               
# UVM_INFO ../src/mst/ahb_master_driver.sv(332) @ 135000: uvm_test_top.env.master_agent.drv [ahb_master_driver] Beat[0/16] addr=0x0000a000 trans=AHB_TRANS_NONSEQ resp=AHB_RESP_OKAY wdata=0x6a7efe37
# UVM_INFO ../src/slv/ahb_slave_driver.sv(184) @ 135000: uvm_test_top.env.slave_agent.drv [ahb_slave_driver] Beat AHB_WRITE addr=0x0000a000 resp=AHB_RESP_OKAY waits=2 wdata=0x6a7efe37
# UVM_INFO ../src/mst/ahb_master_monitor.sv(128) @ 135000: uvm_test_top.env.master_agent.mon [ahb_master_monitor] Beat[0] addr=0x0000a000 wdata=0x6a7efe37 resp=AHB_RESP_OKAY
# UVM_INFO ../src/mst/ahb_master_driver.sv(332) @ 165000: uvm_test_top.env.master_agent.drv [ahb_master_driver] Beat[1/16] addr=0x0000a004 trans=AHB_TRANS_SEQ resp=AHB_RESP_OKAY wdata=0x91401e38
# UVM_INFO ../src/slv/ahb_slave_driver.sv(184) @ 165000: uvm_test_top.env.slave_agent.drv [ahb_slave_driver] Beat AHB_WRITE addr=0x0000a004 resp=AHB_RESP_OKAY waits=2 wdata=0x91401e38
# UVM_INFO ../src/mst/ahb_master_monitor.sv(128) @ 165000: uvm_test_top.env.master_agent.mon [ahb_master_monitor] Beat[1] addr=0x0000a004 wdata=0x91401e38 resp=AHB_RESP_OKAY
# UVM_INFO ../src/mst/ahb_master_driver.sv(332) @ 175000: uvm_test_top.env.master_agent.drv [ahb_master_driver] Beat[2/16] addr=0x0000a008 trans=AHB_TRANS_SEQ resp=AHB_RESP_OKAY wdata=0xbced96df
# UVM_INFO ../src/slv/ahb_slave_driver.sv(184) @ 175000: uvm_test_top.env.slave_agent.drv [ahb_slave_driver] Beat AHB_WRITE addr=0x0000a008 resp=AHB_RESP_OKAY waits=0 wdata=0xbced96df
# UVM_INFO ../src/mst/ahb_master_monitor.sv(128) @ 175000: uvm_test_top.env.master_agent.mon [ahb_master_monitor] Beat[2] addr=0x0000a008 wdata=0xbced96df resp=AHB_RESP_OKAY
# UVM_INFO ../src/mst/ahb_master_driver.sv(332) @ 195000: uvm_test_top.env.master_agent.drv [ahb_master_driver] Beat[3/16] addr=0x0000a00c trans=AHB_TRANS_SEQ resp=AHB_RESP_OKAY wdata=0x2c45404c
# UVM_INFO ../src/slv/ahb_slave_driver.sv(184) @ 195000: uvm_test_top.env.slave_agent.drv [ahb_slave_driver] Beat AHB_WRITE addr=0x0000a00c resp=AHB_RESP_OKAY waits=1 wdata=0x2c45404c
# UVM_INFO ../src/mst/ahb_master_monitor.sv(128) @ 195000: uvm_test_top.env.master_agent.mon [ahb_master_monitor] Beat[3] addr=0x0000a00c wdata=0x2c45404c resp=AHB_RESP_OKAY
# UVM_INFO ../src/mst/ahb_master_driver.sv(332) @ 205000: uvm_test_top.env.master_agent.drv [ahb_master_driver] Beat[4/16] addr=0x0000a010 trans=AHB_TRANS_SEQ resp=AHB_RESP_OKAY wdata=0x7fdd86a0
# UVM_INFO ../src/slv/ahb_slave_driver.sv(184) @ 205000: uvm_test_top.env.slave_agent.drv [ahb_slave_driver] Beat AHB_WRITE addr=0x0000a010 resp=AHB_RESP_OKAY waits=0 wdata=0x7fdd86a0
# UVM_INFO ../src/mst/ahb_master_monitor.sv(128) @ 205000: uvm_test_top.env.master_agent.mon [ahb_master_monitor] Beat[4] addr=0x0000a010 wdata=0x7fdd86a0 resp=AHB_RESP_OKAY
# UVM_INFO ../src/mst/ahb_master_driver.sv(332) @ 235000: uvm_test_top.env.master_agent.drv [ahb_master_driver] Beat[5/16] addr=0x0000a014 trans=AHB_TRANS_SEQ resp=AHB_RESP_OKAY wdata=0x0d0e777a
# UVM_INFO ../src/slv/ahb_slave_driver.sv(184) @ 235000: uvm_test_top.env.slave_agent.drv [ahb_slave_driver] Beat AHB_WRITE addr=0x0000a014 resp=AHB_RESP_OKAY waits=2 wdata=0x0d0e777a
# UVM_INFO ../src/mst/ahb_master_monitor.sv(128) @ 235000: uvm_test_top.env.master_agent.mon [ahb_master_monitor] Beat[5] addr=0x0000a014 wdata=0x0d0e777a resp=AHB_RESP_OKAY
# UVM_INFO ../src/mst/ahb_master_driver.sv(332) @ 245000: uvm_test_top.env.master_agent.drv [ahb_master_driver] Beat[6/16] addr=0x0000a018 trans=AHB_TRANS_SEQ resp=AHB_RESP_OKAY wdata=0x54c5da00
# UVM_INFO ../src/slv/ahb_slave_driver.sv(184) @ 245000: uvm_test_top.env.slave_agent.drv [ahb_slave_driver] Beat AHB_WRITE addr=0x0000a018 resp=AHB_RESP_OKAY waits=0 wdata=0x54c5da00
# UVM_INFO ../src/mst/ahb_master_monitor.sv(128) @ 245000: uvm_test_top.env.master_agent.mon [ahb_master_monitor] Beat[6] addr=0x0000a018 wdata=0x54c5da00 resp=AHB_RESP_OKAY
# UVM_INFO ../src/mst/ahb_master_driver.sv(332) @ 275000: uvm_test_top.env.master_agent.drv [ahb_master_driver] Beat[7/16] addr=0x0000a01c trans=AHB_TRANS_SEQ resp=AHB_RESP_OKAY wdata=0xcf6b2f30
# UVM_INFO ../src/slv/ahb_slave_driver.sv(184) @ 275000: uvm_test_top.env.slave_agent.drv [ahb_slave_driver] Beat AHB_WRITE addr=0x0000a01c resp=AHB_RESP_OKAY waits=2 wdata=0xcf6b2f30
# UVM_INFO ../src/mst/ahb_master_monitor.sv(128) @ 275000: uvm_test_top.env.master_agent.mon [ahb_master_monitor] Beat[7] addr=0x0000a01c wdata=0xcf6b2f30 resp=AHB_RESP_OKAY
# UVM_INFO ../src/mst/ahb_master_driver.sv(332) @ 305000: uvm_test_top.env.master_agent.drv [ahb_master_driver] Beat[8/16] addr=0x0000a020 trans=AHB_TRANS_SEQ resp=AHB_RESP_OKAY wdata=0xaa1f72c1
# UVM_INFO ../src/slv/ahb_slave_driver.sv(184) @ 305000: uvm_test_top.env.slave_agent.drv [ahb_slave_driver] Beat AHB_WRITE addr=0x0000a020 resp=AHB_RESP_OKAY waits=2 wdata=0xaa1f72c1
# UVM_INFO ../src/mst/ahb_master_monitor.sv(128) @ 305000: uvm_test_top.env.master_agent.mon [ahb_master_monitor] Beat[8] addr=0x0000a020 wdata=0xaa1f72c1 resp=AHB_RESP_OKAY
# UVM_INFO ../src/mst/ahb_master_driver.sv(332) @ 315000: uvm_test_top.env.master_agent.drv [ahb_master_driver] Beat[9/16] addr=0x0000a024 trans=AHB_TRANS_SEQ resp=AHB_RESP_OKAY wdata=0xaef79089
# UVM_INFO ../src/slv/ahb_slave_driver.sv(184) @ 315000: uvm_test_top.env.slave_agent.drv [ahb_slave_driver] Beat AHB_WRITE addr=0x0000a024 resp=AHB_RESP_OKAY waits=0 wdata=0xaef79089
# UVM_INFO ../src/mst/ahb_master_monitor.sv(128) @ 315000: uvm_test_top.env.master_agent.mon [ahb_master_monitor] Beat[9] addr=0x0000a024 wdata=0xaef79089 resp=AHB_RESP_OKAY
# UVM_INFO ../src/mst/ahb_master_driver.sv(332) @ 335000: uvm_test_top.env.master_agent.drv [ahb_master_driver] Beat[10/16] addr=0x0000a028 trans=AHB_TRANS_SEQ resp=AHB_RESP_OKAY wdata=0x00d8744e
# UVM_INFO ../src/slv/ahb_slave_driver.sv(184) @ 335000: uvm_test_top.env.slave_agent.drv [ahb_slave_driver] Beat AHB_WRITE addr=0x0000a028 resp=AHB_RESP_OKAY waits=1 wdata=0x00d8744e
# UVM_INFO ../src/mst/ahb_master_monitor.sv(128) @ 335000: uvm_test_top.env.master_agent.mon [ahb_master_monitor] Beat[10] addr=0x0000a028 wdata=0x00d8744e resp=AHB_RESP_OKAY
# UVM_INFO ../src/mst/ahb_master_driver.sv(332) @ 345000: uvm_test_top.env.master_agent.drv [ahb_master_driver] Beat[11/16] addr=0x0000a02c trans=AHB_TRANS_SEQ resp=AHB_RESP_OKAY wdata=0x7a1f4454
# UVM_INFO ../src/slv/ahb_slave_driver.sv(184) @ 345000: uvm_test_top.env.slave_agent.drv [ahb_slave_driver] Beat AHB_WRITE addr=0x0000a02c resp=AHB_RESP_OKAY waits=0 wdata=0x7a1f4454
# UVM_INFO ../src/mst/ahb_master_monitor.sv(128) @ 345000: uvm_test_top.env.master_agent.mon [ahb_master_monitor] Beat[11] addr=0x0000a02c wdata=0x7a1f4454 resp=AHB_RESP_OKAY
# UVM_INFO ../src/mst/ahb_master_driver.sv(332) @ 365000: uvm_test_top.env.master_agent.drv [ahb_master_driver] Beat[12/16] addr=0x0000a030 trans=AHB_TRANS_SEQ resp=AHB_RESP_OKAY wdata=0xc230dd94
# UVM_INFO ../src/slv/ahb_slave_driver.sv(184) @ 365000: uvm_test_top.env.slave_agent.drv [ahb_slave_driver] Beat AHB_WRITE addr=0x0000a030 resp=AHB_RESP_OKAY waits=1 wdata=0xc230dd94
# UVM_INFO ../src/mst/ahb_master_monitor.sv(128) @ 365000: uvm_test_top.env.master_agent.mon [ahb_master_monitor] Beat[12] addr=0x0000a030 wdata=0xc230dd94 resp=AHB_RESP_OKAY
# UVM_INFO ../src/mst/ahb_master_driver.sv(332) @ 375000: uvm_test_top.env.master_agent.drv [ahb_master_driver] Beat[13/16] addr=0x0000a034 trans=AHB_TRANS_SEQ resp=AHB_RESP_OKAY wdata=0x1d5b4f22
# UVM_INFO ../src/slv/ahb_slave_driver.sv(184) @ 375000: uvm_test_top.env.slave_agent.drv [ahb_slave_driver] Beat AHB_WRITE addr=0x0000a034 resp=AHB_RESP_OKAY waits=0 wdata=0x1d5b4f22
# UVM_INFO ../src/mst/ahb_master_monitor.sv(128) @ 375000: uvm_test_top.env.master_agent.mon [ahb_master_monitor] Beat[13] addr=0x0000a034 wdata=0x1d5b4f22 resp=AHB_RESP_OKAY
# UVM_INFO ../src/mst/ahb_master_driver.sv(332) @ 395000: uvm_test_top.env.master_agent.drv [ahb_master_driver] Beat[14/16] addr=0x0000a038 trans=AHB_TRANS_SEQ resp=AHB_RESP_OKAY wdata=0x24125c3e
# UVM_INFO ../src/slv/ahb_slave_driver.sv(184) @ 395000: uvm_test_top.env.slave_agent.drv [ahb_slave_driver] Beat AHB_WRITE addr=0x0000a038 resp=AHB_RESP_OKAY waits=1 wdata=0x24125c3e
# UVM_INFO ../src/mst/ahb_master_monitor.sv(128) @ 395000: uvm_test_top.env.master_agent.mon [ahb_master_monitor] Beat[14] addr=0x0000a038 wdata=0x24125c3e resp=AHB_RESP_OKAY
# UVM_INFO ../src/mst/ahb_master_driver.sv(332) @ 425000: uvm_test_top.env.master_agent.drv [ahb_master_driver] Beat[15/16] addr=0x0000a03c trans=AHB_TRANS_SEQ resp=AHB_RESP_OKAY wdata=0x67fc6178
# UVM_INFO ../src/mst/ahb_master_driver.sv(376) @ 425000: uvm_test_top.env.master_agent.drv [ahb_master_driver] Transaction complete: AHB_WRITE 0x0000a000, 16 beats, burst=AHB_BURST_INCR16
# UVM_INFO ../src/slv/ahb_slave_driver.sv(184) @ 425000: uvm_test_top.env.slave_agent.drv [ahb_slave_driver] Beat AHB_WRITE addr=0x0000a03c resp=AHB_RESP_OKAY waits=2 wdata=0x67fc6178
# UVM_INFO ../src/mst/ahb_master_monitor.sv(128) @ 425000: uvm_test_top.env.master_agent.mon [ahb_master_monitor] Beat[15] addr=0x0000a03c wdata=0x67fc6178 resp=AHB_RESP_OKAY
# UVM_INFO ../src/mst/ahb_master_monitor.sv(231) @ 425000: uvm_test_top.env.master_agent.mon [ahb_master_monitor] Observed [AHB_WRITE]: HADDR=0x0000a000, HBURST=AHB_BURST_INCR16, HSIZE=AHB_SIZE_32B, 16 beats
# UVM_INFO ../src/env/ahb_coverage.sv(174) @ 425000: uvm_test_top.env.master_cov [ahb_coverage] Sampled [AHB_WRITE]: burst=AHB_BURST_INCR16 size=AHB_SIZE_32B beats=16 error=0
# UVM_INFO ../src/slv/ahb_slave_monitor.sv(212) @ 425000: uvm_test_top.env.slave_agent.mon [ahb_slave_monitor] Observed [AHB_WRITE]: HADDR=0x0000a000, HBURST=AHB_BURST_INCR16, HSIZE=AHB_SIZE_32B, 16 beats
# UVM_INFO ../src/env/ahb_scoreboard.sv(104) @ 425000: uvm_test_top.env.scb [ahb_scoreboard] MATCH #1: [AHB_WRITE] HADDR=0x0000a000 AHB_BURST_INCR16 16 beats
# UVM_INFO ../src/env/ahb_coverage.sv(174) @ 425000: uvm_test_top.env.slave_cov [ahb_coverage] Sampled [AHB_WRITE]: burst=AHB_BURST_INCR16 size=AHB_SIZE_32B beats=16 error=0
# UVM_INFO ../src/mst/ahb_master_driver.sv(85) @ 425000: uvm_test_top.env.master_agent.drv [ahb_master_driver] Queueing [AHB_WRITE]: HADDR=0x0000a040, HBURST=AHB_BURST_INCR16, HSIZE=AHB_SIZE_32B, 16 beats
# UVM_INFO ../src/mst/ahb_master_driver.sv(127) @ 425000: uvm_test_top.env.master_agent.drv [ahb_master_driver] Driving [AHB_WRITE]: HADDR=0x0000a040, HBURST=AHB_BURST_INCR16, HSIZE=AHB_SIZE_32B, 16 beats               
# UVM_INFO ../src/mst/ahb_master_driver.sv(332) @ 455000: uvm_test_top.env.master_agent.drv [ahb_master_driver] Beat[0/16] addr=0x0000a040 trans=AHB_TRANS_NONSEQ resp=AHB_RESP_OKAY wdata=0x78a0669f
# UVM_INFO ../src/slv/ahb_slave_driver.sv(184) @ 455000: uvm_test_top.env.slave_agent.drv [ahb_slave_driver] Beat AHB_WRITE addr=0x0000a040 resp=AHB_RESP_OKAY waits=0 wdata=0x78a0669f
# UVM_INFO ../src/mst/ahb_master_monitor.sv(128) @ 455000: uvm_test_top.env.master_agent.mon [ahb_master_monitor] Beat[0] addr=0x0000a040 wdata=0x78a0669f resp=AHB_RESP_OKAY
# UVM_INFO ../src/mst/ahb_master_driver.sv(332) @ 485000: uvm_test_top.env.master_agent.drv [ahb_master_driver] Beat[1/16] addr=0x0000a044 trans=AHB_TRANS_SEQ resp=AHB_RESP_OKAY wdata=0x440f9562
# UVM_INFO ../src/slv/ahb_slave_driver.sv(184) @ 485000: uvm_test_top.env.slave_agent.drv [ahb_slave_driver] Beat AHB_WRITE addr=0x0000a044 resp=AHB_RESP_OKAY waits=2 wdata=0x440f9562
# UVM_INFO ../src/mst/ahb_master_monitor.sv(128) @ 485000: uvm_test_top.env.master_agent.mon [ahb_master_monitor] Beat[1] addr=0x0000a044 wdata=0x440f9562 resp=AHB_RESP_OKAY
# UVM_INFO ../src/mst/ahb_master_driver.sv(332) @ 515000: uvm_test_top.env.master_agent.drv [ahb_master_driver] Beat[2/16] addr=0x0000a048 trans=AHB_TRANS_SEQ resp=AHB_RESP_OKAY wdata=0xa4cbe40f
# UVM_INFO ../src/slv/ahb_slave_driver.sv(184) @ 515000: uvm_test_top.env.slave_agent.drv [ahb_slave_driver] Beat AHB_WRITE addr=0x0000a048 resp=AHB_RESP_OKAY waits=2 wdata=0xa4cbe40f
# UVM_INFO ../src/mst/ahb_master_monitor.sv(128) @ 515000: uvm_test_top.env.master_agent.mon [ahb_master_monitor] Beat[2] addr=0x0000a048 wdata=0xa4cbe40f resp=AHB_RESP_OKAY
# UVM_INFO ../src/mst/ahb_master_driver.sv(332) @ 545000: uvm_test_top.env.master_agent.drv [ahb_master_driver] Beat[3/16] addr=0x0000a04c trans=AHB_TRANS_SEQ resp=AHB_RESP_OKAY wdata=0xbe70cdf3
# UVM_INFO ../src/slv/ahb_slave_driver.sv(184) @ 545000: uvm_test_top.env.slave_agent.drv [ahb_slave_driver] Beat AHB_WRITE addr=0x0000a04c resp=AHB_RESP_OKAY waits=2 wdata=0xbe70cdf3
# UVM_INFO ../src/mst/ahb_master_monitor.sv(128) @ 545000: uvm_test_top.env.master_agent.mon [ahb_master_monitor] Beat[3] addr=0x0000a04c wdata=0xbe70cdf3 resp=AHB_RESP_OKAY
# UVM_INFO ../src/mst/ahb_master_driver.sv(332) @ 565000: uvm_test_top.env.master_agent.drv [ahb_master_driver] Beat[4/16] addr=0x0000a050 trans=AHB_TRANS_SEQ resp=AHB_RESP_OKAY wdata=0x46e21801
# UVM_INFO ../src/slv/ahb_slave_driver.sv(184) @ 565000: uvm_test_top.env.slave_agent.drv [ahb_slave_driver] Beat AHB_WRITE addr=0x0000a050 resp=AHB_RESP_OKAY waits=1 wdata=0x46e21801
# UVM_INFO ../src/mst/ahb_master_monitor.sv(128) @ 565000: uvm_test_top.env.master_agent.mon [ahb_master_monitor] Beat[4] addr=0x0000a050 wdata=0x46e21801 resp=AHB_RESP_OKAY
# UVM_INFO ../src/mst/ahb_master_driver.sv(332) @ 595000: uvm_test_top.env.master_agent.drv [ahb_master_driver] Beat[5/16] addr=0x0000a054 trans=AHB_TRANS_SEQ resp=AHB_RESP_OKAY wdata=0x3d6149f0
# UVM_INFO ../src/slv/ahb_slave_driver.sv(184) @ 595000: uvm_test_top.env.slave_agent.drv [ahb_slave_driver] Beat AHB_WRITE addr=0x0000a054 resp=AHB_RESP_OKAY waits=2 wdata=0x3d6149f0
# UVM_INFO ../src/mst/ahb_master_monitor.sv(128) @ 595000: uvm_test_top.env.master_agent.mon [ahb_master_monitor] Beat[5] addr=0x0000a054 wdata=0x3d6149f0 resp=AHB_RESP_OKAY
# UVM_INFO ../src/mst/ahb_master_driver.sv(332) @ 615000: uvm_test_top.env.master_agent.drv [ahb_master_driver] Beat[6/16] addr=0x0000a058 trans=AHB_TRANS_SEQ resp=AHB_RESP_OKAY wdata=0x5d01f9a7
# UVM_INFO ../src/slv/ahb_slave_driver.sv(184) @ 615000: uvm_test_top.env.slave_agent.drv [ahb_slave_driver] Beat AHB_WRITE addr=0x0000a058 resp=AHB_RESP_OKAY waits=1 wdata=0x5d01f9a7
# UVM_INFO ../src/mst/ahb_master_monitor.sv(128) @ 615000: uvm_test_top.env.master_agent.mon [ahb_master_monitor] Beat[6] addr=0x0000a058 wdata=0x5d01f9a7 resp=AHB_RESP_OKAY
# UVM_INFO ../src/mst/ahb_master_driver.sv(332) @ 635000: uvm_test_top.env.master_agent.drv [ahb_master_driver] Beat[7/16] addr=0x0000a05c trans=AHB_TRANS_SEQ resp=AHB_RESP_OKAY wdata=0x30458a66
# UVM_INFO ../src/slv/ahb_slave_driver.sv(184) @ 635000: uvm_test_top.env.slave_agent.drv [ahb_slave_driver] Beat AHB_WRITE addr=0x0000a05c resp=AHB_RESP_OKAY waits=1 wdata=0x30458a66
# UVM_INFO ../src/mst/ahb_master_monitor.sv(128) @ 635000: uvm_test_top.env.master_agent.mon [ahb_master_monitor] Beat[7] addr=0x0000a05c wdata=0x30458a66 resp=AHB_RESP_OKAY
# UVM_INFO ../src/mst/ahb_master_driver.sv(332) @ 665000: uvm_test_top.env.master_agent.drv [ahb_master_driver] Beat[8/16] addr=0x0000a060 trans=AHB_TRANS_SEQ resp=AHB_RESP_OKAY wdata=0xda099839
# UVM_INFO ../src/slv/ahb_slave_driver.sv(184) @ 665000: uvm_test_top.env.slave_agent.drv [ahb_slave_driver] Beat AHB_WRITE addr=0x0000a060 resp=AHB_RESP_OKAY waits=2 wdata=0xda099839
# UVM_INFO ../src/mst/ahb_master_monitor.sv(128) @ 665000: uvm_test_top.env.master_agent.mon [ahb_master_monitor] Beat[8] addr=0x0000a060 wdata=0xda099839 resp=AHB_RESP_OKAY
# UVM_INFO ../src/mst/ahb_master_driver.sv(332) @ 695000: uvm_test_top.env.master_agent.drv [ahb_master_driver] Beat[9/16] addr=0x0000a064 trans=AHB_TRANS_SEQ resp=AHB_RESP_OKAY wdata=0x5f528ed7
# UVM_INFO ../src/slv/ahb_slave_driver.sv(184) @ 695000: uvm_test_top.env.slave_agent.drv [ahb_slave_driver] Beat AHB_WRITE addr=0x0000a064 resp=AHB_RESP_OKAY waits=2 wdata=0x5f528ed7
# UVM_INFO ../src/mst/ahb_master_monitor.sv(128) @ 695000: uvm_test_top.env.master_agent.mon [ahb_master_monitor] Beat[9] addr=0x0000a064 wdata=0x5f528ed7 resp=AHB_RESP_OKAY
# UVM_INFO ../src/mst/ahb_master_driver.sv(332) @ 725000: uvm_test_top.env.master_agent.drv [ahb_master_driver] Beat[10/16] addr=0x0000a068 trans=AHB_TRANS_SEQ resp=AHB_RESP_OKAY wdata=0xab9247d0
# UVM_INFO ../src/slv/ahb_slave_driver.sv(184) @ 725000: uvm_test_top.env.slave_agent.drv [ahb_slave_driver] Beat AHB_WRITE addr=0x0000a068 resp=AHB_RESP_OKAY waits=2 wdata=0xab9247d0
# UVM_INFO ../src/mst/ahb_master_monitor.sv(128) @ 725000: uvm_test_top.env.master_agent.mon [ahb_master_monitor] Beat[10] addr=0x0000a068 wdata=0xab9247d0 resp=AHB_RESP_OKAY
# UVM_INFO ../src/mst/ahb_master_driver.sv(332) @ 745000: uvm_test_top.env.master_agent.drv [ahb_master_driver] Beat[11/16] addr=0x0000a06c trans=AHB_TRANS_SEQ resp=AHB_RESP_OKAY wdata=0xc5aa133f
# UVM_INFO ../src/slv/ahb_slave_driver.sv(184) @ 745000: uvm_test_top.env.slave_agent.drv [ahb_slave_driver] Beat AHB_WRITE addr=0x0000a06c resp=AHB_RESP_OKAY waits=1 wdata=0xc5aa133f
# UVM_INFO ../src/mst/ahb_master_monitor.sv(128) @ 745000: uvm_test_top.env.master_agent.mon [ahb_master_monitor] Beat[11] addr=0x0000a06c wdata=0xc5aa133f resp=AHB_RESP_OKAY
# UVM_INFO ../src/mst/ahb_master_driver.sv(332) @ 775000: uvm_test_top.env.master_agent.drv [ahb_master_driver] Beat[12/16] addr=0x0000a070 trans=AHB_TRANS_SEQ resp=AHB_RESP_OKAY wdata=0x837320d7
# UVM_INFO ../src/slv/ahb_slave_driver.sv(184) @ 775000: uvm_test_top.env.slave_agent.drv [ahb_slave_driver] Beat AHB_WRITE addr=0x0000a070 resp=AHB_RESP_OKAY waits=2 wdata=0x837320d7
# UVM_INFO ../src/mst/ahb_master_monitor.sv(128) @ 775000: uvm_test_top.env.master_agent.mon [ahb_master_monitor] Beat[12] addr=0x0000a070 wdata=0x837320d7 resp=AHB_RESP_OKAY
# UVM_INFO ../src/mst/ahb_master_driver.sv(332) @ 795000: uvm_test_top.env.master_agent.drv [ahb_master_driver] Beat[13/16] addr=0x0000a074 trans=AHB_TRANS_SEQ resp=AHB_RESP_OKAY wdata=0x09215b55
# UVM_INFO ../src/slv/ahb_slave_driver.sv(184) @ 795000: uvm_test_top.env.slave_agent.drv [ahb_slave_driver] Beat AHB_WRITE addr=0x0000a074 resp=AHB_RESP_OKAY waits=1 wdata=0x09215b55
# UVM_INFO ../src/mst/ahb_master_monitor.sv(128) @ 795000: uvm_test_top.env.master_agent.mon [ahb_master_monitor] Beat[13] addr=0x0000a074 wdata=0x09215b55 resp=AHB_RESP_OKAY
# UVM_INFO ../src/mst/ahb_master_driver.sv(332) @ 815000: uvm_test_top.env.master_agent.drv [ahb_master_driver] Beat[14/16] addr=0x0000a078 trans=AHB_TRANS_SEQ resp=AHB_RESP_OKAY wdata=0x2b63eb21
# UVM_INFO ../src/slv/ahb_slave_driver.sv(184) @ 815000: uvm_test_top.env.slave_agent.drv [ahb_slave_driver] Beat AHB_WRITE addr=0x0000a078 resp=AHB_RESP_OKAY waits=1 wdata=0x2b63eb21
# UVM_INFO ../src/mst/ahb_master_monitor.sv(128) @ 815000: uvm_test_top.env.master_agent.mon [ahb_master_monitor] Beat[14] addr=0x0000a078 wdata=0x2b63eb21 resp=AHB_RESP_OKAY
# UVM_INFO ../src/mst/ahb_master_driver.sv(332) @ 835000: uvm_test_top.env.master_agent.drv [ahb_master_driver] Beat[15/16] addr=0x0000a07c trans=AHB_TRANS_SEQ resp=AHB_RESP_OKAY wdata=0x48c07208
# UVM_INFO ../src/mst/ahb_master_driver.sv(376) @ 835000: uvm_test_top.env.master_agent.drv [ahb_master_driver] Transaction complete: AHB_WRITE 0x0000a040, 16 beats, burst=AHB_BURST_INCR16
# UVM_INFO ../src/slv/ahb_slave_driver.sv(184) @ 835000: uvm_test_top.env.slave_agent.drv [ahb_slave_driver] Beat AHB_WRITE addr=0x0000a07c resp=AHB_RESP_OKAY waits=1 wdata=0x48c07208
# UVM_INFO ../src/slv/ahb_slave_monitor.sv(212) @ 835000: uvm_test_top.env.slave_agent.mon [ahb_slave_monitor] Observed [AHB_WRITE]: HADDR=0x0000a040, HBURST=AHB_BURST_INCR16, HSIZE=AHB_SIZE_32B, 16 beats
# UVM_INFO ../src/env/ahb_coverage.sv(174) @ 835000: uvm_test_top.env.slave_cov [ahb_coverage] Sampled [AHB_WRITE]: burst=AHB_BURST_INCR16 size=AHB_SIZE_32B beats=16 error=0
# UVM_INFO ../src/mst/ahb_master_monitor.sv(128) @ 835000: uvm_test_top.env.master_agent.mon [ahb_master_monitor] Beat[15] addr=0x0000a07c wdata=0x48c07208 resp=AHB_RESP_OKAY
# UVM_INFO ../src/mst/ahb_master_monitor.sv(231) @ 835000: uvm_test_top.env.master_agent.mon [ahb_master_monitor] Observed [AHB_WRITE]: HADDR=0x0000a040, HBURST=AHB_BURST_INCR16, HSIZE=AHB_SIZE_32B, 16 beats
# UVM_INFO ../src/env/ahb_coverage.sv(174) @ 835000: uvm_test_top.env.master_cov [ahb_coverage] Sampled [AHB_WRITE]: burst=AHB_BURST_INCR16 size=AHB_SIZE_32B beats=16 error=0
# UVM_INFO ../src/env/ahb_scoreboard.sv(104) @ 835000: uvm_test_top.env.scb [ahb_scoreboard] MATCH #2: [AHB_WRITE] HADDR=0x0000a040 AHB_BURST_INCR16 16 beats
# UVM_INFO ../src/mst/ahb_master_driver.sv(85) @ 835000: uvm_test_top.env.master_agent.drv [ahb_master_driver] Queueing [AHB_WRITE]: HADDR=0x0000a080, HBURST=AHB_BURST_INCR16, HSIZE=AHB_SIZE_32B, 16 beats
# UVM_INFO ../src/mst/ahb_master_driver.sv(127) @ 835000: uvm_test_top.env.master_agent.drv [ahb_master_driver] Driving [AHB_WRITE]: HADDR=0x0000a080, HBURST=AHB_BURST_INCR16, HSIZE=AHB_SIZE_32B, 16 beats               
# UVM_INFO ../src/mst/ahb_master_driver.sv(332) @ 885000: uvm_test_top.env.master_agent.drv [ahb_master_driver] Beat[0/16] addr=0x0000a080 trans=AHB_TRANS_NONSEQ resp=AHB_RESP_OKAY wdata=0x97662b51
# UVM_INFO ../src/slv/ahb_slave_driver.sv(184) @ 885000: uvm_test_top.env.slave_agent.drv [ahb_slave_driver] Beat AHB_WRITE addr=0x0000a080 resp=AHB_RESP_OKAY waits=2 wdata=0x97662b51
# UVM_INFO ../src/mst/ahb_master_monitor.sv(128) @ 885000: uvm_test_top.env.master_agent.mon [ahb_master_monitor] Beat[0] addr=0x0000a080 wdata=0x97662b51 resp=AHB_RESP_OKAY
# UVM_INFO ../src/mst/ahb_master_driver.sv(332) @ 905000: uvm_test_top.env.master_agent.drv [ahb_master_driver] Beat[1/16] addr=0x0000a084 trans=AHB_TRANS_SEQ resp=AHB_RESP_OKAY wdata=0x6ab2edea
# UVM_INFO ../src/slv/ahb_slave_driver.sv(184) @ 905000: uvm_test_top.env.slave_agent.drv [ahb_slave_driver] Beat AHB_WRITE addr=0x0000a084 resp=AHB_RESP_OKAY waits=1 wdata=0x6ab2edea
# UVM_INFO ../src/mst/ahb_master_monitor.sv(128) @ 905000: uvm_test_top.env.master_agent.mon [ahb_master_monitor] Beat[1] addr=0x0000a084 wdata=0x6ab2edea resp=AHB_RESP_OKAY
# UVM_INFO ../src/mst_seq/ahb_reset_seq.sv(85) @ 912000: uvm_test_top.env.master_agent.sqr@@seq [ahb_reset_seq] Asserting reset 77 ns into burst 2
# UVM_INFO ../src/tb_top.sv(59) @ 912000: reporter [TB_TOP] Mid-sim reset requested - asserting rst_n
# UVM_INFO ../src/slv/ahb_slave_monitor.sv(85) @ 912000: uvm_test_top.env.slave_agent.mon [ahb_slave_monitor] Reset asserted - discarding partial transaction
# UVM_INFO ../src/slv/ahb_slave_monitor.sv(242) @ 912000: uvm_test_top.env.slave_agent.mon [ahb_slave_monitor] Discarding partial burst at reset (3 beats accepted)
# UVM_INFO ../src/mst/ahb_master_monitor.sv(88) @ 912000: uvm_test_top.env.master_agent.mon [ahb_master_monitor] Reset asserted - discarding partial transaction
# UVM_INFO ../src/mst/ahb_master_monitor.sv(260) @ 912000: uvm_test_top.env.master_agent.mon [ahb_master_monitor] Discarding partial burst at reset (3 beats accepted)
# UVM_INFO ../src/mst/ahb_master_driver.sv(97) @ 912000: uvm_test_top.env.master_agent.drv [ahb_master_driver] Reset asserted - aborting transaction
# UVM_INFO ../src/slv/ahb_slave_driver.sv(69) @ 912000: uvm_test_top.env.slave_agent.drv [ahb_slave_driver] Reset asserted - slave driver idle
# UVM_INFO ../src/mst/ahb_master_driver.sv(183) @ 915000: uvm_test_top.env.master_agent.drv [ahb_master_driver] Flushed pending transactions (reset)
# UVM_INFO ../src/mst_seq/ahb_base_seq.sv(51) @ 915000: uvm_test_top.env.master_agent.sqr@@seq [ahb_reset_seq] Transaction aborted by reset: AHB_WRITE 0x0000a080
# UVM_INFO ../src/tb_top.sv(63) @ 985000: reporter [TB_TOP] Mid-sim reset pulse complete - rst_n deasserted
# UVM_INFO ../src/slv/ahb_slave_driver.sv(63) @ 985000: uvm_test_top.env.slave_agent.drv [ahb_slave_driver] Reset deasserted - slave driver active (    auto mode)
# UVM_INFO ../src/mst/ahb_master_driver.sv(72) @ 985000: uvm_test_top.env.master_agent.drv [ahb_master_driver] Reset deasserted - master driver active
# UVM_INFO ../src/mst/ahb_master_monitor.sv(81) @ 985000: uvm_test_top.env.master_agent.mon [ahb_master_monitor] Reset deasserted - master monitor active
# UVM_INFO ../src/slv/ahb_slave_monitor.sv(79) @ 985000: uvm_test_top.env.slave_agent.mon [ahb_slave_monitor] Reset deasserted - slave monitor active
# UVM_INFO ../src/mst/ahb_master_driver.sv(85) @ 985000: uvm_test_top.env.master_agent.drv [ahb_master_driver] Queueing [AHB_WRITE]: HADDR=0x0000a0c0, HBURST=AHB_BURST_INCR16, HSIZE=AHB_SIZE_32B, 16 beats
# UVM_INFO ../src/mst/ahb_master_driver.sv(127) @ 985000: uvm_test_top.env.master_agent.drv [ahb_master_driver] Driving [AHB_WRITE]: HADDR=0x0000a0c0, HBURST=AHB_BURST_INCR16, HSIZE=AHB_SIZE_32B, 16 beats               
# UVM_INFO ../src/mst/ahb_master_driver.sv(332) @ 1025000: uvm_test_top.env.master_agent.drv [ahb_master_driver] Beat[0/16] addr=0x0000a0c0 trans=AHB_TRANS_NONSEQ resp=AHB_RESP_OKAY wdata=0xbe3a9551
# UVM_INFO ../src/slv/ahb_slave_driver.sv(184) @ 1025000: uvm_test_top.env.slave_agent.drv [ahb_slave_driver] Beat AHB_WRITE addr=0x0000a0c0 resp=AHB_RESP_OKAY waits=2 wdata=0xbe3a9551
# UVM_INFO ../src/mst/ahb_master_monitor.sv(128) @ 1025000: uvm_test_top.env.master_agent.mon [ahb_master_monitor] Beat[0] addr=0x0000a0c0 wdata=0xbe3a9551 resp=AHB_RESP_OKAY
# UVM_INFO ../src/mst/ahb_master_driver.sv(332) @ 1035000: uvm_test_top.env.master_agent.drv [ahb_master_driver] Beat[1/16] addr=0x0000a0c4 trans=AHB_TRANS_SEQ resp=AHB_RESP_OKAY wdata=0xcbe9fb11
# UVM_INFO ../src/slv/ahb_slave_driver.sv(184) @ 1035000: uvm_test_top.env.slave_agent.drv [ahb_slave_driver] Beat AHB_WRITE addr=0x0000a0c4 resp=AHB_RESP_OKAY waits=0 wdata=0xcbe9fb11
# UVM_INFO ../src/mst/ahb_master_monitor.sv(128) @ 1035000: uvm_test_top.env.master_agent.mon [ahb_master_monitor] Beat[1] addr=0x0000a0c4 wdata=0xcbe9fb11 resp=AHB_RESP_OKAY
# UVM_INFO ../src/mst/ahb_master_driver.sv(332) @ 1045000: uvm_test_top.env.master_agent.drv [ahb_master_driver] Beat[2/16] addr=0x0000a0c8 trans=AHB_TRANS_SEQ resp=AHB_RESP_OKAY wdata=0xe4a61372
# UVM_INFO ../src/slv/ahb_slave_driver.sv(184) @ 1045000: uvm_test_top.env.slave_agent.drv [ahb_slave_driver] Beat AHB_WRITE addr=0x0000a0c8 resp=AHB_RESP_OKAY waits=0 wdata=0xe4a61372
# UVM_INFO ../src/mst/ahb_master_monitor.sv(128) @ 1045000: uvm_test_top.env.master_agent.mon [ahb_master_monitor] Beat[2] addr=0x0000a0c8 wdata=0xe4a61372 resp=AHB_RESP_OKAY
# UVM_INFO ../src/mst/ahb_master_driver.sv(332) @ 1075000: uvm_test_top.env.master_agent.drv [ahb_master_driver] Beat[3/16] addr=0x0000a0cc trans=AHB_TRANS_SEQ resp=AHB_RESP_OKAY wdata=0x324d0695
# UVM_INFO ../src/slv/ahb_slave_driver.sv(184) @ 1075000: uvm_test_top.env.slave_agent.drv [ahb_slave_driver] Beat AHB_WRITE addr=0x0000a0cc resp=AHB_RESP_OKAY waits=2 wdata=0x324d0695
# UVM_INFO ../src/mst/ahb_master_monitor.sv(128) @ 1075000: uvm_test_top.env.master_agent.mon [ahb_master_monitor] Beat[3] addr=0x0000a0cc wdata=0x324d0695 resp=AHB_RESP_OKAY
# UVM_INFO ../src/mst/ahb_master_driver.sv(332) @ 1095000: uvm_test_top.env.master_agent.drv [ahb_master_driver] Beat[4/16] addr=0x0000a0d0 trans=AHB_TRANS_SEQ resp=AHB_RESP_OKAY wdata=0xe7cc4f13
# UVM_INFO ../src/slv/ahb_slave_driver.sv(184) @ 1095000: uvm_test_top.env.slave_agent.drv [ahb_slave_driver] Beat AHB_WRITE addr=0x0000a0d0 resp=AHB_RESP_OKAY waits=1 wdata=0xe7cc4f13
# UVM_INFO ../src/mst/ahb_master_monitor.sv(128) @ 1095000: uvm_test_top.env.master_agent.mon [ahb_master_monitor] Beat[4] addr=0x0000a0d0 wdata=0xe7cc4f13 resp=AHB_RESP_OKAY
# UVM_INFO ../src/mst/ahb_master_driver.sv(332) @ 1115000: uvm_test_top.env.master_agent.drv [ahb_master_driver] Beat[5/16] addr=0x0000a0d4 trans=AHB_TRANS_SEQ resp=AHB_RESP_OKAY wdata=0x28d7fd8f
# UVM_INFO ../src/slv/ahb_slave_driver.sv(184) @ 1115000: uvm_test_top.env.slave_agent.drv [ahb_slave_driver] Beat AHB_WRITE addr=0x0000a0d4 resp=AHB_RESP_OKAY waits=1 wdata=0x28d7fd8f
# UVM_INFO ../src/mst/ahb_master_monitor.sv(128) @ 1115000: uvm_test_top.env.master_agent.mon [ahb_master_monitor] Beat[5] addr=0x0000a0d4 wdata=0x28d7fd8f resp=AHB_RESP_OKAY
# UVM_INFO ../src/mst/ahb_master_driver.sv(332) @ 1145000: uvm_test_top.env.master_agent.drv [ahb_master_driver] Beat[6/16] addr=0x0000a0d8 trans=AHB_TRANS_SEQ resp=AHB_RESP_OKAY wdata=0x6286f3e2
# UVM_INFO ../src/slv/ahb_slave_driver.sv(184) @ 1145000: uvm_test_top.env.slave_agent.drv [ahb_slave_driver] Beat AHB_WRITE addr=0x0000a0d8 resp=AHB_RESP_OKAY waits=2 wdata=0x6286f3e2
# UVM_INFO ../src/mst/ahb_master_monitor.sv(128) @ 1145000: uvm_test_top.env.master_agent.mon [ahb_master_monitor] Beat[6] addr=0x0000a0d8 wdata=0x6286f3e2 resp=AHB_RESP_OKAY
# UVM_INFO ../src/mst/ahb_master_driver.sv(332) @ 1155000: uvm_test_top.env.master_agent.drv [ahb_master_driver] Beat[7/16] addr=0x0000a0dc trans=AHB_TRANS_SEQ resp=AHB_RESP_OKAY wdata=0x94588546
# UVM_INFO ../src/slv/ahb_slave_driver.sv(184) @ 1155000: uvm_test_top.env.slave_agent.drv [ahb_slave_driver] Beat AHB_WRITE addr=0x0000a0dc resp=AHB_RESP_OKAY waits=0 wdata=0x94588546
# UVM_INFO ../src/mst/ahb_master_monitor.sv(128) @ 1155000: uvm_test_top.env.master_agent.mon [ahb_master_monitor] Beat[7] addr=0x0000a0dc wdata=0x94588546 resp=AHB_RESP_OKAY
# UVM_INFO ../src/mst/ahb_master_driver.sv(332) @ 1165000: uvm_test_top.env.master_agent.drv [ahb_master_driver] Beat[8/16] addr=0x0000a0e0 trans=AHB_TRANS_SEQ resp=AHB_RESP_OKAY wdata=0xa703aea4
# UVM_INFO ../src/slv/ahb_slave_driver.sv(184) @ 1165000: uvm_test_top.env.slave_agent.drv [ahb_slave_driver] Beat AHB_WRITE addr=0x0000a0e0 resp=AHB_RESP_OKAY waits=0 wdata=0xa703aea4
# UVM_INFO ../src/mst/ahb_master_monitor.sv(128) @ 1165000: uvm_test_top.env.master_agent.mon [ahb_master_monitor] Beat[8] addr=0x0000a0e0 wdata=0xa703aea4 resp=AHB_RESP_OKAY
# UVM_INFO ../src/mst/ahb_master_driver.sv(332) @ 1185000: uvm_test_top.env.master_agent.drv [ahb_master_driver] Beat[9/16] addr=0x0000a0e4 trans=AHB_TRANS_SEQ resp=AHB_RESP_OKAY wdata=0xc997e9cb
# UVM_INFO ../src/slv/ahb_slave_driver.sv(184) @ 1185000: uvm_test_top.env.slave_agent.drv [ahb_slave_driver] Beat AHB_WRITE addr=0x0000a0e4 resp=AHB_RESP_OKAY waits=1 wdata=0xc997e9cb
# UVM_INFO ../src/mst/ahb_master_monitor.sv(128) @ 1185000: uvm_test_top.env.master_agent.mon [ahb_master_monitor] Beat[9] addr=0x0000a0e4 wdata=0xc997e9cb resp=AHB_RESP_OKAY
# UVM_INFO ../src/mst/ahb_master_driver.sv(332) @ 1195000: uvm_test_top.env.master_agent.drv [ahb_master_driver] Beat[10/16] addr=0x0000a0e8 trans=AHB_TRANS_SEQ resp=AHB_RESP_OKAY wdata=0x453e56cc
# UVM_INFO ../src/slv/ahb_slave_driver.sv(184) @ 1195000: uvm_test_top.env.slave_agent.drv [ahb_slave_driver] Beat AHB_WRITE addr=0x0000a0e8 resp=AHB_RESP_OKAY waits=0 wdata=0x453e56cc
# UVM_INFO ../src/mst/ahb_master_monitor.sv(128) @ 1195000: uvm_test_top.env.master_agent.mon [ahb_master_monitor] Beat[10] addr=0x0000a0e8 wdata=0x453e56cc resp=AHB_RESP_OKAY
# UVM_INFO ../src/mst/ahb_master_driver.sv(332) @ 1225000: uvm_test_top.env.master_agent.drv [ahb_master_driver] Beat[11/16] addr=0x0000a0ec trans=AHB_TRANS_SEQ resp=AHB_RESP_OKAY wdata=0x20f33550
# UVM_INFO ../src/slv/ahb_slave_driver.sv(184) @ 1225000: uvm_test_top.env.slave_agent.drv [ahb_slave_driver] Beat AHB_WRITE addr=0x0000a0ec resp=AHB_RESP_OKAY waits=2 wdata=0x20f33550
# UVM_INFO ../src/mst/ahb_master_monitor.sv(128) @ 1225000: uvm_test_top.env.master_agent.mon [ahb_master_monitor] Beat[11] addr=0x0000a0ec wdata=0x20f33550 resp=AHB_RESP_OKAY
# UVM_INFO ../src/mst/ahb_master_driver.sv(332) @ 1245000: uvm_test_top.env.master_agent.drv [ahb_master_driver] Beat[12/16] addr=0x0000a0f0 trans=AHB_TRANS_SEQ resp=AHB_RESP_OKAY wdata=0x6ec40451
# UVM_INFO ../src/slv/ahb_slave_driver.sv(184) @ 1245000: uvm_test_top.env.slave_agent.drv [ahb_slave_driver] Beat AHB_WRITE addr=0x0000a0f0 resp=AHB_RESP_OKAY waits=1 wdata=0x6ec40451
# UVM_INFO ../src/mst/ahb_master_monitor.sv(128) @ 1245000: uvm_test_top.env.master_agent.mon [ahb_master_monitor] Beat[12] addr=0x0000a0f0 wdata=0x6ec40451 resp=AHB_RESP_OKAY
# UVM_INFO ../src/mst/ahb_master_driver.sv(332) @ 1255000: uvm_test_top.env.master_agent.drv [ahb_master_driver] Beat[13/16] addr=0x0000a0f4 trans=AHB_TRANS_SEQ resp=AHB_RESP_OKAY wdata=0x2a8d1599
# UVM_INFO ../src/slv/ahb_slave_driver.sv(184) @ 1255000: uvm_test_top.env.slave_agent.drv [ahb_slave_driver] Beat AHB_WRITE addr=0x0000a0f4 resp=AHB_RESP_OKAY waits=0 wdata=0x2a8d1599
# UVM_INFO ../src/mst/ahb_master_monitor.sv(128) @ 1255000: uvm_test_top.env.master_agent.mon [ahb_master_monitor] Beat[13] addr=0x0000a0f4 wdata=0x2a8d1599 resp=AHB_RESP_OKAY
# UVM_INFO ../src/mst/ahb_master_driver.sv(332) @ 1275000: uvm_test_top.env.master_agent.drv [ahb_master_driver] Beat[14/16] addr=0x0000a0f8 trans=AHB_TRANS_SEQ resp=AHB_RESP_OKAY wdata=0xe7a038ac
# UVM_INFO ../src/slv/ahb_slave_driver.sv(184) @ 1275000: uvm_test_top.env.slave_agent.drv [ahb_slave_driver] Beat AHB_WRITE addr=0x0000a0f8 resp=AHB_RESP_OKAY waits=1 wdata=0xe7a038ac
# UVM_INFO ../src/mst/ahb_master_monitor.sv(128) @ 1275000: uvm_test_top.env.master_agent.mon [ahb_master_monitor] Beat[14] addr=0x0000a0f8 wdata=0xe7a038ac resp=AHB_RESP_OKAY
# UVM_INFO ../src/mst/ahb_master_driver.sv(332) @ 1305000: uvm_test_top.env.master_agent.drv [ahb_master_driver] Beat[15/16] addr=0x0000a0fc trans=AHB_TRANS_SEQ resp=AHB_RESP_OKAY wdata=0x1a3b0cdc
# UVM_INFO ../src/mst/ahb_master_driver.sv(376) @ 1305000: uvm_test_top.env.master_agent.drv [ahb_master_driver] Transaction complete: AHB_WRITE 0x0000a0c0, 16 beats, burst=AHB_BURST_INCR16
# UVM_INFO ../src/slv/ahb_slave_driver.sv(184) @ 1305000: uvm_test_top.env.slave_agent.drv [ahb_slave_driver] Beat AHB_WRITE addr=0x0000a0fc resp=AHB_RESP_OKAY waits=2 wdata=0x1a3b0cdc
# UVM_INFO ../src/slv/ahb_slave_monitor.sv(212) @ 1305000: uvm_test_top.env.slave_agent.mon [ahb_slave_monitor] Observed [AHB_WRITE]: HADDR=0x0000a0c0, HBURST=AHB_BURST_INCR16, HSIZE=AHB_SIZE_32B, 16 beats
# UVM_INFO ../src/env/ahb_coverage.sv(174) @ 1305000: uvm_test_top.env.slave_cov [ahb_coverage] Sampled [AHB_WRITE]: burst=AHB_BURST_INCR16 size=AHB_SIZE_32B beats=16 error=0
# UVM_INFO ../src/mst/ahb_master_monitor.sv(128) @ 1305000: uvm_test_top.env.master_agent.mon [ahb_master_monitor] Beat[15] addr=0x0000a0fc wdata=0x1a3b0cdc resp=AHB_RESP_OKAY
# UVM_INFO ../src/mst/ahb_master_monitor.sv(231) @ 1305000: uvm_test_top.env.master_agent.mon [ahb_master_monitor] Observed [AHB_WRITE]: HADDR=0x0000a0c0, HBURST=AHB_BURST_INCR16, HSIZE=AHB_SIZE_32B, 16 beats
# UVM_INFO ../src/env/ahb_coverage.sv(174) @ 1305000: uvm_test_top.env.master_cov [ahb_coverage] Sampled [AHB_WRITE]: burst=AHB_BURST_INCR16 size=AHB_SIZE_32B beats=16 error=0
# UVM_INFO ../src/env/ahb_scoreboard.sv(104) @ 1305000: uvm_test_top.env.scb [ahb_scoreboard] MATCH #3: [AHB_WRITE] HADDR=0x0000a0c0 AHB_BURST_INCR16 16 beats
# UVM_INFO ../src/mst/ahb_master_driver.sv(85) @ 1305000: uvm_test_top.env.master_agent.drv [ahb_master_driver] Queueing [AHB_WRITE]: HADDR=0x0000a100, HBURST=AHB_BURST_INCR16, HSIZE=AHB_SIZE_32B, 16 beats
# UVM_INFO ../src/mst/ahb_master_driver.sv(127) @ 1305000: uvm_test_top.env.master_agent.drv [ahb_master_driver] Driving [AHB_WRITE]: HADDR=0x0000a100, HBURST=AHB_BURST_INCR16, HSIZE=AHB_SIZE_32B, 16 beats               
# UVM_INFO ../src/mst/ahb_master_driver.sv(332) @ 1335000: uvm_test_top.env.master_agent.drv [ahb_master_driver] Beat[0/16] addr=0x0000a100 trans=AHB_TRANS_NONSEQ resp=AHB_RESP_OKAY wdata=0x2d0da553
# UVM_INFO ../src/slv/ahb_slave_driver.sv(184) @ 1335000: uvm_test_top.env.slave_agent.drv [ahb_slave_driver] Beat AHB_WRITE addr=0x0000a100 resp=AHB_RESP_OKAY waits=0 wdata=0x2d0da553
# UVM_INFO ../src/mst/ahb_master_monitor.sv(128) @ 1335000: uvm_test_top.env.master_agent.mon [ahb_master_monitor] Beat[0] addr=0x0000a100 wdata=0x2d0da553 resp=AHB_RESP_OKAY
# UVM_INFO ../src/mst/ahb_master_driver.sv(332) @ 1365000: uvm_test_top.env.master_agent.drv [ahb_master_driver] Beat[1/16] addr=0x0000a104 trans=AHB_TRANS_SEQ resp=AHB_RESP_OKAY wdata=0xbc9dd4a4
# UVM_INFO ../src/slv/ahb_slave_driver.sv(184) @ 1365000: uvm_test_top.env.slave_agent.drv [ahb_slave_driver] Beat AHB_WRITE addr=0x0000a104 resp=AHB_RESP_OKAY waits=2 wdata=0xbc9dd4a4
# UVM_INFO ../src/mst/ahb_master_monitor.sv(128) @ 1365000: uvm_test_top.env.master_agent.mon [ahb_master_monitor] Beat[1] addr=0x0000a104 wdata=0xbc9dd4a4 resp=AHB_RESP_OKAY
# UVM_INFO ../src/mst/ahb_master_driver.sv(332) @ 1395000: uvm_test_top.env.master_agent.drv [ahb_master_driver] Beat[2/16] addr=0x0000a108 trans=AHB_TRANS_SEQ resp=AHB_RESP_OKAY wdata=0x2fa9b15d
# UVM_INFO ../src/slv/ahb_slave_driver.sv(184) @ 1395000: uvm_test_top.env.slave_agent.drv [ahb_slave_driver] Beat AHB_WRITE addr=0x0000a108 resp=AHB_RESP_OKAY waits=2 wdata=0x2fa9b15d
# UVM_INFO ../src/mst/ahb_master_monitor.sv(128) @ 1395000: uvm_test_top.env.master_agent.mon [ahb_master_monitor] Beat[2] addr=0x0000a108 wdata=0x2fa9b15d resp=AHB_RESP_OKAY
# UVM_INFO ../src/mst/ahb_master_driver.sv(332) @ 1425000: uvm_test_top.env.master_agent.drv [ahb_master_driver] Beat[3/16] addr=0x0000a10c trans=AHB_TRANS_SEQ resp=AHB_RESP_OKAY wdata=0x35aea767
# UVM_INFO ../src/slv/ahb_slave_driver.sv(184) @ 1425000: uvm_test_top.env.slave_agent.drv [ahb_slave_driver] Beat AHB_WRITE addr=0x0000a10c resp=AHB_RESP_OKAY waits=2 wdata=0x35aea767
# UVM_INFO ../src/mst/ahb_master_monitor.sv(128) @ 1425000: uvm_test_top.env.master_agent.mon [ahb_master_monitor] Beat[3] addr=0x0000a10c wdata=0x35aea767 resp=AHB_RESP_OKAY
# UVM_INFO ../src/mst/ahb_master_driver.sv(332) @ 1435000: uvm_test_top.env.master_agent.drv [ahb_master_driver] Beat[4/16] addr=0x0000a110 trans=AHB_TRANS_SEQ resp=AHB_RESP_OKAY wdata=0x5039bb36
# UVM_INFO ../src/slv/ahb_slave_driver.sv(184) @ 1435000: uvm_test_top.env.slave_agent.drv [ahb_slave_driver] Beat AHB_WRITE addr=0x0000a110 resp=AHB_RESP_OKAY waits=0 wdata=0x5039bb36
# UVM_INFO ../src/mst/ahb_master_monitor.sv(128) @ 1435000: uvm_test_top.env.master_agent.mon [ahb_master_monitor] Beat[4] addr=0x0000a110 wdata=0x5039bb36 resp=AHB_RESP_OKAY
# UVM_INFO ../src/mst/ahb_master_driver.sv(332) @ 1455000: uvm_test_top.env.master_agent.drv [ahb_master_driver] Beat[5/16] addr=0x0000a114 trans=AHB_TRANS_SEQ resp=AHB_RESP_OKAY wdata=0xae964621
# UVM_INFO ../src/slv/ahb_slave_driver.sv(184) @ 1455000: uvm_test_top.env.slave_agent.drv [ahb_slave_driver] Beat AHB_WRITE addr=0x0000a114 resp=AHB_RESP_OKAY waits=1 wdata=0xae964621
# UVM_INFO ../src/mst/ahb_master_monitor.sv(128) @ 1455000: uvm_test_top.env.master_agent.mon [ahb_master_monitor] Beat[5] addr=0x0000a114 wdata=0xae964621 resp=AHB_RESP_OKAY
# UVM_INFO ../src/mst/ahb_master_driver.sv(332) @ 1475000: uvm_test_top.env.master_agent.drv [ahb_master_driver] Beat[6/16] addr=0x0000a118 trans=AHB_TRANS_SEQ resp=AHB_RESP_OKAY wdata=0xf5b01168
# UVM_INFO ../src/slv/ahb_slave_driver.sv(184) @ 1475000: uvm_test_top.env.slave_agent.drv [ahb_slave_driver] Beat AHB_WRITE addr=0x0000a118 resp=AHB_RESP_OKAY waits=1 wdata=0xf5b01168
# UVM_INFO ../src/mst/ahb_master_monitor.sv(128) @ 1475000: uvm_test_top.env.master_agent.mon [ahb_master_monitor] Beat[6] addr=0x0000a118 wdata=0xf5b01168 resp=AHB_RESP_OKAY
# UVM_INFO ../src/mst/ahb_master_driver.sv(332) @ 1505000: uvm_test_top.env.master_agent.drv [ahb_master_driver] Beat[7/16] addr=0x0000a11c trans=AHB_TRANS_SEQ resp=AHB_RESP_OKAY wdata=0x2f4912b0
# UVM_INFO ../src/slv/ahb_slave_driver.sv(184) @ 1505000: uvm_test_top.env.slave_agent.drv [ahb_slave_driver] Beat AHB_WRITE addr=0x0000a11c resp=AHB_RESP_OKAY waits=2 wdata=0x2f4912b0
# UVM_INFO ../src/mst/ahb_master_monitor.sv(128) @ 1505000: uvm_test_top.env.master_agent.mon [ahb_master_monitor] Beat[7] addr=0x0000a11c wdata=0x2f4912b0 resp=AHB_RESP_OKAY
# UVM_INFO ../src/mst/ahb_master_driver.sv(332) @ 1515000: uvm_test_top.env.master_agent.drv [ahb_master_driver] Beat[8/16] addr=0x0000a120 trans=AHB_TRANS_SEQ resp=AHB_RESP_OKAY wdata=0x39633bcb
# UVM_INFO ../src/slv/ahb_slave_driver.sv(184) @ 1515000: uvm_test_top.env.slave_agent.drv [ahb_slave_driver] Beat AHB_WRITE addr=0x0000a120 resp=AHB_RESP_OKAY waits=0 wdata=0x39633bcb
# UVM_INFO ../src/mst/ahb_master_monitor.sv(128) @ 1515000: uvm_test_top.env.master_agent.mon [ahb_master_monitor] Beat[8] addr=0x0000a120 wdata=0x39633bcb resp=AHB_RESP_OKAY
# UVM_INFO ../src/mst/ahb_master_driver.sv(332) @ 1545000: uvm_test_top.env.master_agent.drv [ahb_master_driver] Beat[9/16] addr=0x0000a124 trans=AHB_TRANS_SEQ resp=AHB_RESP_OKAY wdata=0x38fa9634
# UVM_INFO ../src/slv/ahb_slave_driver.sv(184) @ 1545000: uvm_test_top.env.slave_agent.drv [ahb_slave_driver] Beat AHB_WRITE addr=0x0000a124 resp=AHB_RESP_OKAY waits=2 wdata=0x38fa9634
# UVM_INFO ../src/mst/ahb_master_monitor.sv(128) @ 1545000: uvm_test_top.env.master_agent.mon [ahb_master_monitor] Beat[9] addr=0x0000a124 wdata=0x38fa9634 resp=AHB_RESP_OKAY
# UVM_INFO ../src/mst/ahb_master_driver.sv(332) @ 1555000: uvm_test_top.env.master_agent.drv [ahb_master_driver] Beat[10/16] addr=0x0000a128 trans=AHB_TRANS_SEQ resp=AHB_RESP_OKAY wdata=0x05c72653
# UVM_INFO ../src/slv/ahb_slave_driver.sv(184) @ 1555000: uvm_test_top.env.slave_agent.drv [ahb_slave_driver] Beat AHB_WRITE addr=0x0000a128 resp=AHB_RESP_OKAY waits=0 wdata=0x05c72653
# UVM_INFO ../src/mst/ahb_master_monitor.sv(128) @ 1555000: uvm_test_top.env.master_agent.mon [ahb_master_monitor] Beat[10] addr=0x0000a128 wdata=0x05c72653 resp=AHB_RESP_OKAY
# UVM_INFO ../src/mst/ahb_master_driver.sv(332) @ 1585000: uvm_test_top.env.master_agent.drv [ahb_master_driver] Beat[11/16] addr=0x0000a12c trans=AHB_TRANS_SEQ resp=AHB_RESP_OKAY wdata=0xbdab3ecb
# UVM_INFO ../src/slv/ahb_slave_driver.sv(184) @ 1585000: uvm_test_top.env.slave_agent.drv [ahb_slave_driver] Beat AHB_WRITE addr=0x0000a12c resp=AHB_RESP_OKAY waits=2 wdata=0xbdab3ecb
# UVM_INFO ../src/mst/ahb_master_monitor.sv(128) @ 1585000: uvm_test_top.env.master_agent.mon [ahb_master_monitor] Beat[11] addr=0x0000a12c wdata=0xbdab3ecb resp=AHB_RESP_OKAY
# UVM_INFO ../src/mst/ahb_master_driver.sv(332) @ 1605000: uvm_test_top.env.master_agent.drv [ahb_master_driver] Beat[12/16] addr=0x0000a130 trans=AHB_TRANS_SEQ resp=AHB_RESP_OKAY wdata=0xda961143
# UVM_INFO ../src/slv/ahb_slave_driver.sv(184) @ 1605000: uvm_test_top.env.slave_agent.drv [ahb_slave_driver] Beat AHB_WRITE addr=0x0000a130 resp=AHB_RESP_OKAY waits=1 wdata=0xda961143
# UVM_INFO ../src/mst/ahb_master_monitor.sv(128) @ 1605000: uvm_test_top.env.master_agent.mon [ahb_master_monitor] Beat[12] addr=0x0000a130 wdata=0xda961143 resp=AHB_RESP_OKAY
# UVM_INFO ../src/mst/ahb_master_driver.sv(332) @ 1615000: uvm_test_top.env.master_agent.drv [ahb_master_driver] Beat[13/16] addr=0x0000a134 trans=AHB_TRANS_SEQ resp=AHB_RESP_OKAY wdata=0x1cf72529
# UVM_INFO ../src/slv/ahb_slave_driver.sv(184) @ 1615000: uvm_test_top.env.slave_agent.drv [ahb_slave_driver] Beat AHB_WRITE addr=0x0000a134 resp=AHB_RESP_OKAY waits=0 wdata=0x1cf72529
# UVM_INFO ../src/mst/ahb_master_monitor.sv(128) @ 1615000: uvm_test_top.env.master_agent.mon [ahb_master_monitor] Beat[13] addr=0x0000a134 wdata=0x1cf72529 resp=AHB_RESP_OKAY
# UVM_INFO ../src/mst/ahb_master_driver.sv(332) @ 1625000: uvm_test_top.env.master_agent.drv [ahb_master_driver] Beat[14/16] addr=0x0000a138 trans=AHB_TRANS_SEQ resp=AHB_RESP_OKAY wdata=0xc2ddc000
# UVM_INFO ../src/slv/ahb_slave_driver.sv(184) @ 1625000: uvm_test_top.env.slave_agent.drv [ahb_slave_driver] Beat AHB_WRITE addr=0x0000a138 resp=AHB_RESP_OKAY waits=0 wdata=0xc2ddc000
# UVM_INFO ../src/mst/ahb_master_monitor.sv(128) @ 1625000: uvm_test_top.env.master_agent.mon [ahb_master_monitor] Beat[14] addr=0x0000a138 wdata=0xc2ddc000 resp=AHB_RESP_OKAY
# UVM_INFO ../src/mst/ahb_master_driver.sv(332) @ 1655000: uvm_test_top.env.master_agent.drv [ahb_master_driver] Beat[15/16] addr=0x0000a13c trans=AHB_TRANS_SEQ resp=AHB_RESP_OKAY wdata=0xb2061d37
# UVM_INFO ../src/mst/ahb_master_driver.sv(376) @ 1655000: uvm_test_top.env.master_agent.drv [ahb_master_driver] Transaction complete: AHB_WRITE 0x0000a100, 16 beats, burst=AHB_BURST_INCR16
# UVM_INFO ../src/slv/ahb_slave_driver.sv(184) @ 1655000: uvm_test_top.env.slave_agent.drv [ahb_slave_driver] Beat AHB_WRITE addr=0x0000a13c resp=AHB_RESP_OKAY waits=2 wdata=0xb2061d37
# UVM_INFO ../src/mst/ahb_master_monitor.sv(128) @ 1655000: uvm_test_top.env.master_agent.mon [ahb_master_monitor] Beat[15] addr=0x0000a13c wdata=0xb2061d37 resp=AHB_RESP_OKAY
# UVM_INFO ../src/mst/ahb_master_monitor.sv(231) @ 1655000: uvm_test_top.env.master_agent.mon [ahb_master_monitor] Observed [AHB_WRITE]: HADDR=0x0000a100, HBURST=AHB_BURST_INCR16, HSIZE=AHB_SIZE_32B, 16 beats
# UVM_INFO ../src/env/ahb_coverage.sv(174) @ 1655000: uvm_test_top.env.master_cov [ahb_coverage] Sampled [AHB_WRITE]: burst=AHB_BURST_INCR16 size=AHB_SIZE_32B beats=16 error=0
# UVM_INFO ../src/slv/ahb_slave_monitor.sv(212) @ 1655000: uvm_test_top.env.slave_agent.mon [ahb_slave_monitor] Observed [AHB_WRITE]: HADDR=0x0000a100, HBURST=AHB_BURST_INCR16, HSIZE=AHB_SIZE_32B, 16 beats
# UVM_INFO ../src/env/ahb_scoreboard.sv(104) @ 1655000: uvm_test_top.env.scb [ahb_scoreboard] MATCH #4: [AHB_WRITE] HADDR=0x0000a100 AHB_BURST_INCR16 16 beats
# UVM_INFO ../src/env/ahb_coverage.sv(174) @ 1655000: uvm_test_top.env.slave_cov [ahb_coverage] Sampled [AHB_WRITE]: burst=AHB_BURST_INCR16 size=AHB_SIZE_32B beats=16 error=0
# UVM_INFO ../src/mst/ahb_master_driver.sv(85) @ 1655000: uvm_test_top.env.master_agent.drv [ahb_master_driver] Queueing [AHB_WRITE]: HADDR=0x0000a140, HBURST=AHB_BURST_INCR16, HSIZE=AHB_SIZE_32B, 16 beats
# UVM_INFO ../src/mst/ahb_master_driver.sv(127) @ 1655000: uvm_test_top.env.master_agent.drv [ahb_master_driver] Driving [AHB_WRITE]: HADDR=0x0000a140, HBURST=AHB_BURST_INCR16, HSIZE=AHB_SIZE_32B, 16 beats               
# UVM_INFO ../src/mst/ahb_master_driver.sv(332) @ 1685000: uvm_test_top.env.master_agent.drv [ahb_master_driver] Beat[0/16] addr=0x0000a140 trans=AHB_TRANS_NONSEQ resp=AHB_RESP_OKAY wdata=0x723ff14b
# UVM_INFO ../src/slv/ahb_slave_driver.sv(184) @ 1685000: uvm_test_top.env.slave_agent.drv [ahb_slave_driver] Beat AHB_WRITE addr=0x0000a140 resp=AHB_RESP_OKAY waits=0 wdata=0x723ff14b
# UVM_INFO ../src/mst/ahb_master_monitor.sv(128) @ 1685000: uvm_test_top.env.master_agent.mon [ahb_master_monitor] Beat[0] addr=0x0000a140 wdata=0x723ff14b resp=AHB_RESP_OKAY
# UVM_INFO ../src/mst/ahb_master_driver.sv(332) @ 1715000: uvm_test_top.env.master_agent.drv [ahb_master_driver] Beat[1/16] addr=0x0000a144 trans=AHB_TRANS_SEQ resp=AHB_RESP_OKAY wdata=0x66d484f7
# UVM_INFO ../src/slv/ahb_slave_driver.sv(184) @ 1715000: uvm_test_top.env.slave_agent.drv [ahb_slave_driver] Beat AHB_WRITE addr=0x0000a144 resp=AHB_RESP_OKAY waits=2 wdata=0x66d484f7
# UVM_INFO ../src/mst/ahb_master_monitor.sv(128) @ 1715000: uvm_test_top.env.master_agent.mon [ahb_master_monitor] Beat[1] addr=0x0000a144 wdata=0x66d484f7 resp=AHB_RESP_OKAY
# UVM_INFO ../src/mst_seq/ahb_reset_seq.sv(85) @ 1737000: uvm_test_top.env.master_agent.sqr@@seq [ahb_reset_seq] Asserting reset 82 ns into burst 5
# UVM_INFO ../src/tb_top.sv(59) @ 1737000: reporter [TB_TOP] Mid-sim reset requested - asserting rst_n
# UVM_INFO ../src/slv/ahb_slave_monitor.sv(85) @ 1737000: uvm_test_top.env.slave_agent.mon [ahb_slave_monitor] Reset asserted - discarding partial transaction
# UVM_INFO ../src/slv/ahb_slave_monitor.sv(242) @ 1737000: uvm_test_top.env.slave_agent.mon [ahb_slave_monitor] Discarding partial burst at reset (3 beats accepted)
# UVM_INFO ../src/mst/ahb_master_monitor.sv(88) @ 1737000: uvm_test_top.env.master_agent.mon [ahb_master_monitor] Reset asserted - discarding partial transaction
# UVM_INFO ../src/mst/ahb_master_monitor.sv(260) @ 1737000: uvm_test_top.env.master_agent.mon [ahb_master_monitor] Discarding partial burst at reset (3 beats accepted)
# UVM_INFO ../src/mst/ahb_master_driver.sv(97) @ 1737000: uvm_test_top.env.master_agent.drv [ahb_master_driver] Reset asserted - aborting transaction
# UVM_INFO ../src/slv/ahb_slave_driver.sv(69) @ 1737000: uvm_test_top.env.slave_agent.drv [ahb_slave_driver] Reset asserted - slave driver idle
# UVM_INFO ../src/mst/ahb_master_driver.sv(183) @ 1745000: uvm_test_top.env.master_agent.drv [ahb_master_driver] Flushed pending transactions (reset)
# UVM_INFO ../src/mst_seq/ahb_base_seq.sv(51) @ 1745000: uvm_test_top.env.master_agent.sqr@@seq [ahb_reset_seq] Transaction aborted by reset: AHB_WRITE 0x0000a140
# UVM_INFO ../src/tb_top.sv(63) @ 1815000: reporter [TB_TOP] Mid-sim reset pulse complete - rst_n deasserted
# UVM_INFO ../src/slv/ahb_slave_driver.sv(63) @ 1815000: uvm_test_top.env.slave_agent.drv [ahb_slave_driver] Reset deasserted - slave driver active (    auto mode)
# UVM_INFO ../src/mst/ahb_master_driver.sv(72) @ 1815000: uvm_test_top.env.master_agent.drv [ahb_master_driver] Reset deasserted - master driver active
# UVM_INFO ../src/mst/ahb_master_monitor.sv(81) @ 1815000: uvm_test_top.env.master_agent.mon [ahb_master_monitor] Reset deasserted - master monitor active
# UVM_INFO ../src/slv/ahb_slave_monitor.sv(79) @ 1815000: uvm_test_top.env.slave_agent.mon [ahb_slave_monitor] Reset deasserted - slave monitor active
# UVM_INFO ../src/mst/ahb_master_driver.sv(85) @ 1815000: uvm_test_top.env.master_agent.drv [ahb_master_driver] Queueing [AHB_WRITE]: HADDR=0x0000a180, HBURST=AHB_BURST_INCR16, HSIZE=AHB_SIZE_32B, 16 beats
# UVM_INFO ../src/mst/ahb_master_driver.sv(127) @ 1815000: uvm_test_top.env.master_agent.drv [ahb_master_driver] Driving [AHB_WRITE]: HADDR=0x0000a180, HBURST=AHB_BURST_INCR16, HSIZE=AHB_SIZE_32B, 16 beats               
# UVM_INFO ../src/mst/ahb_master_driver.sv(332) @ 1835000: uvm_test_top.env.master_agent.drv [ahb_master_driver] Beat[0/16] addr=0x0000a180 trans=AHB_TRANS_NONSEQ resp=AHB_RESP_OKAY wdata=0x767567a6
# UVM_INFO ../src/slv/ahb_slave_driver.sv(184) @ 1835000: uvm_test_top.env.slave_agent.drv [ahb_slave_driver] Beat AHB_WRITE addr=0x0000a180 resp=AHB_RESP_OKAY waits=0 wdata=0x767567a6
# UVM_INFO ../src/mst/ahb_master_monitor.sv(128) @ 1835000: uvm_test_top.env.master_agent.mon [ahb_master_monitor] Beat[0] addr=0x0000a180 wdata=0x767567a6 resp=AHB_RESP_OKAY
# UVM_INFO ../src/mst/ahb_master_driver.sv(332) @ 1855000: uvm_test_top.env.master_agent.drv [ahb_master_driver] Beat[1/16] addr=0x0000a184 trans=AHB_TRANS_SEQ resp=AHB_RESP_OKAY wdata=0x9061eaa0
# UVM_INFO ../src/slv/ahb_slave_driver.sv(184) @ 1855000: uvm_test_top.env.slave_agent.drv [ahb_slave_driver] Beat AHB_WRITE addr=0x0000a184 resp=AHB_RESP_OKAY waits=1 wdata=0x9061eaa0
# UVM_INFO ../src/mst/ahb_master_monitor.sv(128) @ 1855000: uvm_test_top.env.master_agent.mon [ahb_master_monitor] Beat[1] addr=0x0000a184 wdata=0x9061eaa0 resp=AHB_RESP_OKAY
# UVM_INFO ../src/mst/ahb_master_driver.sv(332) @ 1885000: uvm_test_top.env.master_agent.drv [ahb_master_driver] Beat[2/16] addr=0x0000a188 trans=AHB_TRANS_SEQ resp=AHB_RESP_OKAY wdata=0x472bb134
# UVM_INFO ../src/slv/ahb_slave_driver.sv(184) @ 1885000: uvm_test_top.env.slave_agent.drv [ahb_slave_driver] Beat AHB_WRITE addr=0x0000a188 resp=AHB_RESP_OKAY waits=2 wdata=0x472bb134
# UVM_INFO ../src/mst/ahb_master_monitor.sv(128) @ 1885000: uvm_test_top.env.master_agent.mon [ahb_master_monitor] Beat[2] addr=0x0000a188 wdata=0x472bb134 resp=AHB_RESP_OKAY
# UVM_INFO ../src/mst/ahb_master_driver.sv(332) @ 1905000: uvm_test_top.env.master_agent.drv [ahb_master_driver] Beat[3/16] addr=0x0000a18c trans=AHB_TRANS_SEQ resp=AHB_RESP_OKAY wdata=0x89da065a
# UVM_INFO ../src/slv/ahb_slave_driver.sv(184) @ 1905000: uvm_test_top.env.slave_agent.drv [ahb_slave_driver] Beat AHB_WRITE addr=0x0000a18c resp=AHB_RESP_OKAY waits=1 wdata=0x89da065a
# UVM_INFO ../src/mst/ahb_master_monitor.sv(128) @ 1905000: uvm_test_top.env.master_agent.mon [ahb_master_monitor] Beat[3] addr=0x0000a18c wdata=0x89da065a resp=AHB_RESP_OKAY
# UVM_INFO ../src/mst/ahb_master_driver.sv(332) @ 1935000: uvm_test_top.env.master_agent.drv [ahb_master_driver] Beat[4/16] addr=0x0000a190 trans=AHB_TRANS_SEQ resp=AHB_RESP_OKAY wdata=0xb75928a7
# UVM_INFO ../src/slv/ahb_slave_driver.sv(184) @ 1935000: uvm_test_top.env.slave_agent.drv [ahb_slave_driver] Beat AHB_WRITE addr=0x0000a190 resp=AHB_RESP_OKAY waits=2 wdata=0xb75928a7
# UVM_INFO ../src/mst/ahb_master_monitor.sv(128) @ 1935000: uvm_test_top.env.master_agent.mon [ahb_master_monitor] Beat[4] addr=0x0000a190 wdata=0xb75928a7 resp=AHB_RESP_OKAY
# UVM_INFO ../src/mst/ahb_master_driver.sv(332) @ 1955000: uvm_test_top.env.master_agent.drv [ahb_master_driver] Beat[5/16] addr=0x0000a194 trans=AHB_TRANS_SEQ resp=AHB_RESP_OKAY wdata=0x406dbb90
# UVM_INFO ../src/slv/ahb_slave_driver.sv(184) @ 1955000: uvm_test_top.env.slave_agent.drv [ahb_slave_driver] Beat AHB_WRITE addr=0x0000a194 resp=AHB_RESP_OKAY waits=1 wdata=0x406dbb90
# UVM_INFO ../src/mst/ahb_master_monitor.sv(128) @ 1955000: uvm_test_top.env.master_agent.mon [ahb_master_monitor] Beat[5] addr=0x0000a194 wdata=0x406dbb90 resp=AHB_RESP_OKAY
# UVM_INFO ../src/mst/ahb_master_driver.sv(332) @ 1985000: uvm_test_top.env.master_agent.drv [ahb_master_driver] Beat[6/16] addr=0x0000a198 trans=AHB_TRANS_SEQ resp=AHB_RESP_OKAY wdata=0xbed3a0ca
# UVM_INFO ../src/slv/ahb_slave_driver.sv(184) @ 1985000: uvm_test_top.env.slave_agent.drv [ahb_slave_driver] Beat AHB_WRITE addr=0x0000a198 resp=AHB_RESP_OKAY waits=2 wdata=0xbed3a0ca
# UVM_INFO ../src/mst/ahb_master_monitor.sv(128) @ 1985000: uvm_test_top.env.master_agent.mon [ahb_master_monitor] Beat[6] addr=0x0000a198 wdata=0xbed3a0ca resp=AHB_RESP_OKAY
# UVM_INFO ../src/mst/ahb_master_driver.sv(332) @ 2005000: uvm_test_top.env.master_agent.drv [ahb_master_driver] Beat[7/16] addr=0x0000a19c trans=AHB_TRANS_SEQ resp=AHB_RESP_OKAY wdata=0xfd47a190
# UVM_INFO ../src/slv/ahb_slave_driver.sv(184) @ 2005000: uvm_test_top.env.slave_agent.drv [ahb_slave_driver] Beat AHB_WRITE addr=0x0000a19c resp=AHB_RESP_OKAY waits=1 wdata=0xfd47a190
# UVM_INFO ../src/mst/ahb_master_monitor.sv(128) @ 2005000: uvm_test_top.env.master_agent.mon [ahb_master_monitor] Beat[7] addr=0x0000a19c wdata=0xfd47a190 resp=AHB_RESP_OKAY
# UVM_INFO ../src/mst/ahb_master_driver.sv(332) @ 2035000: uvm_test_top.env.master_agent.drv [ahb_master_driver] Beat[8/16] addr=0x0000a1a0 trans=AHB_TRANS_SEQ resp=AHB_RESP_OKAY wdata=0x3fa3f2bf
# UVM_INFO ../src/slv/ahb_slave_driver.sv(184) @ 2035000: uvm_test_top.env.slave_agent.drv [ahb_slave_driver] Beat AHB_WRITE addr=0x0000a1a0 resp=AHB_RESP_OKAY waits=2 wdata=0x3fa3f2bf
# UVM_INFO ../src/mst/ahb_master_monitor.sv(128) @ 2035000: uvm_test_top.env.master_agent.mon [ahb_master_monitor] Beat[8] addr=0x0000a1a0 wdata=0x3fa3f2bf resp=AHB_RESP_OKAY
# UVM_INFO ../src/mst/ahb_master_driver.sv(332) @ 2065000: uvm_test_top.env.master_agent.drv [ahb_master_driver] Beat[9/16] addr=0x0000a1a4 trans=AHB_TRANS_SEQ resp=AHB_RESP_OKAY wdata=0xe949dc21
# UVM_INFO ../src/slv/ahb_slave_driver.sv(184) @ 2065000: uvm_test_top.env.slave_agent.drv [ahb_slave_driver] Beat AHB_WRITE addr=0x0000a1a4 resp=AHB_RESP_OKAY waits=2 wdata=0xe949dc21
# UVM_INFO ../src/mst/ahb_master_monitor.sv(128) @ 2065000: uvm_test_top.env.master_agent.mon [ahb_master_monitor] Beat[9] addr=0x0000a1a4 wdata=0xe949dc21 resp=AHB_RESP_OKAY
# UVM_INFO ../src/mst/ahb_master_driver.sv(332) @ 2085000: uvm_test_top.env.master_agent.drv [ahb_master_driver] Beat[10/16] addr=0x0000a1a8 trans=AHB_TRANS_SEQ resp=AHB_RESP_OKAY wdata=0xd9600784
# UVM_INFO ../src/slv/ahb_slave_driver.sv(184) @ 2085000: uvm_test_top.env.slave_agent.drv [ahb_slave_driver] Beat AHB_WRITE addr=0x0000a1a8 resp=AHB_RESP_OKAY waits=1 wdata=0xd9600784
# UVM_INFO ../src/mst/ahb_master_monitor.sv(128) @ 2085000: uvm_test_top.env.master_agent.mon [ahb_master_monitor] Beat[10] addr=0x0000a1a8 wdata=0xd9600784 resp=AHB_RESP_OKAY
# UVM_INFO ../src/mst/ahb_master_driver.sv(332) @ 2105000: uvm_test_top.env.master_agent.drv [ahb_master_driver] Beat[11/16] addr=0x0000a1ac trans=AHB_TRANS_SEQ resp=AHB_RESP_OKAY wdata=0x707bee98
# UVM_INFO ../src/slv/ahb_slave_driver.sv(184) @ 2105000: uvm_test_top.env.slave_agent.drv [ahb_slave_driver] Beat AHB_WRITE addr=0x0000a1ac resp=AHB_RESP_OKAY waits=1 wdata=0x707bee98
# UVM_INFO ../src/mst/ahb_master_monitor.sv(128) @ 2105000: uvm_test_top.env.master_agent.mon [ahb_master_monitor] Beat[11] addr=0x0000a1ac wdata=0x707bee98 resp=AHB_RESP_OKAY
# UVM_INFO ../src/mst/ahb_master_driver.sv(332) @ 2135000: uvm_test_top.env.master_agent.drv [ahb_master_driver] Beat[12/16] addr=0x0000a1b0 trans=AHB_TRANS_SEQ resp=AHB_RESP_OKAY wdata=0x4a75d59c
# UVM_INFO ../src/slv/ahb_slave_driver.sv(184) @ 2135000: uvm_test_top.env.slave_agent.drv [ahb_slave_driver] Beat AHB_WRITE addr=0x0000a1b0 resp=AHB_RESP_OKAY waits=2 wdata=0x4a75d59c
# UVM_INFO ../src/mst/ahb_master_monitor.sv(128) @ 2135000: uvm_test_top.env.master_agent.mon [ahb_master_monitor] Beat[12] addr=0x0000a1b0 wdata=0x4a75d59c resp=AHB_RESP_OKAY
# UVM_INFO ../src/mst/ahb_master_driver.sv(332) @ 2165000: uvm_test_top.env.master_agent.drv [ahb_master_driver] Beat[13/16] addr=0x0000a1b4 trans=AHB_TRANS_SEQ resp=AHB_RESP_OKAY wdata=0x30a07f18
# UVM_INFO ../src/slv/ahb_slave_driver.sv(184) @ 2165000: uvm_test_top.env.slave_agent.drv [ahb_slave_driver] Beat AHB_WRITE addr=0x0000a1b4 resp=AHB_RESP_OKAY waits=2 wdata=0x30a07f18
# UVM_INFO ../src/mst/ahb_master_monitor.sv(128) @ 2165000: uvm_test_top.env.master_agent.mon [ahb_master_monitor] Beat[13] addr=0x0000a1b4 wdata=0x30a07f18 resp=AHB_RESP_OKAY
# UVM_INFO ../src/mst/ahb_master_driver.sv(332) @ 2175000: uvm_test_top.env.master_agent.drv [ahb_master_driver] Beat[14/16] addr=0x0000a1b8 trans=AHB_TRANS_SEQ resp=AHB_RESP_OKAY wdata=0xcbb79f36
# UVM_INFO ../src/slv/ahb_slave_driver.sv(184) @ 2175000: uvm_test_top.env.slave_agent.drv [ahb_slave_driver] Beat AHB_WRITE addr=0x0000a1b8 resp=AHB_RESP_OKAY waits=0 wdata=0xcbb79f36
# UVM_INFO ../src/mst/ahb_master_monitor.sv(128) @ 2175000: uvm_test_top.env.master_agent.mon [ahb_master_monitor] Beat[14] addr=0x0000a1b8 wdata=0xcbb79f36 resp=AHB_RESP_OKAY
# UVM_INFO ../src/mst/ahb_master_driver.sv(332) @ 2195000: uvm_test_top.env.master_agent.drv [ahb_master_driver] Beat[15/16] addr=0x0000a1bc trans=AHB_TRANS_SEQ resp=AHB_RESP_OKAY wdata=0x06e98c8b
# UVM_INFO ../src/mst/ahb_master_driver.sv(376) @ 2195000: uvm_test_top.env.master_agent.drv [ahb_master_driver] Transaction complete: AHB_WRITE 0x0000a180, 16 beats, burst=AHB_BURST_INCR16
# UVM_INFO ../src/slv/ahb_slave_driver.sv(184) @ 2195000: uvm_test_top.env.slave_agent.drv [ahb_slave_driver] Beat AHB_WRITE addr=0x0000a1bc resp=AHB_RESP_OKAY waits=1 wdata=0x06e98c8b
# UVM_INFO ../src/slv/ahb_slave_monitor.sv(212) @ 2195000: uvm_test_top.env.slave_agent.mon [ahb_slave_monitor] Observed [AHB_WRITE]: HADDR=0x0000a180, HBURST=AHB_BURST_INCR16, HSIZE=AHB_SIZE_32B, 16 beats
# UVM_INFO ../src/env/ahb_coverage.sv(174) @ 2195000: uvm_test_top.env.slave_cov [ahb_coverage] Sampled [AHB_WRITE]: burst=AHB_BURST_INCR16 size=AHB_SIZE_32B beats=16 error=0
# UVM_INFO ../src/mst/ahb_master_monitor.sv(128) @ 2195000: uvm_test_top.env.master_agent.mon [ahb_master_monitor] Beat[15] addr=0x0000a1bc wdata=0x06e98c8b resp=AHB_RESP_OKAY
# UVM_INFO ../src/mst/ahb_master_monitor.sv(231) @ 2195000: uvm_test_top.env.master_agent.mon [ahb_master_monitor] Observed [AHB_WRITE]: HADDR=0x0000a180, HBURST=AHB_BURST_INCR16, HSIZE=AHB_SIZE_32B, 16 beats
# UVM_INFO ../src/env/ahb_coverage.sv(174) @ 2195000: uvm_test_top.env.master_cov [ahb_coverage] Sampled [AHB_WRITE]: burst=AHB_BURST_INCR16 size=AHB_SIZE_32B beats=16 error=0
# UVM_INFO ../src/env/ahb_scoreboard.sv(104) @ 2195000: uvm_test_top.env.scb [ahb_scoreboard] MATCH #5: [AHB_WRITE] HADDR=0x0000a180 AHB_BURST_INCR16 16 beats
# UVM_INFO ../src/mst/ahb_master_driver.sv(85) @ 2195000: uvm_test_top.env.master_agent.drv [ahb_master_driver] Queueing [AHB_WRITE]: HADDR=0x0000a1c0, HBURST=AHB_BURST_INCR16, HSIZE=AHB_SIZE_32B, 16 beats
# UVM_INFO ../src/mst/ahb_master_driver.sv(127) @ 2195000: uvm_test_top.env.master_agent.drv [ahb_master_driver] Driving [AHB_WRITE]: HADDR=0x0000a1c0, HBURST=AHB_BURST_INCR16, HSIZE=AHB_SIZE_32B, 16 beats               
# UVM_INFO ../src/mst/ahb_master_driver.sv(332) @ 2225000: uvm_test_top.env.master_agent.drv [ahb_master_driver] Beat[0/16] addr=0x0000a1c0 trans=AHB_TRANS_NONSEQ resp=AHB_RESP_OKAY wdata=0x62479547
# UVM_INFO ../src/slv/ahb_slave_driver.sv(184) @ 2225000: uvm_test_top.env.slave_agent.drv [ahb_slave_driver] Beat AHB_WRITE addr=0x0000a1c0 resp=AHB_RESP_OKAY waits=0 wdata=0x62479547
# UVM_INFO ../src/mst/ahb_master_monitor.sv(128) @ 2225000: uvm_test_top.env.master_agent.mon [ahb_master_monitor] Beat[0] addr=0x0000a1c0 wdata=0x62479547 resp=AHB_RESP_OKAY
# UVM_INFO ../src/mst/ahb_master_driver.sv(332) @ 2235000: uvm_test_top.env.master_agent.drv [ahb_master_driver] Beat[1/16] addr=0x0000a1c4 trans=AHB_TRANS_SEQ resp=AHB_RESP_OKAY wdata=0xbf47f2e2
# UVM_INFO ../src/slv/ahb_slave_driver.sv(184) @ 2235000: uvm_test_top.env.slave_agent.drv [ahb_slave_driver] Beat AHB_WRITE addr=0x0000a1c4 resp=AHB_RESP_OKAY waits=0 wdata=0xbf47f2e2
# UVM_INFO ../src/mst/ahb_master_monitor.sv(128) @ 2235000: uvm_test_top.env.master_agent.mon [ahb_master_monitor] Beat[1] addr=0x0000a1c4 wdata=0xbf47f2e2 resp=AHB_RESP_OKAY
# UVM_INFO ../src/mst/ahb_master_driver.sv(332) @ 2245000: uvm_test_top.env.master_agent.drv [ahb_master_driver] Beat[2/16] addr=0x0000a1c8 trans=AHB_TRANS_SEQ resp=AHB_RESP_OKAY wdata=0x86c9f349
# UVM_INFO ../src/slv/ahb_slave_driver.sv(184) @ 2245000: uvm_test_top.env.slave_agent.drv [ahb_slave_driver] Beat AHB_WRITE addr=0x0000a1c8 resp=AHB_RESP_OKAY waits=0 wdata=0x86c9f349
# UVM_INFO ../src/mst/ahb_master_monitor.sv(128) @ 2245000: uvm_test_top.env.master_agent.mon [ahb_master_monitor] Beat[2] addr=0x0000a1c8 wdata=0x86c9f349 resp=AHB_RESP_OKAY
# UVM_INFO ../src/mst/ahb_master_driver.sv(332) @ 2255000: uvm_test_top.env.master_agent.drv [ahb_master_driver] Beat[3/16] addr=0x0000a1cc trans=AHB_TRANS_SEQ resp=AHB_RESP_OKAY wdata=0x1f2ff5a2
# UVM_INFO ../src/slv/ahb_slave_driver.sv(184) @ 2255000: uvm_test_top.env.slave_agent.drv [ahb_slave_driver] Beat AHB_WRITE addr=0x0000a1cc resp=AHB_RESP_OKAY waits=0 wdata=0x1f2ff5a2
# UVM_INFO ../src/mst/ahb_master_monitor.sv(128) @ 2255000: uvm_test_top.env.master_agent.mon [ahb_master_monitor] Beat[3] addr=0x0000a1cc wdata=0x1f2ff5a2 resp=AHB_RESP_OKAY
# UVM_INFO ../src/mst/ahb_master_driver.sv(332) @ 2265000: uvm_test_top.env.master_agent.drv [ahb_master_driver] Beat[4/16] addr=0x0000a1d0 trans=AHB_TRANS_SEQ resp=AHB_RESP_OKAY wdata=0xfd4c0b21
# UVM_INFO ../src/slv/ahb_slave_driver.sv(184) @ 2265000: uvm_test_top.env.slave_agent.drv [ahb_slave_driver] Beat AHB_WRITE addr=0x0000a1d0 resp=AHB_RESP_OKAY waits=0 wdata=0xfd4c0b21
# UVM_INFO ../src/mst/ahb_master_monitor.sv(128) @ 2265000: uvm_test_top.env.master_agent.mon [ahb_master_monitor] Beat[4] addr=0x0000a1d0 wdata=0xfd4c0b21 resp=AHB_RESP_OKAY
# UVM_INFO ../src/mst/ahb_master_driver.sv(332) @ 2285000: uvm_test_top.env.master_agent.drv [ahb_master_driver] Beat[5/16] addr=0x0000a1d4 trans=AHB_TRANS_SEQ resp=AHB_RESP_OKAY wdata=0x00715ef9
# UVM_INFO ../src/slv/ahb_slave_driver.sv(184) @ 2285000: uvm_test_top.env.slave_agent.drv [ahb_slave_driver] Beat AHB_WRITE addr=0x0000a1d4 resp=AHB_RESP_OKAY waits=1 wdata=0x00715ef9
# UVM_INFO ../src/mst/ahb_master_monitor.sv(128) @ 2285000: uvm_test_top.env.master_agent.mon [ahb_master_monitor] Beat[5] addr=0x0000a1d4 wdata=0x00715ef9 resp=AHB_RESP_OKAY
# UVM_INFO ../src/mst/ahb_master_driver.sv(332) @ 2315000: uvm_test_top.env.master_agent.drv [ahb_master_driver] Beat[6/16] addr=0x0000a1d8 trans=AHB_TRANS_SEQ resp=AHB_RESP_OKAY wdata=0x92681f6a
# UVM_INFO ../src/slv/ahb_slave_driver.sv(184) @ 2315000: uvm_test_top.env.slave_agent.drv [ahb_slave_driver] Beat AHB_WRITE addr=0x0000a1d8 resp=AHB_RESP_OKAY waits=2 wdata=0x92681f6a
# UVM_INFO ../src/mst/ahb_master_monitor.sv(128) @ 2315000: uvm_test_top.env.master_agent.mon [ahb_master_monitor] Beat[6] addr=0x0000a1d8 wdata=0x92681f6a resp=AHB_RESP_OKAY
# UVM_INFO ../src/mst/ahb_master_driver.sv(332) @ 2345000: uvm_test_top.env.master_agent.drv [ahb_master_driver] Beat[7/16] addr=0x0000a1dc trans=AHB_TRANS_SEQ resp=AHB_RESP_OKAY wdata=0xc2fea352
# UVM_INFO ../src/slv/ahb_slave_driver.sv(184) @ 2345000: uvm_test_top.env.slave_agent.drv [ahb_slave_driver] Beat AHB_WRITE addr=0x0000a1dc resp=AHB_RESP_OKAY waits=2 wdata=0xc2fea352
# UVM_INFO ../src/mst/ahb_master_monitor.sv(128) @ 2345000: uvm_test_top.env.master_agent.mon [ahb_master_monitor] Beat[7] addr=0x0000a1dc wdata=0xc2fea352 resp=AHB_RESP_OKAY
# UVM_INFO ../src/mst/ahb_master_driver.sv(332) @ 2365000: uvm_test_top.env.master_agent.drv [ahb_master_driver] Beat[8/16] addr=0x0000a1e0 trans=AHB_TRANS_SEQ resp=AHB_RESP_OKAY wdata=0x71970d17
# UVM_INFO ../src/slv/ahb_slave_driver.sv(184) @ 2365000: uvm_test_top.env.slave_agent.drv [ahb_slave_driver] Beat AHB_WRITE addr=0x0000a1e0 resp=AHB_RESP_OKAY waits=1 wdata=0x71970d17
# UVM_INFO ../src/mst/ahb_master_monitor.sv(128) @ 2365000: uvm_test_top.env.master_agent.mon [ahb_master_monitor] Beat[8] addr=0x0000a1e0 wdata=0x71970d17 resp=AHB_RESP_OKAY
# UVM_INFO ../src/mst/ahb_master_driver.sv(332) @ 2395000: uvm_test_top.env.master_agent.drv [ahb_master_driver] Beat[9/16] addr=0x0000a1e4 trans=AHB_TRANS_SEQ resp=AHB_RESP_OKAY wdata=0x65588b13
# UVM_INFO ../src/slv/ahb_slave_driver.sv(184) @ 2395000: uvm_test_top.env.slave_agent.drv [ahb_slave_driver] Beat AHB_WRITE addr=0x0000a1e4 resp=AHB_RESP_OKAY waits=2 wdata=0x65588b13
# UVM_INFO ../src/mst/ahb_master_monitor.sv(128) @ 2395000: uvm_test_top.env.master_agent.mon [ahb_master_monitor] Beat[9] addr=0x0000a1e4 wdata=0x65588b13 resp=AHB_RESP_OKAY
# UVM_INFO ../src/mst/ahb_master_driver.sv(332) @ 2425000: uvm_test_top.env.master_agent.drv [ahb_master_driver] Beat[10/16] addr=0x0000a1e8 trans=AHB_TRANS_SEQ resp=AHB_RESP_OKAY wdata=0xaa43de08
# UVM_INFO ../src/slv/ahb_slave_driver.sv(184) @ 2425000: uvm_test_top.env.slave_agent.drv [ahb_slave_driver] Beat AHB_WRITE addr=0x0000a1e8 resp=AHB_RESP_OKAY waits=2 wdata=0xaa43de08
# UVM_INFO ../src/mst/ahb_master_monitor.sv(128) @ 2425000: uvm_test_top.env.master_agent.mon [ahb_master_monitor] Beat[10] addr=0x0000a1e8 wdata=0xaa43de08 resp=AHB_RESP_OKAY
# UVM_INFO ../src/mst/ahb_master_driver.sv(332) @ 2445000: uvm_test_top.env.master_agent.drv [ahb_master_driver] Beat[11/16] addr=0x0000a1ec trans=AHB_TRANS_SEQ resp=AHB_RESP_OKAY wdata=0x0769c8d2
# UVM_INFO ../src/slv/ahb_slave_driver.sv(184) @ 2445000: uvm_test_top.env.slave_agent.drv [ahb_slave_driver] Beat AHB_WRITE addr=0x0000a1ec resp=AHB_RESP_OKAY waits=1 wdata=0x0769c8d2
# UVM_INFO ../src/mst/ahb_master_monitor.sv(128) @ 2445000: uvm_test_top.env.master_agent.mon [ahb_master_monitor] Beat[11] addr=0x0000a1ec wdata=0x0769c8d2 resp=AHB_RESP_OKAY
# UVM_INFO ../src/mst/ahb_master_driver.sv(332) @ 2475000: uvm_test_top.env.master_agent.drv [ahb_master_driver] Beat[12/16] addr=0x0000a1f0 trans=AHB_TRANS_SEQ resp=AHB_RESP_OKAY wdata=0xe5cf446a
# UVM_INFO ../src/slv/ahb_slave_driver.sv(184) @ 2475000: uvm_test_top.env.slave_agent.drv [ahb_slave_driver] Beat AHB_WRITE addr=0x0000a1f0 resp=AHB_RESP_OKAY waits=2 wdata=0xe5cf446a
# UVM_INFO ../src/mst/ahb_master_monitor.sv(128) @ 2475000: uvm_test_top.env.master_agent.mon [ahb_master_monitor] Beat[12] addr=0x0000a1f0 wdata=0xe5cf446a resp=AHB_RESP_OKAY
# UVM_INFO ../src/mst/ahb_master_driver.sv(332) @ 2505000: uvm_test_top.env.master_agent.drv [ahb_master_driver] Beat[13/16] addr=0x0000a1f4 trans=AHB_TRANS_SEQ resp=AHB_RESP_OKAY wdata=0x3d65fabd
# UVM_INFO ../src/slv/ahb_slave_driver.sv(184) @ 2505000: uvm_test_top.env.slave_agent.drv [ahb_slave_driver] Beat AHB_WRITE addr=0x0000a1f4 resp=AHB_RESP_OKAY waits=2 wdata=0x3d65fabd
# UVM_INFO ../src/mst/ahb_master_monitor.sv(128) @ 2505000: uvm_test_top.env.master_agent.mon [ahb_master_monitor] Beat[13] addr=0x0000a1f4 wdata=0x3d65fabd resp=AHB_RESP_OKAY
# UVM_INFO ../src/mst/ahb_master_driver.sv(332) @ 2525000: uvm_test_top.env.master_agent.drv [ahb_master_driver] Beat[14/16] addr=0x0000a1f8 trans=AHB_TRANS_SEQ resp=AHB_RESP_OKAY wdata=0x95f9a678
# UVM_INFO ../src/slv/ahb_slave_driver.sv(184) @ 2525000: uvm_test_top.env.slave_agent.drv [ahb_slave_driver] Beat AHB_WRITE addr=0x0000a1f8 resp=AHB_RESP_OKAY waits=1 wdata=0x95f9a678
# UVM_INFO ../src/mst/ahb_master_monitor.sv(128) @ 2525000: uvm_test_top.env.master_agent.mon [ahb_master_monitor] Beat[14] addr=0x0000a1f8 wdata=0x95f9a678 resp=AHB_RESP_OKAY
# UVM_INFO ../src/mst/ahb_master_driver.sv(332) @ 2535000: uvm_test_top.env.master_agent.drv [ahb_master_driver] Beat[15/16] addr=0x0000a1fc trans=AHB_TRANS_SEQ resp=AHB_RESP_OKAY wdata=0x6f4e3600
# UVM_INFO ../src/mst/ahb_master_driver.sv(376) @ 2535000: uvm_test_top.env.master_agent.drv [ahb_master_driver] Transaction complete: AHB_WRITE 0x0000a1c0, 16 beats, burst=AHB_BURST_INCR16
# UVM_INFO ../src/slv/ahb_slave_driver.sv(184) @ 2535000: uvm_test_top.env.slave_agent.drv [ahb_slave_driver] Beat AHB_WRITE addr=0x0000a1fc resp=AHB_RESP_OKAY waits=0 wdata=0x6f4e3600
# UVM_INFO ../src/slv/ahb_slave_monitor.sv(212) @ 2535000: uvm_test_top.env.slave_agent.mon [ahb_slave_monitor] Observed [AHB_WRITE]: HADDR=0x0000a1c0, HBURST=AHB_BURST_INCR16, HSIZE=AHB_SIZE_32B, 16 beats
# UVM_INFO ../src/env/ahb_coverage.sv(174) @ 2535000: uvm_test_top.env.slave_cov [ahb_coverage] Sampled [AHB_WRITE]: burst=AHB_BURST_INCR16 size=AHB_SIZE_32B beats=16 error=0
# UVM_INFO ../src/mst/ahb_master_monitor.sv(128) @ 2535000: uvm_test_top.env.master_agent.mon [ahb_master_monitor] Beat[15] addr=0x0000a1fc wdata=0x6f4e3600 resp=AHB_RESP_OKAY
# UVM_INFO ../src/mst/ahb_master_monitor.sv(231) @ 2535000: uvm_test_top.env.master_agent.mon [ahb_master_monitor] Observed [AHB_WRITE]: HADDR=0x0000a1c0, HBURST=AHB_BURST_INCR16, HSIZE=AHB_SIZE_32B, 16 beats
# UVM_INFO ../src/env/ahb_coverage.sv(174) @ 2535000: uvm_test_top.env.master_cov [ahb_coverage] Sampled [AHB_WRITE]: burst=AHB_BURST_INCR16 size=AHB_SIZE_32B beats=16 error=0
# UVM_INFO ../src/env/ahb_scoreboard.sv(104) @ 2535000: uvm_test_top.env.scb [ahb_scoreboard] MATCH #6: [AHB_WRITE] HADDR=0x0000a1c0 AHB_BURST_INCR16 16 beats
# UVM_INFO ../src/mst/ahb_master_driver.sv(85) @ 2535000: uvm_test_top.env.master_agent.drv [ahb_master_driver] Queueing [AHB_WRITE]: HADDR=0x0000a200, HBURST=AHB_BURST_INCR16, HSIZE=AHB_SIZE_32B, 16 beats
# UVM_INFO ../src/mst/ahb_master_driver.sv(127) @ 2535000: uvm_test_top.env.master_agent.drv [ahb_master_driver] Driving [AHB_WRITE]: HADDR=0x0000a200, HBURST=AHB_BURST_INCR16, HSIZE=AHB_SIZE_32B, 16 beats               
# UVM_INFO ../src/mst/ahb_master_driver.sv(332) @ 2565000: uvm_test_top.env.master_agent.drv [ahb_master_driver] Beat[0/16] addr=0x0000a200 trans=AHB_TRANS_NONSEQ resp=AHB_RESP_OKAY wdata=0x6b6692d1
# UVM_INFO ../src/slv/ahb_slave_driver.sv(184) @ 2565000: uvm_test_top.env.slave_agent.drv [ahb_slave_driver] Beat AHB_WRITE addr=0x0000a200 resp=AHB_RESP_OKAY waits=0 wdata=0x6b6692d1
# UVM_INFO ../src/mst/ahb_master_monitor.sv(128) @ 2565000: uvm_test_top.env.master_agent.mon [ahb_master_monitor] Beat[0] addr=0x0000a200 wdata=0x6b6692d1 resp=AHB_RESP_OKAY
# UVM_INFO ../src/mst/ahb_master_driver.sv(332) @ 2595000: uvm_test_top.env.master_agent.drv [ahb_master_driver] Beat[1/16] addr=0x0000a204 trans=AHB_TRANS_SEQ resp=AHB_RESP_OKAY wdata=0x4851eb04
# UVM_INFO ../src/slv/ahb_slave_driver.sv(184) @ 2595000: uvm_test_top.env.slave_agent.drv [ahb_slave_driver] Beat AHB_WRITE addr=0x0000a204 resp=AHB_RESP_OKAY waits=2 wdata=0x4851eb04
# UVM_INFO ../src/mst/ahb_master_monitor.sv(128) @ 2595000: uvm_test_top.env.master_agent.mon [ahb_master_monitor] Beat[1] addr=0x0000a204 wdata=0x4851eb04 resp=AHB_RESP_OKAY
# UVM_INFO ../src/mst_seq/ahb_reset_seq.sv(85) @ 2600000: uvm_test_top.env.master_agent.sqr@@seq [ahb_reset_seq] Asserting reset 65 ns into burst 8
# UVM_INFO ../src/tb_top.sv(59) @ 2600000: reporter [TB_TOP] Mid-sim reset requested - asserting rst_n
# UVM_INFO ../src/slv/ahb_slave_monitor.sv(85) @ 2600000: uvm_test_top.env.slave_agent.mon [ahb_slave_monitor] Reset asserted - discarding partial transaction
# UVM_INFO ../src/slv/ahb_slave_monitor.sv(242) @ 2600000: uvm_test_top.env.slave_agent.mon [ahb_slave_monitor] Discarding partial burst at reset (3 beats accepted)
# UVM_INFO ../src/mst/ahb_master_monitor.sv(88) @ 2600000: uvm_test_top.env.master_agent.mon [ahb_master_monitor] Reset asserted - discarding partial transaction
# UVM_INFO ../src/mst/ahb_master_monitor.sv(260) @ 2600000: uvm_test_top.env.master_agent.mon [ahb_master_monitor] Discarding partial burst at reset (3 beats accepted)
# UVM_INFO ../src/mst/ahb_master_driver.sv(97) @ 2600000: uvm_test_top.env.master_agent.drv [ahb_master_driver] Reset asserted - aborting transaction
# UVM_INFO ../src/slv/ahb_slave_driver.sv(69) @ 2600000: uvm_test_top.env.slave_agent.drv [ahb_slave_driver] Reset asserted - slave driver idle
# UVM_INFO ../src/mst/ahb_master_driver.sv(183) @ 2605000: uvm_test_top.env.master_agent.drv [ahb_master_driver] Flushed pending transactions (reset)
# UVM_INFO ../src/mst_seq/ahb_base_seq.sv(51) @ 2605000: uvm_test_top.env.master_agent.sqr@@seq [ahb_reset_seq] Transaction aborted by reset: AHB_WRITE 0x0000a200
# UVM_INFO ../src/tb_top.sv(63) @ 2675000: reporter [TB_TOP] Mid-sim reset pulse complete - rst_n deasserted
# UVM_INFO ../src/slv/ahb_slave_driver.sv(63) @ 2675000: uvm_test_top.env.slave_agent.drv [ahb_slave_driver] Reset deasserted - slave driver active (    auto mode)
# UVM_INFO ../src/mst/ahb_master_driver.sv(72) @ 2675000: uvm_test_top.env.master_agent.drv [ahb_master_driver] Reset deasserted - master driver active
# UVM_INFO ../src/mst/ahb_master_monitor.sv(81) @ 2675000: uvm_test_top.env.master_agent.mon [ahb_master_monitor] Reset deasserted - master monitor active
# UVM_INFO ../src/slv/ahb_slave_monitor.sv(79) @ 2675000: uvm_test_top.env.slave_agent.mon [ahb_slave_monitor] Reset deasserted - slave monitor active
# UVM_INFO ../src/mst/ahb_master_driver.sv(85) @ 2675000: uvm_test_top.env.master_agent.drv [ahb_master_driver] Queueing [AHB_WRITE]: HADDR=0x0000a240, HBURST=AHB_BURST_INCR16, HSIZE=AHB_SIZE_32B, 16 beats
# UVM_INFO ../src/mst/ahb_master_driver.sv(127) @ 2675000: uvm_test_top.env.master_agent.drv [ahb_master_driver] Driving [AHB_WRITE]: HADDR=0x0000a240, HBURST=AHB_BURST_INCR16, HSIZE=AHB_SIZE_32B, 16 beats               
# UVM_INFO ../src/mst/ahb_master_driver.sv(332) @ 2705000: uvm_test_top.env.master_agent.drv [ahb_master_driver] Beat[0/16] addr=0x0000a240 trans=AHB_TRANS_NONSEQ resp=AHB_RESP_OKAY wdata=0xae4f87f4
# UVM_INFO ../src/slv/ahb_slave_driver.sv(184) @ 2705000: uvm_test_top.env.slave_agent.drv [ahb_slave_driver] Beat AHB_WRITE addr=0x0000a240 resp=AHB_RESP_OKAY waits=1 wdata=0xae4f87f4
# UVM_INFO ../src/mst/ahb_master_monitor.sv(128) @ 2705000: uvm_test_top.env.master_agent.mon [ahb_master_monitor] Beat[0] addr=0x0000a240 wdata=0xae4f87f4 resp=AHB_RESP_OKAY
# UVM_INFO ../src/mst/ahb_master_driver.sv(332) @ 2735000: uvm_test_top.env.master_agent.drv [ahb_master_driver] Beat[1/16] addr=0x0000a244 trans=AHB_TRANS_SEQ resp=AHB_RESP_OKAY wdata=0x1ab69081
# UVM_INFO ../src/slv/ahb_slave_driver.sv(184) @ 2735000: uvm_test_top.env.slave_agent.drv [ahb_slave_driver] Beat AHB_WRITE addr=0x0000a244 resp=AHB_RESP_OKAY waits=2 wdata=0x1ab69081
# UVM_INFO ../src/mst/ahb_master_monitor.sv(128) @ 2735000: uvm_test_top.env.master_agent.mon [ahb_master_monitor] Beat[1] addr=0x0000a244 wdata=0x1ab69081 resp=AHB_RESP_OKAY
# UVM_INFO ../src/mst/ahb_master_driver.sv(332) @ 2755000: uvm_test_top.env.master_agent.drv [ahb_master_driver] Beat[2/16] addr=0x0000a248 trans=AHB_TRANS_SEQ resp=AHB_RESP_OKAY wdata=0x00924f3d
# UVM_INFO ../src/slv/ahb_slave_driver.sv(184) @ 2755000: uvm_test_top.env.slave_agent.drv [ahb_slave_driver] Beat AHB_WRITE addr=0x0000a248 resp=AHB_RESP_OKAY waits=1 wdata=0x00924f3d
# UVM_INFO ../src/mst/ahb_master_monitor.sv(128) @ 2755000: uvm_test_top.env.master_agent.mon [ahb_master_monitor] Beat[2] addr=0x0000a248 wdata=0x00924f3d resp=AHB_RESP_OKAY
# UVM_INFO ../src/mst/ahb_master_driver.sv(332) @ 2785000: uvm_test_top.env.master_agent.drv [ahb_master_driver] Beat[3/16] addr=0x0000a24c trans=AHB_TRANS_SEQ resp=AHB_RESP_OKAY wdata=0x0d2702e7
# UVM_INFO ../src/slv/ahb_slave_driver.sv(184) @ 2785000: uvm_test_top.env.slave_agent.drv [ahb_slave_driver] Beat AHB_WRITE addr=0x0000a24c resp=AHB_RESP_OKAY waits=2 wdata=0x0d2702e7
# UVM_INFO ../src/mst/ahb_master_monitor.sv(128) @ 2785000: uvm_test_top.env.master_agent.mon [ahb_master_monitor] Beat[3] addr=0x0000a24c wdata=0x0d2702e7 resp=AHB_RESP_OKAY
# UVM_INFO ../src/mst/ahb_master_driver.sv(332) @ 2795000: uvm_test_top.env.master_agent.drv [ahb_master_driver] Beat[4/16] addr=0x0000a250 trans=AHB_TRANS_SEQ resp=AHB_RESP_OKAY wdata=0xfee41cd8
# UVM_INFO ../src/slv/ahb_slave_driver.sv(184) @ 2795000: uvm_test_top.env.slave_agent.drv [ahb_slave_driver] Beat AHB_WRITE addr=0x0000a250 resp=AHB_RESP_OKAY waits=0 wdata=0xfee41cd8
# UVM_INFO ../src/mst/ahb_master_monitor.sv(128) @ 2795000: uvm_test_top.env.master_agent.mon [ahb_master_monitor] Beat[4] addr=0x0000a250 wdata=0xfee41cd8 resp=AHB_RESP_OKAY
# UVM_INFO ../src/mst/ahb_master_driver.sv(332) @ 2825000: uvm_test_top.env.master_agent.drv [ahb_master_driver] Beat[5/16] addr=0x0000a254 trans=AHB_TRANS_SEQ resp=AHB_RESP_OKAY wdata=0x858684c5
# UVM_INFO ../src/slv/ahb_slave_driver.sv(184) @ 2825000: uvm_test_top.env.slave_agent.drv [ahb_slave_driver] Beat AHB_WRITE addr=0x0000a254 resp=AHB_RESP_OKAY waits=2 wdata=0x858684c5
# UVM_INFO ../src/mst/ahb_master_monitor.sv(128) @ 2825000: uvm_test_top.env.master_agent.mon [ahb_master_monitor] Beat[5] addr=0x0000a254 wdata=0x858684c5 resp=AHB_RESP_OKAY
# UVM_INFO ../src/mst/ahb_master_driver.sv(332) @ 2845000: uvm_test_top.env.master_agent.drv [ahb_master_driver] Beat[6/16] addr=0x0000a258 trans=AHB_TRANS_SEQ resp=AHB_RESP_OKAY wdata=0x61392dc4
# UVM_INFO ../src/slv/ahb_slave_driver.sv(184) @ 2845000: uvm_test_top.env.slave_agent.drv [ahb_slave_driver] Beat AHB_WRITE addr=0x0000a258 resp=AHB_RESP_OKAY waits=1 wdata=0x61392dc4
# UVM_INFO ../src/mst/ahb_master_monitor.sv(128) @ 2845000: uvm_test_top.env.master_agent.mon [ahb_master_monitor] Beat[6] addr=0x0000a258 wdata=0x61392dc4 resp=AHB_RESP_OKAY
# UVM_INFO ../src/mst/ahb_master_driver.sv(332) @ 2855000: uvm_test_top.env.master_agent.drv [ahb_master_driver] Beat[7/16] addr=0x0000a25c trans=AHB_TRANS_SEQ resp=AHB_RESP_OKAY wdata=0xf8310f97
# UVM_INFO ../src/slv/ahb_slave_driver.sv(184) @ 2855000: uvm_test_top.env.slave_agent.drv [ahb_slave_driver] Beat AHB_WRITE addr=0x0000a25c resp=AHB_RESP_OKAY waits=0 wdata=0xf8310f97
# UVM_INFO ../src/mst/ahb_master_monitor.sv(128) @ 2855000: uvm_test_top.env.master_agent.mon [ahb_master_monitor] Beat[7] addr=0x0000a25c wdata=0xf8310f97 resp=AHB_RESP_OKAY
# UVM_INFO ../src/mst/ahb_master_driver.sv(332) @ 2865000: uvm_test_top.env.master_agent.drv [ahb_master_driver] Beat[8/16] addr=0x0000a260 trans=AHB_TRANS_SEQ resp=AHB_RESP_OKAY wdata=0xc6bd6177
# UVM_INFO ../src/slv/ahb_slave_driver.sv(184) @ 2865000: uvm_test_top.env.slave_agent.drv [ahb_slave_driver] Beat AHB_WRITE addr=0x0000a260 resp=AHB_RESP_OKAY waits=0 wdata=0xc6bd6177
# UVM_INFO ../src/mst/ahb_master_monitor.sv(128) @ 2865000: uvm_test_top.env.master_agent.mon [ahb_master_monitor] Beat[8] addr=0x0000a260 wdata=0xc6bd6177 resp=AHB_RESP_OKAY
# UVM_INFO ../src/mst/ahb_master_driver.sv(332) @ 2895000: uvm_test_top.env.master_agent.drv [ahb_master_driver] Beat[9/16] addr=0x0000a264 trans=AHB_TRANS_SEQ resp=AHB_RESP_OKAY wdata=0x44a008d0
# UVM_INFO ../src/slv/ahb_slave_driver.sv(184) @ 2895000: uvm_test_top.env.slave_agent.drv [ahb_slave_driver] Beat AHB_WRITE addr=0x0000a264 resp=AHB_RESP_OKAY waits=2 wdata=0x44a008d0
# UVM_INFO ../src/mst/ahb_master_monitor.sv(128) @ 2895000: uvm_test_top.env.master_agent.mon [ahb_master_monitor] Beat[9] addr=0x0000a264 wdata=0x44a008d0 resp=AHB_RESP_OKAY
# UVM_INFO ../src/mst/ahb_master_driver.sv(332) @ 2915000: uvm_test_top.env.master_agent.drv [ahb_master_driver] Beat[10/16] addr=0x0000a268 trans=AHB_TRANS_SEQ resp=AHB_RESP_OKAY wdata=0x5df68056
# UVM_INFO ../src/slv/ahb_slave_driver.sv(184) @ 2915000: uvm_test_top.env.slave_agent.drv [ahb_slave_driver] Beat AHB_WRITE addr=0x0000a268 resp=AHB_RESP_OKAY waits=1 wdata=0x5df68056
# UVM_INFO ../src/mst/ahb_master_monitor.sv(128) @ 2915000: uvm_test_top.env.master_agent.mon [ahb_master_monitor] Beat[10] addr=0x0000a268 wdata=0x5df68056 resp=AHB_RESP_OKAY
# UVM_INFO ../src/mst/ahb_master_driver.sv(332) @ 2925000: uvm_test_top.env.master_agent.drv [ahb_master_driver] Beat[11/16] addr=0x0000a26c trans=AHB_TRANS_SEQ resp=AHB_RESP_OKAY wdata=0xe0405d86
# UVM_INFO ../src/slv/ahb_slave_driver.sv(184) @ 2925000: uvm_test_top.env.slave_agent.drv [ahb_slave_driver] Beat AHB_WRITE addr=0x0000a26c resp=AHB_RESP_OKAY waits=0 wdata=0xe0405d86
# UVM_INFO ../src/mst/ahb_master_monitor.sv(128) @ 2925000: uvm_test_top.env.master_agent.mon [ahb_master_monitor] Beat[11] addr=0x0000a26c wdata=0xe0405d86 resp=AHB_RESP_OKAY
# UVM_INFO ../src/mst/ahb_master_driver.sv(332) @ 2945000: uvm_test_top.env.master_agent.drv [ahb_master_driver] Beat[12/16] addr=0x0000a270 trans=AHB_TRANS_SEQ resp=AHB_RESP_OKAY wdata=0xbdf57a00
# UVM_INFO ../src/slv/ahb_slave_driver.sv(184) @ 2945000: uvm_test_top.env.slave_agent.drv [ahb_slave_driver] Beat AHB_WRITE addr=0x0000a270 resp=AHB_RESP_OKAY waits=1 wdata=0xbdf57a00
# UVM_INFO ../src/mst/ahb_master_monitor.sv(128) @ 2945000: uvm_test_top.env.master_agent.mon [ahb_master_monitor] Beat[12] addr=0x0000a270 wdata=0xbdf57a00 resp=AHB_RESP_OKAY
# UVM_INFO ../src/mst/ahb_master_driver.sv(332) @ 2975000: uvm_test_top.env.master_agent.drv [ahb_master_driver] Beat[13/16] addr=0x0000a274 trans=AHB_TRANS_SEQ resp=AHB_RESP_OKAY wdata=0xd9872571
# UVM_INFO ../src/slv/ahb_slave_driver.sv(184) @ 2975000: uvm_test_top.env.slave_agent.drv [ahb_slave_driver] Beat AHB_WRITE addr=0x0000a274 resp=AHB_RESP_OKAY waits=2 wdata=0xd9872571
# UVM_INFO ../src/mst/ahb_master_monitor.sv(128) @ 2975000: uvm_test_top.env.master_agent.mon [ahb_master_monitor] Beat[13] addr=0x0000a274 wdata=0xd9872571 resp=AHB_RESP_OKAY
# UVM_INFO ../src/mst/ahb_master_driver.sv(332) @ 2995000: uvm_test_top.env.master_agent.drv [ahb_master_driver] Beat[14/16] addr=0x0000a278 trans=AHB_TRANS_SEQ resp=AHB_RESP_OKAY wdata=0x3f6aad1f
# UVM_INFO ../src/slv/ahb_slave_driver.sv(184) @ 2995000: uvm_test_top.env.slave_agent.drv [ahb_slave_driver] Beat AHB_WRITE addr=0x0000a278 resp=AHB_RESP_OKAY waits=1 wdata=0x3f6aad1f
# UVM_INFO ../src/mst/ahb_master_monitor.sv(128) @ 2995000: uvm_test_top.env.master_agent.mon [ahb_master_monitor] Beat[14] addr=0x0000a278 wdata=0x3f6aad1f resp=AHB_RESP_OKAY
# UVM_INFO ../src/mst/ahb_master_driver.sv(332) @ 3025000: uvm_test_top.env.master_agent.drv [ahb_master_driver] Beat[15/16] addr=0x0000a27c trans=AHB_TRANS_SEQ resp=AHB_RESP_OKAY wdata=0xe5115bf4
# UVM_INFO ../src/mst/ahb_master_driver.sv(376) @ 3025000: uvm_test_top.env.master_agent.drv [ahb_master_driver] Transaction complete: AHB_WRITE 0x0000a240, 16 beats, burst=AHB_BURST_INCR16
# UVM_INFO ../src/slv/ahb_slave_driver.sv(184) @ 3025000: uvm_test_top.env.slave_agent.drv [ahb_slave_driver] Beat AHB_WRITE addr=0x0000a27c resp=AHB_RESP_OKAY waits=2 wdata=0xe5115bf4
# UVM_INFO ../src/mst/ahb_master_monitor.sv(128) @ 3025000: uvm_test_top.env.master_agent.mon [ahb_master_monitor] Beat[15] addr=0x0000a27c wdata=0xe5115bf4 resp=AHB_RESP_OKAY
# UVM_INFO ../src/mst/ahb_master_monitor.sv(231) @ 3025000: uvm_test_top.env.master_agent.mon [ahb_master_monitor] Observed [AHB_WRITE]: HADDR=0x0000a240, HBURST=AHB_BURST_INCR16, HSIZE=AHB_SIZE_32B, 16 beats
# UVM_INFO ../src/env/ahb_coverage.sv(174) @ 3025000: uvm_test_top.env.master_cov [ahb_coverage] Sampled [AHB_WRITE]: burst=AHB_BURST_INCR16 size=AHB_SIZE_32B beats=16 error=0
# UVM_INFO ../src/slv/ahb_slave_monitor.sv(212) @ 3025000: uvm_test_top.env.slave_agent.mon [ahb_slave_monitor] Observed [AHB_WRITE]: HADDR=0x0000a240, HBURST=AHB_BURST_INCR16, HSIZE=AHB_SIZE_32B, 16 beats
# UVM_INFO ../src/env/ahb_scoreboard.sv(104) @ 3025000: uvm_test_top.env.scb [ahb_scoreboard] MATCH #7: [AHB_WRITE] HADDR=0x0000a240 AHB_BURST_INCR16 16 beats
# UVM_INFO ../src/env/ahb_coverage.sv(174) @ 3025000: uvm_test_top.env.slave_cov [ahb_coverage] Sampled [AHB_WRITE]: burst=AHB_BURST_INCR16 size=AHB_SIZE_32B beats=16 error=0
# UVM_INFO ../src/mst/ahb_master_driver.sv(85) @ 3025000: uvm_test_top.env.master_agent.drv [ahb_master_driver] Queueing [AHB_WRITE]: HADDR=0x0000a280, HBURST=AHB_BURST_INCR16, HSIZE=AHB_SIZE_32B, 16 beats
# UVM_INFO ../src/mst/ahb_master_driver.sv(127) @ 3025000: uvm_test_top.env.master_agent.drv [ahb_master_driver] Driving [AHB_WRITE]: HADDR=0x0000a280, HBURST=AHB_BURST_INCR16, HSIZE=AHB_SIZE_32B, 16 beats               
# UVM_INFO ../src/mst/ahb_master_driver.sv(332) @ 3075000: uvm_test_top.env.master_agent.drv [ahb_master_driver] Beat[0/16] addr=0x0000a280 trans=AHB_TRANS_NONSEQ resp=AHB_RESP_OKAY wdata=0x106090e9
# UVM_INFO ../src/slv/ahb_slave_driver.sv(184) @ 3075000: uvm_test_top.env.slave_agent.drv [ahb_slave_driver] Beat AHB_WRITE addr=0x0000a280 resp=AHB_RESP_OKAY waits=2 wdata=0x106090e9
# UVM_INFO ../src/mst/ahb_master_monitor.sv(128) @ 3075000: uvm_test_top.env.master_agent.mon [ahb_master_monitor] Beat[0] addr=0x0000a280 wdata=0x106090e9 resp=AHB_RESP_OKAY
# UVM_INFO ../src/mst/ahb_master_driver.sv(332) @ 3105000: uvm_test_top.env.master_agent.drv [ahb_master_driver] Beat[1/16] addr=0x0000a284 trans=AHB_TRANS_SEQ resp=AHB_RESP_OKAY wdata=0xfa592a97
# UVM_INFO ../src/slv/ahb_slave_driver.sv(184) @ 3105000: uvm_test_top.env.slave_agent.drv [ahb_slave_driver] Beat AHB_WRITE addr=0x0000a284 resp=AHB_RESP_OKAY waits=2 wdata=0xfa592a97
# UVM_INFO ../src/mst/ahb_master_monitor.sv(128) @ 3105000: uvm_test_top.env.master_agent.mon [ahb_master_monitor] Beat[1] addr=0x0000a284 wdata=0xfa592a97 resp=AHB_RESP_OKAY
# UVM_INFO ../src/mst/ahb_master_driver.sv(332) @ 3115000: uvm_test_top.env.master_agent.drv [ahb_master_driver] Beat[2/16] addr=0x0000a288 trans=AHB_TRANS_SEQ resp=AHB_RESP_OKAY wdata=0x4ae66607
# UVM_INFO ../src/slv/ahb_slave_driver.sv(184) @ 3115000: uvm_test_top.env.slave_agent.drv [ahb_slave_driver] Beat AHB_WRITE addr=0x0000a288 resp=AHB_RESP_OKAY waits=0 wdata=0x4ae66607
# UVM_INFO ../src/mst/ahb_master_monitor.sv(128) @ 3115000: uvm_test_top.env.master_agent.mon [ahb_master_monitor] Beat[2] addr=0x0000a288 wdata=0x4ae66607 resp=AHB_RESP_OKAY
# UVM_INFO ../src/mst/ahb_master_driver.sv(332) @ 3145000: uvm_test_top.env.master_agent.drv [ahb_master_driver] Beat[3/16] addr=0x0000a28c trans=AHB_TRANS_SEQ resp=AHB_RESP_OKAY wdata=0x923a6f6e
# UVM_INFO ../src/slv/ahb_slave_driver.sv(184) @ 3145000: uvm_test_top.env.slave_agent.drv [ahb_slave_driver] Beat AHB_WRITE addr=0x0000a28c resp=AHB_RESP_OKAY waits=2 wdata=0x923a6f6e
# UVM_INFO ../src/mst/ahb_master_monitor.sv(128) @ 3145000: uvm_test_top.env.master_agent.mon [ahb_master_monitor] Beat[3] addr=0x0000a28c wdata=0x923a6f6e resp=AHB_RESP_OKAY
# UVM_INFO ../src/mst/ahb_master_driver.sv(332) @ 3165000: uvm_test_top.env.master_agent.drv [ahb_master_driver] Beat[4/16] addr=0x0000a290 trans=AHB_TRANS_SEQ resp=AHB_RESP_OKAY wdata=0x0cc0fa2a
# UVM_INFO ../src/slv/ahb_slave_driver.sv(184) @ 3165000: uvm_test_top.env.slave_agent.drv [ahb_slave_driver] Beat AHB_WRITE addr=0x0000a290 resp=AHB_RESP_OKAY waits=1 wdata=0x0cc0fa2a
# UVM_INFO ../src/mst/ahb_master_monitor.sv(128) @ 3165000: uvm_test_top.env.master_agent.mon [ahb_master_monitor] Beat[4] addr=0x0000a290 wdata=0x0cc0fa2a resp=AHB_RESP_OKAY
# UVM_INFO ../src/mst/ahb_master_driver.sv(332) @ 3175000: uvm_test_top.env.master_agent.drv [ahb_master_driver] Beat[5/16] addr=0x0000a294 trans=AHB_TRANS_SEQ resp=AHB_RESP_OKAY wdata=0xa02845a1
# UVM_INFO ../src/slv/ahb_slave_driver.sv(184) @ 3175000: uvm_test_top.env.slave_agent.drv [ahb_slave_driver] Beat AHB_WRITE addr=0x0000a294 resp=AHB_RESP_OKAY waits=0 wdata=0xa02845a1
# UVM_INFO ../src/mst/ahb_master_monitor.sv(128) @ 3175000: uvm_test_top.env.master_agent.mon [ahb_master_monitor] Beat[5] addr=0x0000a294 wdata=0xa02845a1 resp=AHB_RESP_OKAY
# UVM_INFO ../src/mst/ahb_master_driver.sv(332) @ 3195000: uvm_test_top.env.master_agent.drv [ahb_master_driver] Beat[6/16] addr=0x0000a298 trans=AHB_TRANS_SEQ resp=AHB_RESP_OKAY wdata=0x065614b3
# UVM_INFO ../src/slv/ahb_slave_driver.sv(184) @ 3195000: uvm_test_top.env.slave_agent.drv [ahb_slave_driver] Beat AHB_WRITE addr=0x0000a298 resp=AHB_RESP_OKAY waits=1 wdata=0x065614b3
# UVM_INFO ../src/mst/ahb_master_monitor.sv(128) @ 3195000: uvm_test_top.env.master_agent.mon [ahb_master_monitor] Beat[6] addr=0x0000a298 wdata=0x065614b3 resp=AHB_RESP_OKAY
# UVM_INFO ../src/mst/ahb_master_driver.sv(332) @ 3205000: uvm_test_top.env.master_agent.drv [ahb_master_driver] Beat[7/16] addr=0x0000a29c trans=AHB_TRANS_SEQ resp=AHB_RESP_OKAY wdata=0xc6c62e0c
# UVM_INFO ../src/slv/ahb_slave_driver.sv(184) @ 3205000: uvm_test_top.env.slave_agent.drv [ahb_slave_driver] Beat AHB_WRITE addr=0x0000a29c resp=AHB_RESP_OKAY waits=0 wdata=0xc6c62e0c
# UVM_INFO ../src/mst/ahb_master_monitor.sv(128) @ 3205000: uvm_test_top.env.master_agent.mon [ahb_master_monitor] Beat[7] addr=0x0000a29c wdata=0xc6c62e0c resp=AHB_RESP_OKAY
# UVM_INFO ../src/mst/ahb_master_driver.sv(332) @ 3225000: uvm_test_top.env.master_agent.drv [ahb_master_driver] Beat[8/16] addr=0x0000a2a0 trans=AHB_TRANS_SEQ resp=AHB_RESP_OKAY wdata=0x0ffaf515
# UVM_INFO ../src/slv/ahb_slave_driver.sv(184) @ 3225000: uvm_test_top.env.slave_agent.drv [ahb_slave_driver] Beat AHB_WRITE addr=0x0000a2a0 resp=AHB_RESP_OKAY waits=1 wdata=0x0ffaf515
# UVM_INFO ../src/mst/ahb_master_monitor.sv(128) @ 3225000: uvm_test_top.env.master_agent.mon [ahb_master_monitor] Beat[8] addr=0x0000a2a0 wdata=0x0ffaf515 resp=AHB_RESP_OKAY
# UVM_INFO ../src/mst/ahb_master_driver.sv(332) @ 3255000: uvm_test_top.env.master_agent.drv [ahb_master_driver] Beat[9/16] addr=0x0000a2a4 trans=AHB_TRANS_SEQ resp=AHB_RESP_OKAY wdata=0x44b0edf1
# UVM_INFO ../src/slv/ahb_slave_driver.sv(184) @ 3255000: uvm_test_top.env.slave_agent.drv [ahb_slave_driver] Beat AHB_WRITE addr=0x0000a2a4 resp=AHB_RESP_OKAY waits=2 wdata=0x44b0edf1
# UVM_INFO ../src/mst/ahb_master_monitor.sv(128) @ 3255000: uvm_test_top.env.master_agent.mon [ahb_master_monitor] Beat[9] addr=0x0000a2a4 wdata=0x44b0edf1 resp=AHB_RESP_OKAY
# UVM_INFO ../src/mst/ahb_master_driver.sv(332) @ 3275000: uvm_test_top.env.master_agent.drv [ahb_master_driver] Beat[10/16] addr=0x0000a2a8 trans=AHB_TRANS_SEQ resp=AHB_RESP_OKAY wdata=0x5025add0
# UVM_INFO ../src/slv/ahb_slave_driver.sv(184) @ 3275000: uvm_test_top.env.slave_agent.drv [ahb_slave_driver] Beat AHB_WRITE addr=0x0000a2a8 resp=AHB_RESP_OKAY waits=1 wdata=0x5025add0
# UVM_INFO ../src/mst/ahb_master_monitor.sv(128) @ 3275000: uvm_test_top.env.master_agent.mon [ahb_master_monitor] Beat[10] addr=0x0000a2a8 wdata=0x5025add0 resp=AHB_RESP_OKAY
# UVM_INFO ../src/mst/ahb_master_driver.sv(332) @ 3295000: uvm_test_top.env.master_agent.drv [ahb_master_driver] Beat[11/16] addr=0x0000a2ac trans=AHB_TRANS_SEQ resp=AHB_RESP_OKAY wdata=0xaec69d3b
# UVM_INFO ../src/slv/ahb_slave_driver.sv(184) @ 3295000: uvm_test_top.env.slave_agent.drv [ahb_slave_driver] Beat AHB_WRITE addr=0x0000a2ac resp=AHB_RESP_OKAY waits=1 wdata=0xaec69d3b
# UVM_INFO ../src/mst/ahb_master_monitor.sv(128) @ 3295000: uvm_test_top.env.master_agent.mon [ahb_master_monitor] Beat[11] addr=0x0000a2ac wdata=0xaec69d3b resp=AHB_RESP_OKAY
# UVM_INFO ../src/mst/ahb_master_driver.sv(332) @ 3305000: uvm_test_top.env.master_agent.drv [ahb_master_driver] Beat[12/16] addr=0x0000a2b0 trans=AHB_TRANS_SEQ resp=AHB_RESP_OKAY wdata=0xb72eede8
# UVM_INFO ../src/slv/ahb_slave_driver.sv(184) @ 3305000: uvm_test_top.env.slave_agent.drv [ahb_slave_driver] Beat AHB_WRITE addr=0x0000a2b0 resp=AHB_RESP_OKAY waits=0 wdata=0xb72eede8
# UVM_INFO ../src/mst/ahb_master_monitor.sv(128) @ 3305000: uvm_test_top.env.master_agent.mon [ahb_master_monitor] Beat[12] addr=0x0000a2b0 wdata=0xb72eede8 resp=AHB_RESP_OKAY
# UVM_INFO ../src/mst/ahb_master_driver.sv(332) @ 3315000: uvm_test_top.env.master_agent.drv [ahb_master_driver] Beat[13/16] addr=0x0000a2b4 trans=AHB_TRANS_SEQ resp=AHB_RESP_OKAY wdata=0xf648103b
