# vsim -c -coverage -sv_seed 62613130 "+UVM_TESTNAME=ahb_single_transfer_test" "+UVM_VERBOSITY=UVM_HIGH" "+DUMP_VCD" -l ./report/logs/ahb_single_transfer_test_run_4_seed_62613130.log -do "coverage save -onexit ./report/coverage/ahb_single_transfer_test_run_4_seed_62613130.ucdb; run -all; quit -f" opt_tb_top 
# Start time: 12:30:09 on Aug 06,2026
# //  Questa Sim-64
# //  Version 10.6b linux_x86_64 May 25 2017
# //
# //  Copyright 1991-2017 Mentor Graphics Corporation
# //  All Rights Reserved.
# //
# //  QuestaSim and its associated documentation contain trade
# //  secrets and commercial or financial information that are the property of
# //  Mentor Graphics Corporation and are privileged, confidential,
# //  and exempt from disclosure under the Freedom of Information Act,
# //  5 U.S.C. Section 552. Furthermore, this information
# //  is prohibited from disclosure under the Trade Secrets Act,
# //  18 U.S.C. Section 1905.
# //
# Loading sv_std.std
# Loading work.ahb_if(fast)
# Loading mtiUvm.uvm_pkg
# Loading work.ahb_pkg(fast)
# Loading work.ahb_seq_pkg(fast)
# Loading work.ahb_test_pkg(fast)
# Loading work.tb_top(fast)
# Loading work.ahb_if(fast)
# Loading work.ahb_sva(fast)
# Loading mtiUvm.questa_uvm_pkg(fast)
# Loading /cadtools/mentor/Questa_10.6b/questasim/uvm-1.1d/linux_x86_64/uvm_dpi.so
# coverage save -onexit ./report/coverage/ahb_single_transfer_test_run_4_seed_62613130.ucdb
#  run -all
# ----------------------------------------------------------------
# UVM-1.1d
# (C) 2007-2013 Mentor Graphics Corporation
# (C) 2007-2013 Cadence Design Systems, Inc.
# (C) 2006-2013 Synopsys, Inc.
# (C) 2011-2013 Cypress Semiconductor Corp.
# ----------------------------------------------------------------
# 
#   ***********       IMPORTANT RELEASE NOTES         ************
# 
#   You are using a version of the UVM library that has been compiled
#   with `UVM_NO_DEPRECATED undefined.
#   See http://www.eda.org/svdb/view.php?id=3313 for more details.
# 
#   You are using a version of the UVM library that has been compiled
#   with `UVM_OBJECT_MUST_HAVE_CONSTRUCTOR undefined.
#   See http://www.eda.org/svdb/view.php?id=3770 for more details.
# 
#       (Specify +UVM_NO_RELNOTES to turn off this notice)
# 
# UVM_INFO verilog_src/questa_uvm_pkg-1.2/src/questa_uvm_pkg.sv(215) @ 0: reporter [Questa UVM] QUESTA_UVM-1.2.3
# UVM_INFO verilog_src/questa_uvm_pkg-1.2/src/questa_uvm_pkg.sv(217) @ 0: reporter [Questa UVM]  questa_uvm::init(+struct)
# UVM_INFO ../src/tb_top.sv(126) @ 0: reporter [TB_TOP] Virtual interface set in config_db
# UVM_INFO @ 0: reporter [RNTST] Running test ahb_single_transfer_test...
# UVM_INFO ../src/tb_top.sv(140) @ 0: reporter [TB_TOP] Waveform VCD dumping enabled (ahb_lite_vip.vcd)
# UVM_INFO ../src/env/ahb_vip_env.sv(64) @ 0: uvm_test_top.env [ahb_vip_env] slave_vif not set - reusing master_vif (passthrough mode)
# UVM_INFO ../src/env/ahb_vip_env.sv(72) @ 0: uvm_test_top.env [ahb_vip_env] Scoreboard created
# UVM_INFO ../src/env/ahb_vip_env.sv(78) @ 0: uvm_test_top.env [ahb_vip_env] Coverage collectors created
# UVM_INFO ../src/mst/ahb_master_agent.sv(61) @ 0: uvm_test_top.env.master_agent [ahb_master_agent] ACTIVE mode - driver + sequencer created
# UVM_INFO ../src/slv/ahb_slave_agent.sv(64) @ 0: uvm_test_top.env.slave_agent [ahb_slave_agent] ACTIVE mode - driver + sequencer created (    auto responses)
# UVM_INFO ../src/env/ahb_vip_env.sv(92) @ 0: uvm_test_top.env [ahb_vip_env] Scoreboard connected: master_mon.ap -> scb, slave_mon.ap -> scb
# UVM_INFO ../src/env/ahb_vip_env.sv(102) @ 0: uvm_test_top.env [ahb_vip_env] Coverage connected: master_mon.ap/trans_ap -> master_cov, slave_mon.ap/trans_ap -> slave_cov
# UVM_INFO @ 0: reporter [UVMTOP] UVM testbench topology:
# ----------------------------------------------------------------
# Name                       Type                      Size  Value
# ----------------------------------------------------------------
# uvm_test_top               ahb_single_transfer_test  -     @475 
#   env                      ahb_vip_env               -     @490 
#     master_agent           ahb_master_agent          -     @505 
#       drv                  ahb_master_driver         -     @570 
#         rsp_port           uvm_analysis_port         -     @585 
#         seq_item_port      uvm_seq_item_pull_port    -     @577 
#       mon                  ahb_master_monitor        -     @563 
#         ap                 uvm_analysis_port         -     @704 
#         trans_ap           uvm_analysis_port         -     @712 
#       sqr                  ahb_master_sequencer      -     @593 
#         rsp_export         uvm_analysis_export       -     @600 
#         seq_item_export    uvm_seq_item_pull_imp     -     @694 
#         arbitration_queue  array                     0     -    
#         lock_queue         array                     0     -    
#         num_last_reqs      integral                  32    'd1  
#         num_last_rsps      integral                  32    'd1  
#     master_cov             ahb_coverage              -     @526 
#       analysis_imp         uvm_analysis_imp          -     @533 
#       trans_export         uvm_analysis_imp_trans    -     @726 
#     scb                    ahb_scoreboard            -     @519 
#       master_export        uvm_analysis_imp_master   -     @734 
#       slave_export         uvm_analysis_imp_slave    -     @742 
#     slave_agent            ahb_slave_agent           -     @512 
#       drv                  ahb_slave_driver          -     @764 
#         rsp_port           uvm_analysis_port         -     @779 
#         seq_item_port      uvm_seq_item_pull_port    -     @771 
#       mon                  ahb_slave_monitor         -     @757 
#         ap                 uvm_analysis_port         -     @898 
#         trans_ap           uvm_analysis_port         -     @906 
#       sqr                  ahb_slave_sequencer       -     @787 
#         rsp_export         uvm_analysis_export       -     @794 
#         seq_item_export    uvm_seq_item_pull_imp     -     @888 
#         arbitration_queue  array                     0     -    
#         lock_queue         array                     0     -    
#         num_last_reqs      integral                  32    'd1  
#         num_last_rsps      integral                  32    'd1  
#     slave_cov              ahb_coverage              -     @541 
#       analysis_imp         uvm_analysis_imp          -     @548 
#       trans_export         uvm_analysis_imp_trans    -     @920 
# ----------------------------------------------------------------
# 
# UVM_INFO verilog_src/questa_uvm_pkg-1.2/src/questa_uvm_pkg.sv(277) @ 0: reporter [Questa UVM] End Of Elaboration
# UVM_INFO ../src/mst_seq/ahb_single_seq.sv(47) @ 0: uvm_test_top.env.master_agent.sqr@@seq [ahb_single_seq] Starting SINGLE transfers: 20 iterations from 0x00002000
# UVM_INFO ../src/mst/ahb_master_driver.sv(183) @ 5000: uvm_test_top.env.master_agent.drv [ahb_master_driver] Flushed pending transactions (reset)
# UVM_INFO ../src/tb_top.sv(48) @ 95000: reporter [TB_TOP] Reset de-asserted
# UVM_INFO ../src/slv/ahb_slave_driver.sv(63) @ 95000: uvm_test_top.env.slave_agent.drv [ahb_slave_driver] Reset deasserted - slave driver active (    auto mode)
# UVM_INFO ../src/mst/ahb_master_driver.sv(72) @ 95000: uvm_test_top.env.master_agent.drv [ahb_master_driver] Reset deasserted - master driver active
# UVM_INFO ../src/mst/ahb_master_monitor.sv(81) @ 95000: uvm_test_top.env.master_agent.mon [ahb_master_monitor] Reset deasserted - master monitor active
# UVM_INFO ../src/slv/ahb_slave_monitor.sv(79) @ 95000: uvm_test_top.env.slave_agent.mon [ahb_slave_monitor] Reset deasserted - slave monitor active
# UVM_INFO ../src/mst/ahb_master_driver.sv(85) @ 95000: uvm_test_top.env.master_agent.drv [ahb_master_driver] Queueing [AHB_WRITE]: HADDR=0x00002001, HBURST=AHB_BURST_SINGLE, HSIZE=AHB_SIZE_8B, 1 beats
# UVM_INFO ../src/mst/ahb_master_driver.sv(127) @ 95000: uvm_test_top.env.master_agent.drv [ahb_master_driver] Driving [AHB_WRITE]: HADDR=0x00002001, HBURST=AHB_BURST_SINGLE, HSIZE=AHB_SIZE_8B, 1 beats               
# UVM_INFO ../src/mst/ahb_master_driver.sv(332) @ 135000: uvm_test_top.env.master_agent.drv [ahb_master_driver] Beat[0/1] addr=0x00002001 trans=AHB_TRANS_NONSEQ resp=AHB_RESP_OKAY wdata=0x51e0b693
# UVM_INFO ../src/mst/ahb_master_driver.sv(376) @ 135000: uvm_test_top.env.master_agent.drv [ahb_master_driver] Transaction complete: AHB_WRITE 0x00002001, 1 beats, burst=AHB_BURST_SINGLE
# UVM_INFO ../src/slv/ahb_slave_driver.sv(184) @ 135000: uvm_test_top.env.slave_agent.drv [ahb_slave_driver] Beat AHB_WRITE addr=0x00002001 resp=AHB_RESP_OKAY waits=2 wdata=0x51e0b693
# UVM_INFO ../src/slv/ahb_slave_monitor.sv(212) @ 135000: uvm_test_top.env.slave_agent.mon [ahb_slave_monitor] Observed [AHB_WRITE]: HADDR=0x00002001, HBURST=AHB_BURST_SINGLE, HSIZE=AHB_SIZE_8B, 1 beats
# UVM_INFO ../src/env/ahb_coverage.sv(174) @ 135000: uvm_test_top.env.slave_cov [ahb_coverage] Sampled [AHB_WRITE]: burst=AHB_BURST_SINGLE size=AHB_SIZE_8B beats=1 error=0
# UVM_INFO ../src/mst/ahb_master_monitor.sv(128) @ 135000: uvm_test_top.env.master_agent.mon [ahb_master_monitor] Beat[0] addr=0x00002001 wdata=0x51e0b693 resp=AHB_RESP_OKAY
# UVM_INFO ../src/mst/ahb_master_monitor.sv(231) @ 135000: uvm_test_top.env.master_agent.mon [ahb_master_monitor] Observed [AHB_WRITE]: HADDR=0x00002001, HBURST=AHB_BURST_SINGLE, HSIZE=AHB_SIZE_8B, 1 beats
# UVM_INFO ../src/env/ahb_coverage.sv(174) @ 135000: uvm_test_top.env.master_cov [ahb_coverage] Sampled [AHB_WRITE]: burst=AHB_BURST_SINGLE size=AHB_SIZE_8B beats=1 error=0
# UVM_INFO ../src/env/ahb_scoreboard.sv(104) @ 135000: uvm_test_top.env.scb [ahb_scoreboard] MATCH #1: [AHB_WRITE] HADDR=0x00002001 AHB_BURST_SINGLE 1 beats
# UVM_INFO ../src/mst/ahb_master_driver.sv(85) @ 135000: uvm_test_top.env.master_agent.drv [ahb_master_driver] Queueing [AHB_READ]: HADDR=0x00002001, HBURST=AHB_BURST_SINGLE, HSIZE=AHB_SIZE_8B, 1 beats
# UVM_INFO ../src/mst/ahb_master_driver.sv(127) @ 135000: uvm_test_top.env.master_agent.drv [ahb_master_driver] Driving [AHB_READ]: HADDR=0x00002001, HBURST=AHB_BURST_SINGLE, HSIZE=AHB_SIZE_8B, 1 beats               
# UVM_INFO ../src/mst/ahb_master_driver.sv(332) @ 175000: uvm_test_top.env.master_agent.drv [ahb_master_driver] Beat[0/1] addr=0x00002001 trans=AHB_TRANS_NONSEQ resp=AHB_RESP_OKAY rdata=0x51e0b693
# UVM_INFO ../src/mst/ahb_master_driver.sv(376) @ 175000: uvm_test_top.env.master_agent.drv [ahb_master_driver] Transaction complete: AHB_READ 0x00002001, 1 beats, burst=AHB_BURST_SINGLE
# UVM_INFO ../src/slv/ahb_slave_driver.sv(184) @ 175000: uvm_test_top.env.slave_agent.drv [ahb_slave_driver] Beat AHB_READ addr=0x00002001 resp=AHB_RESP_OKAY waits=1 rdata=0x51e0b693
# UVM_INFO ../src/slv/ahb_slave_monitor.sv(212) @ 175000: uvm_test_top.env.slave_agent.mon [ahb_slave_monitor] Observed [AHB_READ]: HADDR=0x00002001, HBURST=AHB_BURST_SINGLE, HSIZE=AHB_SIZE_8B, 1 beats
# UVM_INFO ../src/env/ahb_coverage.sv(174) @ 175000: uvm_test_top.env.slave_cov [ahb_coverage] Sampled [AHB_READ]: burst=AHB_BURST_SINGLE size=AHB_SIZE_8B beats=1 error=0
# UVM_INFO ../src/mst/ahb_master_monitor.sv(128) @ 175000: uvm_test_top.env.master_agent.mon [ahb_master_monitor] Beat[0] addr=0x00002001 rdata=0x51e0b693 resp=AHB_RESP_OKAY
# UVM_INFO ../src/mst/ahb_master_monitor.sv(231) @ 175000: uvm_test_top.env.master_agent.mon [ahb_master_monitor] Observed [AHB_READ]: HADDR=0x00002001, HBURST=AHB_BURST_SINGLE, HSIZE=AHB_SIZE_8B, 1 beats
# UVM_INFO ../src/env/ahb_coverage.sv(174) @ 175000: uvm_test_top.env.master_cov [ahb_coverage] Sampled [AHB_READ]: burst=AHB_BURST_SINGLE size=AHB_SIZE_8B beats=1 error=0
# UVM_INFO ../src/env/ahb_scoreboard.sv(104) @ 175000: uvm_test_top.env.scb [ahb_scoreboard] MATCH #2: [AHB_READ] HADDR=0x00002001 AHB_BURST_SINGLE 1 beats
# UVM_INFO ../src/mst_seq/ahb_base_seq.sv(157) @ 175000: uvm_test_top.env.master_agent.sqr@@seq [ahb_single_seq] AHB_BURST_SINGLE AHB_SIZE_8B beat 0 @0x00002001 ok
# UVM_INFO ../src/mst/ahb_master_driver.sv(85) @ 175000: uvm_test_top.env.master_agent.drv [ahb_master_driver] Queueing [AHB_WRITE]: HADDR=0x00002005, HBURST=AHB_BURST_SINGLE, HSIZE=AHB_SIZE_8B, 1 beats
# UVM_INFO ../src/mst/ahb_master_driver.sv(127) @ 175000: uvm_test_top.env.master_agent.drv [ahb_master_driver] Driving [AHB_WRITE]: HADDR=0x00002005, HBURST=AHB_BURST_SINGLE, HSIZE=AHB_SIZE_8B, 1 beats               
# UVM_INFO ../src/mst/ahb_master_driver.sv(332) @ 215000: uvm_test_top.env.master_agent.drv [ahb_master_driver] Beat[0/1] addr=0x00002005 trans=AHB_TRANS_NONSEQ resp=AHB_RESP_OKAY wdata=0x7bec9658
# UVM_INFO ../src/mst/ahb_master_driver.sv(376) @ 215000: uvm_test_top.env.master_agent.drv [ahb_master_driver] Transaction complete: AHB_WRITE 0x00002005, 1 beats, burst=AHB_BURST_SINGLE
# UVM_INFO ../src/slv/ahb_slave_driver.sv(184) @ 215000: uvm_test_top.env.slave_agent.drv [ahb_slave_driver] Beat AHB_WRITE addr=0x00002005 resp=AHB_RESP_OKAY waits=1 wdata=0x7bec9658
# UVM_INFO ../src/slv/ahb_slave_monitor.sv(212) @ 215000: uvm_test_top.env.slave_agent.mon [ahb_slave_monitor] Observed [AHB_WRITE]: HADDR=0x00002005, HBURST=AHB_BURST_SINGLE, HSIZE=AHB_SIZE_8B, 1 beats
# UVM_INFO ../src/env/ahb_coverage.sv(174) @ 215000: uvm_test_top.env.slave_cov [ahb_coverage] Sampled [AHB_WRITE]: burst=AHB_BURST_SINGLE size=AHB_SIZE_8B beats=1 error=0
# UVM_INFO ../src/mst/ahb_master_monitor.sv(128) @ 215000: uvm_test_top.env.master_agent.mon [ahb_master_monitor] Beat[0] addr=0x00002005 wdata=0x7bec9658 resp=AHB_RESP_OKAY
# UVM_INFO ../src/mst/ahb_master_monitor.sv(231) @ 215000: uvm_test_top.env.master_agent.mon [ahb_master_monitor] Observed [AHB_WRITE]: HADDR=0x00002005, HBURST=AHB_BURST_SINGLE, HSIZE=AHB_SIZE_8B, 1 beats
# UVM_INFO ../src/env/ahb_coverage.sv(174) @ 215000: uvm_test_top.env.master_cov [ahb_coverage] Sampled [AHB_WRITE]: burst=AHB_BURST_SINGLE size=AHB_SIZE_8B beats=1 error=0
# UVM_INFO ../src/env/ahb_scoreboard.sv(104) @ 215000: uvm_test_top.env.scb [ahb_scoreboard] MATCH #3: [AHB_WRITE] HADDR=0x00002005 AHB_BURST_SINGLE 1 beats
# UVM_INFO ../src/mst/ahb_master_driver.sv(85) @ 215000: uvm_test_top.env.master_agent.drv [ahb_master_driver] Queueing [AHB_READ]: HADDR=0x00002005, HBURST=AHB_BURST_SINGLE, HSIZE=AHB_SIZE_8B, 1 beats
# UVM_INFO ../src/mst/ahb_master_driver.sv(127) @ 215000: uvm_test_top.env.master_agent.drv [ahb_master_driver] Driving [AHB_READ]: HADDR=0x00002005, HBURST=AHB_BURST_SINGLE, HSIZE=AHB_SIZE_8B, 1 beats               
# UVM_INFO ../src/mst/ahb_master_driver.sv(332) @ 255000: uvm_test_top.env.master_agent.drv [ahb_master_driver] Beat[0/1] addr=0x00002005 trans=AHB_TRANS_NONSEQ resp=AHB_RESP_OKAY rdata=0x7bec9658
# UVM_INFO ../src/mst/ahb_master_driver.sv(376) @ 255000: uvm_test_top.env.master_agent.drv [ahb_master_driver] Transaction complete: AHB_READ 0x00002005, 1 beats, burst=AHB_BURST_SINGLE
# UVM_INFO ../src/slv/ahb_slave_driver.sv(184) @ 255000: uvm_test_top.env.slave_agent.drv [ahb_slave_driver] Beat AHB_READ addr=0x00002005 resp=AHB_RESP_OKAY waits=1 rdata=0x7bec9658
# UVM_INFO ../src/slv/ahb_slave_monitor.sv(212) @ 255000: uvm_test_top.env.slave_agent.mon [ahb_slave_monitor] Observed [AHB_READ]: HADDR=0x00002005, HBURST=AHB_BURST_SINGLE, HSIZE=AHB_SIZE_8B, 1 beats
# UVM_INFO ../src/env/ahb_coverage.sv(174) @ 255000: uvm_test_top.env.slave_cov [ahb_coverage] Sampled [AHB_READ]: burst=AHB_BURST_SINGLE size=AHB_SIZE_8B beats=1 error=0
# UVM_INFO ../src/mst/ahb_master_monitor.sv(128) @ 255000: uvm_test_top.env.master_agent.mon [ahb_master_monitor] Beat[0] addr=0x00002005 rdata=0x7bec9658 resp=AHB_RESP_OKAY
# UVM_INFO ../src/mst/ahb_master_monitor.sv(231) @ 255000: uvm_test_top.env.master_agent.mon [ahb_master_monitor] Observed [AHB_READ]: HADDR=0x00002005, HBURST=AHB_BURST_SINGLE, HSIZE=AHB_SIZE_8B, 1 beats
# UVM_INFO ../src/env/ahb_coverage.sv(174) @ 255000: uvm_test_top.env.master_cov [ahb_coverage] Sampled [AHB_READ]: burst=AHB_BURST_SINGLE size=AHB_SIZE_8B beats=1 error=0
# UVM_INFO ../src/env/ahb_scoreboard.sv(104) @ 255000: uvm_test_top.env.scb [ahb_scoreboard] MATCH #4: [AHB_READ] HADDR=0x00002005 AHB_BURST_SINGLE 1 beats
# UVM_INFO ../src/mst_seq/ahb_base_seq.sv(157) @ 255000: uvm_test_top.env.master_agent.sqr@@seq [ahb_single_seq] AHB_BURST_SINGLE AHB_SIZE_8B beat 0 @0x00002005 ok
# UVM_INFO ../src/mst/ahb_master_driver.sv(85) @ 255000: uvm_test_top.env.master_agent.drv [ahb_master_driver] Queueing [AHB_WRITE]: HADDR=0x00002008, HBURST=AHB_BURST_SINGLE, HSIZE=AHB_SIZE_32B, 1 beats
# UVM_INFO ../src/mst/ahb_master_driver.sv(127) @ 255000: uvm_test_top.env.master_agent.drv [ahb_master_driver] Driving [AHB_WRITE]: HADDR=0x00002008, HBURST=AHB_BURST_SINGLE, HSIZE=AHB_SIZE_32B, 1 beats               
# UVM_INFO ../src/mst/ahb_master_driver.sv(332) @ 305000: uvm_test_top.env.master_agent.drv [ahb_master_driver] Beat[0/1] addr=0x00002008 trans=AHB_TRANS_NONSEQ resp=AHB_RESP_OKAY wdata=0xd531486d
# UVM_INFO ../src/mst/ahb_master_driver.sv(376) @ 305000: uvm_test_top.env.master_agent.drv [ahb_master_driver] Transaction complete: AHB_WRITE 0x00002008, 1 beats, burst=AHB_BURST_SINGLE
# UVM_INFO ../src/slv/ahb_slave_driver.sv(184) @ 305000: uvm_test_top.env.slave_agent.drv [ahb_slave_driver] Beat AHB_WRITE addr=0x00002008 resp=AHB_RESP_OKAY waits=2 wdata=0xd531486d
# UVM_INFO ../src/mst/ahb_master_monitor.sv(128) @ 305000: uvm_test_top.env.master_agent.mon [ahb_master_monitor] Beat[0] addr=0x00002008 wdata=0xd531486d resp=AHB_RESP_OKAY
# UVM_INFO ../src/mst/ahb_master_monitor.sv(231) @ 305000: uvm_test_top.env.master_agent.mon [ahb_master_monitor] Observed [AHB_WRITE]: HADDR=0x00002008, HBURST=AHB_BURST_SINGLE, HSIZE=AHB_SIZE_32B, 1 beats
# UVM_INFO ../src/env/ahb_coverage.sv(174) @ 305000: uvm_test_top.env.master_cov [ahb_coverage] Sampled [AHB_WRITE]: burst=AHB_BURST_SINGLE size=AHB_SIZE_32B beats=1 error=0
# UVM_INFO ../src/slv/ahb_slave_monitor.sv(212) @ 305000: uvm_test_top.env.slave_agent.mon [ahb_slave_monitor] Observed [AHB_WRITE]: HADDR=0x00002008, HBURST=AHB_BURST_SINGLE, HSIZE=AHB_SIZE_32B, 1 beats
# UVM_INFO ../src/env/ahb_scoreboard.sv(104) @ 305000: uvm_test_top.env.scb [ahb_scoreboard] MATCH #5: [AHB_WRITE] HADDR=0x00002008 AHB_BURST_SINGLE 1 beats
# UVM_INFO ../src/env/ahb_coverage.sv(174) @ 305000: uvm_test_top.env.slave_cov [ahb_coverage] Sampled [AHB_WRITE]: burst=AHB_BURST_SINGLE size=AHB_SIZE_32B beats=1 error=0
# UVM_INFO ../src/mst/ahb_master_driver.sv(85) @ 305000: uvm_test_top.env.master_agent.drv [ahb_master_driver] Queueing [AHB_READ]: HADDR=0x00002008, HBURST=AHB_BURST_SINGLE, HSIZE=AHB_SIZE_32B, 1 beats
# UVM_INFO ../src/mst/ahb_master_driver.sv(127) @ 305000: uvm_test_top.env.master_agent.drv [ahb_master_driver] Driving [AHB_READ]: HADDR=0x00002008, HBURST=AHB_BURST_SINGLE, HSIZE=AHB_SIZE_32B, 1 beats               
# UVM_INFO ../src/mst/ahb_master_driver.sv(332) @ 345000: uvm_test_top.env.master_agent.drv [ahb_master_driver] Beat[0/1] addr=0x00002008 trans=AHB_TRANS_NONSEQ resp=AHB_RESP_OKAY rdata=0xd531486d
# UVM_INFO ../src/mst/ahb_master_driver.sv(376) @ 345000: uvm_test_top.env.master_agent.drv [ahb_master_driver] Transaction complete: AHB_READ 0x00002008, 1 beats, burst=AHB_BURST_SINGLE
# UVM_INFO ../src/slv/ahb_slave_driver.sv(184) @ 345000: uvm_test_top.env.slave_agent.drv [ahb_slave_driver] Beat AHB_READ addr=0x00002008 resp=AHB_RESP_OKAY waits=1 rdata=0xd531486d
# UVM_INFO ../src/mst/ahb_master_monitor.sv(128) @ 345000: uvm_test_top.env.master_agent.mon [ahb_master_monitor] Beat[0] addr=0x00002008 rdata=0xd531486d resp=AHB_RESP_OKAY
# UVM_INFO ../src/mst/ahb_master_monitor.sv(231) @ 345000: uvm_test_top.env.master_agent.mon [ahb_master_monitor] Observed [AHB_READ]: HADDR=0x00002008, HBURST=AHB_BURST_SINGLE, HSIZE=AHB_SIZE_32B, 1 beats
# UVM_INFO ../src/env/ahb_coverage.sv(174) @ 345000: uvm_test_top.env.master_cov [ahb_coverage] Sampled [AHB_READ]: burst=AHB_BURST_SINGLE size=AHB_SIZE_32B beats=1 error=0
# UVM_INFO ../src/slv/ahb_slave_monitor.sv(212) @ 345000: uvm_test_top.env.slave_agent.mon [ahb_slave_monitor] Observed [AHB_READ]: HADDR=0x00002008, HBURST=AHB_BURST_SINGLE, HSIZE=AHB_SIZE_32B, 1 beats
# UVM_INFO ../src/env/ahb_scoreboard.sv(104) @ 345000: uvm_test_top.env.scb [ahb_scoreboard] MATCH #6: [AHB_READ] HADDR=0x00002008 AHB_BURST_SINGLE 1 beats
# UVM_INFO ../src/env/ahb_coverage.sv(174) @ 345000: uvm_test_top.env.slave_cov [ahb_coverage] Sampled [AHB_READ]: burst=AHB_BURST_SINGLE size=AHB_SIZE_32B beats=1 error=0
# UVM_INFO ../src/mst_seq/ahb_base_seq.sv(157) @ 345000: uvm_test_top.env.master_agent.sqr@@seq [ahb_single_seq] AHB_BURST_SINGLE AHB_SIZE_32B beat 0 @0x00002008 ok
# UVM_INFO ../src/mst/ahb_master_driver.sv(85) @ 345000: uvm_test_top.env.master_agent.drv [ahb_master_driver] Queueing [AHB_WRITE]: HADDR=0x0000200c, HBURST=AHB_BURST_SINGLE, HSIZE=AHB_SIZE_32B, 1 beats
# UVM_INFO ../src/mst/ahb_master_driver.sv(127) @ 345000: uvm_test_top.env.master_agent.drv [ahb_master_driver] Driving [AHB_WRITE]: HADDR=0x0000200c, HBURST=AHB_BURST_SINGLE, HSIZE=AHB_SIZE_32B, 1 beats               
# UVM_INFO ../src/mst/ahb_master_driver.sv(332) @ 385000: uvm_test_top.env.master_agent.drv [ahb_master_driver] Beat[0/1] addr=0x0000200c trans=AHB_TRANS_NONSEQ resp=AHB_RESP_OKAY wdata=0xda65ed8a
# UVM_INFO ../src/mst/ahb_master_driver.sv(376) @ 385000: uvm_test_top.env.master_agent.drv [ahb_master_driver] Transaction complete: AHB_WRITE 0x0000200c, 1 beats, burst=AHB_BURST_SINGLE
# UVM_INFO ../src/slv/ahb_slave_driver.sv(184) @ 385000: uvm_test_top.env.slave_agent.drv [ahb_slave_driver] Beat AHB_WRITE addr=0x0000200c resp=AHB_RESP_OKAY waits=1 wdata=0xda65ed8a
# UVM_INFO ../src/mst/ahb_master_monitor.sv(128) @ 385000: uvm_test_top.env.master_agent.mon [ahb_master_monitor] Beat[0] addr=0x0000200c wdata=0xda65ed8a resp=AHB_RESP_OKAY
# UVM_INFO ../src/mst/ahb_master_monitor.sv(231) @ 385000: uvm_test_top.env.master_agent.mon [ahb_master_monitor] Observed [AHB_WRITE]: HADDR=0x0000200c, HBURST=AHB_BURST_SINGLE, HSIZE=AHB_SIZE_32B, 1 beats
# UVM_INFO ../src/env/ahb_coverage.sv(174) @ 385000: uvm_test_top.env.master_cov [ahb_coverage] Sampled [AHB_WRITE]: burst=AHB_BURST_SINGLE size=AHB_SIZE_32B beats=1 error=0
# UVM_INFO ../src/slv/ahb_slave_monitor.sv(212) @ 385000: uvm_test_top.env.slave_agent.mon [ahb_slave_monitor] Observed [AHB_WRITE]: HADDR=0x0000200c, HBURST=AHB_BURST_SINGLE, HSIZE=AHB_SIZE_32B, 1 beats
# UVM_INFO ../src/env/ahb_scoreboard.sv(104) @ 385000: uvm_test_top.env.scb [ahb_scoreboard] MATCH #7: [AHB_WRITE] HADDR=0x0000200c AHB_BURST_SINGLE 1 beats
# UVM_INFO ../src/env/ahb_coverage.sv(174) @ 385000: uvm_test_top.env.slave_cov [ahb_coverage] Sampled [AHB_WRITE]: burst=AHB_BURST_SINGLE size=AHB_SIZE_32B beats=1 error=0
# UVM_INFO ../src/mst/ahb_master_driver.sv(85) @ 385000: uvm_test_top.env.master_agent.drv [ahb_master_driver] Queueing [AHB_READ]: HADDR=0x0000200c, HBURST=AHB_BURST_SINGLE, HSIZE=AHB_SIZE_32B, 1 beats
# UVM_INFO ../src/mst/ahb_master_driver.sv(127) @ 385000: uvm_test_top.env.master_agent.drv [ahb_master_driver] Driving [AHB_READ]: HADDR=0x0000200c, HBURST=AHB_BURST_SINGLE, HSIZE=AHB_SIZE_32B, 1 beats               
# UVM_INFO ../src/mst/ahb_master_driver.sv(332) @ 435000: uvm_test_top.env.master_agent.drv [ahb_master_driver] Beat[0/1] addr=0x0000200c trans=AHB_TRANS_NONSEQ resp=AHB_RESP_OKAY rdata=0xda65ed8a
# UVM_INFO ../src/mst/ahb_master_driver.sv(376) @ 435000: uvm_test_top.env.master_agent.drv [ahb_master_driver] Transaction complete: AHB_READ 0x0000200c, 1 beats, burst=AHB_BURST_SINGLE
# UVM_INFO ../src/slv/ahb_slave_driver.sv(184) @ 435000: uvm_test_top.env.slave_agent.drv [ahb_slave_driver] Beat AHB_READ addr=0x0000200c resp=AHB_RESP_OKAY waits=2 rdata=0xda65ed8a
# UVM_INFO ../src/slv/ahb_slave_monitor.sv(212) @ 435000: uvm_test_top.env.slave_agent.mon [ahb_slave_monitor] Observed [AHB_READ]: HADDR=0x0000200c, HBURST=AHB_BURST_SINGLE, HSIZE=AHB_SIZE_32B, 1 beats
# UVM_INFO ../src/env/ahb_coverage.sv(174) @ 435000: uvm_test_top.env.slave_cov [ahb_coverage] Sampled [AHB_READ]: burst=AHB_BURST_SINGLE size=AHB_SIZE_32B beats=1 error=0
# UVM_INFO ../src/mst/ahb_master_monitor.sv(128) @ 435000: uvm_test_top.env.master_agent.mon [ahb_master_monitor] Beat[0] addr=0x0000200c rdata=0xda65ed8a resp=AHB_RESP_OKAY
# UVM_INFO ../src/mst/ahb_master_monitor.sv(231) @ 435000: uvm_test_top.env.master_agent.mon [ahb_master_monitor] Observed [AHB_READ]: HADDR=0x0000200c, HBURST=AHB_BURST_SINGLE, HSIZE=AHB_SIZE_32B, 1 beats
# UVM_INFO ../src/env/ahb_coverage.sv(174) @ 435000: uvm_test_top.env.master_cov [ahb_coverage] Sampled [AHB_READ]: burst=AHB_BURST_SINGLE size=AHB_SIZE_32B beats=1 error=0
# UVM_INFO ../src/env/ahb_scoreboard.sv(104) @ 435000: uvm_test_top.env.scb [ahb_scoreboard] MATCH #8: [AHB_READ] HADDR=0x0000200c AHB_BURST_SINGLE 1 beats
# UVM_INFO ../src/mst_seq/ahb_base_seq.sv(157) @ 435000: uvm_test_top.env.master_agent.sqr@@seq [ahb_single_seq] AHB_BURST_SINGLE AHB_SIZE_32B beat 0 @0x0000200c ok
# UVM_INFO ../src/mst/ahb_master_driver.sv(85) @ 435000: uvm_test_top.env.master_agent.drv [ahb_master_driver] Queueing [AHB_WRITE]: HADDR=0x00002012, HBURST=AHB_BURST_SINGLE, HSIZE=AHB_SIZE_8B, 1 beats
# UVM_INFO ../src/mst/ahb_master_driver.sv(127) @ 435000: uvm_test_top.env.master_agent.drv [ahb_master_driver] Driving [AHB_WRITE]: HADDR=0x00002012, HBURST=AHB_BURST_SINGLE, HSIZE=AHB_SIZE_8B, 1 beats               
# UVM_INFO ../src/mst/ahb_master_driver.sv(332) @ 465000: uvm_test_top.env.master_agent.drv [ahb_master_driver] Beat[0/1] addr=0x00002012 trans=AHB_TRANS_NONSEQ resp=AHB_RESP_OKAY wdata=0x9d61a275
# UVM_INFO ../src/mst/ahb_master_driver.sv(376) @ 465000: uvm_test_top.env.master_agent.drv [ahb_master_driver] Transaction complete: AHB_WRITE 0x00002012, 1 beats, burst=AHB_BURST_SINGLE
# UVM_INFO ../src/slv/ahb_slave_driver.sv(184) @ 465000: uvm_test_top.env.slave_agent.drv [ahb_slave_driver] Beat AHB_WRITE addr=0x00002012 resp=AHB_RESP_OKAY waits=0 wdata=0x9d61a275
# UVM_INFO ../src/mst/ahb_master_monitor.sv(128) @ 465000: uvm_test_top.env.master_agent.mon [ahb_master_monitor] Beat[0] addr=0x00002012 wdata=0x9d61a275 resp=AHB_RESP_OKAY
# UVM_INFO ../src/mst/ahb_master_monitor.sv(231) @ 465000: uvm_test_top.env.master_agent.mon [ahb_master_monitor] Observed [AHB_WRITE]: HADDR=0x00002012, HBURST=AHB_BURST_SINGLE, HSIZE=AHB_SIZE_8B, 1 beats
# UVM_INFO ../src/env/ahb_coverage.sv(174) @ 465000: uvm_test_top.env.master_cov [ahb_coverage] Sampled [AHB_WRITE]: burst=AHB_BURST_SINGLE size=AHB_SIZE_8B beats=1 error=0
# UVM_INFO ../src/slv/ahb_slave_monitor.sv(212) @ 465000: uvm_test_top.env.slave_agent.mon [ahb_slave_monitor] Observed [AHB_WRITE]: HADDR=0x00002012, HBURST=AHB_BURST_SINGLE, HSIZE=AHB_SIZE_8B, 1 beats
# UVM_INFO ../src/env/ahb_scoreboard.sv(104) @ 465000: uvm_test_top.env.scb [ahb_scoreboard] MATCH #9: [AHB_WRITE] HADDR=0x00002012 AHB_BURST_SINGLE 1 beats
# UVM_INFO ../src/env/ahb_coverage.sv(174) @ 465000: uvm_test_top.env.slave_cov [ahb_coverage] Sampled [AHB_WRITE]: burst=AHB_BURST_SINGLE size=AHB_SIZE_8B beats=1 error=0
# UVM_INFO ../src/mst/ahb_master_driver.sv(85) @ 465000: uvm_test_top.env.master_agent.drv [ahb_master_driver] Queueing [AHB_READ]: HADDR=0x00002012, HBURST=AHB_BURST_SINGLE, HSIZE=AHB_SIZE_8B, 1 beats
# UVM_INFO ../src/mst/ahb_master_driver.sv(127) @ 465000: uvm_test_top.env.master_agent.drv [ahb_master_driver] Driving [AHB_READ]: HADDR=0x00002012, HBURST=AHB_BURST_SINGLE, HSIZE=AHB_SIZE_8B, 1 beats               
# UVM_INFO ../src/mst/ahb_master_driver.sv(332) @ 505000: uvm_test_top.env.master_agent.drv [ahb_master_driver] Beat[0/1] addr=0x00002012 trans=AHB_TRANS_NONSEQ resp=AHB_RESP_OKAY rdata=0x9d61a275
# UVM_INFO ../src/mst/ahb_master_driver.sv(376) @ 505000: uvm_test_top.env.master_agent.drv [ahb_master_driver] Transaction complete: AHB_READ 0x00002012, 1 beats, burst=AHB_BURST_SINGLE
# UVM_INFO ../src/slv/ahb_slave_driver.sv(184) @ 505000: uvm_test_top.env.slave_agent.drv [ahb_slave_driver] Beat AHB_READ addr=0x00002012 resp=AHB_RESP_OKAY waits=1 rdata=0x9d61a275
# UVM_INFO ../src/mst/ahb_master_monitor.sv(128) @ 505000: uvm_test_top.env.master_agent.mon [ahb_master_monitor] Beat[0] addr=0x00002012 rdata=0x9d61a275 resp=AHB_RESP_OKAY
# UVM_INFO ../src/mst/ahb_master_monitor.sv(231) @ 505000: uvm_test_top.env.master_agent.mon [ahb_master_monitor] Observed [AHB_READ]: HADDR=0x00002012, HBURST=AHB_BURST_SINGLE, HSIZE=AHB_SIZE_8B, 1 beats
# UVM_INFO ../src/env/ahb_coverage.sv(174) @ 505000: uvm_test_top.env.master_cov [ahb_coverage] Sampled [AHB_READ]: burst=AHB_BURST_SINGLE size=AHB_SIZE_8B beats=1 error=0
# UVM_INFO ../src/slv/ahb_slave_monitor.sv(212) @ 505000: uvm_test_top.env.slave_agent.mon [ahb_slave_monitor] Observed [AHB_READ]: HADDR=0x00002012, HBURST=AHB_BURST_SINGLE, HSIZE=AHB_SIZE_8B, 1 beats
# UVM_INFO ../src/env/ahb_scoreboard.sv(104) @ 505000: uvm_test_top.env.scb [ahb_scoreboard] MATCH #10: [AHB_READ] HADDR=0x00002012 AHB_BURST_SINGLE 1 beats
# UVM_INFO ../src/env/ahb_coverage.sv(174) @ 505000: uvm_test_top.env.slave_cov [ahb_coverage] Sampled [AHB_READ]: burst=AHB_BURST_SINGLE size=AHB_SIZE_8B beats=1 error=0
# UVM_INFO ../src/mst_seq/ahb_base_seq.sv(157) @ 505000: uvm_test_top.env.master_agent.sqr@@seq [ahb_single_seq] AHB_BURST_SINGLE AHB_SIZE_8B beat 0 @0x00002012 ok
# UVM_INFO ../src/mst/ahb_master_driver.sv(85) @ 505000: uvm_test_top.env.master_agent.drv [ahb_master_driver] Queueing [AHB_WRITE]: HADDR=0x00002014, HBURST=AHB_BURST_SINGLE, HSIZE=AHB_SIZE_8B, 1 beats
# UVM_INFO ../src/mst/ahb_master_driver.sv(127) @ 505000: uvm_test_top.env.master_agent.drv [ahb_master_driver] Driving [AHB_WRITE]: HADDR=0x00002014, HBURST=AHB_BURST_SINGLE, HSIZE=AHB_SIZE_8B, 1 beats               
# UVM_INFO ../src/mst/ahb_master_driver.sv(332) @ 545000: uvm_test_top.env.master_agent.drv [ahb_master_driver] Beat[0/1] addr=0x00002014 trans=AHB_TRANS_NONSEQ resp=AHB_RESP_OKAY wdata=0x52df70ad
# UVM_INFO ../src/mst/ahb_master_driver.sv(376) @ 545000: uvm_test_top.env.master_agent.drv [ahb_master_driver] Transaction complete: AHB_WRITE 0x00002014, 1 beats, burst=AHB_BURST_SINGLE
# UVM_INFO ../src/slv/ahb_slave_driver.sv(184) @ 545000: uvm_test_top.env.slave_agent.drv [ahb_slave_driver] Beat AHB_WRITE addr=0x00002014 resp=AHB_RESP_OKAY waits=1 wdata=0x52df70ad
# UVM_INFO ../src/mst/ahb_master_monitor.sv(128) @ 545000: uvm_test_top.env.master_agent.mon [ahb_master_monitor] Beat[0] addr=0x00002014 wdata=0x52df70ad resp=AHB_RESP_OKAY
# UVM_INFO ../src/mst/ahb_master_monitor.sv(231) @ 545000: uvm_test_top.env.master_agent.mon [ahb_master_monitor] Observed [AHB_WRITE]: HADDR=0x00002014, HBURST=AHB_BURST_SINGLE, HSIZE=AHB_SIZE_8B, 1 beats
# UVM_INFO ../src/env/ahb_coverage.sv(174) @ 545000: uvm_test_top.env.master_cov [ahb_coverage] Sampled [AHB_WRITE]: burst=AHB_BURST_SINGLE size=AHB_SIZE_8B beats=1 error=0
# UVM_INFO ../src/slv/ahb_slave_monitor.sv(212) @ 545000: uvm_test_top.env.slave_agent.mon [ahb_slave_monitor] Observed [AHB_WRITE]: HADDR=0x00002014, HBURST=AHB_BURST_SINGLE, HSIZE=AHB_SIZE_8B, 1 beats
# UVM_INFO ../src/env/ahb_scoreboard.sv(104) @ 545000: uvm_test_top.env.scb [ahb_scoreboard] MATCH #11: [AHB_WRITE] HADDR=0x00002014 AHB_BURST_SINGLE 1 beats
# UVM_INFO ../src/env/ahb_coverage.sv(174) @ 545000: uvm_test_top.env.slave_cov [ahb_coverage] Sampled [AHB_WRITE]: burst=AHB_BURST_SINGLE size=AHB_SIZE_8B beats=1 error=0
# UVM_INFO ../src/mst/ahb_master_driver.sv(85) @ 545000: uvm_test_top.env.master_agent.drv [ahb_master_driver] Queueing [AHB_READ]: HADDR=0x00002014, HBURST=AHB_BURST_SINGLE, HSIZE=AHB_SIZE_8B, 1 beats
# UVM_INFO ../src/mst/ahb_master_driver.sv(127) @ 545000: uvm_test_top.env.master_agent.drv [ahb_master_driver] Driving [AHB_READ]: HADDR=0x00002014, HBURST=AHB_BURST_SINGLE, HSIZE=AHB_SIZE_8B, 1 beats               
# UVM_INFO ../src/mst/ahb_master_driver.sv(332) @ 585000: uvm_test_top.env.master_agent.drv [ahb_master_driver] Beat[0/1] addr=0x00002014 trans=AHB_TRANS_NONSEQ resp=AHB_RESP_OKAY rdata=0x52df70ad
# UVM_INFO ../src/mst/ahb_master_driver.sv(376) @ 585000: uvm_test_top.env.master_agent.drv [ahb_master_driver] Transaction complete: AHB_READ 0x00002014, 1 beats, burst=AHB_BURST_SINGLE
# UVM_INFO ../src/slv/ahb_slave_driver.sv(184) @ 585000: uvm_test_top.env.slave_agent.drv [ahb_slave_driver] Beat AHB_READ addr=0x00002014 resp=AHB_RESP_OKAY waits=1 rdata=0x52df70ad
# UVM_INFO ../src/mst/ahb_master_monitor.sv(128) @ 585000: uvm_test_top.env.master_agent.mon [ahb_master_monitor] Beat[0] addr=0x00002014 rdata=0x52df70ad resp=AHB_RESP_OKAY
# UVM_INFO ../src/mst/ahb_master_monitor.sv(231) @ 585000: uvm_test_top.env.master_agent.mon [ahb_master_monitor] Observed [AHB_READ]: HADDR=0x00002014, HBURST=AHB_BURST_SINGLE, HSIZE=AHB_SIZE_8B, 1 beats
# UVM_INFO ../src/env/ahb_coverage.sv(174) @ 585000: uvm_test_top.env.master_cov [ahb_coverage] Sampled [AHB_READ]: burst=AHB_BURST_SINGLE size=AHB_SIZE_8B beats=1 error=0
# UVM_INFO ../src/slv/ahb_slave_monitor.sv(212) @ 585000: uvm_test_top.env.slave_agent.mon [ahb_slave_monitor] Observed [AHB_READ]: HADDR=0x00002014, HBURST=AHB_BURST_SINGLE, HSIZE=AHB_SIZE_8B, 1 beats
# UVM_INFO ../src/env/ahb_scoreboard.sv(104) @ 585000: uvm_test_top.env.scb [ahb_scoreboard] MATCH #12: [AHB_READ] HADDR=0x00002014 AHB_BURST_SINGLE 1 beats
# UVM_INFO ../src/env/ahb_coverage.sv(174) @ 585000: uvm_test_top.env.slave_cov [ahb_coverage] Sampled [AHB_READ]: burst=AHB_BURST_SINGLE size=AHB_SIZE_8B beats=1 error=0
# UVM_INFO ../src/mst_seq/ahb_base_seq.sv(157) @ 585000: uvm_test_top.env.master_agent.sqr@@seq [ahb_single_seq] AHB_BURST_SINGLE AHB_SIZE_8B beat 0 @0x00002014 ok
# UVM_INFO ../src/mst/ahb_master_driver.sv(85) @ 585000: uvm_test_top.env.master_agent.drv [ahb_master_driver] Queueing [AHB_WRITE]: HADDR=0x0000201b, HBURST=AHB_BURST_SINGLE, HSIZE=AHB_SIZE_8B, 1 beats
# UVM_INFO ../src/mst/ahb_master_driver.sv(127) @ 585000: uvm_test_top.env.master_agent.drv [ahb_master_driver] Driving [AHB_WRITE]: HADDR=0x0000201b, HBURST=AHB_BURST_SINGLE, HSIZE=AHB_SIZE_8B, 1 beats               
# UVM_INFO ../src/mst/ahb_master_driver.sv(332) @ 625000: uvm_test_top.env.master_agent.drv [ahb_master_driver] Beat[0/1] addr=0x0000201b trans=AHB_TRANS_NONSEQ resp=AHB_RESP_OKAY wdata=0x6557fd5d
# UVM_INFO ../src/mst/ahb_master_driver.sv(376) @ 625000: uvm_test_top.env.master_agent.drv [ahb_master_driver] Transaction complete: AHB_WRITE 0x0000201b, 1 beats, burst=AHB_BURST_SINGLE
# UVM_INFO ../src/slv/ahb_slave_driver.sv(184) @ 625000: uvm_test_top.env.slave_agent.drv [ahb_slave_driver] Beat AHB_WRITE addr=0x0000201b resp=AHB_RESP_OKAY waits=1 wdata=0x6557fd5d
# UVM_INFO ../src/mst/ahb_master_monitor.sv(128) @ 625000: uvm_test_top.env.master_agent.mon [ahb_master_monitor] Beat[0] addr=0x0000201b wdata=0x6557fd5d resp=AHB_RESP_OKAY
# UVM_INFO ../src/mst/ahb_master_monitor.sv(231) @ 625000: uvm_test_top.env.master_agent.mon [ahb_master_monitor] Observed [AHB_WRITE]: HADDR=0x0000201b, HBURST=AHB_BURST_SINGLE, HSIZE=AHB_SIZE_8B, 1 beats
# UVM_INFO ../src/env/ahb_coverage.sv(174) @ 625000: uvm_test_top.env.master_cov [ahb_coverage] Sampled [AHB_WRITE]: burst=AHB_BURST_SINGLE size=AHB_SIZE_8B beats=1 error=0
# UVM_INFO ../src/slv/ahb_slave_monitor.sv(212) @ 625000: uvm_test_top.env.slave_agent.mon [ahb_slave_monitor] Observed [AHB_WRITE]: HADDR=0x0000201b, HBURST=AHB_BURST_SINGLE, HSIZE=AHB_SIZE_8B, 1 beats
# UVM_INFO ../src/env/ahb_scoreboard.sv(104) @ 625000: uvm_test_top.env.scb [ahb_scoreboard] MATCH #13: [AHB_WRITE] HADDR=0x0000201b AHB_BURST_SINGLE 1 beats
# UVM_INFO ../src/env/ahb_coverage.sv(174) @ 625000: uvm_test_top.env.slave_cov [ahb_coverage] Sampled [AHB_WRITE]: burst=AHB_BURST_SINGLE size=AHB_SIZE_8B beats=1 error=0
# UVM_INFO ../src/mst/ahb_master_driver.sv(85) @ 625000: uvm_test_top.env.master_agent.drv [ahb_master_driver] Queueing [AHB_READ]: HADDR=0x0000201b, HBURST=AHB_BURST_SINGLE, HSIZE=AHB_SIZE_8B, 1 beats
# UVM_INFO ../src/mst/ahb_master_driver.sv(127) @ 625000: uvm_test_top.env.master_agent.drv [ahb_master_driver] Driving [AHB_READ]: HADDR=0x0000201b, HBURST=AHB_BURST_SINGLE, HSIZE=AHB_SIZE_8B, 1 beats               
# UVM_INFO ../src/mst/ahb_master_driver.sv(332) @ 675000: uvm_test_top.env.master_agent.drv [ahb_master_driver] Beat[0/1] addr=0x0000201b trans=AHB_TRANS_NONSEQ resp=AHB_RESP_OKAY rdata=0x6557fd5d
# UVM_INFO ../src/mst/ahb_master_driver.sv(376) @ 675000: uvm_test_top.env.master_agent.drv [ahb_master_driver] Transaction complete: AHB_READ 0x0000201b, 1 beats, burst=AHB_BURST_SINGLE
# UVM_INFO ../src/slv/ahb_slave_driver.sv(184) @ 675000: uvm_test_top.env.slave_agent.drv [ahb_slave_driver] Beat AHB_READ addr=0x0000201b resp=AHB_RESP_OKAY waits=2 rdata=0x6557fd5d
# UVM_INFO ../src/slv/ahb_slave_monitor.sv(212) @ 675000: uvm_test_top.env.slave_agent.mon [ahb_slave_monitor] Observed [AHB_READ]: HADDR=0x0000201b, HBURST=AHB_BURST_SINGLE, HSIZE=AHB_SIZE_8B, 1 beats
# UVM_INFO ../src/env/ahb_coverage.sv(174) @ 675000: uvm_test_top.env.slave_cov [ahb_coverage] Sampled [AHB_READ]: burst=AHB_BURST_SINGLE size=AHB_SIZE_8B beats=1 error=0
# UVM_INFO ../src/mst/ahb_master_monitor.sv(128) @ 675000: uvm_test_top.env.master_agent.mon [ahb_master_monitor] Beat[0] addr=0x0000201b rdata=0x6557fd5d resp=AHB_RESP_OKAY
# UVM_INFO ../src/mst/ahb_master_monitor.sv(231) @ 675000: uvm_test_top.env.master_agent.mon [ahb_master_monitor] Observed [AHB_READ]: HADDR=0x0000201b, HBURST=AHB_BURST_SINGLE, HSIZE=AHB_SIZE_8B, 1 beats
# UVM_INFO ../src/env/ahb_coverage.sv(174) @ 675000: uvm_test_top.env.master_cov [ahb_coverage] Sampled [AHB_READ]: burst=AHB_BURST_SINGLE size=AHB_SIZE_8B beats=1 error=0
# UVM_INFO ../src/env/ahb_scoreboard.sv(104) @ 675000: uvm_test_top.env.scb [ahb_scoreboard] MATCH #14: [AHB_READ] HADDR=0x0000201b AHB_BURST_SINGLE 1 beats
# UVM_INFO ../src/mst_seq/ahb_base_seq.sv(157) @ 675000: uvm_test_top.env.master_agent.sqr@@seq [ahb_single_seq] AHB_BURST_SINGLE AHB_SIZE_8B beat 0 @0x0000201b ok
# UVM_INFO ../src/mst/ahb_master_driver.sv(85) @ 675000: uvm_test_top.env.master_agent.drv [ahb_master_driver] Queueing [AHB_WRITE]: HADDR=0x0000201c, HBURST=AHB_BURST_SINGLE, HSIZE=AHB_SIZE_32B, 1 beats
# UVM_INFO ../src/mst/ahb_master_driver.sv(127) @ 675000: uvm_test_top.env.master_agent.drv [ahb_master_driver] Driving [AHB_WRITE]: HADDR=0x0000201c, HBURST=AHB_BURST_SINGLE, HSIZE=AHB_SIZE_32B, 1 beats               
# UVM_INFO ../src/mst/ahb_master_driver.sv(332) @ 705000: uvm_test_top.env.master_agent.drv [ahb_master_driver] Beat[0/1] addr=0x0000201c trans=AHB_TRANS_NONSEQ resp=AHB_RESP_OKAY wdata=0x2632a0fb
# UVM_INFO ../src/mst/ahb_master_driver.sv(376) @ 705000: uvm_test_top.env.master_agent.drv [ahb_master_driver] Transaction complete: AHB_WRITE 0x0000201c, 1 beats, burst=AHB_BURST_SINGLE
# UVM_INFO ../src/slv/ahb_slave_driver.sv(184) @ 705000: uvm_test_top.env.slave_agent.drv [ahb_slave_driver] Beat AHB_WRITE addr=0x0000201c resp=AHB_RESP_OKAY waits=0 wdata=0x2632a0fb
# UVM_INFO ../src/mst/ahb_master_monitor.sv(128) @ 705000: uvm_test_top.env.master_agent.mon [ahb_master_monitor] Beat[0] addr=0x0000201c wdata=0x2632a0fb resp=AHB_RESP_OKAY
# UVM_INFO ../src/mst/ahb_master_monitor.sv(231) @ 705000: uvm_test_top.env.master_agent.mon [ahb_master_monitor] Observed [AHB_WRITE]: HADDR=0x0000201c, HBURST=AHB_BURST_SINGLE, HSIZE=AHB_SIZE_32B, 1 beats
# UVM_INFO ../src/env/ahb_coverage.sv(174) @ 705000: uvm_test_top.env.master_cov [ahb_coverage] Sampled [AHB_WRITE]: burst=AHB_BURST_SINGLE size=AHB_SIZE_32B beats=1 error=0
# UVM_INFO ../src/slv/ahb_slave_monitor.sv(212) @ 705000: uvm_test_top.env.slave_agent.mon [ahb_slave_monitor] Observed [AHB_WRITE]: HADDR=0x0000201c, HBURST=AHB_BURST_SINGLE, HSIZE=AHB_SIZE_32B, 1 beats
# UVM_INFO ../src/env/ahb_scoreboard.sv(104) @ 705000: uvm_test_top.env.scb [ahb_scoreboard] MATCH #15: [AHB_WRITE] HADDR=0x0000201c AHB_BURST_SINGLE 1 beats
# UVM_INFO ../src/env/ahb_coverage.sv(174) @ 705000: uvm_test_top.env.slave_cov [ahb_coverage] Sampled [AHB_WRITE]: burst=AHB_BURST_SINGLE size=AHB_SIZE_32B beats=1 error=0
# UVM_INFO ../src/mst/ahb_master_driver.sv(85) @ 705000: uvm_test_top.env.master_agent.drv [ahb_master_driver] Queueing [AHB_READ]: HADDR=0x0000201c, HBURST=AHB_BURST_SINGLE, HSIZE=AHB_SIZE_32B, 1 beats
# UVM_INFO ../src/mst/ahb_master_driver.sv(127) @ 705000: uvm_test_top.env.master_agent.drv [ahb_master_driver] Driving [AHB_READ]: HADDR=0x0000201c, HBURST=AHB_BURST_SINGLE, HSIZE=AHB_SIZE_32B, 1 beats               
# UVM_INFO ../src/mst/ahb_master_driver.sv(332) @ 735000: uvm_test_top.env.master_agent.drv [ahb_master_driver] Beat[0/1] addr=0x0000201c trans=AHB_TRANS_NONSEQ resp=AHB_RESP_OKAY rdata=0x2632a0fb
# UVM_INFO ../src/mst/ahb_master_driver.sv(376) @ 735000: uvm_test_top.env.master_agent.drv [ahb_master_driver] Transaction complete: AHB_READ 0x0000201c, 1 beats, burst=AHB_BURST_SINGLE
# UVM_INFO ../src/slv/ahb_slave_driver.sv(184) @ 735000: uvm_test_top.env.slave_agent.drv [ahb_slave_driver] Beat AHB_READ addr=0x0000201c resp=AHB_RESP_OKAY waits=0 rdata=0x2632a0fb
# UVM_INFO ../src/slv/ahb_slave_monitor.sv(212) @ 735000: uvm_test_top.env.slave_agent.mon [ahb_slave_monitor] Observed [AHB_READ]: HADDR=0x0000201c, HBURST=AHB_BURST_SINGLE, HSIZE=AHB_SIZE_32B, 1 beats
# UVM_INFO ../src/env/ahb_coverage.sv(174) @ 735000: uvm_test_top.env.slave_cov [ahb_coverage] Sampled [AHB_READ]: burst=AHB_BURST_SINGLE size=AHB_SIZE_32B beats=1 error=0
# UVM_INFO ../src/mst/ahb_master_monitor.sv(128) @ 735000: uvm_test_top.env.master_agent.mon [ahb_master_monitor] Beat[0] addr=0x0000201c rdata=0x2632a0fb resp=AHB_RESP_OKAY
# UVM_INFO ../src/mst/ahb_master_monitor.sv(231) @ 735000: uvm_test_top.env.master_agent.mon [ahb_master_monitor] Observed [AHB_READ]: HADDR=0x0000201c, HBURST=AHB_BURST_SINGLE, HSIZE=AHB_SIZE_32B, 1 beats
# UVM_INFO ../src/env/ahb_coverage.sv(174) @ 735000: uvm_test_top.env.master_cov [ahb_coverage] Sampled [AHB_READ]: burst=AHB_BURST_SINGLE size=AHB_SIZE_32B beats=1 error=0
# UVM_INFO ../src/env/ahb_scoreboard.sv(104) @ 735000: uvm_test_top.env.scb [ahb_scoreboard] MATCH #16: [AHB_READ] HADDR=0x0000201c AHB_BURST_SINGLE 1 beats
# UVM_INFO ../src/mst_seq/ahb_base_seq.sv(157) @ 735000: uvm_test_top.env.master_agent.sqr@@seq [ahb_single_seq] AHB_BURST_SINGLE AHB_SIZE_32B beat 0 @0x0000201c ok
# UVM_INFO ../src/mst/ahb_master_driver.sv(85) @ 735000: uvm_test_top.env.master_agent.drv [ahb_master_driver] Queueing [AHB_WRITE]: HADDR=0x00002020, HBURST=AHB_BURST_SINGLE, HSIZE=AHB_SIZE_16B, 1 beats
# UVM_INFO ../src/mst/ahb_master_driver.sv(127) @ 735000: uvm_test_top.env.master_agent.drv [ahb_master_driver] Driving [AHB_WRITE]: HADDR=0x00002020, HBURST=AHB_BURST_SINGLE, HSIZE=AHB_SIZE_16B, 1 beats               
# UVM_INFO ../src/mst/ahb_master_driver.sv(332) @ 775000: uvm_test_top.env.master_agent.drv [ahb_master_driver] Beat[0/1] addr=0x00002020 trans=AHB_TRANS_NONSEQ resp=AHB_RESP_OKAY wdata=0x2d260022
# UVM_INFO ../src/mst/ahb_master_driver.sv(376) @ 775000: uvm_test_top.env.master_agent.drv [ahb_master_driver] Transaction complete: AHB_WRITE 0x00002020, 1 beats, burst=AHB_BURST_SINGLE
# UVM_INFO ../src/slv/ahb_slave_driver.sv(184) @ 775000: uvm_test_top.env.slave_agent.drv [ahb_slave_driver] Beat AHB_WRITE addr=0x00002020 resp=AHB_RESP_OKAY waits=1 wdata=0x2d260022
# UVM_INFO ../src/slv/ahb_slave_monitor.sv(212) @ 775000: uvm_test_top.env.slave_agent.mon [ahb_slave_monitor] Observed [AHB_WRITE]: HADDR=0x00002020, HBURST=AHB_BURST_SINGLE, HSIZE=AHB_SIZE_16B, 1 beats
# UVM_INFO ../src/env/ahb_coverage.sv(174) @ 775000: uvm_test_top.env.slave_cov [ahb_coverage] Sampled [AHB_WRITE]: burst=AHB_BURST_SINGLE size=AHB_SIZE_16B beats=1 error=0
# UVM_INFO ../src/mst/ahb_master_monitor.sv(128) @ 775000: uvm_test_top.env.master_agent.mon [ahb_master_monitor] Beat[0] addr=0x00002020 wdata=0x2d260022 resp=AHB_RESP_OKAY
# UVM_INFO ../src/mst/ahb_master_monitor.sv(231) @ 775000: uvm_test_top.env.master_agent.mon [ahb_master_monitor] Observed [AHB_WRITE]: HADDR=0x00002020, HBURST=AHB_BURST_SINGLE, HSIZE=AHB_SIZE_16B, 1 beats
# UVM_INFO ../src/env/ahb_coverage.sv(174) @ 775000: uvm_test_top.env.master_cov [ahb_coverage] Sampled [AHB_WRITE]: burst=AHB_BURST_SINGLE size=AHB_SIZE_16B beats=1 error=0
# UVM_INFO ../src/env/ahb_scoreboard.sv(104) @ 775000: uvm_test_top.env.scb [ahb_scoreboard] MATCH #17: [AHB_WRITE] HADDR=0x00002020 AHB_BURST_SINGLE 1 beats
# UVM_INFO ../src/mst/ahb_master_driver.sv(85) @ 775000: uvm_test_top.env.master_agent.drv [ahb_master_driver] Queueing [AHB_READ]: HADDR=0x00002020, HBURST=AHB_BURST_SINGLE, HSIZE=AHB_SIZE_16B, 1 beats
# UVM_INFO ../src/mst/ahb_master_driver.sv(127) @ 775000: uvm_test_top.env.master_agent.drv [ahb_master_driver] Driving [AHB_READ]: HADDR=0x00002020, HBURST=AHB_BURST_SINGLE, HSIZE=AHB_SIZE_16B, 1 beats               
# UVM_INFO ../src/mst/ahb_master_driver.sv(332) @ 825000: uvm_test_top.env.master_agent.drv [ahb_master_driver] Beat[0/1] addr=0x00002020 trans=AHB_TRANS_NONSEQ resp=AHB_RESP_OKAY rdata=0x2d260022
# UVM_INFO ../src/mst/ahb_master_driver.sv(376) @ 825000: uvm_test_top.env.master_agent.drv [ahb_master_driver] Transaction complete: AHB_READ 0x00002020, 1 beats, burst=AHB_BURST_SINGLE
# UVM_INFO ../src/slv/ahb_slave_driver.sv(184) @ 825000: uvm_test_top.env.slave_agent.drv [ahb_slave_driver] Beat AHB_READ addr=0x00002020 resp=AHB_RESP_OKAY waits=2 rdata=0x2d260022
# UVM_INFO ../src/mst/ahb_master_monitor.sv(128) @ 825000: uvm_test_top.env.master_agent.mon [ahb_master_monitor] Beat[0] addr=0x00002020 rdata=0x2d260022 resp=AHB_RESP_OKAY
# UVM_INFO ../src/mst/ahb_master_monitor.sv(231) @ 825000: uvm_test_top.env.master_agent.mon [ahb_master_monitor] Observed [AHB_READ]: HADDR=0x00002020, HBURST=AHB_BURST_SINGLE, HSIZE=AHB_SIZE_16B, 1 beats
# UVM_INFO ../src/env/ahb_coverage.sv(174) @ 825000: uvm_test_top.env.master_cov [ahb_coverage] Sampled [AHB_READ]: burst=AHB_BURST_SINGLE size=AHB_SIZE_16B beats=1 error=0
# UVM_INFO ../src/slv/ahb_slave_monitor.sv(212) @ 825000: uvm_test_top.env.slave_agent.mon [ahb_slave_monitor] Observed [AHB_READ]: HADDR=0x00002020, HBURST=AHB_BURST_SINGLE, HSIZE=AHB_SIZE_16B, 1 beats
# UVM_INFO ../src/env/ahb_scoreboard.sv(104) @ 825000: uvm_test_top.env.scb [ahb_scoreboard] MATCH #18: [AHB_READ] HADDR=0x00002020 AHB_BURST_SINGLE 1 beats
# UVM_INFO ../src/env/ahb_coverage.sv(174) @ 825000: uvm_test_top.env.slave_cov [ahb_coverage] Sampled [AHB_READ]: burst=AHB_BURST_SINGLE size=AHB_SIZE_16B beats=1 error=0
# UVM_INFO ../src/mst_seq/ahb_base_seq.sv(157) @ 825000: uvm_test_top.env.master_agent.sqr@@seq [ahb_single_seq] AHB_BURST_SINGLE AHB_SIZE_16B beat 0 @0x00002020 ok
# UVM_INFO ../src/mst/ahb_master_driver.sv(85) @ 825000: uvm_test_top.env.master_agent.drv [ahb_master_driver] Queueing [AHB_WRITE]: HADDR=0x00002027, HBURST=AHB_BURST_SINGLE, HSIZE=AHB_SIZE_8B, 1 beats
# UVM_INFO ../src/mst/ahb_master_driver.sv(127) @ 825000: uvm_test_top.env.master_agent.drv [ahb_master_driver] Driving [AHB_WRITE]: HADDR=0x00002027, HBURST=AHB_BURST_SINGLE, HSIZE=AHB_SIZE_8B, 1 beats               
# UVM_INFO ../src/mst/ahb_master_driver.sv(332) @ 855000: uvm_test_top.env.master_agent.drv [ahb_master_driver] Beat[0/1] addr=0x00002027 trans=AHB_TRANS_NONSEQ resp=AHB_RESP_OKAY wdata=0x32b3ce04
# UVM_INFO ../src/mst/ahb_master_driver.sv(376) @ 855000: uvm_test_top.env.master_agent.drv [ahb_master_driver] Transaction complete: AHB_WRITE 0x00002027, 1 beats, burst=AHB_BURST_SINGLE
# UVM_INFO ../src/slv/ahb_slave_driver.sv(184) @ 855000: uvm_test_top.env.slave_agent.drv [ahb_slave_driver] Beat AHB_WRITE addr=0x00002027 resp=AHB_RESP_OKAY waits=0 wdata=0x32b3ce04
# UVM_INFO ../src/slv/ahb_slave_monitor.sv(212) @ 855000: uvm_test_top.env.slave_agent.mon [ahb_slave_monitor] Observed [AHB_WRITE]: HADDR=0x00002027, HBURST=AHB_BURST_SINGLE, HSIZE=AHB_SIZE_8B, 1 beats
# UVM_INFO ../src/env/ahb_coverage.sv(174) @ 855000: uvm_test_top.env.slave_cov [ahb_coverage] Sampled [AHB_WRITE]: burst=AHB_BURST_SINGLE size=AHB_SIZE_8B beats=1 error=0
# UVM_INFO ../src/mst/ahb_master_monitor.sv(128) @ 855000: uvm_test_top.env.master_agent.mon [ahb_master_monitor] Beat[0] addr=0x00002027 wdata=0x32b3ce04 resp=AHB_RESP_OKAY
# UVM_INFO ../src/mst/ahb_master_monitor.sv(231) @ 855000: uvm_test_top.env.master_agent.mon [ahb_master_monitor] Observed [AHB_WRITE]: HADDR=0x00002027, HBURST=AHB_BURST_SINGLE, HSIZE=AHB_SIZE_8B, 1 beats
# UVM_INFO ../src/env/ahb_coverage.sv(174) @ 855000: uvm_test_top.env.master_cov [ahb_coverage] Sampled [AHB_WRITE]: burst=AHB_BURST_SINGLE size=AHB_SIZE_8B beats=1 error=0
# UVM_INFO ../src/env/ahb_scoreboard.sv(104) @ 855000: uvm_test_top.env.scb [ahb_scoreboard] MATCH #19: [AHB_WRITE] HADDR=0x00002027 AHB_BURST_SINGLE 1 beats
# UVM_INFO ../src/mst/ahb_master_driver.sv(85) @ 855000: uvm_test_top.env.master_agent.drv [ahb_master_driver] Queueing [AHB_READ]: HADDR=0x00002027, HBURST=AHB_BURST_SINGLE, HSIZE=AHB_SIZE_8B, 1 beats
# UVM_INFO ../src/mst/ahb_master_driver.sv(127) @ 855000: uvm_test_top.env.master_agent.drv [ahb_master_driver] Driving [AHB_READ]: HADDR=0x00002027, HBURST=AHB_BURST_SINGLE, HSIZE=AHB_SIZE_8B, 1 beats               
# UVM_INFO ../src/mst/ahb_master_driver.sv(332) @ 895000: uvm_test_top.env.master_agent.drv [ahb_master_driver] Beat[0/1] addr=0x00002027 trans=AHB_TRANS_NONSEQ resp=AHB_RESP_OKAY rdata=0x32b3ce04
# UVM_INFO ../src/mst/ahb_master_driver.sv(376) @ 895000: uvm_test_top.env.master_agent.drv [ahb_master_driver] Transaction complete: AHB_READ 0x00002027, 1 beats, burst=AHB_BURST_SINGLE
# UVM_INFO ../src/slv/ahb_slave_driver.sv(184) @ 895000: uvm_test_top.env.slave_agent.drv [ahb_slave_driver] Beat AHB_READ addr=0x00002027 resp=AHB_RESP_OKAY waits=1 rdata=0x32b3ce04
# UVM_INFO ../src/slv/ahb_slave_monitor.sv(212) @ 895000: uvm_test_top.env.slave_agent.mon [ahb_slave_monitor] Observed [AHB_READ]: HADDR=0x00002027, HBURST=AHB_BURST_SINGLE, HSIZE=AHB_SIZE_8B, 1 beats
# UVM_INFO ../src/env/ahb_coverage.sv(174) @ 895000: uvm_test_top.env.slave_cov [ahb_coverage] Sampled [AHB_READ]: burst=AHB_BURST_SINGLE size=AHB_SIZE_8B beats=1 error=0
# UVM_INFO ../src/mst/ahb_master_monitor.sv(128) @ 895000: uvm_test_top.env.master_agent.mon [ahb_master_monitor] Beat[0] addr=0x00002027 rdata=0x32b3ce04 resp=AHB_RESP_OKAY
# UVM_INFO ../src/mst/ahb_master_monitor.sv(231) @ 895000: uvm_test_top.env.master_agent.mon [ahb_master_monitor] Observed [AHB_READ]: HADDR=0x00002027, HBURST=AHB_BURST_SINGLE, HSIZE=AHB_SIZE_8B, 1 beats
# UVM_INFO ../src/env/ahb_coverage.sv(174) @ 895000: uvm_test_top.env.master_cov [ahb_coverage] Sampled [AHB_READ]: burst=AHB_BURST_SINGLE size=AHB_SIZE_8B beats=1 error=0
# UVM_INFO ../src/env/ahb_scoreboard.sv(104) @ 895000: uvm_test_top.env.scb [ahb_scoreboard] MATCH #20: [AHB_READ] HADDR=0x00002027 AHB_BURST_SINGLE 1 beats
# UVM_INFO ../src/mst_seq/ahb_base_seq.sv(157) @ 895000: uvm_test_top.env.master_agent.sqr@@seq [ahb_single_seq] AHB_BURST_SINGLE AHB_SIZE_8B beat 0 @0x00002027 ok
# UVM_INFO ../src/mst/ahb_master_driver.sv(85) @ 895000: uvm_test_top.env.master_agent.drv [ahb_master_driver] Queueing [AHB_WRITE]: HADDR=0x0000202a, HBURST=AHB_BURST_SINGLE, HSIZE=AHB_SIZE_8B, 1 beats
# UVM_INFO ../src/mst/ahb_master_driver.sv(127) @ 895000: uvm_test_top.env.master_agent.drv [ahb_master_driver] Driving [AHB_WRITE]: HADDR=0x0000202a, HBURST=AHB_BURST_SINGLE, HSIZE=AHB_SIZE_8B, 1 beats               
# UVM_INFO ../src/mst/ahb_master_driver.sv(332) @ 945000: uvm_test_top.env.master_agent.drv [ahb_master_driver] Beat[0/1] addr=0x0000202a trans=AHB_TRANS_NONSEQ resp=AHB_RESP_OKAY wdata=0x9997585f
# UVM_INFO ../src/mst/ahb_master_driver.sv(376) @ 945000: uvm_test_top.env.master_agent.drv [ahb_master_driver] Transaction complete: AHB_WRITE 0x0000202a, 1 beats, burst=AHB_BURST_SINGLE
# UVM_INFO ../src/slv/ahb_slave_driver.sv(184) @ 945000: uvm_test_top.env.slave_agent.drv [ahb_slave_driver] Beat AHB_WRITE addr=0x0000202a resp=AHB_RESP_OKAY waits=2 wdata=0x9997585f
# UVM_INFO ../src/mst/ahb_master_monitor.sv(128) @ 945000: uvm_test_top.env.master_agent.mon [ahb_master_monitor] Beat[0] addr=0x0000202a wdata=0x9997585f resp=AHB_RESP_OKAY
# UVM_INFO ../src/mst/ahb_master_monitor.sv(231) @ 945000: uvm_test_top.env.master_agent.mon [ahb_master_monitor] Observed [AHB_WRITE]: HADDR=0x0000202a, HBURST=AHB_BURST_SINGLE, HSIZE=AHB_SIZE_8B, 1 beats
# UVM_INFO ../src/env/ahb_coverage.sv(174) @ 945000: uvm_test_top.env.master_cov [ahb_coverage] Sampled [AHB_WRITE]: burst=AHB_BURST_SINGLE size=AHB_SIZE_8B beats=1 error=0
# UVM_INFO ../src/slv/ahb_slave_monitor.sv(212) @ 945000: uvm_test_top.env.slave_agent.mon [ahb_slave_monitor] Observed [AHB_WRITE]: HADDR=0x0000202a, HBURST=AHB_BURST_SINGLE, HSIZE=AHB_SIZE_8B, 1 beats
# UVM_INFO ../src/env/ahb_scoreboard.sv(104) @ 945000: uvm_test_top.env.scb [ahb_scoreboard] MATCH #21: [AHB_WRITE] HADDR=0x0000202a AHB_BURST_SINGLE 1 beats
# UVM_INFO ../src/env/ahb_coverage.sv(174) @ 945000: uvm_test_top.env.slave_cov [ahb_coverage] Sampled [AHB_WRITE]: burst=AHB_BURST_SINGLE size=AHB_SIZE_8B beats=1 error=0
# UVM_INFO ../src/mst/ahb_master_driver.sv(85) @ 945000: uvm_test_top.env.master_agent.drv [ahb_master_driver] Queueing [AHB_READ]: HADDR=0x0000202a, HBURST=AHB_BURST_SINGLE, HSIZE=AHB_SIZE_8B, 1 beats
# UVM_INFO ../src/mst/ahb_master_driver.sv(127) @ 945000: uvm_test_top.env.master_agent.drv [ahb_master_driver] Driving [AHB_READ]: HADDR=0x0000202a, HBURST=AHB_BURST_SINGLE, HSIZE=AHB_SIZE_8B, 1 beats               
# UVM_INFO ../src/mst/ahb_master_driver.sv(332) @ 975000: uvm_test_top.env.master_agent.drv [ahb_master_driver] Beat[0/1] addr=0x0000202a trans=AHB_TRANS_NONSEQ resp=AHB_RESP_OKAY rdata=0x9997585f
# UVM_INFO ../src/mst/ahb_master_driver.sv(376) @ 975000: uvm_test_top.env.master_agent.drv [ahb_master_driver] Transaction complete: AHB_READ 0x0000202a, 1 beats, burst=AHB_BURST_SINGLE
# UVM_INFO ../src/slv/ahb_slave_driver.sv(184) @ 975000: uvm_test_top.env.slave_agent.drv [ahb_slave_driver] Beat AHB_READ addr=0x0000202a resp=AHB_RESP_OKAY waits=0 rdata=0x9997585f
# UVM_INFO ../src/slv/ahb_slave_monitor.sv(212) @ 975000: uvm_test_top.env.slave_agent.mon [ahb_slave_monitor] Observed [AHB_READ]: HADDR=0x0000202a, HBURST=AHB_BURST_SINGLE, HSIZE=AHB_SIZE_8B, 1 beats
# UVM_INFO ../src/env/ahb_coverage.sv(174) @ 975000: uvm_test_top.env.slave_cov [ahb_coverage] Sampled [AHB_READ]: burst=AHB_BURST_SINGLE size=AHB_SIZE_8B beats=1 error=0
# UVM_INFO ../src/mst/ahb_master_monitor.sv(128) @ 975000: uvm_test_top.env.master_agent.mon [ahb_master_monitor] Beat[0] addr=0x0000202a rdata=0x9997585f resp=AHB_RESP_OKAY
# UVM_INFO ../src/mst/ahb_master_monitor.sv(231) @ 975000: uvm_test_top.env.master_agent.mon [ahb_master_monitor] Observed [AHB_READ]: HADDR=0x0000202a, HBURST=AHB_BURST_SINGLE, HSIZE=AHB_SIZE_8B, 1 beats
# UVM_INFO ../src/env/ahb_coverage.sv(174) @ 975000: uvm_test_top.env.master_cov [ahb_coverage] Sampled [AHB_READ]: burst=AHB_BURST_SINGLE size=AHB_SIZE_8B beats=1 error=0
# UVM_INFO ../src/env/ahb_scoreboard.sv(104) @ 975000: uvm_test_top.env.scb [ahb_scoreboard] MATCH #22: [AHB_READ] HADDR=0x0000202a AHB_BURST_SINGLE 1 beats
# UVM_INFO ../src/mst_seq/ahb_base_seq.sv(157) @ 975000: uvm_test_top.env.master_agent.sqr@@seq [ahb_single_seq] AHB_BURST_SINGLE AHB_SIZE_8B beat 0 @0x0000202a ok
# UVM_INFO ../src/mst/ahb_master_driver.sv(85) @ 975000: uvm_test_top.env.master_agent.drv [ahb_master_driver] Queueing [AHB_WRITE]: HADDR=0x0000202f, HBURST=AHB_BURST_SINGLE, HSIZE=AHB_SIZE_8B, 1 beats
# UVM_INFO ../src/mst/ahb_master_driver.sv(127) @ 975000: uvm_test_top.env.master_agent.drv [ahb_master_driver] Driving [AHB_WRITE]: HADDR=0x0000202f, HBURST=AHB_BURST_SINGLE, HSIZE=AHB_SIZE_8B, 1 beats               
# UVM_INFO ../src/mst/ahb_master_driver.sv(332) @ 1015000: uvm_test_top.env.master_agent.drv [ahb_master_driver] Beat[0/1] addr=0x0000202f trans=AHB_TRANS_NONSEQ resp=AHB_RESP_OKAY wdata=0x3590f08b
# UVM_INFO ../src/mst/ahb_master_driver.sv(376) @ 1015000: uvm_test_top.env.master_agent.drv [ahb_master_driver] Transaction complete: AHB_WRITE 0x0000202f, 1 beats, burst=AHB_BURST_SINGLE
# UVM_INFO ../src/slv/ahb_slave_driver.sv(184) @ 1015000: uvm_test_top.env.slave_agent.drv [ahb_slave_driver] Beat AHB_WRITE addr=0x0000202f resp=AHB_RESP_OKAY waits=1 wdata=0x3590f08b
# UVM_INFO ../src/slv/ahb_slave_monitor.sv(212) @ 1015000: uvm_test_top.env.slave_agent.mon [ahb_slave_monitor] Observed [AHB_WRITE]: HADDR=0x0000202f, HBURST=AHB_BURST_SINGLE, HSIZE=AHB_SIZE_8B, 1 beats
# UVM_INFO ../src/env/ahb_coverage.sv(174) @ 1015000: uvm_test_top.env.slave_cov [ahb_coverage] Sampled [AHB_WRITE]: burst=AHB_BURST_SINGLE size=AHB_SIZE_8B beats=1 error=0
# UVM_INFO ../src/mst/ahb_master_monitor.sv(128) @ 1015000: uvm_test_top.env.master_agent.mon [ahb_master_monitor] Beat[0] addr=0x0000202f wdata=0x3590f08b resp=AHB_RESP_OKAY
# UVM_INFO ../src/mst/ahb_master_monitor.sv(231) @ 1015000: uvm_test_top.env.master_agent.mon [ahb_master_monitor] Observed [AHB_WRITE]: HADDR=0x0000202f, HBURST=AHB_BURST_SINGLE, HSIZE=AHB_SIZE_8B, 1 beats
# UVM_INFO ../src/env/ahb_coverage.sv(174) @ 1015000: uvm_test_top.env.master_cov [ahb_coverage] Sampled [AHB_WRITE]: burst=AHB_BURST_SINGLE size=AHB_SIZE_8B beats=1 error=0
# UVM_INFO ../src/env/ahb_scoreboard.sv(104) @ 1015000: uvm_test_top.env.scb [ahb_scoreboard] MATCH #23: [AHB_WRITE] HADDR=0x0000202f AHB_BURST_SINGLE 1 beats
# UVM_INFO ../src/mst/ahb_master_driver.sv(85) @ 1015000: uvm_test_top.env.master_agent.drv [ahb_master_driver] Queueing [AHB_READ]: HADDR=0x0000202f, HBURST=AHB_BURST_SINGLE, HSIZE=AHB_SIZE_8B, 1 beats
# UVM_INFO ../src/mst/ahb_master_driver.sv(127) @ 1015000: uvm_test_top.env.master_agent.drv [ahb_master_driver] Driving [AHB_READ]: HADDR=0x0000202f, HBURST=AHB_BURST_SINGLE, HSIZE=AHB_SIZE_8B, 1 beats               
# UVM_INFO ../src/mst/ahb_master_driver.sv(332) @ 1055000: uvm_test_top.env.master_agent.drv [ahb_master_driver] Beat[0/1] addr=0x0000202f trans=AHB_TRANS_NONSEQ resp=AHB_RESP_OKAY rdata=0x3590f08b
# UVM_INFO ../src/mst/ahb_master_driver.sv(376) @ 1055000: uvm_test_top.env.master_agent.drv [ahb_master_driver] Transaction complete: AHB_READ 0x0000202f, 1 beats, burst=AHB_BURST_SINGLE
# UVM_INFO ../src/slv/ahb_slave_driver.sv(184) @ 1055000: uvm_test_top.env.slave_agent.drv [ahb_slave_driver] Beat AHB_READ addr=0x0000202f resp=AHB_RESP_OKAY waits=1 rdata=0x3590f08b
# UVM_INFO ../src/slv/ahb_slave_monitor.sv(212) @ 1055000: uvm_test_top.env.slave_agent.mon [ahb_slave_monitor] Observed [AHB_READ]: HADDR=0x0000202f, HBURST=AHB_BURST_SINGLE, HSIZE=AHB_SIZE_8B, 1 beats
# UVM_INFO ../src/env/ahb_coverage.sv(174) @ 1055000: uvm_test_top.env.slave_cov [ahb_coverage] Sampled [AHB_READ]: burst=AHB_BURST_SINGLE size=AHB_SIZE_8B beats=1 error=0
# UVM_INFO ../src/mst/ahb_master_monitor.sv(128) @ 1055000: uvm_test_top.env.master_agent.mon [ahb_master_monitor] Beat[0] addr=0x0000202f rdata=0x3590f08b resp=AHB_RESP_OKAY
# UVM_INFO ../src/mst/ahb_master_monitor.sv(231) @ 1055000: uvm_test_top.env.master_agent.mon [ahb_master_monitor] Observed [AHB_READ]: HADDR=0x0000202f, HBURST=AHB_BURST_SINGLE, HSIZE=AHB_SIZE_8B, 1 beats
# UVM_INFO ../src/env/ahb_coverage.sv(174) @ 1055000: uvm_test_top.env.master_cov [ahb_coverage] Sampled [AHB_READ]: burst=AHB_BURST_SINGLE size=AHB_SIZE_8B beats=1 error=0
# UVM_INFO ../src/env/ahb_scoreboard.sv(104) @ 1055000: uvm_test_top.env.scb [ahb_scoreboard] MATCH #24: [AHB_READ] HADDR=0x0000202f AHB_BURST_SINGLE 1 beats
# UVM_INFO ../src/mst_seq/ahb_base_seq.sv(157) @ 1055000: uvm_test_top.env.master_agent.sqr@@seq [ahb_single_seq] AHB_BURST_SINGLE AHB_SIZE_8B beat 0 @0x0000202f ok
# UVM_INFO ../src/mst/ahb_master_driver.sv(85) @ 1055000: uvm_test_top.env.master_agent.drv [ahb_master_driver] Queueing [AHB_WRITE]: HADDR=0x00002030, HBURST=AHB_BURST_SINGLE, HSIZE=AHB_SIZE_32B, 1 beats
# UVM_INFO ../src/mst/ahb_master_driver.sv(127) @ 1055000: uvm_test_top.env.master_agent.drv [ahb_master_driver] Driving [AHB_WRITE]: HADDR=0x00002030, HBURST=AHB_BURST_SINGLE, HSIZE=AHB_SIZE_32B, 1 beats               
# UVM_INFO ../src/mst/ahb_master_driver.sv(332) @ 1085000: uvm_test_top.env.master_agent.drv [ahb_master_driver] Beat[0/1] addr=0x00002030 trans=AHB_TRANS_NONSEQ resp=AHB_RESP_OKAY wdata=0x909c3da0
# UVM_INFO ../src/mst/ahb_master_driver.sv(376) @ 1085000: uvm_test_top.env.master_agent.drv [ahb_master_driver] Transaction complete: AHB_WRITE 0x00002030, 1 beats, burst=AHB_BURST_SINGLE
# UVM_INFO ../src/slv/ahb_slave_driver.sv(184) @ 1085000: uvm_test_top.env.slave_agent.drv [ahb_slave_driver] Beat AHB_WRITE addr=0x00002030 resp=AHB_RESP_OKAY waits=0 wdata=0x909c3da0
# UVM_INFO ../src/mst/ahb_master_monitor.sv(128) @ 1085000: uvm_test_top.env.master_agent.mon [ahb_master_monitor] Beat[0] addr=0x00002030 wdata=0x909c3da0 resp=AHB_RESP_OKAY
# UVM_INFO ../src/mst/ahb_master_monitor.sv(231) @ 1085000: uvm_test_top.env.master_agent.mon [ahb_master_monitor] Observed [AHB_WRITE]: HADDR=0x00002030, HBURST=AHB_BURST_SINGLE, HSIZE=AHB_SIZE_32B, 1 beats
# UVM_INFO ../src/env/ahb_coverage.sv(174) @ 1085000: uvm_test_top.env.master_cov [ahb_coverage] Sampled [AHB_WRITE]: burst=AHB_BURST_SINGLE size=AHB_SIZE_32B beats=1 error=0
# UVM_INFO ../src/slv/ahb_slave_monitor.sv(212) @ 1085000: uvm_test_top.env.slave_agent.mon [ahb_slave_monitor] Observed [AHB_WRITE]: HADDR=0x00002030, HBURST=AHB_BURST_SINGLE, HSIZE=AHB_SIZE_32B, 1 beats
# UVM_INFO ../src/env/ahb_scoreboard.sv(104) @ 1085000: uvm_test_top.env.scb [ahb_scoreboard] MATCH #25: [AHB_WRITE] HADDR=0x00002030 AHB_BURST_SINGLE 1 beats
# UVM_INFO ../src/env/ahb_coverage.sv(174) @ 1085000: uvm_test_top.env.slave_cov [ahb_coverage] Sampled [AHB_WRITE]: burst=AHB_BURST_SINGLE size=AHB_SIZE_32B beats=1 error=0
# UVM_INFO ../src/mst/ahb_master_driver.sv(85) @ 1085000: uvm_test_top.env.master_agent.drv [ahb_master_driver] Queueing [AHB_READ]: HADDR=0x00002030, HBURST=AHB_BURST_SINGLE, HSIZE=AHB_SIZE_32B, 1 beats
# UVM_INFO ../src/mst/ahb_master_driver.sv(127) @ 1085000: uvm_test_top.env.master_agent.drv [ahb_master_driver] Driving [AHB_READ]: HADDR=0x00002030, HBURST=AHB_BURST_SINGLE, HSIZE=AHB_SIZE_32B, 1 beats               
# UVM_INFO ../src/mst/ahb_master_driver.sv(332) @ 1125000: uvm_test_top.env.master_agent.drv [ahb_master_driver] Beat[0/1] addr=0x00002030 trans=AHB_TRANS_NONSEQ resp=AHB_RESP_OKAY rdata=0x909c3da0
# UVM_INFO ../src/mst/ahb_master_driver.sv(376) @ 1125000: uvm_test_top.env.master_agent.drv [ahb_master_driver] Transaction complete: AHB_READ 0x00002030, 1 beats, burst=AHB_BURST_SINGLE
# UVM_INFO ../src/slv/ahb_slave_driver.sv(184) @ 1125000: uvm_test_top.env.slave_agent.drv [ahb_slave_driver] Beat AHB_READ addr=0x00002030 resp=AHB_RESP_OKAY waits=1 rdata=0x909c3da0
# UVM_INFO ../src/mst/ahb_master_monitor.sv(128) @ 1125000: uvm_test_top.env.master_agent.mon [ahb_master_monitor] Beat[0] addr=0x00002030 rdata=0x909c3da0 resp=AHB_RESP_OKAY
# UVM_INFO ../src/mst/ahb_master_monitor.sv(231) @ 1125000: uvm_test_top.env.master_agent.mon [ahb_master_monitor] Observed [AHB_READ]: HADDR=0x00002030, HBURST=AHB_BURST_SINGLE, HSIZE=AHB_SIZE_32B, 1 beats
# UVM_INFO ../src/env/ahb_coverage.sv(174) @ 1125000: uvm_test_top.env.master_cov [ahb_coverage] Sampled [AHB_READ]: burst=AHB_BURST_SINGLE size=AHB_SIZE_32B beats=1 error=0
# UVM_INFO ../src/slv/ahb_slave_monitor.sv(212) @ 1125000: uvm_test_top.env.slave_agent.mon [ahb_slave_monitor] Observed [AHB_READ]: HADDR=0x00002030, HBURST=AHB_BURST_SINGLE, HSIZE=AHB_SIZE_32B, 1 beats
# UVM_INFO ../src/env/ahb_scoreboard.sv(104) @ 1125000: uvm_test_top.env.scb [ahb_scoreboard] MATCH #26: [AHB_READ] HADDR=0x00002030 AHB_BURST_SINGLE 1 beats
# UVM_INFO ../src/env/ahb_coverage.sv(174) @ 1125000: uvm_test_top.env.slave_cov [ahb_coverage] Sampled [AHB_READ]: burst=AHB_BURST_SINGLE size=AHB_SIZE_32B beats=1 error=0
# UVM_INFO ../src/mst_seq/ahb_base_seq.sv(157) @ 1125000: uvm_test_top.env.master_agent.sqr@@seq [ahb_single_seq] AHB_BURST_SINGLE AHB_SIZE_32B beat 0 @0x00002030 ok
# UVM_INFO ../src/mst/ahb_master_driver.sv(85) @ 1125000: uvm_test_top.env.master_agent.drv [ahb_master_driver] Queueing [AHB_WRITE]: HADDR=0x00002034, HBURST=AHB_BURST_SINGLE, HSIZE=AHB_SIZE_32B, 1 beats
# UVM_INFO ../src/mst/ahb_master_driver.sv(127) @ 1125000: uvm_test_top.env.master_agent.drv [ahb_master_driver] Driving [AHB_WRITE]: HADDR=0x00002034, HBURST=AHB_BURST_SINGLE, HSIZE=AHB_SIZE_32B, 1 beats               
# UVM_INFO ../src/mst/ahb_master_driver.sv(332) @ 1155000: uvm_test_top.env.master_agent.drv [ahb_master_driver] Beat[0/1] addr=0x00002034 trans=AHB_TRANS_NONSEQ resp=AHB_RESP_OKAY wdata=0xe71f12e3
# UVM_INFO ../src/mst/ahb_master_driver.sv(376) @ 1155000: uvm_test_top.env.master_agent.drv [ahb_master_driver] Transaction complete: AHB_WRITE 0x00002034, 1 beats, burst=AHB_BURST_SINGLE
# UVM_INFO ../src/slv/ahb_slave_driver.sv(184) @ 1155000: uvm_test_top.env.slave_agent.drv [ahb_slave_driver] Beat AHB_WRITE addr=0x00002034 resp=AHB_RESP_OKAY waits=0 wdata=0xe71f12e3
# UVM_INFO ../src/slv/ahb_slave_monitor.sv(212) @ 1155000: uvm_test_top.env.slave_agent.mon [ahb_slave_monitor] Observed [AHB_WRITE]: HADDR=0x00002034, HBURST=AHB_BURST_SINGLE, HSIZE=AHB_SIZE_32B, 1 beats
# UVM_INFO ../src/env/ahb_coverage.sv(174) @ 1155000: uvm_test_top.env.slave_cov [ahb_coverage] Sampled [AHB_WRITE]: burst=AHB_BURST_SINGLE size=AHB_SIZE_32B beats=1 error=0
# UVM_INFO ../src/mst/ahb_master_monitor.sv(128) @ 1155000: uvm_test_top.env.master_agent.mon [ahb_master_monitor] Beat[0] addr=0x00002034 wdata=0xe71f12e3 resp=AHB_RESP_OKAY
# UVM_INFO ../src/mst/ahb_master_monitor.sv(231) @ 1155000: uvm_test_top.env.master_agent.mon [ahb_master_monitor] Observed [AHB_WRITE]: HADDR=0x00002034, HBURST=AHB_BURST_SINGLE, HSIZE=AHB_SIZE_32B, 1 beats
# UVM_INFO ../src/env/ahb_coverage.sv(174) @ 1155000: uvm_test_top.env.master_cov [ahb_coverage] Sampled [AHB_WRITE]: burst=AHB_BURST_SINGLE size=AHB_SIZE_32B beats=1 error=0
# UVM_INFO ../src/env/ahb_scoreboard.sv(104) @ 1155000: uvm_test_top.env.scb [ahb_scoreboard] MATCH #27: [AHB_WRITE] HADDR=0x00002034 AHB_BURST_SINGLE 1 beats
# UVM_INFO ../src/mst/ahb_master_driver.sv(85) @ 1155000: uvm_test_top.env.master_agent.drv [ahb_master_driver] Queueing [AHB_READ]: HADDR=0x00002034, HBURST=AHB_BURST_SINGLE, HSIZE=AHB_SIZE_32B, 1 beats
# UVM_INFO ../src/mst/ahb_master_driver.sv(127) @ 1155000: uvm_test_top.env.master_agent.drv [ahb_master_driver] Driving [AHB_READ]: HADDR=0x00002034, HBURST=AHB_BURST_SINGLE, HSIZE=AHB_SIZE_32B, 1 beats               
# UVM_INFO ../src/mst/ahb_master_driver.sv(332) @ 1205000: uvm_test_top.env.master_agent.drv [ahb_master_driver] Beat[0/1] addr=0x00002034 trans=AHB_TRANS_NONSEQ resp=AHB_RESP_OKAY rdata=0xe71f12e3
# UVM_INFO ../src/mst/ahb_master_driver.sv(376) @ 1205000: uvm_test_top.env.master_agent.drv [ahb_master_driver] Transaction complete: AHB_READ 0x00002034, 1 beats, burst=AHB_BURST_SINGLE
# UVM_INFO ../src/slv/ahb_slave_driver.sv(184) @ 1205000: uvm_test_top.env.slave_agent.drv [ahb_slave_driver] Beat AHB_READ addr=0x00002034 resp=AHB_RESP_OKAY waits=2 rdata=0xe71f12e3
# UVM_INFO ../src/mst/ahb_master_monitor.sv(128) @ 1205000: uvm_test_top.env.master_agent.mon [ahb_master_monitor] Beat[0] addr=0x00002034 rdata=0xe71f12e3 resp=AHB_RESP_OKAY
# UVM_INFO ../src/mst/ahb_master_monitor.sv(231) @ 1205000: uvm_test_top.env.master_agent.mon [ahb_master_monitor] Observed [AHB_READ]: HADDR=0x00002034, HBURST=AHB_BURST_SINGLE, HSIZE=AHB_SIZE_32B, 1 beats
# UVM_INFO ../src/env/ahb_coverage.sv(174) @ 1205000: uvm_test_top.env.master_cov [ahb_coverage] Sampled [AHB_READ]: burst=AHB_BURST_SINGLE size=AHB_SIZE_32B beats=1 error=0
# UVM_INFO ../src/slv/ahb_slave_monitor.sv(212) @ 1205000: uvm_test_top.env.slave_agent.mon [ahb_slave_monitor] Observed [AHB_READ]: HADDR=0x00002034, HBURST=AHB_BURST_SINGLE, HSIZE=AHB_SIZE_32B, 1 beats
# UVM_INFO ../src/env/ahb_scoreboard.sv(104) @ 1205000: uvm_test_top.env.scb [ahb_scoreboard] MATCH #28: [AHB_READ] HADDR=0x00002034 AHB_BURST_SINGLE 1 beats
# UVM_INFO ../src/env/ahb_coverage.sv(174) @ 1205000: uvm_test_top.env.slave_cov [ahb_coverage] Sampled [AHB_READ]: burst=AHB_BURST_SINGLE size=AHB_SIZE_32B beats=1 error=0
# UVM_INFO ../src/mst_seq/ahb_base_seq.sv(157) @ 1205000: uvm_test_top.env.master_agent.sqr@@seq [ahb_single_seq] AHB_BURST_SINGLE AHB_SIZE_32B beat 0 @0x00002034 ok
# UVM_INFO ../src/mst/ahb_master_driver.sv(85) @ 1205000: uvm_test_top.env.master_agent.drv [ahb_master_driver] Queueing [AHB_WRITE]: HADDR=0x0000203b, HBURST=AHB_BURST_SINGLE, HSIZE=AHB_SIZE_8B, 1 beats
# UVM_INFO ../src/mst/ahb_master_driver.sv(127) @ 1205000: uvm_test_top.env.master_agent.drv [ahb_master_driver] Driving [AHB_WRITE]: HADDR=0x0000203b, HBURST=AHB_BURST_SINGLE, HSIZE=AHB_SIZE_8B, 1 beats               
# UVM_INFO ../src/mst/ahb_master_driver.sv(332) @ 1255000: uvm_test_top.env.master_agent.drv [ahb_master_driver] Beat[0/1] addr=0x0000203b trans=AHB_TRANS_NONSEQ resp=AHB_RESP_OKAY wdata=0xeb8a7184
# UVM_INFO ../src/mst/ahb_master_driver.sv(376) @ 1255000: uvm_test_top.env.master_agent.drv [ahb_master_driver] Transaction complete: AHB_WRITE 0x0000203b, 1 beats, burst=AHB_BURST_SINGLE
# UVM_INFO ../src/slv/ahb_slave_driver.sv(184) @ 1255000: uvm_test_top.env.slave_agent.drv [ahb_slave_driver] Beat AHB_WRITE addr=0x0000203b resp=AHB_RESP_OKAY waits=2 wdata=0xeb8a7184
# UVM_INFO ../src/slv/ahb_slave_monitor.sv(212) @ 1255000: uvm_test_top.env.slave_agent.mon [ahb_slave_monitor] Observed [AHB_WRITE]: HADDR=0x0000203b, HBURST=AHB_BURST_SINGLE, HSIZE=AHB_SIZE_8B, 1 beats
# UVM_INFO ../src/env/ahb_coverage.sv(174) @ 1255000: uvm_test_top.env.slave_cov [ahb_coverage] Sampled [AHB_WRITE]: burst=AHB_BURST_SINGLE size=AHB_SIZE_8B beats=1 error=0
# UVM_INFO ../src/mst/ahb_master_monitor.sv(128) @ 1255000: uvm_test_top.env.master_agent.mon [ahb_master_monitor] Beat[0] addr=0x0000203b wdata=0xeb8a7184 resp=AHB_RESP_OKAY
# UVM_INFO ../src/mst/ahb_master_monitor.sv(231) @ 1255000: uvm_test_top.env.master_agent.mon [ahb_master_monitor] Observed [AHB_WRITE]: HADDR=0x0000203b, HBURST=AHB_BURST_SINGLE, HSIZE=AHB_SIZE_8B, 1 beats
# UVM_INFO ../src/env/ahb_coverage.sv(174) @ 1255000: uvm_test_top.env.master_cov [ahb_coverage] Sampled [AHB_WRITE]: burst=AHB_BURST_SINGLE size=AHB_SIZE_8B beats=1 error=0
# UVM_INFO ../src/env/ahb_scoreboard.sv(104) @ 1255000: uvm_test_top.env.scb [ahb_scoreboard] MATCH #29: [AHB_WRITE] HADDR=0x0000203b AHB_BURST_SINGLE 1 beats
# UVM_INFO ../src/mst/ahb_master_driver.sv(85) @ 1255000: uvm_test_top.env.master_agent.drv [ahb_master_driver] Queueing [AHB_READ]: HADDR=0x0000203b, HBURST=AHB_BURST_SINGLE, HSIZE=AHB_SIZE_8B, 1 beats
# UVM_INFO ../src/mst/ahb_master_driver.sv(127) @ 1255000: uvm_test_top.env.master_agent.drv [ahb_master_driver] Driving [AHB_READ]: HADDR=0x0000203b, HBURST=AHB_BURST_SINGLE, HSIZE=AHB_SIZE_8B, 1 beats               
# UVM_INFO ../src/mst/ahb_master_driver.sv(332) @ 1305000: uvm_test_top.env.master_agent.drv [ahb_master_driver] Beat[0/1] addr=0x0000203b trans=AHB_TRANS_NONSEQ resp=AHB_RESP_OKAY rdata=0xeb8a7184
# UVM_INFO ../src/mst/ahb_master_driver.sv(376) @ 1305000: uvm_test_top.env.master_agent.drv [ahb_master_driver] Transaction complete: AHB_READ 0x0000203b, 1 beats, burst=AHB_BURST_SINGLE
# UVM_INFO ../src/slv/ahb_slave_driver.sv(184) @ 1305000: uvm_test_top.env.slave_agent.drv [ahb_slave_driver] Beat AHB_READ addr=0x0000203b resp=AHB_RESP_OKAY waits=2 rdata=0xeb8a7184
# UVM_INFO ../src/mst/ahb_master_monitor.sv(128) @ 1305000: uvm_test_top.env.master_agent.mon [ahb_master_monitor] Beat[0] addr=0x0000203b rdata=0xeb8a7184 resp=AHB_RESP_OKAY
# UVM_INFO ../src/mst/ahb_master_monitor.sv(231) @ 1305000: uvm_test_top.env.master_agent.mon [ahb_master_monitor] Observed [AHB_READ]: HADDR=0x0000203b, HBURST=AHB_BURST_SINGLE, HSIZE=AHB_SIZE_8B, 1 beats
# UVM_INFO ../src/env/ahb_coverage.sv(174) @ 1305000: uvm_test_top.env.master_cov [ahb_coverage] Sampled [AHB_READ]: burst=AHB_BURST_SINGLE size=AHB_SIZE_8B beats=1 error=0
# UVM_INFO ../src/slv/ahb_slave_monitor.sv(212) @ 1305000: uvm_test_top.env.slave_agent.mon [ahb_slave_monitor] Observed [AHB_READ]: HADDR=0x0000203b, HBURST=AHB_BURST_SINGLE, HSIZE=AHB_SIZE_8B, 1 beats
# UVM_INFO ../src/env/ahb_scoreboard.sv(104) @ 1305000: uvm_test_top.env.scb [ahb_scoreboard] MATCH #30: [AHB_READ] HADDR=0x0000203b AHB_BURST_SINGLE 1 beats
# UVM_INFO ../src/env/ahb_coverage.sv(174) @ 1305000: uvm_test_top.env.slave_cov [ahb_coverage] Sampled [AHB_READ]: burst=AHB_BURST_SINGLE size=AHB_SIZE_8B beats=1 error=0
# UVM_INFO ../src/mst_seq/ahb_base_seq.sv(157) @ 1305000: uvm_test_top.env.master_agent.sqr@@seq [ahb_single_seq] AHB_BURST_SINGLE AHB_SIZE_8B beat 0 @0x0000203b ok
# UVM_INFO ../src/mst/ahb_master_driver.sv(85) @ 1305000: uvm_test_top.env.master_agent.drv [ahb_master_driver] Queueing [AHB_WRITE]: HADDR=0x0000203d, HBURST=AHB_BURST_SINGLE, HSIZE=AHB_SIZE_8B, 1 beats
# UVM_INFO ../src/mst/ahb_master_driver.sv(127) @ 1305000: uvm_test_top.env.master_agent.drv [ahb_master_driver] Driving [AHB_WRITE]: HADDR=0x0000203d, HBURST=AHB_BURST_SINGLE, HSIZE=AHB_SIZE_8B, 1 beats               
# UVM_INFO ../src/mst/ahb_master_driver.sv(332) @ 1355000: uvm_test_top.env.master_agent.drv [ahb_master_driver] Beat[0/1] addr=0x0000203d trans=AHB_TRANS_NONSEQ resp=AHB_RESP_OKAY wdata=0x000354de
# UVM_INFO ../src/mst/ahb_master_driver.sv(376) @ 1355000: uvm_test_top.env.master_agent.drv [ahb_master_driver] Transaction complete: AHB_WRITE 0x0000203d, 1 beats, burst=AHB_BURST_SINGLE
# UVM_INFO ../src/slv/ahb_slave_driver.sv(184) @ 1355000: uvm_test_top.env.slave_agent.drv [ahb_slave_driver] Beat AHB_WRITE addr=0x0000203d resp=AHB_RESP_OKAY waits=2 wdata=0x000354de
# UVM_INFO ../src/slv/ahb_slave_monitor.sv(212) @ 1355000: uvm_test_top.env.slave_agent.mon [ahb_slave_monitor] Observed [AHB_WRITE]: HADDR=0x0000203d, HBURST=AHB_BURST_SINGLE, HSIZE=AHB_SIZE_8B, 1 beats
# UVM_INFO ../src/env/ahb_coverage.sv(174) @ 1355000: uvm_test_top.env.slave_cov [ahb_coverage] Sampled [AHB_WRITE]: burst=AHB_BURST_SINGLE size=AHB_SIZE_8B beats=1 error=0
# UVM_INFO ../src/mst/ahb_master_monitor.sv(128) @ 1355000: uvm_test_top.env.master_agent.mon [ahb_master_monitor] Beat[0] addr=0x0000203d wdata=0x000354de resp=AHB_RESP_OKAY
# UVM_INFO ../src/mst/ahb_master_monitor.sv(231) @ 1355000: uvm_test_top.env.master_agent.mon [ahb_master_monitor] Observed [AHB_WRITE]: HADDR=0x0000203d, HBURST=AHB_BURST_SINGLE, HSIZE=AHB_SIZE_8B, 1 beats
# UVM_INFO ../src/env/ahb_coverage.sv(174) @ 1355000: uvm_test_top.env.master_cov [ahb_coverage] Sampled [AHB_WRITE]: burst=AHB_BURST_SINGLE size=AHB_SIZE_8B beats=1 error=0
# UVM_INFO ../src/env/ahb_scoreboard.sv(104) @ 1355000: uvm_test_top.env.scb [ahb_scoreboard] MATCH #31: [AHB_WRITE] HADDR=0x0000203d AHB_BURST_SINGLE 1 beats
# UVM_INFO ../src/mst/ahb_master_driver.sv(85) @ 1355000: uvm_test_top.env.master_agent.drv [ahb_master_driver] Queueing [AHB_READ]: HADDR=0x0000203d, HBURST=AHB_BURST_SINGLE, HSIZE=AHB_SIZE_8B, 1 beats
# UVM_INFO ../src/mst/ahb_master_driver.sv(127) @ 1355000: uvm_test_top.env.master_agent.drv [ahb_master_driver] Driving [AHB_READ]: HADDR=0x0000203d, HBURST=AHB_BURST_SINGLE, HSIZE=AHB_SIZE_8B, 1 beats               
# UVM_INFO ../src/mst/ahb_master_driver.sv(332) @ 1385000: uvm_test_top.env.master_agent.drv [ahb_master_driver] Beat[0/1] addr=0x0000203d trans=AHB_TRANS_NONSEQ resp=AHB_RESP_OKAY rdata=0x000354de
# UVM_INFO ../src/mst/ahb_master_driver.sv(376) @ 1385000: uvm_test_top.env.master_agent.drv [ahb_master_driver] Transaction complete: AHB_READ 0x0000203d, 1 beats, burst=AHB_BURST_SINGLE
# UVM_INFO ../src/slv/ahb_slave_driver.sv(184) @ 1385000: uvm_test_top.env.slave_agent.drv [ahb_slave_driver] Beat AHB_READ addr=0x0000203d resp=AHB_RESP_OKAY waits=0 rdata=0x000354de
# UVM_INFO ../src/mst/ahb_master_monitor.sv(128) @ 1385000: uvm_test_top.env.master_agent.mon [ahb_master_monitor] Beat[0] addr=0x0000203d rdata=0x000354de resp=AHB_RESP_OKAY
# UVM_INFO ../src/mst/ahb_master_monitor.sv(231) @ 1385000: uvm_test_top.env.master_agent.mon [ahb_master_monitor] Observed [AHB_READ]: HADDR=0x0000203d, HBURST=AHB_BURST_SINGLE, HSIZE=AHB_SIZE_8B, 1 beats
# UVM_INFO ../src/env/ahb_coverage.sv(174) @ 1385000: uvm_test_top.env.master_cov [ahb_coverage] Sampled [AHB_READ]: burst=AHB_BURST_SINGLE size=AHB_SIZE_8B beats=1 error=0
# UVM_INFO ../src/slv/ahb_slave_monitor.sv(212) @ 1385000: uvm_test_top.env.slave_agent.mon [ahb_slave_monitor] Observed [AHB_READ]: HADDR=0x0000203d, HBURST=AHB_BURST_SINGLE, HSIZE=AHB_SIZE_8B, 1 beats
# UVM_INFO ../src/env/ahb_scoreboard.sv(104) @ 1385000: uvm_test_top.env.scb [ahb_scoreboard] MATCH #32: [AHB_READ] HADDR=0x0000203d AHB_BURST_SINGLE 1 beats
# UVM_INFO ../src/env/ahb_coverage.sv(174) @ 1385000: uvm_test_top.env.slave_cov [ahb_coverage] Sampled [AHB_READ]: burst=AHB_BURST_SINGLE size=AHB_SIZE_8B beats=1 error=0
# UVM_INFO ../src/mst_seq/ahb_base_seq.sv(157) @ 1385000: uvm_test_top.env.master_agent.sqr@@seq [ahb_single_seq] AHB_BURST_SINGLE AHB_SIZE_8B beat 0 @0x0000203d ok
# UVM_INFO ../src/mst/ahb_master_driver.sv(85) @ 1385000: uvm_test_top.env.master_agent.drv [ahb_master_driver] Queueing [AHB_WRITE]: HADDR=0x00002042, HBURST=AHB_BURST_SINGLE, HSIZE=AHB_SIZE_16B, 1 beats
# UVM_INFO ../src/mst/ahb_master_driver.sv(127) @ 1385000: uvm_test_top.env.master_agent.drv [ahb_master_driver] Driving [AHB_WRITE]: HADDR=0x00002042, HBURST=AHB_BURST_SINGLE, HSIZE=AHB_SIZE_16B, 1 beats               
# UVM_INFO ../src/mst/ahb_master_driver.sv(332) @ 1435000: uvm_test_top.env.master_agent.drv [ahb_master_driver] Beat[0/1] addr=0x00002042 trans=AHB_TRANS_NONSEQ resp=AHB_RESP_OKAY wdata=0x41ef890f
# UVM_INFO ../src/mst/ahb_master_driver.sv(376) @ 1435000: uvm_test_top.env.master_agent.drv [ahb_master_driver] Transaction complete: AHB_WRITE 0x00002042, 1 beats, burst=AHB_BURST_SINGLE
# UVM_INFO ../src/slv/ahb_slave_driver.sv(184) @ 1435000: uvm_test_top.env.slave_agent.drv [ahb_slave_driver] Beat AHB_WRITE addr=0x00002042 resp=AHB_RESP_OKAY waits=2 wdata=0x41ef890f
# UVM_INFO ../src/slv/ahb_slave_monitor.sv(212) @ 1435000: uvm_test_top.env.slave_agent.mon [ahb_slave_monitor] Observed [AHB_WRITE]: HADDR=0x00002042, HBURST=AHB_BURST_SINGLE, HSIZE=AHB_SIZE_16B, 1 beats
# UVM_INFO ../src/env/ahb_coverage.sv(174) @ 1435000: uvm_test_top.env.slave_cov [ahb_coverage] Sampled [AHB_WRITE]: burst=AHB_BURST_SINGLE size=AHB_SIZE_16B beats=1 error=0
# UVM_INFO ../src/mst/ahb_master_monitor.sv(128) @ 1435000: uvm_test_top.env.master_agent.mon [ahb_master_monitor] Beat[0] addr=0x00002042 wdata=0x41ef890f resp=AHB_RESP_OKAY
# UVM_INFO ../src/mst/ahb_master_monitor.sv(231) @ 1435000: uvm_test_top.env.master_agent.mon [ahb_master_monitor] Observed [AHB_WRITE]: HADDR=0x00002042, HBURST=AHB_BURST_SINGLE, HSIZE=AHB_SIZE_16B, 1 beats
# UVM_INFO ../src/env/ahb_coverage.sv(174) @ 1435000: uvm_test_top.env.master_cov [ahb_coverage] Sampled [AHB_WRITE]: burst=AHB_BURST_SINGLE size=AHB_SIZE_16B beats=1 error=0
# UVM_INFO ../src/env/ahb_scoreboard.sv(104) @ 1435000: uvm_test_top.env.scb [ahb_scoreboard] MATCH #33: [AHB_WRITE] HADDR=0x00002042 AHB_BURST_SINGLE 1 beats
# UVM_INFO ../src/mst/ahb_master_driver.sv(85) @ 1435000: uvm_test_top.env.master_agent.drv [ahb_master_driver] Queueing [AHB_READ]: HADDR=0x00002042, HBURST=AHB_BURST_SINGLE, HSIZE=AHB_SIZE_16B, 1 beats
# UVM_INFO ../src/mst/ahb_master_driver.sv(127) @ 1435000: uvm_test_top.env.master_agent.drv [ahb_master_driver] Driving [AHB_READ]: HADDR=0x00002042, HBURST=AHB_BURST_SINGLE, HSIZE=AHB_SIZE_16B, 1 beats               
# UVM_INFO ../src/mst/ahb_master_driver.sv(332) @ 1475000: uvm_test_top.env.master_agent.drv [ahb_master_driver] Beat[0/1] addr=0x00002042 trans=AHB_TRANS_NONSEQ resp=AHB_RESP_OKAY rdata=0x41ef890f
# UVM_INFO ../src/mst/ahb_master_driver.sv(376) @ 1475000: uvm_test_top.env.master_agent.drv [ahb_master_driver] Transaction complete: AHB_READ 0x00002042, 1 beats, burst=AHB_BURST_SINGLE
# UVM_INFO ../src/slv/ahb_slave_driver.sv(184) @ 1475000: uvm_test_top.env.slave_agent.drv [ahb_slave_driver] Beat AHB_READ addr=0x00002042 resp=AHB_RESP_OKAY waits=1 rdata=0x41ef890f
# UVM_INFO ../src/slv/ahb_slave_monitor.sv(212) @ 1475000: uvm_test_top.env.slave_agent.mon [ahb_slave_monitor] Observed [AHB_READ]: HADDR=0x00002042, HBURST=AHB_BURST_SINGLE, HSIZE=AHB_SIZE_16B, 1 beats
# UVM_INFO ../src/env/ahb_coverage.sv(174) @ 1475000: uvm_test_top.env.slave_cov [ahb_coverage] Sampled [AHB_READ]: burst=AHB_BURST_SINGLE size=AHB_SIZE_16B beats=1 error=0
# UVM_INFO ../src/mst/ahb_master_monitor.sv(128) @ 1475000: uvm_test_top.env.master_agent.mon [ahb_master_monitor] Beat[0] addr=0x00002042 rdata=0x41ef890f resp=AHB_RESP_OKAY
# UVM_INFO ../src/mst/ahb_master_monitor.sv(231) @ 1475000: uvm_test_top.env.master_agent.mon [ahb_master_monitor] Observed [AHB_READ]: HADDR=0x00002042, HBURST=AHB_BURST_SINGLE, HSIZE=AHB_SIZE_16B, 1 beats
# UVM_INFO ../src/env/ahb_coverage.sv(174) @ 1475000: uvm_test_top.env.master_cov [ahb_coverage] Sampled [AHB_READ]: burst=AHB_BURST_SINGLE size=AHB_SIZE_16B beats=1 error=0
# UVM_INFO ../src/env/ahb_scoreboard.sv(104) @ 1475000: uvm_test_top.env.scb [ahb_scoreboard] MATCH #34: [AHB_READ] HADDR=0x00002042 AHB_BURST_SINGLE 1 beats
# UVM_INFO ../src/mst_seq/ahb_base_seq.sv(157) @ 1475000: uvm_test_top.env.master_agent.sqr@@seq [ahb_single_seq] AHB_BURST_SINGLE AHB_SIZE_16B beat 0 @0x00002042 ok
# UVM_INFO ../src/mst/ahb_master_driver.sv(85) @ 1475000: uvm_test_top.env.master_agent.drv [ahb_master_driver] Queueing [AHB_WRITE]: HADDR=0x00002044, HBURST=AHB_BURST_SINGLE, HSIZE=AHB_SIZE_32B, 1 beats
# UVM_INFO ../src/mst/ahb_master_driver.sv(127) @ 1475000: uvm_test_top.env.master_agent.drv [ahb_master_driver] Driving [AHB_WRITE]: HADDR=0x00002044, HBURST=AHB_BURST_SINGLE, HSIZE=AHB_SIZE_32B, 1 beats               
# UVM_INFO ../src/mst/ahb_master_driver.sv(332) @ 1525000: uvm_test_top.env.master_agent.drv [ahb_master_driver] Beat[0/1] addr=0x00002044 trans=AHB_TRANS_NONSEQ resp=AHB_RESP_OKAY wdata=0x7062f9b8
# UVM_INFO ../src/mst/ahb_master_driver.sv(376) @ 1525000: uvm_test_top.env.master_agent.drv [ahb_master_driver] Transaction complete: AHB_WRITE 0x00002044, 1 beats, burst=AHB_BURST_SINGLE
# UVM_INFO ../src/slv/ahb_slave_driver.sv(184) @ 1525000: uvm_test_top.env.slave_agent.drv [ahb_slave_driver] Beat AHB_WRITE addr=0x00002044 resp=AHB_RESP_OKAY waits=2 wdata=0x7062f9b8
# UVM_INFO ../src/mst/ahb_master_monitor.sv(128) @ 1525000: uvm_test_top.env.master_agent.mon [ahb_master_monitor] Beat[0] addr=0x00002044 wdata=0x7062f9b8 resp=AHB_RESP_OKAY
# UVM_INFO ../src/mst/ahb_master_monitor.sv(231) @ 1525000: uvm_test_top.env.master_agent.mon [ahb_master_monitor] Observed [AHB_WRITE]: HADDR=0x00002044, HBURST=AHB_BURST_SINGLE, HSIZE=AHB_SIZE_32B, 1 beats
# UVM_INFO ../src/env/ahb_coverage.sv(174) @ 1525000: uvm_test_top.env.master_cov [ahb_coverage] Sampled [AHB_WRITE]: burst=AHB_BURST_SINGLE size=AHB_SIZE_32B beats=1 error=0
# UVM_INFO ../src/slv/ahb_slave_monitor.sv(212) @ 1525000: uvm_test_top.env.slave_agent.mon [ahb_slave_monitor] Observed [AHB_WRITE]: HADDR=0x00002044, HBURST=AHB_BURST_SINGLE, HSIZE=AHB_SIZE_32B, 1 beats
# UVM_INFO ../src/env/ahb_scoreboard.sv(104) @ 1525000: uvm_test_top.env.scb [ahb_scoreboard] MATCH #35: [AHB_WRITE] HADDR=0x00002044 AHB_BURST_SINGLE 1 beats
# UVM_INFO ../src/env/ahb_coverage.sv(174) @ 1525000: uvm_test_top.env.slave_cov [ahb_coverage] Sampled [AHB_WRITE]: burst=AHB_BURST_SINGLE size=AHB_SIZE_32B beats=1 error=0
# UVM_INFO ../src/mst/ahb_master_driver.sv(85) @ 1525000: uvm_test_top.env.master_agent.drv [ahb_master_driver] Queueing [AHB_READ]: HADDR=0x00002044, HBURST=AHB_BURST_SINGLE, HSIZE=AHB_SIZE_32B, 1 beats
# UVM_INFO ../src/mst/ahb_master_driver.sv(127) @ 1525000: uvm_test_top.env.master_agent.drv [ahb_master_driver] Driving [AHB_READ]: HADDR=0x00002044, HBURST=AHB_BURST_SINGLE, HSIZE=AHB_SIZE_32B, 1 beats               
# UVM_INFO ../src/mst/ahb_master_driver.sv(332) @ 1575000: uvm_test_top.env.master_agent.drv [ahb_master_driver] Beat[0/1] addr=0x00002044 trans=AHB_TRANS_NONSEQ resp=AHB_RESP_OKAY rdata=0x7062f9b8
# UVM_INFO ../src/mst/ahb_master_driver.sv(376) @ 1575000: uvm_test_top.env.master_agent.drv [ahb_master_driver] Transaction complete: AHB_READ 0x00002044, 1 beats, burst=AHB_BURST_SINGLE
# UVM_INFO ../src/slv/ahb_slave_driver.sv(184) @ 1575000: uvm_test_top.env.slave_agent.drv [ahb_slave_driver] Beat AHB_READ addr=0x00002044 resp=AHB_RESP_OKAY waits=2 rdata=0x7062f9b8
# UVM_INFO ../src/slv/ahb_slave_monitor.sv(212) @ 1575000: uvm_test_top.env.slave_agent.mon [ahb_slave_monitor] Observed [AHB_READ]: HADDR=0x00002044, HBURST=AHB_BURST_SINGLE, HSIZE=AHB_SIZE_32B, 1 beats
# UVM_INFO ../src/env/ahb_coverage.sv(174) @ 1575000: uvm_test_top.env.slave_cov [ahb_coverage] Sampled [AHB_READ]: burst=AHB_BURST_SINGLE size=AHB_SIZE_32B beats=1 error=0
# UVM_INFO ../src/mst/ahb_master_monitor.sv(128) @ 1575000: uvm_test_top.env.master_agent.mon [ahb_master_monitor] Beat[0] addr=0x00002044 rdata=0x7062f9b8 resp=AHB_RESP_OKAY
# UVM_INFO ../src/mst/ahb_master_monitor.sv(231) @ 1575000: uvm_test_top.env.master_agent.mon [ahb_master_monitor] Observed [AHB_READ]: HADDR=0x00002044, HBURST=AHB_BURST_SINGLE, HSIZE=AHB_SIZE_32B, 1 beats
# UVM_INFO ../src/env/ahb_coverage.sv(174) @ 1575000: uvm_test_top.env.master_cov [ahb_coverage] Sampled [AHB_READ]: burst=AHB_BURST_SINGLE size=AHB_SIZE_32B beats=1 error=0
# UVM_INFO ../src/env/ahb_scoreboard.sv(104) @ 1575000: uvm_test_top.env.scb [ahb_scoreboard] MATCH #36: [AHB_READ] HADDR=0x00002044 AHB_BURST_SINGLE 1 beats
# UVM_INFO ../src/mst_seq/ahb_base_seq.sv(157) @ 1575000: uvm_test_top.env.master_agent.sqr@@seq [ahb_single_seq] AHB_BURST_SINGLE AHB_SIZE_32B beat 0 @0x00002044 ok
# UVM_INFO ../src/mst/ahb_master_driver.sv(85) @ 1575000: uvm_test_top.env.master_agent.drv [ahb_master_driver] Queueing [AHB_WRITE]: HADDR=0x0000204a, HBURST=AHB_BURST_SINGLE, HSIZE=AHB_SIZE_8B, 1 beats
# UVM_INFO ../src/mst/ahb_master_driver.sv(127) @ 1575000: uvm_test_top.env.master_agent.drv [ahb_master_driver] Driving [AHB_WRITE]: HADDR=0x0000204a, HBURST=AHB_BURST_SINGLE, HSIZE=AHB_SIZE_8B, 1 beats               
# UVM_INFO ../src/mst/ahb_master_driver.sv(332) @ 1605000: uvm_test_top.env.master_agent.drv [ahb_master_driver] Beat[0/1] addr=0x0000204a trans=AHB_TRANS_NONSEQ resp=AHB_RESP_OKAY wdata=0x79b75ce5
# UVM_INFO ../src/mst/ahb_master_driver.sv(376) @ 1605000: uvm_test_top.env.master_agent.drv [ahb_master_driver] Transaction complete: AHB_WRITE 0x0000204a, 1 beats, burst=AHB_BURST_SINGLE
# UVM_INFO ../src/slv/ahb_slave_driver.sv(184) @ 1605000: uvm_test_top.env.slave_agent.drv [ahb_slave_driver] Beat AHB_WRITE addr=0x0000204a resp=AHB_RESP_OKAY waits=0 wdata=0x79b75ce5
# UVM_INFO ../src/mst/ahb_master_monitor.sv(128) @ 1605000: uvm_test_top.env.master_agent.mon [ahb_master_monitor] Beat[0] addr=0x0000204a wdata=0x79b75ce5 resp=AHB_RESP_OKAY
# UVM_INFO ../src/mst/ahb_master_monitor.sv(231) @ 1605000: uvm_test_top.env.master_agent.mon [ahb_master_monitor] Observed [AHB_WRITE]: HADDR=0x0000204a, HBURST=AHB_BURST_SINGLE, HSIZE=AHB_SIZE_8B, 1 beats
# UVM_INFO ../src/env/ahb_coverage.sv(174) @ 1605000: uvm_test_top.env.master_cov [ahb_coverage] Sampled [AHB_WRITE]: burst=AHB_BURST_SINGLE size=AHB_SIZE_8B beats=1 error=0
# UVM_INFO ../src/slv/ahb_slave_monitor.sv(212) @ 1605000: uvm_test_top.env.slave_agent.mon [ahb_slave_monitor] Observed [AHB_WRITE]: HADDR=0x0000204a, HBURST=AHB_BURST_SINGLE, HSIZE=AHB_SIZE_8B, 1 beats
# UVM_INFO ../src/env/ahb_scoreboard.sv(104) @ 1605000: uvm_test_top.env.scb [ahb_scoreboard] MATCH #37: [AHB_WRITE] HADDR=0x0000204a AHB_BURST_SINGLE 1 beats
# UVM_INFO ../src/env/ahb_coverage.sv(174) @ 1605000: uvm_test_top.env.slave_cov [ahb_coverage] Sampled [AHB_WRITE]: burst=AHB_BURST_SINGLE size=AHB_SIZE_8B beats=1 error=0
# UVM_INFO ../src/mst/ahb_master_driver.sv(85) @ 1605000: uvm_test_top.env.master_agent.drv [ahb_master_driver] Queueing [AHB_READ]: HADDR=0x0000204a, HBURST=AHB_BURST_SINGLE, HSIZE=AHB_SIZE_8B, 1 beats
# UVM_INFO ../src/mst/ahb_master_driver.sv(127) @ 1605000: uvm_test_top.env.master_agent.drv [ahb_master_driver] Driving [AHB_READ]: HADDR=0x0000204a, HBURST=AHB_BURST_SINGLE, HSIZE=AHB_SIZE_8B, 1 beats               
# UVM_INFO ../src/mst/ahb_master_driver.sv(332) @ 1635000: uvm_test_top.env.master_agent.drv [ahb_master_driver] Beat[0/1] addr=0x0000204a trans=AHB_TRANS_NONSEQ resp=AHB_RESP_OKAY rdata=0x79b75ce5
# UVM_INFO ../src/mst/ahb_master_driver.sv(376) @ 1635000: uvm_test_top.env.master_agent.drv [ahb_master_driver] Transaction complete: AHB_READ 0x0000204a, 1 beats, burst=AHB_BURST_SINGLE
# UVM_INFO ../src/slv/ahb_slave_driver.sv(184) @ 1635000: uvm_test_top.env.slave_agent.drv [ahb_slave_driver] Beat AHB_READ addr=0x0000204a resp=AHB_RESP_OKAY waits=0 rdata=0x79b75ce5
# UVM_INFO ../src/slv/ahb_slave_monitor.sv(212) @ 1635000: uvm_test_top.env.slave_agent.mon [ahb_slave_monitor] Observed [AHB_READ]: HADDR=0x0000204a, HBURST=AHB_BURST_SINGLE, HSIZE=AHB_SIZE_8B, 1 beats
# UVM_INFO ../src/env/ahb_coverage.sv(174) @ 1635000: uvm_test_top.env.slave_cov [ahb_coverage] Sampled [AHB_READ]: burst=AHB_BURST_SINGLE size=AHB_SIZE_8B beats=1 error=0
# UVM_INFO ../src/mst/ahb_master_monitor.sv(128) @ 1635000: uvm_test_top.env.master_agent.mon [ahb_master_monitor] Beat[0] addr=0x0000204a rdata=0x79b75ce5 resp=AHB_RESP_OKAY
# UVM_INFO ../src/mst/ahb_master_monitor.sv(231) @ 1635000: uvm_test_top.env.master_agent.mon [ahb_master_monitor] Observed [AHB_READ]: HADDR=0x0000204a, HBURST=AHB_BURST_SINGLE, HSIZE=AHB_SIZE_8B, 1 beats
# UVM_INFO ../src/env/ahb_coverage.sv(174) @ 1635000: uvm_test_top.env.master_cov [ahb_coverage] Sampled [AHB_READ]: burst=AHB_BURST_SINGLE size=AHB_SIZE_8B beats=1 error=0
# UVM_INFO ../src/env/ahb_scoreboard.sv(104) @ 1635000: uvm_test_top.env.scb [ahb_scoreboard] MATCH #38: [AHB_READ] HADDR=0x0000204a AHB_BURST_SINGLE 1 beats
# UVM_INFO ../src/mst_seq/ahb_base_seq.sv(157) @ 1635000: uvm_test_top.env.master_agent.sqr@@seq [ahb_single_seq] AHB_BURST_SINGLE AHB_SIZE_8B beat 0 @0x0000204a ok
# UVM_INFO ../src/mst/ahb_master_driver.sv(85) @ 1635000: uvm_test_top.env.master_agent.drv [ahb_master_driver] Queueing [AHB_WRITE]: HADDR=0x0000204e, HBURST=AHB_BURST_SINGLE, HSIZE=AHB_SIZE_8B, 1 beats
# UVM_INFO ../src/mst/ahb_master_driver.sv(127) @ 1635000: uvm_test_top.env.master_agent.drv [ahb_master_driver] Driving [AHB_WRITE]: HADDR=0x0000204e, HBURST=AHB_BURST_SINGLE, HSIZE=AHB_SIZE_8B, 1 beats               
# UVM_INFO ../src/mst/ahb_master_driver.sv(332) @ 1685000: uvm_test_top.env.master_agent.drv [ahb_master_driver] Beat[0/1] addr=0x0000204e trans=AHB_TRANS_NONSEQ resp=AHB_RESP_OKAY wdata=0xb9bb9bd6
# UVM_INFO ../src/mst/ahb_master_driver.sv(376) @ 1685000: uvm_test_top.env.master_agent.drv [ahb_master_driver] Transaction complete: AHB_WRITE 0x0000204e, 1 beats, burst=AHB_BURST_SINGLE
# UVM_INFO ../src/slv/ahb_slave_driver.sv(184) @ 1685000: uvm_test_top.env.slave_agent.drv [ahb_slave_driver] Beat AHB_WRITE addr=0x0000204e resp=AHB_RESP_OKAY waits=2 wdata=0xb9bb9bd6
# UVM_INFO ../src/mst/ahb_master_monitor.sv(128) @ 1685000: uvm_test_top.env.master_agent.mon [ahb_master_monitor] Beat[0] addr=0x0000204e wdata=0xb9bb9bd6 resp=AHB_RESP_OKAY
# UVM_INFO ../src/mst/ahb_master_monitor.sv(231) @ 1685000: uvm_test_top.env.master_agent.mon [ahb_master_monitor] Observed [AHB_WRITE]: HADDR=0x0000204e, HBURST=AHB_BURST_SINGLE, HSIZE=AHB_SIZE_8B, 1 beats
# UVM_INFO ../src/env/ahb_coverage.sv(174) @ 1685000: uvm_test_top.env.master_cov [ahb_coverage] Sampled [AHB_WRITE]: burst=AHB_BURST_SINGLE size=AHB_SIZE_8B beats=1 error=0
# UVM_INFO ../src/slv/ahb_slave_monitor.sv(212) @ 1685000: uvm_test_top.env.slave_agent.mon [ahb_slave_monitor] Observed [AHB_WRITE]: HADDR=0x0000204e, HBURST=AHB_BURST_SINGLE, HSIZE=AHB_SIZE_8B, 1 beats
# UVM_INFO ../src/env/ahb_scoreboard.sv(104) @ 1685000: uvm_test_top.env.scb [ahb_scoreboard] MATCH #39: [AHB_WRITE] HADDR=0x0000204e AHB_BURST_SINGLE 1 beats
# UVM_INFO ../src/env/ahb_coverage.sv(174) @ 1685000: uvm_test_top.env.slave_cov [ahb_coverage] Sampled [AHB_WRITE]: burst=AHB_BURST_SINGLE size=AHB_SIZE_8B beats=1 error=0
# UVM_INFO ../src/mst/ahb_master_driver.sv(85) @ 1685000: uvm_test_top.env.master_agent.drv [ahb_master_driver] Queueing [AHB_READ]: HADDR=0x0000204e, HBURST=AHB_BURST_SINGLE, HSIZE=AHB_SIZE_8B, 1 beats
# UVM_INFO ../src/mst/ahb_master_driver.sv(127) @ 1685000: uvm_test_top.env.master_agent.drv [ahb_master_driver] Driving [AHB_READ]: HADDR=0x0000204e, HBURST=AHB_BURST_SINGLE, HSIZE=AHB_SIZE_8B, 1 beats               
# UVM_INFO ../src/mst/ahb_master_driver.sv(332) @ 1715000: uvm_test_top.env.master_agent.drv [ahb_master_driver] Beat[0/1] addr=0x0000204e trans=AHB_TRANS_NONSEQ resp=AHB_RESP_OKAY rdata=0xb9bb9bd6
# UVM_INFO ../src/mst/ahb_master_driver.sv(376) @ 1715000: uvm_test_top.env.master_agent.drv [ahb_master_driver] Transaction complete: AHB_READ 0x0000204e, 1 beats, burst=AHB_BURST_SINGLE
# UVM_INFO ../src/slv/ahb_slave_driver.sv(184) @ 1715000: uvm_test_top.env.slave_agent.drv [ahb_slave_driver] Beat AHB_READ addr=0x0000204e resp=AHB_RESP_OKAY waits=0 rdata=0xb9bb9bd6
# UVM_INFO ../src/slv/ahb_slave_monitor.sv(212) @ 1715000: uvm_test_top.env.slave_agent.mon [ahb_slave_monitor] Observed [AHB_READ]: HADDR=0x0000204e, HBURST=AHB_BURST_SINGLE, HSIZE=AHB_SIZE_8B, 1 beats
# UVM_INFO ../src/env/ahb_coverage.sv(174) @ 1715000: uvm_test_top.env.slave_cov [ahb_coverage] Sampled [AHB_READ]: burst=AHB_BURST_SINGLE size=AHB_SIZE_8B beats=1 error=0
# UVM_INFO ../src/mst/ahb_master_monitor.sv(128) @ 1715000: uvm_test_top.env.master_agent.mon [ahb_master_monitor] Beat[0] addr=0x0000204e rdata=0xb9bb9bd6 resp=AHB_RESP_OKAY
# UVM_INFO ../src/mst/ahb_master_monitor.sv(231) @ 1715000: uvm_test_top.env.master_agent.mon [ahb_master_monitor] Observed [AHB_READ]: HADDR=0x0000204e, HBURST=AHB_BURST_SINGLE, HSIZE=AHB_SIZE_8B, 1 beats
# UVM_INFO ../src/env/ahb_coverage.sv(174) @ 1715000: uvm_test_top.env.master_cov [ahb_coverage] Sampled [AHB_READ]: burst=AHB_BURST_SINGLE size=AHB_SIZE_8B beats=1 error=0
# UVM_INFO ../src/env/ahb_scoreboard.sv(104) @ 1715000: uvm_test_top.env.scb [ahb_scoreboard] MATCH #40: [AHB_READ] HADDR=0x0000204e AHB_BURST_SINGLE 1 beats
# UVM_INFO ../src/mst_seq/ahb_base_seq.sv(157) @ 1715000: uvm_test_top.env.master_agent.sqr@@seq [ahb_single_seq] AHB_BURST_SINGLE AHB_SIZE_8B beat 0 @0x0000204e ok
# UVM_INFO ../src/mst_seq/ahb_single_seq.sv(69) @ 1715000: uvm_test_top.env.master_agent.sqr@@seq [ahb_single_seq] SINGLE transfers done: beats=20 mismatch=0
# UVM_INFO verilog_src/uvm-1.1d/src/base/uvm_objection.svh(1268) @ 1715200: reporter [TEST_DONE] 'run' phase is ready to proceed to the 'extract' phase
# UVM_INFO ../src/env/ahb_coverage.sv(195) @ 1715200: uvm_test_top.env.master_cov [ahb_coverage] [master_cov] functional coverage: ahb_cg = 55.12%, ahb_trans_cg = 50.00%
# UVM_INFO ../src/env/ahb_scoreboard.sv(208) @ 1715200: uvm_test_top.env.scb [ahb_scoreboard] Passthrough : compared=40 matched=40 mismatched=0
# UVM_INFO ../src/env/ahb_scoreboard.sv(212) @ 1715200: uvm_test_top.env.scb [ahb_scoreboard] Ref-memory  : wr_bytes=40 rd_checked=40 rd_uninit=0 rd_mismatch=0
# UVM_INFO ../src/env/ahb_coverage.sv(195) @ 1715200: uvm_test_top.env.slave_cov [ahb_coverage] [slave_cov] functional coverage: ahb_cg = 55.12%, ahb_trans_cg = 50.00%
# UVM_INFO ../src/test/ahb_base_test.sv(74) @ 1715200: uvm_test_top [ahb_single_transfer_test] 
# === TEST PASSED ===
# 
# 
# --- UVM Report Summary ---
# 
# ** Report counts by severity
# UVM_INFO :  488
# UVM_WARNING :    0
# UVM_ERROR :    0
# UVM_FATAL :    0
# ** Report counts by id
# [Questa UVM]     3
# [RNTST]     1
# [TB_TOP]     3
# [TEST_DONE]     1
# [UVMTOP]     1
# [ahb_coverage]    82
# [ahb_master_agent]     1
# [ahb_master_driver]   162
# [ahb_master_monitor]    81
# [ahb_scoreboard]    42
# [ahb_single_seq]    22
# [ahb_single_transfer_test]     1
# [ahb_slave_agent]     1
# [ahb_slave_driver]    41
# [ahb_slave_monitor]    41
# [ahb_vip_env]     5
# ** Note: $finish    : /cadtools/mentor/Questa_10.6b/questasim/linux_x86_64/../verilog_src/uvm-1.1d/src/base/uvm_root.svh(430)
#    Time: 1715200 ps  Iteration: 53  Instance: /tb_top
# Saving coverage database on exit...
# End time: 12:30:10 on Aug 06,2026, Elapsed time: 0:00:01
# Errors: 0, Warnings: 0
