# vsim -c -coverage -sv_seed 99994611 "+UVM_TESTNAME=ahb_error_response_test" "+UVM_VERBOSITY=UVM_HIGH" "+DUMP_VCD" -l ./report/logs/ahb_error_response_test_run_1_seed_99994611.log -do "coverage save -onexit ./report/coverage/ahb_error_response_test_run_1_seed_99994611.ucdb; run -all; quit -f" opt_tb_top 
# Start time: 08:33:27 on Aug 04,2026
# //  Questa Sim-64
# //  Version 10.6b linux_x86_64 May 25 2017
# //
# //  Copyright 1991-2017 Mentor Graphics Corporation
# //  All Rights Reserved.
# //
# //  QuestaSim and its associated documentation contain trade
# //  secrets and commercial or financial information that are the property of
# //  Mentor Graphics Corporation and are privileged, confidential,
# //  and exempt from disclosure under the Freedom of Information Act,
# //  5 U.S.C. Section 552. Furthermore, this information
# //  is prohibited from disclosure under the Trade Secrets Act,
# //  18 U.S.C. Section 1905.
# //
# Loading sv_std.std
# Loading work.ahb_if(fast)
# Loading mtiUvm.uvm_pkg
# Loading work.ahb_pkg(fast)
# Loading work.ahb_seq_pkg(fast)
# Loading work.ahb_test_pkg(fast)
# Loading work.tb_top(fast)
# Loading work.ahb_if(fast)
# Loading work.ahb_sva(fast)
# Loading mtiUvm.questa_uvm_pkg(fast)
# Loading /cadtools/mentor/Questa_10.6b/questasim/uvm-1.1d/linux_x86_64/uvm_dpi.so
# coverage save -onexit ./report/coverage/ahb_error_response_test_run_1_seed_99994611.ucdb
#  run -all
# ----------------------------------------------------------------
# UVM-1.1d
# (C) 2007-2013 Mentor Graphics Corporation
# (C) 2007-2013 Cadence Design Systems, Inc.
# (C) 2006-2013 Synopsys, Inc.
# (C) 2011-2013 Cypress Semiconductor Corp.
# ----------------------------------------------------------------
# 
#   ***********       IMPORTANT RELEASE NOTES         ************
# 
#   You are using a version of the UVM library that has been compiled
#   with `UVM_NO_DEPRECATED undefined.
#   See http://www.eda.org/svdb/view.php?id=3313 for more details.
# 
#   You are using a version of the UVM library that has been compiled
#   with `UVM_OBJECT_MUST_HAVE_CONSTRUCTOR undefined.
#   See http://www.eda.org/svdb/view.php?id=3770 for more details.
# 
#       (Specify +UVM_NO_RELNOTES to turn off this notice)
# 
# UVM_INFO verilog_src/questa_uvm_pkg-1.2/src/questa_uvm_pkg.sv(215) @ 0: reporter [Questa UVM] QUESTA_UVM-1.2.3
# UVM_INFO verilog_src/questa_uvm_pkg-1.2/src/questa_uvm_pkg.sv(217) @ 0: reporter [Questa UVM]  questa_uvm::init(+struct)
# UVM_INFO ../src/tb_top.sv(126) @ 0: reporter [TB_TOP] Virtual interface set in config_db
# UVM_INFO @ 0: reporter [RNTST] Running test ahb_error_response_test...
# UVM_INFO ../src/tb_top.sv(140) @ 0: reporter [TB_TOP] Waveform VCD dumping enabled (ahb_lite_vip.vcd)
# UVM_INFO ../src/env/ahb_vip_env.sv(64) @ 0: uvm_test_top.env [ahb_vip_env] slave_vif not set - reusing master_vif (passthrough mode)
# UVM_INFO ../src/env/ahb_vip_env.sv(72) @ 0: uvm_test_top.env [ahb_vip_env] Scoreboard created
# UVM_INFO ../src/env/ahb_vip_env.sv(78) @ 0: uvm_test_top.env [ahb_vip_env] Coverage collectors created
# UVM_INFO ../src/mst/ahb_master_agent.sv(61) @ 0: uvm_test_top.env.master_agent [ahb_master_agent] ACTIVE mode - driver + sequencer created
# UVM_INFO ../src/slv/ahb_slave_agent.sv(64) @ 0: uvm_test_top.env.slave_agent [ahb_slave_agent] ACTIVE mode - driver + sequencer created (sequence responses)
# UVM_INFO ../src/env/ahb_vip_env.sv(92) @ 0: uvm_test_top.env [ahb_vip_env] Scoreboard connected: master_mon.ap -> scb, slave_mon.ap -> scb
# UVM_INFO ../src/env/ahb_vip_env.sv(99) @ 0: uvm_test_top.env [ahb_vip_env] Coverage connected: master_mon.ap -> master_cov, slave_mon.ap -> slave_cov
# UVM_INFO @ 0: reporter [UVMTOP] UVM testbench topology:
# ---------------------------------------------------------------
# Name                       Type                     Size  Value
# ---------------------------------------------------------------
# uvm_test_top               ahb_error_response_test  -     @475 
#   env                      ahb_vip_env              -     @490 
#     master_agent           ahb_master_agent         -     @505 
#       drv                  ahb_master_driver        -     @570 
#         rsp_port           uvm_analysis_port        -     @585 
#         seq_item_port      uvm_seq_item_pull_port   -     @577 
#       mon                  ahb_master_monitor       -     @563 
#         ap                 uvm_analysis_port        -     @704 
#       sqr                  ahb_master_sequencer     -     @593 
#         rsp_export         uvm_analysis_export      -     @600 
#         seq_item_export    uvm_seq_item_pull_imp    -     @694 
#         arbitration_queue  array                    0     -    
#         lock_queue         array                    0     -    
#         num_last_reqs      integral                 32    'd1  
#         num_last_rsps      integral                 32    'd1  
#     master_cov             ahb_coverage             -     @526 
#       analysis_imp         uvm_analysis_imp         -     @533 
#     scb                    ahb_scoreboard           -     @519 
#       master_export        uvm_analysis_imp_master  -     @718 
#       slave_export         uvm_analysis_imp_slave   -     @726 
#     slave_agent            ahb_slave_agent          -     @512 
#       drv                  ahb_slave_driver         -     @748 
#         rsp_port           uvm_analysis_port        -     @763 
#         seq_item_port      uvm_seq_item_pull_port   -     @755 
#       mon                  ahb_slave_monitor        -     @741 
#         ap                 uvm_analysis_port        -     @882 
#       sqr                  ahb_slave_sequencer      -     @771 
#         rsp_export         uvm_analysis_export      -     @778 
#         seq_item_export    uvm_seq_item_pull_imp    -     @872 
#         arbitration_queue  array                    0     -    
#         lock_queue         array                    0     -    
#         num_last_reqs      integral                 32    'd1  
#         num_last_rsps      integral                 32    'd1  
#     slave_cov              ahb_coverage             -     @541 
#       analysis_imp         uvm_analysis_imp         -     @548 
# ---------------------------------------------------------------
# 
# UVM_INFO verilog_src/questa_uvm_pkg-1.2/src/questa_uvm_pkg.sv(277) @ 0: reporter [Questa UVM] End Of Elaboration
# UVM_INFO ../src/mst_seq/ahb_error_seq.sv(71) @ 0: uvm_test_top.env.master_agent.sqr@@mst_seq [ahb_error_seq] Starting ERROR response traffic: 16 bursts
# UVM_INFO ../src/slv_seq/ahb_slave_error_seq.sv(63) @ 0: uvm_test_top.env.slave_agent.sqr@@slv_seq [ahb_slave_error_seq] Slave error injection active: 25% ERROR, up to 2 wait states, unmapped [0x00009000 : 0x00009fff]
# UVM_INFO ../src/mst/ahb_master_driver.sv(186) @ 5000: uvm_test_top.env.master_agent.drv [ahb_master_driver] Flushed pending transactions (reset)
# UVM_INFO ../src/tb_top.sv(48) @ 95000: reporter [TB_TOP] Reset de-asserted
# UVM_INFO ../src/slv/ahb_slave_driver.sv(63) @ 95000: uvm_test_top.env.slave_agent.drv [ahb_slave_driver] Reset deasserted - slave driver active (sequence mode)
# UVM_INFO ../src/mst/ahb_master_driver.sv(73) @ 95000: uvm_test_top.env.master_agent.drv [ahb_master_driver] Reset deasserted - master driver active
# UVM_INFO ../src/mst/ahb_master_monitor.sv(75) @ 95000: uvm_test_top.env.master_agent.mon [ahb_master_monitor] Reset deasserted - master monitor active
# UVM_INFO ../src/slv/ahb_slave_monitor.sv(69) @ 95000: uvm_test_top.env.slave_agent.mon [ahb_slave_monitor] Reset deasserted - slave monitor active
# UVM_INFO ../src/mst/ahb_master_driver.sv(87) @ 95000: uvm_test_top.env.master_agent.drv [ahb_master_driver] Queueing [AHB_WRITE]: HADDR=0x0000701e, HBURST=AHB_BURST_SINGLE, HSIZE=AHB_SIZE_16B, 1 beats
# UVM_INFO ../src/mst/ahb_master_driver.sv(129) @ 95000: uvm_test_top.env.master_agent.drv [ahb_master_driver] Driving [AHB_WRITE]: HADDR=0x0000701e, HBURST=AHB_BURST_SINGLE, HSIZE=AHB_SIZE_16B, 1 beats               
# UVM_INFO ../src/slv_seq/ahb_slave_error_seq.sv(89) @ 105000: uvm_test_top.env.slave_agent.sqr@@slv_seq [ahb_slave_error_seq] Response 1: AHB_WRITE @0x0000701e -> AHB_RESP_ERROR, 1 wait states           
# UVM_INFO ../src/mst/ahb_master_driver.sv(340) @ 135000: uvm_test_top.env.master_agent.drv [ahb_master_driver] Beat[0/1] addr=0x0000701e trans=AHB_TRANS_NONSEQ resp=AHB_RESP_ERROR wdata=0x76588024
# UVM_INFO ../src/mst/ahb_master_driver.sv(350) @ 135000: uvm_test_top.env.master_agent.drv [ahb_master_driver] ERROR response on beat 0/1                             
# UVM_INFO ../src/mst/ahb_master_driver.sv(385) @ 135000: uvm_test_top.env.master_agent.drv [ahb_master_driver] Transaction complete: AHB_WRITE 0x0000701e, 1 beats, burst=AHB_BURST_SINGLE
# UVM_INFO ../src/slv/ahb_slave_driver.sv(184) @ 135000: uvm_test_top.env.slave_agent.drv [ahb_slave_driver] Beat AHB_WRITE addr=0x0000701e resp=AHB_RESP_ERROR waits=1 wdata=0x76588024
# UVM_INFO ../src/slv/ahb_slave_monitor.sv(197) @ 135000: uvm_test_top.env.slave_agent.mon [ahb_slave_monitor] Observed [AHB_WRITE]: HADDR=0x0000701e, HBURST=AHB_BURST_SINGLE, HSIZE=AHB_SIZE_16B, 1 beats
# UVM_INFO ../src/env/ahb_coverage.sv(127) @ 135000: uvm_test_top.env.slave_cov [ahb_coverage] Sampled [AHB_WRITE]: burst=AHB_BURST_SINGLE size=AHB_SIZE_16B beats=1 error=1
# UVM_INFO ../src/mst/ahb_master_monitor.sv(117) @ 135000: uvm_test_top.env.master_agent.mon [ahb_master_monitor] Beat[0] addr=0x0000701e wdata=0x76588024 resp=AHB_RESP_ERROR
# UVM_INFO ../src/mst/ahb_master_monitor.sv(222) @ 135000: uvm_test_top.env.master_agent.mon [ahb_master_monitor] Observed [AHB_WRITE]: HADDR=0x0000701e, HBURST=AHB_BURST_SINGLE, HSIZE=AHB_SIZE_16B, 1 beats
# UVM_INFO ../src/env/ahb_coverage.sv(127) @ 135000: uvm_test_top.env.master_cov [ahb_coverage] Sampled [AHB_WRITE]: burst=AHB_BURST_SINGLE size=AHB_SIZE_16B beats=1 error=1
# UVM_INFO ../src/env/ahb_scoreboard.sv(104) @ 135000: uvm_test_top.env.scb [ahb_scoreboard] MATCH #1: [AHB_WRITE] HADDR=0x0000701e AHB_BURST_SINGLE 1 beats
# UVM_INFO ../src/mst_seq/ahb_error_seq.sv(134) @ 135000: uvm_test_top.env.master_agent.sqr@@mst_seq [ahb_error_seq] AHB_WRITE AHB_BURST_SINGLE @0x0000701e: ERROR on beat 0 of 1, policy=  cancel, drove 1
# UVM_INFO ../src/mst/ahb_master_driver.sv(87) @ 135000: uvm_test_top.env.master_agent.drv [ahb_master_driver] Queueing [AHB_READ]: HADDR=0x00008000, HBURST=AHB_BURST_INCR, HSIZE=AHB_SIZE_32B, 14 beats
# UVM_INFO ../src/mst/ahb_master_driver.sv(129) @ 135000: uvm_test_top.env.master_agent.drv [ahb_master_driver] Driving [AHB_READ]: HADDR=0x00008000, HBURST=AHB_BURST_INCR, HSIZE=AHB_SIZE_32B, 14 beats               
# UVM_INFO ../src/slv_seq/ahb_slave_error_seq.sv(89) @ 155000: uvm_test_top.env.slave_agent.sqr@@slv_seq [ahb_slave_error_seq] Response 2: AHB_READ @0x00008000 -> AHB_RESP_OKAY, 0 wait states           
# UVM_INFO ../src/mst/ahb_master_driver.sv(340) @ 165000: uvm_test_top.env.master_agent.drv [ahb_master_driver] Beat[0/14] addr=0x00008000 trans=AHB_TRANS_NONSEQ resp=AHB_RESP_OKAY rdata=0x47c9e5c8
# UVM_INFO ../src/slv/ahb_slave_driver.sv(184) @ 165000: uvm_test_top.env.slave_agent.drv [ahb_slave_driver] Beat AHB_READ addr=0x00008000 resp=AHB_RESP_OKAY waits=0 rdata=0x47c9e5c8
# UVM_INFO ../src/mst/ahb_master_monitor.sv(117) @ 165000: uvm_test_top.env.master_agent.mon [ahb_master_monitor] Beat[0] addr=0x00008000 rdata=0x47c9e5c8 resp=AHB_RESP_OKAY
# UVM_INFO ../src/slv_seq/ahb_slave_error_seq.sv(89) @ 165000: uvm_test_top.env.slave_agent.sqr@@slv_seq [ahb_slave_error_seq] Response 3: AHB_READ @0x00008004 -> AHB_RESP_ERROR, 2 wait states           
# UVM_INFO ../src/mst/ahb_master_driver.sv(340) @ 205000: uvm_test_top.env.master_agent.drv [ahb_master_driver] Beat[1/14] addr=0x00008004 trans=AHB_TRANS_SEQ resp=AHB_RESP_ERROR rdata=0x47c9e5c8
# UVM_INFO ../src/mst/ahb_master_driver.sv(350) @ 205000: uvm_test_top.env.master_agent.drv [ahb_master_driver] ERROR response on beat 1/14 - cancelling remaining burst
# UVM_INFO ../src/mst/ahb_master_driver.sv(385) @ 205000: uvm_test_top.env.master_agent.drv [ahb_master_driver] Transaction complete: AHB_READ 0x00008000, 14 beats, burst=AHB_BURST_INCR
# UVM_INFO ../src/slv/ahb_slave_driver.sv(184) @ 205000: uvm_test_top.env.slave_agent.drv [ahb_slave_driver] Beat AHB_READ addr=0x00008004 resp=AHB_RESP_ERROR waits=2 rdata=0x71689e32
# UVM_INFO ../src/mst/ahb_master_monitor.sv(117) @ 205000: uvm_test_top.env.master_agent.mon [ahb_master_monitor] Beat[1] addr=0x00008004 rdata=0x47c9e5c8 resp=AHB_RESP_ERROR
# UVM_INFO ../src/mst/ahb_master_monitor.sv(222) @ 205000: uvm_test_top.env.master_agent.mon [ahb_master_monitor] Observed [AHB_READ]: HADDR=0x00008000, HBURST=AHB_BURST_INCR, HSIZE=AHB_SIZE_32B, 2 beats
# UVM_INFO ../src/env/ahb_coverage.sv(127) @ 205000: uvm_test_top.env.master_cov [ahb_coverage] Sampled [AHB_READ]: burst=AHB_BURST_INCR size=AHB_SIZE_32B beats=2 error=1
# UVM_INFO ../src/slv/ahb_slave_monitor.sv(197) @ 205000: uvm_test_top.env.slave_agent.mon [ahb_slave_monitor] Observed [AHB_READ]: HADDR=0x00008000, HBURST=AHB_BURST_INCR, HSIZE=AHB_SIZE_32B, 2 beats
# UVM_INFO ../src/env/ahb_scoreboard.sv(104) @ 205000: uvm_test_top.env.scb [ahb_scoreboard] MATCH #2: [AHB_READ] HADDR=0x00008000 AHB_BURST_INCR 2 beats
# UVM_INFO ../src/env/ahb_coverage.sv(127) @ 205000: uvm_test_top.env.slave_cov [ahb_coverage] Sampled [AHB_READ]: burst=AHB_BURST_INCR size=AHB_SIZE_32B beats=2 error=1
# UVM_INFO ../src/mst_seq/ahb_error_seq.sv(134) @ 205000: uvm_test_top.env.master_agent.sqr@@mst_seq [ahb_error_seq] AHB_READ AHB_BURST_INCR @0x00008000: ERROR on beat 1 of 14, policy=  cancel, drove 2
# UVM_INFO ../src/mst/ahb_master_driver.sv(87) @ 205000: uvm_test_top.env.master_agent.drv [ahb_master_driver] Queueing [AHB_WRITE]: HADDR=0x00009018, HBURST=AHB_BURST_INCR, HSIZE=AHB_SIZE_32B, 5 beats
# UVM_INFO ../src/mst/ahb_master_driver.sv(129) @ 205000: uvm_test_top.env.master_agent.drv [ahb_master_driver] Driving [AHB_WRITE]: HADDR=0x00009018, HBURST=AHB_BURST_INCR, HSIZE=AHB_SIZE_32B, 5 beats               
# UVM_INFO ../src/slv_seq/ahb_slave_error_seq.sv(89) @ 225000: uvm_test_top.env.slave_agent.sqr@@slv_seq [ahb_slave_error_seq] Response 4: AHB_WRITE @0x00009018 -> AHB_RESP_ERROR, 1 wait states (unmapped)
# UVM_INFO ../src/mst/ahb_master_driver.sv(340) @ 255000: uvm_test_top.env.master_agent.drv [ahb_master_driver] Beat[0/5] addr=0x00009018 trans=AHB_TRANS_NONSEQ resp=AHB_RESP_ERROR wdata=0xd2ab694b
# UVM_INFO ../src/mst/ahb_master_driver.sv(357) @ 255000: uvm_test_top.env.master_agent.drv [ahb_master_driver] ERROR response on beat 0/5 - continuing burst (abort_on_error=0)
# UVM_INFO ../src/slv/ahb_slave_driver.sv(184) @ 255000: uvm_test_top.env.slave_agent.drv [ahb_slave_driver] Beat AHB_WRITE addr=0x00009018 resp=AHB_RESP_ERROR waits=1 wdata=0xd2ab694b
# UVM_INFO ../src/mst/ahb_master_monitor.sv(117) @ 255000: uvm_test_top.env.master_agent.mon [ahb_master_monitor] Beat[0] addr=0x00009018 wdata=0xd2ab694b resp=AHB_RESP_ERROR
# UVM_INFO ../src/slv_seq/ahb_slave_error_seq.sv(89) @ 255000: uvm_test_top.env.slave_agent.sqr@@slv_seq [ahb_slave_error_seq] Response 5: AHB_WRITE @0x0000901c -> AHB_RESP_ERROR, 2 wait states (unmapped)
# UVM_INFO ../src/mst/ahb_master_driver.sv(340) @ 295000: uvm_test_top.env.master_agent.drv [ahb_master_driver] Beat[1/5] addr=0x0000901c trans=AHB_TRANS_SEQ resp=AHB_RESP_ERROR wdata=0xb987d9f4
# UVM_INFO ../src/mst/ahb_master_driver.sv(357) @ 295000: uvm_test_top.env.master_agent.drv [ahb_master_driver] ERROR response on beat 1/5 - continuing burst (abort_on_error=0)
# UVM_INFO ../src/slv/ahb_slave_driver.sv(184) @ 295000: uvm_test_top.env.slave_agent.drv [ahb_slave_driver] Beat AHB_WRITE addr=0x0000901c resp=AHB_RESP_ERROR waits=2 wdata=0xb987d9f4
# UVM_INFO ../src/mst/ahb_master_monitor.sv(117) @ 295000: uvm_test_top.env.master_agent.mon [ahb_master_monitor] Beat[1] addr=0x0000901c wdata=0xb987d9f4 resp=AHB_RESP_ERROR
# UVM_INFO ../src/slv_seq/ahb_slave_error_seq.sv(89) @ 295000: uvm_test_top.env.slave_agent.sqr@@slv_seq [ahb_slave_error_seq] Response 6: AHB_WRITE @0x00009020 -> AHB_RESP_ERROR, 1 wait states (unmapped)
# UVM_INFO ../src/mst/ahb_master_driver.sv(340) @ 325000: uvm_test_top.env.master_agent.drv [ahb_master_driver] Beat[2/5] addr=0x00009020 trans=AHB_TRANS_SEQ resp=AHB_RESP_ERROR wdata=0xdd871211
# UVM_INFO ../src/mst/ahb_master_driver.sv(357) @ 325000: uvm_test_top.env.master_agent.drv [ahb_master_driver] ERROR response on beat 2/5 - continuing burst (abort_on_error=0)
# UVM_INFO ../src/slv/ahb_slave_driver.sv(184) @ 325000: uvm_test_top.env.slave_agent.drv [ahb_slave_driver] Beat AHB_WRITE addr=0x00009020 resp=AHB_RESP_ERROR waits=1 wdata=0xdd871211
# UVM_INFO ../src/mst/ahb_master_monitor.sv(117) @ 325000: uvm_test_top.env.master_agent.mon [ahb_master_monitor] Beat[2] addr=0x00009020 wdata=0xdd871211 resp=AHB_RESP_ERROR
# UVM_INFO ../src/slv_seq/ahb_slave_error_seq.sv(89) @ 325000: uvm_test_top.env.slave_agent.sqr@@slv_seq [ahb_slave_error_seq] Response 7: AHB_WRITE @0x00009024 -> AHB_RESP_ERROR, 0 wait states (unmapped)
# UVM_INFO ../src/mst/ahb_master_driver.sv(340) @ 345000: uvm_test_top.env.master_agent.drv [ahb_master_driver] Beat[3/5] addr=0x00009024 trans=AHB_TRANS_SEQ resp=AHB_RESP_ERROR wdata=0x21faeda7
# UVM_INFO ../src/mst/ahb_master_driver.sv(357) @ 345000: uvm_test_top.env.master_agent.drv [ahb_master_driver] ERROR response on beat 3/5 - continuing burst (abort_on_error=0)
# UVM_INFO ../src/slv/ahb_slave_driver.sv(184) @ 345000: uvm_test_top.env.slave_agent.drv [ahb_slave_driver] Beat AHB_WRITE addr=0x00009024 resp=AHB_RESP_ERROR waits=0 wdata=0x21faeda7
# UVM_INFO ../src/mst/ahb_master_monitor.sv(117) @ 345000: uvm_test_top.env.master_agent.mon [ahb_master_monitor] Beat[3] addr=0x00009024 wdata=0x21faeda7 resp=AHB_RESP_ERROR
# UVM_INFO ../src/slv_seq/ahb_slave_error_seq.sv(89) @ 345000: uvm_test_top.env.slave_agent.sqr@@slv_seq [ahb_slave_error_seq] Response 8: AHB_WRITE @0x00009028 -> AHB_RESP_ERROR, 0 wait states (unmapped)
# UVM_INFO ../src/mst/ahb_master_driver.sv(340) @ 365000: uvm_test_top.env.master_agent.drv [ahb_master_driver] Beat[4/5] addr=0x00009028 trans=AHB_TRANS_SEQ resp=AHB_RESP_ERROR wdata=0x9aa2e1f4
# UVM_INFO ../src/mst/ahb_master_driver.sv(357) @ 365000: uvm_test_top.env.master_agent.drv [ahb_master_driver] ERROR response on beat 4/5 - continuing burst (abort_on_error=0)
# UVM_INFO ../src/mst/ahb_master_driver.sv(385) @ 365000: uvm_test_top.env.master_agent.drv [ahb_master_driver] Transaction complete: AHB_WRITE 0x00009018, 5 beats, burst=AHB_BURST_INCR
# UVM_INFO ../src/slv/ahb_slave_driver.sv(184) @ 365000: uvm_test_top.env.slave_agent.drv [ahb_slave_driver] Beat AHB_WRITE addr=0x00009028 resp=AHB_RESP_ERROR waits=0 wdata=0x9aa2e1f4
# UVM_INFO ../src/mst/ahb_master_monitor.sv(117) @ 365000: uvm_test_top.env.master_agent.mon [ahb_master_monitor] Beat[4] addr=0x00009028 wdata=0x9aa2e1f4 resp=AHB_RESP_ERROR
# UVM_INFO ../src/mst/ahb_master_monitor.sv(222) @ 365000: uvm_test_top.env.master_agent.mon [ahb_master_monitor] Observed [AHB_WRITE]: HADDR=0x00009018, HBURST=AHB_BURST_INCR, HSIZE=AHB_SIZE_32B, 5 beats
# UVM_INFO ../src/env/ahb_coverage.sv(127) @ 365000: uvm_test_top.env.master_cov [ahb_coverage] Sampled [AHB_WRITE]: burst=AHB_BURST_INCR size=AHB_SIZE_32B beats=5 error=1
# UVM_INFO ../src/slv/ahb_slave_monitor.sv(197) @ 365000: uvm_test_top.env.slave_agent.mon [ahb_slave_monitor] Observed [AHB_WRITE]: HADDR=0x00009018, HBURST=AHB_BURST_INCR, HSIZE=AHB_SIZE_32B, 5 beats
# UVM_INFO ../src/env/ahb_scoreboard.sv(104) @ 365000: uvm_test_top.env.scb [ahb_scoreboard] MATCH #3: [AHB_WRITE] HADDR=0x00009018 AHB_BURST_INCR 5 beats
# UVM_INFO ../src/env/ahb_coverage.sv(127) @ 365000: uvm_test_top.env.slave_cov [ahb_coverage] Sampled [AHB_WRITE]: burst=AHB_BURST_INCR size=AHB_SIZE_32B beats=5 error=1
# UVM_INFO ../src/mst_seq/ahb_error_seq.sv(134) @ 365000: uvm_test_top.env.master_agent.sqr@@mst_seq [ahb_error_seq] AHB_WRITE AHB_BURST_INCR @0x00009018: ERROR on beat 0 of 5, policy=continue, drove 5
# UVM_INFO ../src/mst/ahb_master_driver.sv(87) @ 365000: uvm_test_top.env.master_agent.drv [ahb_master_driver] Queueing [AHB_READ]: HADDR=0x00008058, HBURST=AHB_BURST_INCR4, HSIZE=AHB_SIZE_32B, 4 beats
# UVM_INFO ../src/mst/ahb_master_driver.sv(129) @ 365000: uvm_test_top.env.master_agent.drv [ahb_master_driver] Driving [AHB_READ]: HADDR=0x00008058, HBURST=AHB_BURST_INCR4, HSIZE=AHB_SIZE_32B, 4 beats               
# UVM_INFO ../src/slv_seq/ahb_slave_error_seq.sv(89) @ 385000: uvm_test_top.env.slave_agent.sqr@@slv_seq [ahb_slave_error_seq] Response 9: AHB_READ @0x00008058 -> AHB_RESP_OKAY, 2 wait states           
# UVM_INFO ../src/mst/ahb_master_driver.sv(340) @ 415000: uvm_test_top.env.master_agent.drv [ahb_master_driver] Beat[0/4] addr=0x00008058 trans=AHB_TRANS_NONSEQ resp=AHB_RESP_OKAY rdata=0x28c1bf18
# UVM_INFO ../src/slv/ahb_slave_driver.sv(184) @ 415000: uvm_test_top.env.slave_agent.drv [ahb_slave_driver] Beat AHB_READ addr=0x00008058 resp=AHB_RESP_OKAY waits=2 rdata=0x28c1bf18
# UVM_INFO ../src/mst/ahb_master_monitor.sv(117) @ 415000: uvm_test_top.env.master_agent.mon [ahb_master_monitor] Beat[0] addr=0x00008058 rdata=0x28c1bf18 resp=AHB_RESP_OKAY
# UVM_INFO ../src/slv_seq/ahb_slave_error_seq.sv(89) @ 415000: uvm_test_top.env.slave_agent.sqr@@slv_seq [ahb_slave_error_seq] Response 10: AHB_READ @0x0000805c -> AHB_RESP_OKAY, 0 wait states           
# UVM_INFO ../src/mst/ahb_master_driver.sv(340) @ 425000: uvm_test_top.env.master_agent.drv [ahb_master_driver] Beat[1/4] addr=0x0000805c trans=AHB_TRANS_SEQ resp=AHB_RESP_OKAY rdata=0x0e83f08b
# UVM_INFO ../src/slv/ahb_slave_driver.sv(184) @ 425000: uvm_test_top.env.slave_agent.drv [ahb_slave_driver] Beat AHB_READ addr=0x0000805c resp=AHB_RESP_OKAY waits=0 rdata=0x0e83f08b
# UVM_INFO ../src/mst/ahb_master_monitor.sv(117) @ 425000: uvm_test_top.env.master_agent.mon [ahb_master_monitor] Beat[1] addr=0x0000805c rdata=0x0e83f08b resp=AHB_RESP_OKAY
# UVM_INFO ../src/slv_seq/ahb_slave_error_seq.sv(89) @ 425000: uvm_test_top.env.slave_agent.sqr@@slv_seq [ahb_slave_error_seq] Response 11: AHB_READ @0x00008060 -> AHB_RESP_OKAY, 2 wait states           
# UVM_INFO ../src/mst/ahb_master_driver.sv(340) @ 455000: uvm_test_top.env.master_agent.drv [ahb_master_driver] Beat[2/4] addr=0x00008060 trans=AHB_TRANS_SEQ resp=AHB_RESP_OKAY rdata=0xafe889c7
# UVM_INFO ../src/slv/ahb_slave_driver.sv(184) @ 455000: uvm_test_top.env.slave_agent.drv [ahb_slave_driver] Beat AHB_READ addr=0x00008060 resp=AHB_RESP_OKAY waits=2 rdata=0xafe889c7
# UVM_INFO ../src/mst/ahb_master_monitor.sv(117) @ 455000: uvm_test_top.env.master_agent.mon [ahb_master_monitor] Beat[2] addr=0x00008060 rdata=0xafe889c7 resp=AHB_RESP_OKAY
# UVM_INFO ../src/slv_seq/ahb_slave_error_seq.sv(89) @ 455000: uvm_test_top.env.slave_agent.sqr@@slv_seq [ahb_slave_error_seq] Response 12: AHB_READ @0x00008064 -> AHB_RESP_OKAY, 0 wait states           
# UVM_INFO ../src/mst/ahb_master_driver.sv(340) @ 465000: uvm_test_top.env.master_agent.drv [ahb_master_driver] Beat[3/4] addr=0x00008064 trans=AHB_TRANS_SEQ resp=AHB_RESP_OKAY rdata=0x77ac24da
# UVM_INFO ../src/mst/ahb_master_driver.sv(385) @ 465000: uvm_test_top.env.master_agent.drv [ahb_master_driver] Transaction complete: AHB_READ 0x00008058, 4 beats, burst=AHB_BURST_INCR4
# UVM_INFO ../src/slv/ahb_slave_driver.sv(184) @ 465000: uvm_test_top.env.slave_agent.drv [ahb_slave_driver] Beat AHB_READ addr=0x00008064 resp=AHB_RESP_OKAY waits=0 rdata=0x77ac24da
# UVM_INFO ../src/mst/ahb_master_monitor.sv(117) @ 465000: uvm_test_top.env.master_agent.mon [ahb_master_monitor] Beat[3] addr=0x00008064 rdata=0x77ac24da resp=AHB_RESP_OKAY
# UVM_INFO ../src/mst/ahb_master_monitor.sv(222) @ 465000: uvm_test_top.env.master_agent.mon [ahb_master_monitor] Observed [AHB_READ]: HADDR=0x00008058, HBURST=AHB_BURST_INCR4, HSIZE=AHB_SIZE_32B, 4 beats
# UVM_INFO ../src/env/ahb_coverage.sv(127) @ 465000: uvm_test_top.env.master_cov [ahb_coverage] Sampled [AHB_READ]: burst=AHB_BURST_INCR4 size=AHB_SIZE_32B beats=4 error=0
# UVM_INFO ../src/slv/ahb_slave_monitor.sv(197) @ 465000: uvm_test_top.env.slave_agent.mon [ahb_slave_monitor] Observed [AHB_READ]: HADDR=0x00008058, HBURST=AHB_BURST_INCR4, HSIZE=AHB_SIZE_32B, 4 beats
# UVM_INFO ../src/env/ahb_scoreboard.sv(104) @ 465000: uvm_test_top.env.scb [ahb_scoreboard] MATCH #4: [AHB_READ] HADDR=0x00008058 AHB_BURST_INCR4 4 beats
# UVM_INFO ../src/env/ahb_coverage.sv(127) @ 465000: uvm_test_top.env.slave_cov [ahb_coverage] Sampled [AHB_READ]: burst=AHB_BURST_INCR4 size=AHB_SIZE_32B beats=4 error=0
# UVM_INFO ../src/mst/ahb_master_driver.sv(87) @ 465000: uvm_test_top.env.master_agent.drv [ahb_master_driver] Queueing [AHB_WRITE]: HADDR=0x00007086, HBURST=AHB_BURST_SINGLE, HSIZE=AHB_SIZE_8B, 1 beats
# UVM_INFO ../src/mst/ahb_master_driver.sv(129) @ 465000: uvm_test_top.env.master_agent.drv [ahb_master_driver] Driving [AHB_WRITE]: HADDR=0x00007086, HBURST=AHB_BURST_SINGLE, HSIZE=AHB_SIZE_8B, 1 beats               
# UVM_INFO ../src/slv_seq/ahb_slave_error_seq.sv(89) @ 485000: uvm_test_top.env.slave_agent.sqr@@slv_seq [ahb_slave_error_seq] Response 13: AHB_WRITE @0x00007086 -> AHB_RESP_OKAY, 1 wait states           
# UVM_INFO ../src/mst/ahb_master_driver.sv(340) @ 505000: uvm_test_top.env.master_agent.drv [ahb_master_driver] Beat[0/1] addr=0x00007086 trans=AHB_TRANS_NONSEQ resp=AHB_RESP_OKAY wdata=0x3addfeee
# UVM_INFO ../src/mst/ahb_master_driver.sv(385) @ 505000: uvm_test_top.env.master_agent.drv [ahb_master_driver] Transaction complete: AHB_WRITE 0x00007086, 1 beats, burst=AHB_BURST_SINGLE
# UVM_INFO ../src/slv/ahb_slave_driver.sv(184) @ 505000: uvm_test_top.env.slave_agent.drv [ahb_slave_driver] Beat AHB_WRITE addr=0x00007086 resp=AHB_RESP_OKAY waits=1 wdata=0x3addfeee
# UVM_INFO ../src/mst/ahb_master_monitor.sv(117) @ 505000: uvm_test_top.env.master_agent.mon [ahb_master_monitor] Beat[0] addr=0x00007086 wdata=0x3addfeee resp=AHB_RESP_OKAY
# UVM_INFO ../src/mst/ahb_master_monitor.sv(222) @ 505000: uvm_test_top.env.master_agent.mon [ahb_master_monitor] Observed [AHB_WRITE]: HADDR=0x00007086, HBURST=AHB_BURST_SINGLE, HSIZE=AHB_SIZE_8B, 1 beats
# UVM_INFO ../src/env/ahb_coverage.sv(127) @ 505000: uvm_test_top.env.master_cov [ahb_coverage] Sampled [AHB_WRITE]: burst=AHB_BURST_SINGLE size=AHB_SIZE_8B beats=1 error=0
# UVM_INFO ../src/slv/ahb_slave_monitor.sv(197) @ 505000: uvm_test_top.env.slave_agent.mon [ahb_slave_monitor] Observed [AHB_WRITE]: HADDR=0x00007086, HBURST=AHB_BURST_SINGLE, HSIZE=AHB_SIZE_8B, 1 beats
# UVM_INFO ../src/env/ahb_scoreboard.sv(104) @ 505000: uvm_test_top.env.scb [ahb_scoreboard] MATCH #5: [AHB_WRITE] HADDR=0x00007086 AHB_BURST_SINGLE 1 beats
# UVM_INFO ../src/env/ahb_coverage.sv(127) @ 505000: uvm_test_top.env.slave_cov [ahb_coverage] Sampled [AHB_WRITE]: burst=AHB_BURST_SINGLE size=AHB_SIZE_8B beats=1 error=0
# UVM_INFO ../src/mst/ahb_master_driver.sv(87) @ 505000: uvm_test_top.env.master_agent.drv [ahb_master_driver] Queueing [AHB_READ]: HADDR=0x00009062, HBURST=AHB_BURST_SINGLE, HSIZE=AHB_SIZE_16B, 1 beats
# UVM_INFO ../src/mst/ahb_master_driver.sv(129) @ 505000: uvm_test_top.env.master_agent.drv [ahb_master_driver] Driving [AHB_READ]: HADDR=0x00009062, HBURST=AHB_BURST_SINGLE, HSIZE=AHB_SIZE_16B, 1 beats               
# UVM_INFO ../src/slv_seq/ahb_slave_error_seq.sv(89) @ 525000: uvm_test_top.env.slave_agent.sqr@@slv_seq [ahb_slave_error_seq] Response 14: AHB_READ @0x00009062 -> AHB_RESP_ERROR, 0 wait states (unmapped)
# UVM_INFO ../src/mst/ahb_master_driver.sv(340) @ 545000: uvm_test_top.env.master_agent.drv [ahb_master_driver] Beat[0/1] addr=0x00009062 trans=AHB_TRANS_NONSEQ resp=AHB_RESP_ERROR rdata=0x77ac24da
# UVM_INFO ../src/mst/ahb_master_driver.sv(350) @ 545000: uvm_test_top.env.master_agent.drv [ahb_master_driver] ERROR response on beat 0/1                             
# UVM_INFO ../src/mst/ahb_master_driver.sv(385) @ 545000: uvm_test_top.env.master_agent.drv [ahb_master_driver] Transaction complete: AHB_READ 0x00009062, 1 beats, burst=AHB_BURST_SINGLE
# UVM_INFO ../src/slv/ahb_slave_driver.sv(184) @ 545000: uvm_test_top.env.slave_agent.drv [ahb_slave_driver] Beat AHB_READ addr=0x00009062 resp=AHB_RESP_ERROR waits=0 rdata=0x0c0caee4
# UVM_INFO ../src/mst/ahb_master_monitor.sv(117) @ 545000: uvm_test_top.env.master_agent.mon [ahb_master_monitor] Beat[0] addr=0x00009062 rdata=0x77ac24da resp=AHB_RESP_ERROR
# UVM_INFO ../src/mst/ahb_master_monitor.sv(222) @ 545000: uvm_test_top.env.master_agent.mon [ahb_master_monitor] Observed [AHB_READ]: HADDR=0x00009062, HBURST=AHB_BURST_SINGLE, HSIZE=AHB_SIZE_16B, 1 beats
# UVM_INFO ../src/env/ahb_coverage.sv(127) @ 545000: uvm_test_top.env.master_cov [ahb_coverage] Sampled [AHB_READ]: burst=AHB_BURST_SINGLE size=AHB_SIZE_16B beats=1 error=1
# UVM_INFO ../src/slv/ahb_slave_monitor.sv(197) @ 545000: uvm_test_top.env.slave_agent.mon [ahb_slave_monitor] Observed [AHB_READ]: HADDR=0x00009062, HBURST=AHB_BURST_SINGLE, HSIZE=AHB_SIZE_16B, 1 beats
# UVM_INFO ../src/env/ahb_scoreboard.sv(104) @ 545000: uvm_test_top.env.scb [ahb_scoreboard] MATCH #6: [AHB_READ] HADDR=0x00009062 AHB_BURST_SINGLE 1 beats
# UVM_INFO ../src/env/ahb_coverage.sv(127) @ 545000: uvm_test_top.env.slave_cov [ahb_coverage] Sampled [AHB_READ]: burst=AHB_BURST_SINGLE size=AHB_SIZE_16B beats=1 error=1
# UVM_INFO ../src/mst_seq/ahb_error_seq.sv(134) @ 545000: uvm_test_top.env.master_agent.sqr@@mst_seq [ahb_error_seq] AHB_READ AHB_BURST_SINGLE @0x00009062: ERROR on beat 0 of 1, policy=  cancel, drove 1
# UVM_INFO ../src/mst/ahb_master_driver.sv(87) @ 545000: uvm_test_top.env.master_agent.drv [ahb_master_driver] Queueing [AHB_WRITE]: HADDR=0x000070ca, HBURST=AHB_BURST_WRAP16, HSIZE=AHB_SIZE_16B, 16 beats
# UVM_INFO ../src/mst/ahb_master_driver.sv(129) @ 545000: uvm_test_top.env.master_agent.drv [ahb_master_driver] Driving [AHB_WRITE]: HADDR=0x000070ca, HBURST=AHB_BURST_WRAP16, HSIZE=AHB_SIZE_16B, 16 beats               
# UVM_INFO ../src/slv_seq/ahb_slave_error_seq.sv(89) @ 565000: uvm_test_top.env.slave_agent.sqr@@slv_seq [ahb_slave_error_seq] Response 15: AHB_WRITE @0x000070ca -> AHB_RESP_OKAY, 1 wait states           
# UVM_INFO ../src/mst/ahb_master_driver.sv(340) @ 585000: uvm_test_top.env.master_agent.drv [ahb_master_driver] Beat[0/16] addr=0x000070ca trans=AHB_TRANS_NONSEQ resp=AHB_RESP_OKAY wdata=0x945ace71
# UVM_INFO ../src/slv/ahb_slave_driver.sv(184) @ 585000: uvm_test_top.env.slave_agent.drv [ahb_slave_driver] Beat AHB_WRITE addr=0x000070ca resp=AHB_RESP_OKAY waits=1 wdata=0x945ace71
# UVM_INFO ../src/mst/ahb_master_monitor.sv(117) @ 585000: uvm_test_top.env.master_agent.mon [ahb_master_monitor] Beat[0] addr=0x000070ca wdata=0x945ace71 resp=AHB_RESP_OKAY
# UVM_INFO ../src/slv_seq/ahb_slave_error_seq.sv(89) @ 585000: uvm_test_top.env.slave_agent.sqr@@slv_seq [ahb_slave_error_seq] Response 16: AHB_WRITE @0x000070cc -> AHB_RESP_OKAY, 0 wait states           
# UVM_INFO ../src/mst/ahb_master_driver.sv(340) @ 595000: uvm_test_top.env.master_agent.drv [ahb_master_driver] Beat[1/16] addr=0x000070cc trans=AHB_TRANS_SEQ resp=AHB_RESP_OKAY wdata=0x5e4df5ef
# UVM_INFO ../src/slv/ahb_slave_driver.sv(184) @ 595000: uvm_test_top.env.slave_agent.drv [ahb_slave_driver] Beat AHB_WRITE addr=0x000070cc resp=AHB_RESP_OKAY waits=0 wdata=0x5e4df5ef
# UVM_INFO ../src/mst/ahb_master_monitor.sv(117) @ 595000: uvm_test_top.env.master_agent.mon [ahb_master_monitor] Beat[1] addr=0x000070cc wdata=0x5e4df5ef resp=AHB_RESP_OKAY
# UVM_INFO ../src/slv_seq/ahb_slave_error_seq.sv(89) @ 595000: uvm_test_top.env.slave_agent.sqr@@slv_seq [ahb_slave_error_seq] Response 17: AHB_WRITE @0x000070ce -> AHB_RESP_ERROR, 0 wait states           
# UVM_INFO ../src/mst/ahb_master_driver.sv(340) @ 615000: uvm_test_top.env.master_agent.drv [ahb_master_driver] Beat[2/16] addr=0x000070ce trans=AHB_TRANS_SEQ resp=AHB_RESP_ERROR wdata=0x7548fcb9
# UVM_INFO ../src/mst/ahb_master_driver.sv(357) @ 615000: uvm_test_top.env.master_agent.drv [ahb_master_driver] ERROR response on beat 2/16 - continuing burst (abort_on_error=0)
# UVM_INFO ../src/slv/ahb_slave_driver.sv(184) @ 615000: uvm_test_top.env.slave_agent.drv [ahb_slave_driver] Beat AHB_WRITE addr=0x000070ce resp=AHB_RESP_ERROR waits=0 wdata=0x7548fcb9
# UVM_INFO ../src/mst/ahb_master_monitor.sv(117) @ 615000: uvm_test_top.env.master_agent.mon [ahb_master_monitor] Beat[2] addr=0x000070ce wdata=0x7548fcb9 resp=AHB_RESP_ERROR
# UVM_INFO ../src/slv_seq/ahb_slave_error_seq.sv(89) @ 615000: uvm_test_top.env.slave_agent.sqr@@slv_seq [ahb_slave_error_seq] Response 18: AHB_WRITE @0x000070d0 -> AHB_RESP_OKAY, 0 wait states           
# UVM_INFO ../src/mst/ahb_master_driver.sv(340) @ 625000: uvm_test_top.env.master_agent.drv [ahb_master_driver] Beat[3/16] addr=0x000070d0 trans=AHB_TRANS_SEQ resp=AHB_RESP_OKAY wdata=0x2e68f7dd
# UVM_INFO ../src/slv/ahb_slave_driver.sv(184) @ 625000: uvm_test_top.env.slave_agent.drv [ahb_slave_driver] Beat AHB_WRITE addr=0x000070d0 resp=AHB_RESP_OKAY waits=0 wdata=0x2e68f7dd
# UVM_INFO ../src/mst/ahb_master_monitor.sv(117) @ 625000: uvm_test_top.env.master_agent.mon [ahb_master_monitor] Beat[3] addr=0x000070d0 wdata=0x2e68f7dd resp=AHB_RESP_OKAY
# UVM_INFO ../src/slv_seq/ahb_slave_error_seq.sv(89) @ 625000: uvm_test_top.env.slave_agent.sqr@@slv_seq [ahb_slave_error_seq] Response 19: AHB_WRITE @0x000070d2 -> AHB_RESP_OKAY, 0 wait states           
# UVM_INFO ../src/mst/ahb_master_driver.sv(340) @ 635000: uvm_test_top.env.master_agent.drv [ahb_master_driver] Beat[4/16] addr=0x000070d2 trans=AHB_TRANS_SEQ resp=AHB_RESP_OKAY wdata=0xd8daeac9
# UVM_INFO ../src/slv/ahb_slave_driver.sv(184) @ 635000: uvm_test_top.env.slave_agent.drv [ahb_slave_driver] Beat AHB_WRITE addr=0x000070d2 resp=AHB_RESP_OKAY waits=0 wdata=0xd8daeac9
# UVM_INFO ../src/mst/ahb_master_monitor.sv(117) @ 635000: uvm_test_top.env.master_agent.mon [ahb_master_monitor] Beat[4] addr=0x000070d2 wdata=0xd8daeac9 resp=AHB_RESP_OKAY
# UVM_INFO ../src/slv_seq/ahb_slave_error_seq.sv(89) @ 635000: uvm_test_top.env.slave_agent.sqr@@slv_seq [ahb_slave_error_seq] Response 20: AHB_WRITE @0x000070d4 -> AHB_RESP_ERROR, 0 wait states           
# UVM_INFO ../src/mst/ahb_master_driver.sv(340) @ 655000: uvm_test_top.env.master_agent.drv [ahb_master_driver] Beat[5/16] addr=0x000070d4 trans=AHB_TRANS_SEQ resp=AHB_RESP_ERROR wdata=0x6f95078e
# UVM_INFO ../src/mst/ahb_master_driver.sv(357) @ 655000: uvm_test_top.env.master_agent.drv [ahb_master_driver] ERROR response on beat 5/16 - continuing burst (abort_on_error=0)
# UVM_INFO ../src/slv/ahb_slave_driver.sv(184) @ 655000: uvm_test_top.env.slave_agent.drv [ahb_slave_driver] Beat AHB_WRITE addr=0x000070d4 resp=AHB_RESP_ERROR waits=0 wdata=0x6f95078e
# UVM_INFO ../src/mst/ahb_master_monitor.sv(117) @ 655000: uvm_test_top.env.master_agent.mon [ahb_master_monitor] Beat[5] addr=0x000070d4 wdata=0x6f95078e resp=AHB_RESP_ERROR
# UVM_INFO ../src/slv_seq/ahb_slave_error_seq.sv(89) @ 655000: uvm_test_top.env.slave_agent.sqr@@slv_seq [ahb_slave_error_seq] Response 21: AHB_WRITE @0x000070d6 -> AHB_RESP_OKAY, 2 wait states           
# UVM_INFO ../src/mst/ahb_master_driver.sv(340) @ 685000: uvm_test_top.env.master_agent.drv [ahb_master_driver] Beat[6/16] addr=0x000070d6 trans=AHB_TRANS_SEQ resp=AHB_RESP_OKAY wdata=0xae3839ee
# UVM_INFO ../src/slv/ahb_slave_driver.sv(184) @ 685000: uvm_test_top.env.slave_agent.drv [ahb_slave_driver] Beat AHB_WRITE addr=0x000070d6 resp=AHB_RESP_OKAY waits=2 wdata=0xae3839ee
# UVM_INFO ../src/mst/ahb_master_monitor.sv(117) @ 685000: uvm_test_top.env.master_agent.mon [ahb_master_monitor] Beat[6] addr=0x000070d6 wdata=0xae3839ee resp=AHB_RESP_OKAY
# UVM_INFO ../src/slv_seq/ahb_slave_error_seq.sv(89) @ 685000: uvm_test_top.env.slave_agent.sqr@@slv_seq [ahb_slave_error_seq] Response 22: AHB_WRITE @0x000070d8 -> AHB_RESP_OKAY, 2 wait states           
# UVM_INFO ../src/mst/ahb_master_driver.sv(340) @ 715000: uvm_test_top.env.master_agent.drv [ahb_master_driver] Beat[7/16] addr=0x000070d8 trans=AHB_TRANS_SEQ resp=AHB_RESP_OKAY wdata=0x3f8a509d
# UVM_INFO ../src/slv/ahb_slave_driver.sv(184) @ 715000: uvm_test_top.env.slave_agent.drv [ahb_slave_driver] Beat AHB_WRITE addr=0x000070d8 resp=AHB_RESP_OKAY waits=2 wdata=0x3f8a509d
# UVM_INFO ../src/mst/ahb_master_monitor.sv(117) @ 715000: uvm_test_top.env.master_agent.mon [ahb_master_monitor] Beat[7] addr=0x000070d8 wdata=0x3f8a509d resp=AHB_RESP_OKAY
# UVM_INFO ../src/slv_seq/ahb_slave_error_seq.sv(89) @ 715000: uvm_test_top.env.slave_agent.sqr@@slv_seq [ahb_slave_error_seq] Response 23: AHB_WRITE @0x000070da -> AHB_RESP_OKAY, 2 wait states           
# UVM_INFO ../src/mst/ahb_master_driver.sv(340) @ 745000: uvm_test_top.env.master_agent.drv [ahb_master_driver] Beat[8/16] addr=0x000070da trans=AHB_TRANS_SEQ resp=AHB_RESP_OKAY wdata=0xc2158e4e
# UVM_INFO ../src/slv/ahb_slave_driver.sv(184) @ 745000: uvm_test_top.env.slave_agent.drv [ahb_slave_driver] Beat AHB_WRITE addr=0x000070da resp=AHB_RESP_OKAY waits=2 wdata=0xc2158e4e
# UVM_INFO ../src/mst/ahb_master_monitor.sv(117) @ 745000: uvm_test_top.env.master_agent.mon [ahb_master_monitor] Beat[8] addr=0x000070da wdata=0xc2158e4e resp=AHB_RESP_OKAY
# UVM_INFO ../src/slv_seq/ahb_slave_error_seq.sv(89) @ 745000: uvm_test_top.env.slave_agent.sqr@@slv_seq [ahb_slave_error_seq] Response 24: AHB_WRITE @0x000070dc -> AHB_RESP_OKAY, 1 wait states           
# UVM_INFO ../src/mst/ahb_master_driver.sv(340) @ 765000: uvm_test_top.env.master_agent.drv [ahb_master_driver] Beat[9/16] addr=0x000070dc trans=AHB_TRANS_SEQ resp=AHB_RESP_OKAY wdata=0x138077b3
# UVM_INFO ../src/slv/ahb_slave_driver.sv(184) @ 765000: uvm_test_top.env.slave_agent.drv [ahb_slave_driver] Beat AHB_WRITE addr=0x000070dc resp=AHB_RESP_OKAY waits=1 wdata=0x138077b3
# UVM_INFO ../src/mst/ahb_master_monitor.sv(117) @ 765000: uvm_test_top.env.master_agent.mon [ahb_master_monitor] Beat[9] addr=0x000070dc wdata=0x138077b3 resp=AHB_RESP_OKAY
# UVM_INFO ../src/slv_seq/ahb_slave_error_seq.sv(89) @ 765000: uvm_test_top.env.slave_agent.sqr@@slv_seq [ahb_slave_error_seq] Response 25: AHB_WRITE @0x000070de -> AHB_RESP_OKAY, 2 wait states           
# UVM_INFO ../src/mst/ahb_master_driver.sv(340) @ 795000: uvm_test_top.env.master_agent.drv [ahb_master_driver] Beat[10/16] addr=0x000070de trans=AHB_TRANS_SEQ resp=AHB_RESP_OKAY wdata=0x6919e78c
# UVM_INFO ../src/slv/ahb_slave_driver.sv(184) @ 795000: uvm_test_top.env.slave_agent.drv [ahb_slave_driver] Beat AHB_WRITE addr=0x000070de resp=AHB_RESP_OKAY waits=2 wdata=0x6919e78c
# UVM_INFO ../src/mst/ahb_master_monitor.sv(117) @ 795000: uvm_test_top.env.master_agent.mon [ahb_master_monitor] Beat[10] addr=0x000070de wdata=0x6919e78c resp=AHB_RESP_OKAY
# UVM_INFO ../src/slv_seq/ahb_slave_error_seq.sv(89) @ 795000: uvm_test_top.env.slave_agent.sqr@@slv_seq [ahb_slave_error_seq] Response 26: AHB_WRITE @0x000070c0 -> AHB_RESP_OKAY, 1 wait states           
# UVM_INFO ../src/mst/ahb_master_driver.sv(340) @ 815000: uvm_test_top.env.master_agent.drv [ahb_master_driver] Beat[11/16] addr=0x000070c0 trans=AHB_TRANS_SEQ resp=AHB_RESP_OKAY wdata=0x5d69c8fc
# UVM_INFO ../src/slv/ahb_slave_driver.sv(184) @ 815000: uvm_test_top.env.slave_agent.drv [ahb_slave_driver] Beat AHB_WRITE addr=0x000070c0 resp=AHB_RESP_OKAY waits=1 wdata=0x5d69c8fc
# UVM_INFO ../src/mst/ahb_master_monitor.sv(117) @ 815000: uvm_test_top.env.master_agent.mon [ahb_master_monitor] Beat[11] addr=0x000070c0 wdata=0x5d69c8fc resp=AHB_RESP_OKAY
# UVM_INFO ../src/slv_seq/ahb_slave_error_seq.sv(89) @ 815000: uvm_test_top.env.slave_agent.sqr@@slv_seq [ahb_slave_error_seq] Response 27: AHB_WRITE @0x000070c2 -> AHB_RESP_ERROR, 0 wait states           
# UVM_INFO ../src/mst/ahb_master_driver.sv(340) @ 835000: uvm_test_top.env.master_agent.drv [ahb_master_driver] Beat[12/16] addr=0x000070c2 trans=AHB_TRANS_SEQ resp=AHB_RESP_ERROR wdata=0x7e7a9248
# UVM_INFO ../src/mst/ahb_master_driver.sv(357) @ 835000: uvm_test_top.env.master_agent.drv [ahb_master_driver] ERROR response on beat 12/16 - continuing burst (abort_on_error=0)
# UVM_INFO ../src/slv/ahb_slave_driver.sv(184) @ 835000: uvm_test_top.env.slave_agent.drv [ahb_slave_driver] Beat AHB_WRITE addr=0x000070c2 resp=AHB_RESP_ERROR waits=0 wdata=0x7e7a9248
# UVM_INFO ../src/mst/ahb_master_monitor.sv(117) @ 835000: uvm_test_top.env.master_agent.mon [ahb_master_monitor] Beat[12] addr=0x000070c2 wdata=0x7e7a9248 resp=AHB_RESP_ERROR
# UVM_INFO ../src/slv_seq/ahb_slave_error_seq.sv(89) @ 835000: uvm_test_top.env.slave_agent.sqr@@slv_seq [ahb_slave_error_seq] Response 28: AHB_WRITE @0x000070c4 -> AHB_RESP_OKAY, 0 wait states           
# UVM_INFO ../src/mst/ahb_master_driver.sv(340) @ 845000: uvm_test_top.env.master_agent.drv [ahb_master_driver] Beat[13/16] addr=0x000070c4 trans=AHB_TRANS_SEQ resp=AHB_RESP_OKAY wdata=0x48e33db8
# UVM_INFO ../src/slv/ahb_slave_driver.sv(184) @ 845000: uvm_test_top.env.slave_agent.drv [ahb_slave_driver] Beat AHB_WRITE addr=0x000070c4 resp=AHB_RESP_OKAY waits=0 wdata=0x48e33db8
# UVM_INFO ../src/mst/ahb_master_monitor.sv(117) @ 845000: uvm_test_top.env.master_agent.mon [ahb_master_monitor] Beat[13] addr=0x000070c4 wdata=0x48e33db8 resp=AHB_RESP_OKAY
# UVM_INFO ../src/slv_seq/ahb_slave_error_seq.sv(89) @ 845000: uvm_test_top.env.slave_agent.sqr@@slv_seq [ahb_slave_error_seq] Response 29: AHB_WRITE @0x000070c6 -> AHB_RESP_ERROR, 1 wait states           
# UVM_INFO ../src/mst/ahb_master_driver.sv(340) @ 875000: uvm_test_top.env.master_agent.drv [ahb_master_driver] Beat[14/16] addr=0x000070c6 trans=AHB_TRANS_SEQ resp=AHB_RESP_ERROR wdata=0x86d9987a
# UVM_INFO ../src/mst/ahb_master_driver.sv(357) @ 875000: uvm_test_top.env.master_agent.drv [ahb_master_driver] ERROR response on beat 14/16 - continuing burst (abort_on_error=0)
# UVM_INFO ../src/slv/ahb_slave_driver.sv(184) @ 875000: uvm_test_top.env.slave_agent.drv [ahb_slave_driver] Beat AHB_WRITE addr=0x000070c6 resp=AHB_RESP_ERROR waits=1 wdata=0x86d9987a
# UVM_INFO ../src/mst/ahb_master_monitor.sv(117) @ 875000: uvm_test_top.env.master_agent.mon [ahb_master_monitor] Beat[14] addr=0x000070c6 wdata=0x86d9987a resp=AHB_RESP_ERROR
# UVM_INFO ../src/slv_seq/ahb_slave_error_seq.sv(89) @ 875000: uvm_test_top.env.slave_agent.sqr@@slv_seq [ahb_slave_error_seq] Response 30: AHB_WRITE @0x000070c8 -> AHB_RESP_OKAY, 1 wait states           
# UVM_INFO ../src/mst/ahb_master_driver.sv(340) @ 895000: uvm_test_top.env.master_agent.drv [ahb_master_driver] Beat[15/16] addr=0x000070c8 trans=AHB_TRANS_SEQ resp=AHB_RESP_OKAY wdata=0x08e12ac7
# UVM_INFO ../src/mst/ahb_master_driver.sv(385) @ 895000: uvm_test_top.env.master_agent.drv [ahb_master_driver] Transaction complete: AHB_WRITE 0x000070ca, 16 beats, burst=AHB_BURST_WRAP16
# UVM_INFO ../src/slv/ahb_slave_driver.sv(184) @ 895000: uvm_test_top.env.slave_agent.drv [ahb_slave_driver] Beat AHB_WRITE addr=0x000070c8 resp=AHB_RESP_OKAY waits=1 wdata=0x08e12ac7
# UVM_INFO ../src/slv/ahb_slave_monitor.sv(197) @ 895000: uvm_test_top.env.slave_agent.mon [ahb_slave_monitor] Observed [AHB_WRITE]: HADDR=0x000070ca, HBURST=AHB_BURST_WRAP16, HSIZE=AHB_SIZE_16B, 16 beats
# UVM_INFO ../src/env/ahb_coverage.sv(127) @ 895000: uvm_test_top.env.slave_cov [ahb_coverage] Sampled [AHB_WRITE]: burst=AHB_BURST_WRAP16 size=AHB_SIZE_16B beats=16 error=1
# UVM_INFO ../src/mst/ahb_master_monitor.sv(117) @ 895000: uvm_test_top.env.master_agent.mon [ahb_master_monitor] Beat[15] addr=0x000070c8 wdata=0x08e12ac7 resp=AHB_RESP_OKAY
# UVM_INFO ../src/mst/ahb_master_monitor.sv(222) @ 895000: uvm_test_top.env.master_agent.mon [ahb_master_monitor] Observed [AHB_WRITE]: HADDR=0x000070ca, HBURST=AHB_BURST_WRAP16, HSIZE=AHB_SIZE_16B, 16 beats
# UVM_INFO ../src/env/ahb_coverage.sv(127) @ 895000: uvm_test_top.env.master_cov [ahb_coverage] Sampled [AHB_WRITE]: burst=AHB_BURST_WRAP16 size=AHB_SIZE_16B beats=16 error=1
# UVM_INFO ../src/env/ahb_scoreboard.sv(104) @ 895000: uvm_test_top.env.scb [ahb_scoreboard] MATCH #7: [AHB_WRITE] HADDR=0x000070ca AHB_BURST_WRAP16 16 beats
# UVM_INFO ../src/mst_seq/ahb_error_seq.sv(134) @ 895000: uvm_test_top.env.master_agent.sqr@@mst_seq [ahb_error_seq] AHB_WRITE AHB_BURST_WRAP16 @0x000070ca: ERROR on beat 2 of 16, policy=continue, drove 16
# UVM_INFO ../src/mst/ahb_master_driver.sv(87) @ 895000: uvm_test_top.env.master_agent.drv [ahb_master_driver] Queueing [AHB_READ]: HADDR=0x000080f0, HBURST=AHB_BURST_SINGLE, HSIZE=AHB_SIZE_32B, 1 beats
# UVM_INFO ../src/mst/ahb_master_driver.sv(129) @ 895000: uvm_test_top.env.master_agent.drv [ahb_master_driver] Driving [AHB_READ]: HADDR=0x000080f0, HBURST=AHB_BURST_SINGLE, HSIZE=AHB_SIZE_32B, 1 beats               
# UVM_INFO ../src/slv_seq/ahb_slave_error_seq.sv(89) @ 915000: uvm_test_top.env.slave_agent.sqr@@slv_seq [ahb_slave_error_seq] Response 31: AHB_READ @0x000080f0 -> AHB_RESP_OKAY, 1 wait states           
# UVM_INFO ../src/mst/ahb_master_driver.sv(340) @ 935000: uvm_test_top.env.master_agent.drv [ahb_master_driver] Beat[0/1] addr=0x000080f0 trans=AHB_TRANS_NONSEQ resp=AHB_RESP_OKAY rdata=0xf9a72471
# UVM_INFO ../src/mst/ahb_master_driver.sv(385) @ 935000: uvm_test_top.env.master_agent.drv [ahb_master_driver] Transaction complete: AHB_READ 0x000080f0, 1 beats, burst=AHB_BURST_SINGLE
# UVM_INFO ../src/slv/ahb_slave_driver.sv(184) @ 935000: uvm_test_top.env.slave_agent.drv [ahb_slave_driver] Beat AHB_READ addr=0x000080f0 resp=AHB_RESP_OKAY waits=1 rdata=0xf9a72471
# UVM_INFO ../src/slv/ahb_slave_monitor.sv(197) @ 935000: uvm_test_top.env.slave_agent.mon [ahb_slave_monitor] Observed [AHB_READ]: HADDR=0x000080f0, HBURST=AHB_BURST_SINGLE, HSIZE=AHB_SIZE_32B, 1 beats
# UVM_INFO ../src/env/ahb_coverage.sv(127) @ 935000: uvm_test_top.env.slave_cov [ahb_coverage] Sampled [AHB_READ]: burst=AHB_BURST_SINGLE size=AHB_SIZE_32B beats=1 error=0
# UVM_INFO ../src/mst/ahb_master_monitor.sv(117) @ 935000: uvm_test_top.env.master_agent.mon [ahb_master_monitor] Beat[0] addr=0x000080f0 rdata=0xf9a72471 resp=AHB_RESP_OKAY
# UVM_INFO ../src/mst/ahb_master_monitor.sv(222) @ 935000: uvm_test_top.env.master_agent.mon [ahb_master_monitor] Observed [AHB_READ]: HADDR=0x000080f0, HBURST=AHB_BURST_SINGLE, HSIZE=AHB_SIZE_32B, 1 beats
# UVM_INFO ../src/env/ahb_coverage.sv(127) @ 935000: uvm_test_top.env.master_cov [ahb_coverage] Sampled [AHB_READ]: burst=AHB_BURST_SINGLE size=AHB_SIZE_32B beats=1 error=0
# UVM_INFO ../src/env/ahb_scoreboard.sv(104) @ 935000: uvm_test_top.env.scb [ahb_scoreboard] MATCH #8: [AHB_READ] HADDR=0x000080f0 AHB_BURST_SINGLE 1 beats
# UVM_INFO ../src/mst/ahb_master_driver.sv(87) @ 935000: uvm_test_top.env.master_agent.drv [ahb_master_driver] Queueing [AHB_WRITE]: HADDR=0x000090b0, HBURST=AHB_BURST_INCR16, HSIZE=AHB_SIZE_8B, 16 beats
# UVM_INFO ../src/mst/ahb_master_driver.sv(129) @ 935000: uvm_test_top.env.master_agent.drv [ahb_master_driver] Driving [AHB_WRITE]: HADDR=0x000090b0, HBURST=AHB_BURST_INCR16, HSIZE=AHB_SIZE_8B, 16 beats               
# UVM_INFO ../src/slv_seq/ahb_slave_error_seq.sv(89) @ 955000: uvm_test_top.env.slave_agent.sqr@@slv_seq [ahb_slave_error_seq] Response 32: AHB_WRITE @0x000090b0 -> AHB_RESP_ERROR, 0 wait states (unmapped)
# UVM_INFO ../src/mst/ahb_master_driver.sv(340) @ 975000: uvm_test_top.env.master_agent.drv [ahb_master_driver] Beat[0/16] addr=0x000090b0 trans=AHB_TRANS_NONSEQ resp=AHB_RESP_ERROR wdata=0x133451e9
# UVM_INFO ../src/mst/ahb_master_driver.sv(350) @ 975000: uvm_test_top.env.master_agent.drv [ahb_master_driver] ERROR response on beat 0/16 - cancelling remaining burst
# UVM_INFO ../src/mst/ahb_master_driver.sv(385) @ 975000: uvm_test_top.env.master_agent.drv [ahb_master_driver] Transaction complete: AHB_WRITE 0x000090b0, 16 beats, burst=AHB_BURST_INCR16
# UVM_INFO ../src/slv/ahb_slave_driver.sv(184) @ 975000: uvm_test_top.env.slave_agent.drv [ahb_slave_driver] Beat AHB_WRITE addr=0x000090b0 resp=AHB_RESP_ERROR waits=0 wdata=0x133451e9
# UVM_INFO ../src/slv/ahb_slave_monitor.sv(197) @ 975000: uvm_test_top.env.slave_agent.mon [ahb_slave_monitor] Observed [AHB_WRITE]: HADDR=0x000090b0, HBURST=AHB_BURST_INCR16, HSIZE=AHB_SIZE_8B, 1 beats
# UVM_INFO ../src/env/ahb_coverage.sv(127) @ 975000: uvm_test_top.env.slave_cov [ahb_coverage] Sampled [AHB_WRITE]: burst=AHB_BURST_INCR16 size=AHB_SIZE_8B beats=16 error=1
# UVM_INFO ../src/mst/ahb_master_monitor.sv(117) @ 975000: uvm_test_top.env.master_agent.mon [ahb_master_monitor] Beat[0] addr=0x000090b0 wdata=0x133451e9 resp=AHB_RESP_ERROR
# UVM_INFO ../src/mst/ahb_master_monitor.sv(222) @ 975000: uvm_test_top.env.master_agent.mon [ahb_master_monitor] Observed [AHB_WRITE]: HADDR=0x000090b0, HBURST=AHB_BURST_INCR16, HSIZE=AHB_SIZE_8B, 1 beats
# UVM_INFO ../src/env/ahb_coverage.sv(127) @ 975000: uvm_test_top.env.master_cov [ahb_coverage] Sampled [AHB_WRITE]: burst=AHB_BURST_INCR16 size=AHB_SIZE_8B beats=16 error=1
# UVM_INFO ../src/env/ahb_scoreboard.sv(104) @ 975000: uvm_test_top.env.scb [ahb_scoreboard] MATCH #9: [AHB_WRITE] HADDR=0x000090b0 AHB_BURST_INCR16 16 beats
# UVM_INFO ../src/mst_seq/ahb_error_seq.sv(134) @ 975000: uvm_test_top.env.master_agent.sqr@@mst_seq [ahb_error_seq] AHB_WRITE AHB_BURST_INCR16 @0x000090b0: ERROR on beat 0 of 16, policy=  cancel, drove 1
# UVM_INFO ../src/mst/ahb_master_driver.sv(87) @ 975000: uvm_test_top.env.master_agent.drv [ahb_master_driver] Queueing [AHB_READ]: HADDR=0x00008116, HBURST=AHB_BURST_SINGLE, HSIZE=AHB_SIZE_16B, 1 beats
# UVM_INFO ../src/mst/ahb_master_driver.sv(129) @ 975000: uvm_test_top.env.master_agent.drv [ahb_master_driver] Driving [AHB_READ]: HADDR=0x00008116, HBURST=AHB_BURST_SINGLE, HSIZE=AHB_SIZE_16B, 1 beats               
# UVM_INFO ../src/slv_seq/ahb_slave_error_seq.sv(89) @ 995000: uvm_test_top.env.slave_agent.sqr@@slv_seq [ahb_slave_error_seq] Response 33: AHB_READ @0x00008116 -> AHB_RESP_OKAY, 0 wait states           
# UVM_INFO ../src/mst/ahb_master_driver.sv(340) @ 1005000: uvm_test_top.env.master_agent.drv [ahb_master_driver] Beat[0/1] addr=0x00008116 trans=AHB_TRANS_NONSEQ resp=AHB_RESP_OKAY rdata=0xaf5e4257
# UVM_INFO ../src/mst/ahb_master_driver.sv(385) @ 1005000: uvm_test_top.env.master_agent.drv [ahb_master_driver] Transaction complete: AHB_READ 0x00008116, 1 beats, burst=AHB_BURST_SINGLE
# UVM_INFO ../src/slv/ahb_slave_driver.sv(184) @ 1005000: uvm_test_top.env.slave_agent.drv [ahb_slave_driver] Beat AHB_READ addr=0x00008116 resp=AHB_RESP_OKAY waits=0 rdata=0xaf5e4257
# UVM_INFO ../src/mst/ahb_master_monitor.sv(117) @ 1005000: uvm_test_top.env.master_agent.mon [ahb_master_monitor] Beat[0] addr=0x00008116 rdata=0xaf5e4257 resp=AHB_RESP_OKAY
# UVM_INFO ../src/mst/ahb_master_monitor.sv(222) @ 1005000: uvm_test_top.env.master_agent.mon [ahb_master_monitor] Observed [AHB_READ]: HADDR=0x00008116, HBURST=AHB_BURST_SINGLE, HSIZE=AHB_SIZE_16B, 1 beats
# UVM_INFO ../src/env/ahb_coverage.sv(127) @ 1005000: uvm_test_top.env.master_cov [ahb_coverage] Sampled [AHB_READ]: burst=AHB_BURST_SINGLE size=AHB_SIZE_16B beats=1 error=0
# UVM_INFO ../src/slv/ahb_slave_monitor.sv(197) @ 1005000: uvm_test_top.env.slave_agent.mon [ahb_slave_monitor] Observed [AHB_READ]: HADDR=0x00008116, HBURST=AHB_BURST_SINGLE, HSIZE=AHB_SIZE_16B, 1 beats
# UVM_INFO ../src/env/ahb_scoreboard.sv(104) @ 1005000: uvm_test_top.env.scb [ahb_scoreboard] MATCH #10: [AHB_READ] HADDR=0x00008116 AHB_BURST_SINGLE 1 beats
# UVM_INFO ../src/env/ahb_coverage.sv(127) @ 1005000: uvm_test_top.env.slave_cov [ahb_coverage] Sampled [AHB_READ]: burst=AHB_BURST_SINGLE size=AHB_SIZE_16B beats=1 error=0
# UVM_INFO ../src/mst/ahb_master_driver.sv(87) @ 1005000: uvm_test_top.env.master_agent.drv [ahb_master_driver] Queueing [AHB_WRITE]: HADDR=0x0000715a, HBURST=AHB_BURST_SINGLE, HSIZE=AHB_SIZE_8B, 1 beats
# UVM_INFO ../src/mst/ahb_master_driver.sv(129) @ 1005000: uvm_test_top.env.master_agent.drv [ahb_master_driver] Driving [AHB_WRITE]: HADDR=0x0000715a, HBURST=AHB_BURST_SINGLE, HSIZE=AHB_SIZE_8B, 1 beats               
# UVM_INFO ../src/slv_seq/ahb_slave_error_seq.sv(89) @ 1025000: uvm_test_top.env.slave_agent.sqr@@slv_seq [ahb_slave_error_seq] Response 34: AHB_WRITE @0x0000715a -> AHB_RESP_OKAY, 0 wait states           
# UVM_INFO ../src/mst/ahb_master_driver.sv(340) @ 1035000: uvm_test_top.env.master_agent.drv [ahb_master_driver] Beat[0/1] addr=0x0000715a trans=AHB_TRANS_NONSEQ resp=AHB_RESP_OKAY wdata=0xd57ff17a
# UVM_INFO ../src/mst/ahb_master_driver.sv(385) @ 1035000: uvm_test_top.env.master_agent.drv [ahb_master_driver] Transaction complete: AHB_WRITE 0x0000715a, 1 beats, burst=AHB_BURST_SINGLE
# UVM_INFO ../src/slv/ahb_slave_driver.sv(184) @ 1035000: uvm_test_top.env.slave_agent.drv [ahb_slave_driver] Beat AHB_WRITE addr=0x0000715a resp=AHB_RESP_OKAY waits=0 wdata=0xd57ff17a
# UVM_INFO ../src/slv/ahb_slave_monitor.sv(197) @ 1035000: uvm_test_top.env.slave_agent.mon [ahb_slave_monitor] Observed [AHB_WRITE]: HADDR=0x0000715a, HBURST=AHB_BURST_SINGLE, HSIZE=AHB_SIZE_8B, 1 beats
# UVM_INFO ../src/env/ahb_coverage.sv(127) @ 1035000: uvm_test_top.env.slave_cov [ahb_coverage] Sampled [AHB_WRITE]: burst=AHB_BURST_SINGLE size=AHB_SIZE_8B beats=1 error=0
# UVM_INFO ../src/mst/ahb_master_monitor.sv(117) @ 1035000: uvm_test_top.env.master_agent.mon [ahb_master_monitor] Beat[0] addr=0x0000715a wdata=0xd57ff17a resp=AHB_RESP_OKAY
# UVM_INFO ../src/mst/ahb_master_monitor.sv(222) @ 1035000: uvm_test_top.env.master_agent.mon [ahb_master_monitor] Observed [AHB_WRITE]: HADDR=0x0000715a, HBURST=AHB_BURST_SINGLE, HSIZE=AHB_SIZE_8B, 1 beats
# UVM_INFO ../src/env/ahb_coverage.sv(127) @ 1035000: uvm_test_top.env.master_cov [ahb_coverage] Sampled [AHB_WRITE]: burst=AHB_BURST_SINGLE size=AHB_SIZE_8B beats=1 error=0
# UVM_INFO ../src/env/ahb_scoreboard.sv(104) @ 1035000: uvm_test_top.env.scb [ahb_scoreboard] MATCH #11: [AHB_WRITE] HADDR=0x0000715a AHB_BURST_SINGLE 1 beats
# UVM_INFO ../src/mst/ahb_master_driver.sv(87) @ 1035000: uvm_test_top.env.master_agent.drv [ahb_master_driver] Queueing [AHB_READ]: HADDR=0x000090c8, HBURST=AHB_BURST_INCR4, HSIZE=AHB_SIZE_32B, 4 beats
# UVM_INFO ../src/mst/ahb_master_driver.sv(129) @ 1035000: uvm_test_top.env.master_agent.drv [ahb_master_driver] Driving [AHB_READ]: HADDR=0x000090c8, HBURST=AHB_BURST_INCR4, HSIZE=AHB_SIZE_32B, 4 beats               
# UVM_INFO ../src/slv_seq/ahb_slave_error_seq.sv(89) @ 1055000: uvm_test_top.env.slave_agent.sqr@@slv_seq [ahb_slave_error_seq] Response 35: AHB_READ @0x000090c8 -> AHB_RESP_ERROR, 1 wait states (unmapped)
# UVM_INFO ../src/mst/ahb_master_driver.sv(340) @ 1085000: uvm_test_top.env.master_agent.drv [ahb_master_driver] Beat[0/4] addr=0x000090c8 trans=AHB_TRANS_NONSEQ resp=AHB_RESP_ERROR rdata=0xaf5e4257
# UVM_INFO ../src/mst/ahb_master_driver.sv(357) @ 1085000: uvm_test_top.env.master_agent.drv [ahb_master_driver] ERROR response on beat 0/4 - continuing burst (abort_on_error=0)
# UVM_INFO ../src/slv/ahb_slave_driver.sv(184) @ 1085000: uvm_test_top.env.slave_agent.drv [ahb_slave_driver] Beat AHB_READ addr=0x000090c8 resp=AHB_RESP_ERROR waits=1 rdata=0x91c22927
# UVM_INFO ../src/mst/ahb_master_monitor.sv(117) @ 1085000: uvm_test_top.env.master_agent.mon [ahb_master_monitor] Beat[0] addr=0x000090c8 rdata=0xaf5e4257 resp=AHB_RESP_ERROR
# UVM_INFO ../src/slv_seq/ahb_slave_error_seq.sv(89) @ 1085000: uvm_test_top.env.slave_agent.sqr@@slv_seq [ahb_slave_error_seq] Response 36: AHB_READ @0x000090cc -> AHB_RESP_ERROR, 0 wait states (unmapped)
# UVM_INFO ../src/mst/ahb_master_driver.sv(340) @ 1105000: uvm_test_top.env.master_agent.drv [ahb_master_driver] Beat[1/4] addr=0x000090cc trans=AHB_TRANS_SEQ resp=AHB_RESP_ERROR rdata=0xaf5e4257
# UVM_INFO ../src/mst/ahb_master_driver.sv(357) @ 1105000: uvm_test_top.env.master_agent.drv [ahb_master_driver] ERROR response on beat 1/4 - continuing burst (abort_on_error=0)
# UVM_INFO ../src/slv/ahb_slave_driver.sv(184) @ 1105000: uvm_test_top.env.slave_agent.drv [ahb_slave_driver] Beat AHB_READ addr=0x000090cc resp=AHB_RESP_ERROR waits=0 rdata=0xad503182
# UVM_INFO ../src/mst/ahb_master_monitor.sv(117) @ 1105000: uvm_test_top.env.master_agent.mon [ahb_master_monitor] Beat[1] addr=0x000090cc rdata=0xaf5e4257 resp=AHB_RESP_ERROR
# UVM_INFO ../src/slv_seq/ahb_slave_error_seq.sv(89) @ 1105000: uvm_test_top.env.slave_agent.sqr@@slv_seq [ahb_slave_error_seq] Response 37: AHB_READ @0x000090d0 -> AHB_RESP_ERROR, 1 wait states (unmapped)
# UVM_INFO ../src/mst/ahb_master_driver.sv(340) @ 1135000: uvm_test_top.env.master_agent.drv [ahb_master_driver] Beat[2/4] addr=0x000090d0 trans=AHB_TRANS_SEQ resp=AHB_RESP_ERROR rdata=0xaf5e4257
# UVM_INFO ../src/mst/ahb_master_driver.sv(357) @ 1135000: uvm_test_top.env.master_agent.drv [ahb_master_driver] ERROR response on beat 2/4 - continuing burst (abort_on_error=0)
# UVM_INFO ../src/slv/ahb_slave_driver.sv(184) @ 1135000: uvm_test_top.env.slave_agent.drv [ahb_slave_driver] Beat AHB_READ addr=0x000090d0 resp=AHB_RESP_ERROR waits=1 rdata=0x7dcd2933
# UVM_INFO ../src/mst/ahb_master_monitor.sv(117) @ 1135000: uvm_test_top.env.master_agent.mon [ahb_master_monitor] Beat[2] addr=0x000090d0 rdata=0xaf5e4257 resp=AHB_RESP_ERROR
# UVM_INFO ../src/slv_seq/ahb_slave_error_seq.sv(89) @ 1135000: uvm_test_top.env.slave_agent.sqr@@slv_seq [ahb_slave_error_seq] Response 38: AHB_READ @0x000090d4 -> AHB_RESP_ERROR, 1 wait states (unmapped)
# UVM_INFO ../src/mst/ahb_master_driver.sv(340) @ 1165000: uvm_test_top.env.master_agent.drv [ahb_master_driver] Beat[3/4] addr=0x000090d4 trans=AHB_TRANS_SEQ resp=AHB_RESP_ERROR rdata=0xaf5e4257
# UVM_INFO ../src/mst/ahb_master_driver.sv(357) @ 1165000: uvm_test_top.env.master_agent.drv [ahb_master_driver] ERROR response on beat 3/4 - continuing burst (abort_on_error=0)
# UVM_INFO ../src/mst/ahb_master_driver.sv(385) @ 1165000: uvm_test_top.env.master_agent.drv [ahb_master_driver] Transaction complete: AHB_READ 0x000090c8, 4 beats, burst=AHB_BURST_INCR4
# UVM_INFO ../src/slv/ahb_slave_driver.sv(184) @ 1165000: uvm_test_top.env.slave_agent.drv [ahb_slave_driver] Beat AHB_READ addr=0x000090d4 resp=AHB_RESP_ERROR waits=1 rdata=0x4500eb75
# UVM_INFO ../src/mst/ahb_master_monitor.sv(117) @ 1165000: uvm_test_top.env.master_agent.mon [ahb_master_monitor] Beat[3] addr=0x000090d4 rdata=0xaf5e4257 resp=AHB_RESP_ERROR
# UVM_INFO ../src/mst/ahb_master_monitor.sv(222) @ 1165000: uvm_test_top.env.master_agent.mon [ahb_master_monitor] Observed [AHB_READ]: HADDR=0x000090c8, HBURST=AHB_BURST_INCR4, HSIZE=AHB_SIZE_32B, 4 beats
# UVM_INFO ../src/env/ahb_coverage.sv(127) @ 1165000: uvm_test_top.env.master_cov [ahb_coverage] Sampled [AHB_READ]: burst=AHB_BURST_INCR4 size=AHB_SIZE_32B beats=4 error=1
# UVM_INFO ../src/slv/ahb_slave_monitor.sv(197) @ 1165000: uvm_test_top.env.slave_agent.mon [ahb_slave_monitor] Observed [AHB_READ]: HADDR=0x000090c8, HBURST=AHB_BURST_INCR4, HSIZE=AHB_SIZE_32B, 4 beats
# UVM_INFO ../src/env/ahb_scoreboard.sv(104) @ 1165000: uvm_test_top.env.scb [ahb_scoreboard] MATCH #12: [AHB_READ] HADDR=0x000090c8 AHB_BURST_INCR4 4 beats
# UVM_INFO ../src/env/ahb_coverage.sv(127) @ 1165000: uvm_test_top.env.slave_cov [ahb_coverage] Sampled [AHB_READ]: burst=AHB_BURST_INCR4 size=AHB_SIZE_32B beats=4 error=1
# UVM_INFO ../src/mst_seq/ahb_error_seq.sv(134) @ 1165000: uvm_test_top.env.master_agent.sqr@@mst_seq [ahb_error_seq] AHB_READ AHB_BURST_INCR4 @0x000090c8: ERROR on beat 0 of 4, policy=continue, drove 4
# UVM_INFO ../src/mst/ahb_master_driver.sv(87) @ 1165000: uvm_test_top.env.master_agent.drv [ahb_master_driver] Queueing [AHB_WRITE]: HADDR=0x000071a8, HBURST=AHB_BURST_INCR8, HSIZE=AHB_SIZE_16B, 8 beats
# UVM_INFO ../src/mst/ahb_master_driver.sv(129) @ 1165000: uvm_test_top.env.master_agent.drv [ahb_master_driver] Driving [AHB_WRITE]: HADDR=0x000071a8, HBURST=AHB_BURST_INCR8, HSIZE=AHB_SIZE_16B, 8 beats               
# UVM_INFO ../src/slv_seq/ahb_slave_error_seq.sv(89) @ 1185000: uvm_test_top.env.slave_agent.sqr@@slv_seq [ahb_slave_error_seq] Response 39: AHB_WRITE @0x000071a8 -> AHB_RESP_OKAY, 2 wait states           
# UVM_INFO ../src/mst/ahb_master_driver.sv(340) @ 1215000: uvm_test_top.env.master_agent.drv [ahb_master_driver] Beat[0/8] addr=0x000071a8 trans=AHB_TRANS_NONSEQ resp=AHB_RESP_OKAY wdata=0xeaace864
# UVM_INFO ../src/slv/ahb_slave_driver.sv(184) @ 1215000: uvm_test_top.env.slave_agent.drv [ahb_slave_driver] Beat AHB_WRITE addr=0x000071a8 resp=AHB_RESP_OKAY waits=2 wdata=0xeaace864
# UVM_INFO ../src/mst/ahb_master_monitor.sv(117) @ 1215000: uvm_test_top.env.master_agent.mon [ahb_master_monitor] Beat[0] addr=0x000071a8 wdata=0xeaace864 resp=AHB_RESP_OKAY
# UVM_INFO ../src/slv_seq/ahb_slave_error_seq.sv(89) @ 1215000: uvm_test_top.env.slave_agent.sqr@@slv_seq [ahb_slave_error_seq] Response 40: AHB_WRITE @0x000071aa -> AHB_RESP_ERROR, 0 wait states           
# UVM_INFO ../src/mst/ahb_master_driver.sv(340) @ 1235000: uvm_test_top.env.master_agent.drv [ahb_master_driver] Beat[1/8] addr=0x000071aa trans=AHB_TRANS_SEQ resp=AHB_RESP_ERROR wdata=0xe8e018e8
# UVM_INFO ../src/mst/ahb_master_driver.sv(350) @ 1235000: uvm_test_top.env.master_agent.drv [ahb_master_driver] ERROR response on beat 1/8 - cancelling remaining burst
# UVM_INFO ../src/mst/ahb_master_driver.sv(385) @ 1235000: uvm_test_top.env.master_agent.drv [ahb_master_driver] Transaction complete: AHB_WRITE 0x000071a8, 8 beats, burst=AHB_BURST_INCR8
# UVM_INFO ../src/slv/ahb_slave_driver.sv(184) @ 1235000: uvm_test_top.env.slave_agent.drv [ahb_slave_driver] Beat AHB_WRITE addr=0x000071aa resp=AHB_RESP_ERROR waits=0 wdata=0xe8e018e8
# UVM_INFO ../src/slv/ahb_slave_monitor.sv(197) @ 1235000: uvm_test_top.env.slave_agent.mon [ahb_slave_monitor] Observed [AHB_WRITE]: HADDR=0x000071a8, HBURST=AHB_BURST_INCR8, HSIZE=AHB_SIZE_16B, 2 beats
# UVM_INFO ../src/env/ahb_coverage.sv(127) @ 1235000: uvm_test_top.env.slave_cov [ahb_coverage] Sampled [AHB_WRITE]: burst=AHB_BURST_INCR8 size=AHB_SIZE_16B beats=8 error=1
# UVM_INFO ../src/mst/ahb_master_monitor.sv(117) @ 1235000: uvm_test_top.env.master_agent.mon [ahb_master_monitor] Beat[1] addr=0x000071aa wdata=0xe8e018e8 resp=AHB_RESP_ERROR
# UVM_INFO ../src/mst/ahb_master_monitor.sv(222) @ 1235000: uvm_test_top.env.master_agent.mon [ahb_master_monitor] Observed [AHB_WRITE]: HADDR=0x000071a8, HBURST=AHB_BURST_INCR8, HSIZE=AHB_SIZE_16B, 2 beats
# UVM_INFO ../src/env/ahb_coverage.sv(127) @ 1235000: uvm_test_top.env.master_cov [ahb_coverage] Sampled [AHB_WRITE]: burst=AHB_BURST_INCR8 size=AHB_SIZE_16B beats=8 error=1
# UVM_INFO ../src/env/ahb_scoreboard.sv(104) @ 1235000: uvm_test_top.env.scb [ahb_scoreboard] MATCH #13: [AHB_WRITE] HADDR=0x000071a8 AHB_BURST_INCR8 8 beats
# UVM_INFO ../src/mst_seq/ahb_error_seq.sv(134) @ 1235000: uvm_test_top.env.master_agent.sqr@@mst_seq [ahb_error_seq] AHB_WRITE AHB_BURST_INCR8 @0x000071a8: ERROR on beat 1 of 8, policy=  cancel, drove 2
# UVM_INFO ../src/mst/ahb_master_driver.sv(87) @ 1235000: uvm_test_top.env.master_agent.drv [ahb_master_driver] Queueing [AHB_READ]: HADDR=0x00008184, HBURST=AHB_BURST_WRAP4, HSIZE=AHB_SIZE_32B, 4 beats
# UVM_INFO ../src/mst/ahb_master_driver.sv(129) @ 1235000: uvm_test_top.env.master_agent.drv [ahb_master_driver] Driving [AHB_READ]: HADDR=0x00008184, HBURST=AHB_BURST_WRAP4, HSIZE=AHB_SIZE_32B, 4 beats               
# UVM_INFO ../src/slv_seq/ahb_slave_error_seq.sv(89) @ 1255000: uvm_test_top.env.slave_agent.sqr@@slv_seq [ahb_slave_error_seq] Response 41: AHB_READ @0x00008184 -> AHB_RESP_OKAY, 2 wait states           
# UVM_INFO ../src/mst/ahb_master_driver.sv(340) @ 1285000: uvm_test_top.env.master_agent.drv [ahb_master_driver] Beat[0/4] addr=0x00008184 trans=AHB_TRANS_NONSEQ resp=AHB_RESP_OKAY rdata=0x759f9ad4
# UVM_INFO ../src/slv/ahb_slave_driver.sv(184) @ 1285000: uvm_test_top.env.slave_agent.drv [ahb_slave_driver] Beat AHB_READ addr=0x00008184 resp=AHB_RESP_OKAY waits=2 rdata=0x759f9ad4
# UVM_INFO ../src/mst/ahb_master_monitor.sv(117) @ 1285000: uvm_test_top.env.master_agent.mon [ahb_master_monitor] Beat[0] addr=0x00008184 rdata=0x759f9ad4 resp=AHB_RESP_OKAY
# UVM_INFO ../src/slv_seq/ahb_slave_error_seq.sv(89) @ 1285000: uvm_test_top.env.slave_agent.sqr@@slv_seq [ahb_slave_error_seq] Response 42: AHB_READ @0x00008188 -> AHB_RESP_OKAY, 0 wait states           
# UVM_INFO ../src/mst/ahb_master_driver.sv(340) @ 1295000: uvm_test_top.env.master_agent.drv [ahb_master_driver] Beat[1/4] addr=0x00008188 trans=AHB_TRANS_SEQ resp=AHB_RESP_OKAY rdata=0x5d3e091b
# UVM_INFO ../src/slv/ahb_slave_driver.sv(184) @ 1295000: uvm_test_top.env.slave_agent.drv [ahb_slave_driver] Beat AHB_READ addr=0x00008188 resp=AHB_RESP_OKAY waits=0 rdata=0x5d3e091b
# UVM_INFO ../src/mst/ahb_master_monitor.sv(117) @ 1295000: uvm_test_top.env.master_agent.mon [ahb_master_monitor] Beat[1] addr=0x00008188 rdata=0x5d3e091b resp=AHB_RESP_OKAY
# UVM_INFO ../src/slv_seq/ahb_slave_error_seq.sv(89) @ 1295000: uvm_test_top.env.slave_agent.sqr@@slv_seq [ahb_slave_error_seq] Response 43: AHB_READ @0x0000818c -> AHB_RESP_ERROR, 1 wait states           
# UVM_INFO ../src/mst/ahb_master_driver.sv(340) @ 1325000: uvm_test_top.env.master_agent.drv [ahb_master_driver] Beat[2/4] addr=0x0000818c trans=AHB_TRANS_SEQ resp=AHB_RESP_ERROR rdata=0x5d3e091b
# UVM_INFO ../src/mst/ahb_master_driver.sv(350) @ 1325000: uvm_test_top.env.master_agent.drv [ahb_master_driver] ERROR response on beat 2/4 - cancelling remaining burst
# UVM_INFO ../src/mst/ahb_master_driver.sv(385) @ 1325000: uvm_test_top.env.master_agent.drv [ahb_master_driver] Transaction complete: AHB_READ 0x00008184, 4 beats, burst=AHB_BURST_WRAP4
# UVM_INFO ../src/slv/ahb_slave_driver.sv(184) @ 1325000: uvm_test_top.env.slave_agent.drv [ahb_slave_driver] Beat AHB_READ addr=0x0000818c resp=AHB_RESP_ERROR waits=1 rdata=0x45be6c65
# UVM_INFO ../src/mst/ahb_master_monitor.sv(117) @ 1325000: uvm_test_top.env.master_agent.mon [ahb_master_monitor] Beat[2] addr=0x0000818c rdata=0x5d3e091b resp=AHB_RESP_ERROR
# UVM_INFO ../src/mst/ahb_master_monitor.sv(222) @ 1325000: uvm_test_top.env.master_agent.mon [ahb_master_monitor] Observed [AHB_READ]: HADDR=0x00008184, HBURST=AHB_BURST_WRAP4, HSIZE=AHB_SIZE_32B, 3 beats
# UVM_INFO ../src/env/ahb_coverage.sv(127) @ 1325000: uvm_test_top.env.master_cov [ahb_coverage] Sampled [AHB_READ]: burst=AHB_BURST_WRAP4 size=AHB_SIZE_32B beats=4 error=1
# UVM_INFO ../src/slv/ahb_slave_monitor.sv(197) @ 1325000: uvm_test_top.env.slave_agent.mon [ahb_slave_monitor] Observed [AHB_READ]: HADDR=0x00008184, HBURST=AHB_BURST_WRAP4, HSIZE=AHB_SIZE_32B, 3 beats
# UVM_INFO ../src/env/ahb_scoreboard.sv(104) @ 1325000: uvm_test_top.env.scb [ahb_scoreboard] MATCH #14: [AHB_READ] HADDR=0x00008184 AHB_BURST_WRAP4 4 beats
# UVM_INFO ../src/env/ahb_coverage.sv(127) @ 1325000: uvm_test_top.env.slave_cov [ahb_coverage] Sampled [AHB_READ]: burst=AHB_BURST_WRAP4 size=AHB_SIZE_32B beats=4 error=1
# UVM_INFO ../src/mst_seq/ahb_error_seq.sv(134) @ 1325000: uvm_test_top.env.master_agent.sqr@@mst_seq [ahb_error_seq] AHB_READ AHB_BURST_WRAP4 @0x00008184: ERROR on beat 2 of 4, policy=  cancel, drove 3
# UVM_INFO ../src/mst/ahb_master_driver.sv(87) @ 1325000: uvm_test_top.env.master_agent.drv [ahb_master_driver] Queueing [AHB_WRITE]: HADDR=0x00009127, HBURST=AHB_BURST_WRAP8, HSIZE=AHB_SIZE_8B, 8 beats
# UVM_INFO ../src/mst/ahb_master_driver.sv(129) @ 1325000: uvm_test_top.env.master_agent.drv [ahb_master_driver] Driving [AHB_WRITE]: HADDR=0x00009127, HBURST=AHB_BURST_WRAP8, HSIZE=AHB_SIZE_8B, 8 beats               
# UVM_INFO ../src/slv_seq/ahb_slave_error_seq.sv(89) @ 1345000: uvm_test_top.env.slave_agent.sqr@@slv_seq [ahb_slave_error_seq] Response 44: AHB_WRITE @0x00009127 -> AHB_RESP_ERROR, 1 wait states (unmapped)
# UVM_INFO ../src/mst/ahb_master_driver.sv(340) @ 1375000: uvm_test_top.env.master_agent.drv [ahb_master_driver] Beat[0/8] addr=0x00009127 trans=AHB_TRANS_NONSEQ resp=AHB_RESP_ERROR wdata=0xebbfde01
# UVM_INFO ../src/mst/ahb_master_driver.sv(357) @ 1375000: uvm_test_top.env.master_agent.drv [ahb_master_driver] ERROR response on beat 0/8 - continuing burst (abort_on_error=0)
# UVM_INFO ../src/slv/ahb_slave_driver.sv(184) @ 1375000: uvm_test_top.env.slave_agent.drv [ahb_slave_driver] Beat AHB_WRITE addr=0x00009127 resp=AHB_RESP_ERROR waits=1 wdata=0xebbfde01
# UVM_INFO ../src/mst/ahb_master_monitor.sv(117) @ 1375000: uvm_test_top.env.master_agent.mon [ahb_master_monitor] Beat[0] addr=0x00009127 wdata=0xebbfde01 resp=AHB_RESP_ERROR
# UVM_INFO ../src/slv_seq/ahb_slave_error_seq.sv(89) @ 1375000: uvm_test_top.env.slave_agent.sqr@@slv_seq [ahb_slave_error_seq] Response 45: AHB_WRITE @0x00009120 -> AHB_RESP_ERROR, 2 wait states (unmapped)
# UVM_INFO ../src/mst/ahb_master_driver.sv(340) @ 1415000: uvm_test_top.env.master_agent.drv [ahb_master_driver] Beat[1/8] addr=0x00009120 trans=AHB_TRANS_SEQ resp=AHB_RESP_ERROR wdata=0xdc0199e5
# UVM_INFO ../src/mst/ahb_master_driver.sv(357) @ 1415000: uvm_test_top.env.master_agent.drv [ahb_master_driver] ERROR response on beat 1/8 - continuing burst (abort_on_error=0)
# UVM_INFO ../src/slv/ahb_slave_driver.sv(184) @ 1415000: uvm_test_top.env.slave_agent.drv [ahb_slave_driver] Beat AHB_WRITE addr=0x00009120 resp=AHB_RESP_ERROR waits=2 wdata=0xdc0199e5
# UVM_INFO ../src/mst/ahb_master_monitor.sv(117) @ 1415000: uvm_test_top.env.master_agent.mon [ahb_master_monitor] Beat[1] addr=0x00009120 wdata=0xdc0199e5 resp=AHB_RESP_ERROR
# UVM_INFO ../src/slv_seq/ahb_slave_error_seq.sv(89) @ 1415000: uvm_test_top.env.slave_agent.sqr@@slv_seq [ahb_slave_error_seq] Response 46: AHB_WRITE @0x00009121 -> AHB_RESP_ERROR, 1 wait states (unmapped)
# UVM_INFO ../src/mst/ahb_master_driver.sv(340) @ 1445000: uvm_test_top.env.master_agent.drv [ahb_master_driver] Beat[2/8] addr=0x00009121 trans=AHB_TRANS_SEQ resp=AHB_RESP_ERROR wdata=0x2605791e
# UVM_INFO ../src/mst/ahb_master_driver.sv(357) @ 1445000: uvm_test_top.env.master_agent.drv [ahb_master_driver] ERROR response on beat 2/8 - continuing burst (abort_on_error=0)
# UVM_INFO ../src/slv/ahb_slave_driver.sv(184) @ 1445000: uvm_test_top.env.slave_agent.drv [ahb_slave_driver] Beat AHB_WRITE addr=0x00009121 resp=AHB_RESP_ERROR waits=1 wdata=0x2605791e
# UVM_INFO ../src/mst/ahb_master_monitor.sv(117) @ 1445000: uvm_test_top.env.master_agent.mon [ahb_master_monitor] Beat[2] addr=0x00009121 wdata=0x2605791e resp=AHB_RESP_ERROR
# UVM_INFO ../src/slv_seq/ahb_slave_error_seq.sv(89) @ 1445000: uvm_test_top.env.slave_agent.sqr@@slv_seq [ahb_slave_error_seq] Response 47: AHB_WRITE @0x00009122 -> AHB_RESP_ERROR, 1 wait states (unmapped)
# UVM_INFO ../src/mst/ahb_master_driver.sv(340) @ 1475000: uvm_test_top.env.master_agent.drv [ahb_master_driver] Beat[3/8] addr=0x00009122 trans=AHB_TRANS_SEQ resp=AHB_RESP_ERROR wdata=0x19aad70f
# UVM_INFO ../src/mst/ahb_master_driver.sv(357) @ 1475000: uvm_test_top.env.master_agent.drv [ahb_master_driver] ERROR response on beat 3/8 - continuing burst (abort_on_error=0)
# UVM_INFO ../src/slv/ahb_slave_driver.sv(184) @ 1475000: uvm_test_top.env.slave_agent.drv [ahb_slave_driver] Beat AHB_WRITE addr=0x00009122 resp=AHB_RESP_ERROR waits=1 wdata=0x19aad70f
# UVM_INFO ../src/mst/ahb_master_monitor.sv(117) @ 1475000: uvm_test_top.env.master_agent.mon [ahb_master_monitor] Beat[3] addr=0x00009122 wdata=0x19aad70f resp=AHB_RESP_ERROR
# UVM_INFO ../src/slv_seq/ahb_slave_error_seq.sv(89) @ 1475000: uvm_test_top.env.slave_agent.sqr@@slv_seq [ahb_slave_error_seq] Response 48: AHB_WRITE @0x00009123 -> AHB_RESP_ERROR, 2 wait states (unmapped)
# UVM_INFO ../src/mst/ahb_master_driver.sv(340) @ 1515000: uvm_test_top.env.master_agent.drv [ahb_master_driver] Beat[4/8] addr=0x00009123 trans=AHB_TRANS_SEQ resp=AHB_RESP_ERROR wdata=0xb41847c7
# UVM_INFO ../src/mst/ahb_master_driver.sv(357) @ 1515000: uvm_test_top.env.master_agent.drv [ahb_master_driver] ERROR response on beat 4/8 - continuing burst (abort_on_error=0)
# UVM_INFO ../src/slv/ahb_slave_driver.sv(184) @ 1515000: uvm_test_top.env.slave_agent.drv [ahb_slave_driver] Beat AHB_WRITE addr=0x00009123 resp=AHB_RESP_ERROR waits=2 wdata=0xb41847c7
# UVM_INFO ../src/mst/ahb_master_monitor.sv(117) @ 1515000: uvm_test_top.env.master_agent.mon [ahb_master_monitor] Beat[4] addr=0x00009123 wdata=0xb41847c7 resp=AHB_RESP_ERROR
# UVM_INFO ../src/slv_seq/ahb_slave_error_seq.sv(89) @ 1515000: uvm_test_top.env.slave_agent.sqr@@slv_seq [ahb_slave_error_seq] Response 49: AHB_WRITE @0x00009124 -> AHB_RESP_ERROR, 2 wait states (unmapped)
# UVM_INFO ../src/mst/ahb_master_driver.sv(340) @ 1555000: uvm_test_top.env.master_agent.drv [ahb_master_driver] Beat[5/8] addr=0x00009124 trans=AHB_TRANS_SEQ resp=AHB_RESP_ERROR wdata=0xae26d45d
# UVM_INFO ../src/mst/ahb_master_driver.sv(357) @ 1555000: uvm_test_top.env.master_agent.drv [ahb_master_driver] ERROR response on beat 5/8 - continuing burst (abort_on_error=0)
# UVM_INFO ../src/slv/ahb_slave_driver.sv(184) @ 1555000: uvm_test_top.env.slave_agent.drv [ahb_slave_driver] Beat AHB_WRITE addr=0x00009124 resp=AHB_RESP_ERROR waits=2 wdata=0xae26d45d
# UVM_INFO ../src/mst/ahb_master_monitor.sv(117) @ 1555000: uvm_test_top.env.master_agent.mon [ahb_master_monitor] Beat[5] addr=0x00009124 wdata=0xae26d45d resp=AHB_RESP_ERROR
# UVM_INFO ../src/slv_seq/ahb_slave_error_seq.sv(89) @ 1555000: uvm_test_top.env.slave_agent.sqr@@slv_seq [ahb_slave_error_seq] Response 50: AHB_WRITE @0x00009125 -> AHB_RESP_ERROR, 1 wait states (unmapped)
# UVM_INFO ../src/mst/ahb_master_driver.sv(340) @ 1585000: uvm_test_top.env.master_agent.drv [ahb_master_driver] Beat[6/8] addr=0x00009125 trans=AHB_TRANS_SEQ resp=AHB_RESP_ERROR wdata=0x6c35ddf9
# UVM_INFO ../src/mst/ahb_master_driver.sv(357) @ 1585000: uvm_test_top.env.master_agent.drv [ahb_master_driver] ERROR response on beat 6/8 - continuing burst (abort_on_error=0)
# UVM_INFO ../src/slv/ahb_slave_driver.sv(184) @ 1585000: uvm_test_top.env.slave_agent.drv [ahb_slave_driver] Beat AHB_WRITE addr=0x00009125 resp=AHB_RESP_ERROR waits=1 wdata=0x6c35ddf9
# UVM_INFO ../src/mst/ahb_master_monitor.sv(117) @ 1585000: uvm_test_top.env.master_agent.mon [ahb_master_monitor] Beat[6] addr=0x00009125 wdata=0x6c35ddf9 resp=AHB_RESP_ERROR
# UVM_INFO ../src/slv_seq/ahb_slave_error_seq.sv(89) @ 1585000: uvm_test_top.env.slave_agent.sqr@@slv_seq [ahb_slave_error_seq] Response 51: AHB_WRITE @0x00009126 -> AHB_RESP_ERROR, 0 wait states (unmapped)
# UVM_INFO ../src/mst/ahb_master_driver.sv(340) @ 1605000: uvm_test_top.env.master_agent.drv [ahb_master_driver] Beat[7/8] addr=0x00009126 trans=AHB_TRANS_SEQ resp=AHB_RESP_ERROR wdata=0xa3538ad7
# UVM_INFO ../src/mst/ahb_master_driver.sv(357) @ 1605000: uvm_test_top.env.master_agent.drv [ahb_master_driver] ERROR response on beat 7/8 - continuing burst (abort_on_error=0)
# UVM_INFO ../src/mst/ahb_master_driver.sv(385) @ 1605000: uvm_test_top.env.master_agent.drv [ahb_master_driver] Transaction complete: AHB_WRITE 0x00009127, 8 beats, burst=AHB_BURST_WRAP8
# UVM_INFO ../src/slv/ahb_slave_driver.sv(184) @ 1605000: uvm_test_top.env.slave_agent.drv [ahb_slave_driver] Beat AHB_WRITE addr=0x00009126 resp=AHB_RESP_ERROR waits=0 wdata=0xa3538ad7
# UVM_INFO ../src/mst/ahb_master_monitor.sv(117) @ 1605000: uvm_test_top.env.master_agent.mon [ahb_master_monitor] Beat[7] addr=0x00009126 wdata=0xa3538ad7 resp=AHB_RESP_ERROR
# UVM_INFO ../src/mst/ahb_master_monitor.sv(222) @ 1605000: uvm_test_top.env.master_agent.mon [ahb_master_monitor] Observed [AHB_WRITE]: HADDR=0x00009127, HBURST=AHB_BURST_WRAP8, HSIZE=AHB_SIZE_8B, 8 beats
# UVM_INFO ../src/env/ahb_coverage.sv(127) @ 1605000: uvm_test_top.env.master_cov [ahb_coverage] Sampled [AHB_WRITE]: burst=AHB_BURST_WRAP8 size=AHB_SIZE_8B beats=8 error=1
# UVM_INFO ../src/slv/ahb_slave_monitor.sv(197) @ 1605000: uvm_test_top.env.slave_agent.mon [ahb_slave_monitor] Observed [AHB_WRITE]: HADDR=0x00009127, HBURST=AHB_BURST_WRAP8, HSIZE=AHB_SIZE_8B, 8 beats
# UVM_INFO ../src/env/ahb_scoreboard.sv(104) @ 1605000: uvm_test_top.env.scb [ahb_scoreboard] MATCH #15: [AHB_WRITE] HADDR=0x00009127 AHB_BURST_WRAP8 8 beats
# UVM_INFO ../src/env/ahb_coverage.sv(127) @ 1605000: uvm_test_top.env.slave_cov [ahb_coverage] Sampled [AHB_WRITE]: burst=AHB_BURST_WRAP8 size=AHB_SIZE_8B beats=8 error=1
# UVM_INFO ../src/mst_seq/ahb_error_seq.sv(134) @ 1605000: uvm_test_top.env.master_agent.sqr@@mst_seq [ahb_error_seq] AHB_WRITE AHB_BURST_WRAP8 @0x00009127: ERROR on beat 0 of 8, policy=continue, drove 8
# UVM_INFO ../src/mst/ahb_master_driver.sv(87) @ 1605000: uvm_test_top.env.master_agent.drv [ahb_master_driver] Queueing [AHB_READ]: HADDR=0x000081e9, HBURST=AHB_BURST_SINGLE, HSIZE=AHB_SIZE_8B, 1 beats
# UVM_INFO ../src/mst/ahb_master_driver.sv(129) @ 1605000: uvm_test_top.env.master_agent.drv [ahb_master_driver] Driving [AHB_READ]: HADDR=0x000081e9, HBURST=AHB_BURST_SINGLE, HSIZE=AHB_SIZE_8B, 1 beats               
# UVM_INFO ../src/slv_seq/ahb_slave_error_seq.sv(89) @ 1625000: uvm_test_top.env.slave_agent.sqr@@slv_seq [ahb_slave_error_seq] Response 52: AHB_READ @0x000081e9 -> AHB_RESP_OKAY, 2 wait states           
# UVM_INFO ../src/mst/ahb_master_driver.sv(340) @ 1655000: uvm_test_top.env.master_agent.drv [ahb_master_driver] Beat[0/1] addr=0x000081e9 trans=AHB_TRANS_NONSEQ resp=AHB_RESP_OKAY rdata=0xb74c4231
# UVM_INFO ../src/mst/ahb_master_driver.sv(385) @ 1655000: uvm_test_top.env.master_agent.drv [ahb_master_driver] Transaction complete: AHB_READ 0x000081e9, 1 beats, burst=AHB_BURST_SINGLE
# UVM_INFO ../src/slv/ahb_slave_driver.sv(184) @ 1655000: uvm_test_top.env.slave_agent.drv [ahb_slave_driver] Beat AHB_READ addr=0x000081e9 resp=AHB_RESP_OKAY waits=2 rdata=0xb74c4231
# UVM_INFO ../src/slv/ahb_slave_monitor.sv(197) @ 1655000: uvm_test_top.env.slave_agent.mon [ahb_slave_monitor] Observed [AHB_READ]: HADDR=0x000081e9, HBURST=AHB_BURST_SINGLE, HSIZE=AHB_SIZE_8B, 1 beats
# UVM_INFO ../src/env/ahb_coverage.sv(127) @ 1655000: uvm_test_top.env.slave_cov [ahb_coverage] Sampled [AHB_READ]: burst=AHB_BURST_SINGLE size=AHB_SIZE_8B beats=1 error=0
# UVM_INFO ../src/mst/ahb_master_monitor.sv(117) @ 1655000: uvm_test_top.env.master_agent.mon [ahb_master_monitor] Beat[0] addr=0x000081e9 rdata=0xb74c4231 resp=AHB_RESP_OKAY
# UVM_INFO ../src/mst/ahb_master_monitor.sv(222) @ 1655000: uvm_test_top.env.master_agent.mon [ahb_master_monitor] Observed [AHB_READ]: HADDR=0x000081e9, HBURST=AHB_BURST_SINGLE, HSIZE=AHB_SIZE_8B, 1 beats
# UVM_INFO ../src/env/ahb_coverage.sv(127) @ 1655000: uvm_test_top.env.master_cov [ahb_coverage] Sampled [AHB_READ]: burst=AHB_BURST_SINGLE size=AHB_SIZE_8B beats=1 error=0
# UVM_INFO ../src/env/ahb_scoreboard.sv(104) @ 1655000: uvm_test_top.env.scb [ahb_scoreboard] MATCH #16: [AHB_READ] HADDR=0x000081e9 AHB_BURST_SINGLE 1 beats
# UVM_INFO ../src/mst_seq/ahb_error_seq.sv(153) @ 1655000: uvm_test_top.env.master_agent.sqr@@mst_seq [ahb_error_seq] ERROR response traffic done: bursts=16 with_error=10 cancelled=6 unmapped=5
# UVM_INFO ../src/test/ahb_error_response_test.sv(76) @ 1655000: uvm_test_top [ahb_error_response_test] Slave answered 52 beats: 27 ERROR, 19 in the unmapped region
# UVM_INFO verilog_src/uvm-1.1d/src/base/uvm_objection.svh(1268) @ 1655200: reporter [TEST_DONE] 'run' phase is ready to proceed to the 'extract' phase
# UVM_INFO ../src/env/ahb_coverage.sv(137) @ 1655200: uvm_test_top.env.master_cov [ahb_coverage] [master_cov] functional coverage = 87.50%
# UVM_INFO ../src/env/ahb_scoreboard.sv(209) @ 1655200: uvm_test_top.env.scb [ahb_scoreboard] Passthrough : compared=16 matched=16 mismatched=0
# UVM_INFO ../src/env/ahb_scoreboard.sv(213) @ 1655200: uvm_test_top.env.scb [ahb_scoreboard] Ref-memory  : wr_bytes=28 rd_checked=0 rd_uninit=35 rd_mismatch=0
# UVM_INFO ../src/env/ahb_coverage.sv(137) @ 1655200: uvm_test_top.env.slave_cov [ahb_coverage] [slave_cov] functional coverage = 87.50%
# UVM_INFO ../src/test/ahb_base_test.sv(74) @ 1655200: uvm_test_top [ahb_error_response_test] 
# === TEST PASSED ===
# 
# 
# --- UVM Report Summary ---
# 
# ** Report counts by severity
# UVM_INFO :  403
# UVM_WARNING :    0
# UVM_ERROR :    0
# UVM_FATAL :    0
# ** Report counts by id
# [Questa UVM]     3
# [RNTST]     1
# [TB_TOP]     3
# [TEST_DONE]     1
# [UVMTOP]     1
# [ahb_coverage]    34
# [ahb_error_response_test]     2
# [ahb_error_seq]    12
# [ahb_master_agent]     1
# [ahb_master_driver]   129
# [ahb_master_monitor]    69
# [ahb_scoreboard]    18
# [ahb_slave_agent]     1
# [ahb_slave_driver]    53
# [ahb_slave_error_seq]    53
# [ahb_slave_monitor]    17
# [ahb_vip_env]     5
# ** Note: $finish    : /cadtools/mentor/Questa_10.6b/questasim/linux_x86_64/../verilog_src/uvm-1.1d/src/base/uvm_root.svh(430)
#    Time: 1655200 ps  Iteration: 53  Instance: /tb_top
# Saving coverage database on exit...
# End time: 08:33:28 on Aug 04,2026, Elapsed time: 0:00:01
# Errors: 0, Warnings: 0
