# vsim -c -coverage -sv_seed 30153558 "+UVM_TESTNAME=ahb_undefined_burst_test" "+UVM_VERBOSITY=UVM_HIGH" "+DUMP_VCD" -l ./report/logs/ahb_undefined_burst_test_run_3_seed_30153558.log -do "coverage save -onexit ./report/coverage/ahb_undefined_burst_test_run_3_seed_30153558.ucdb; run -all; quit -f" opt_tb_top 
# Start time: 11:01:23 on Aug 05,2026
# //  Questa Sim-64
# //  Version 10.6b linux_x86_64 May 25 2017
# //
# //  Copyright 1991-2017 Mentor Graphics Corporation
# //  All Rights Reserved.
# //
# //  QuestaSim and its associated documentation contain trade
# //  secrets and commercial or financial information that are the property of
# //  Mentor Graphics Corporation and are privileged, confidential,
# //  and exempt from disclosure under the Freedom of Information Act,
# //  5 U.S.C. Section 552. Furthermore, this information
# //  is prohibited from disclosure under the Trade Secrets Act,
# //  18 U.S.C. Section 1905.
# //
# Loading sv_std.std
# Loading work.ahb_if(fast)
# Loading mtiUvm.uvm_pkg
# Loading work.ahb_pkg(fast)
# Loading work.ahb_seq_pkg(fast)
# Loading work.ahb_test_pkg(fast)
# Loading work.tb_top(fast)
# Loading work.ahb_if(fast)
# Loading work.ahb_sva(fast)
# Loading mtiUvm.questa_uvm_pkg(fast)
# Loading /cadtools/mentor/Questa_10.6b/questasim/uvm-1.1d/linux_x86_64/uvm_dpi.so
# coverage save -onexit ./report/coverage/ahb_undefined_burst_test_run_3_seed_30153558.ucdb
#  run -all
# ----------------------------------------------------------------
# UVM-1.1d
# (C) 2007-2013 Mentor Graphics Corporation
# (C) 2007-2013 Cadence Design Systems, Inc.
# (C) 2006-2013 Synopsys, Inc.
# (C) 2011-2013 Cypress Semiconductor Corp.
# ----------------------------------------------------------------
# 
#   ***********       IMPORTANT RELEASE NOTES         ************
# 
#   You are using a version of the UVM library that has been compiled
#   with `UVM_NO_DEPRECATED undefined.
#   See http://www.eda.org/svdb/view.php?id=3313 for more details.
# 
#   You are using a version of the UVM library that has been compiled
#   with `UVM_OBJECT_MUST_HAVE_CONSTRUCTOR undefined.
#   See http://www.eda.org/svdb/view.php?id=3770 for more details.
# 
#       (Specify +UVM_NO_RELNOTES to turn off this notice)
# 
# UVM_INFO verilog_src/questa_uvm_pkg-1.2/src/questa_uvm_pkg.sv(215) @ 0: reporter [Questa UVM] QUESTA_UVM-1.2.3
# UVM_INFO verilog_src/questa_uvm_pkg-1.2/src/questa_uvm_pkg.sv(217) @ 0: reporter [Questa UVM]  questa_uvm::init(+struct)
# UVM_INFO ../src/tb_top.sv(126) @ 0: reporter [TB_TOP] Virtual interface set in config_db
# UVM_INFO @ 0: reporter [RNTST] Running test ahb_undefined_burst_test...
# UVM_INFO ../src/tb_top.sv(140) @ 0: reporter [TB_TOP] Waveform VCD dumping enabled (ahb_lite_vip.vcd)
# UVM_INFO ../src/env/ahb_vip_env.sv(64) @ 0: uvm_test_top.env [ahb_vip_env] slave_vif not set - reusing master_vif (passthrough mode)
# UVM_INFO ../src/env/ahb_vip_env.sv(72) @ 0: uvm_test_top.env [ahb_vip_env] Scoreboard created
# UVM_INFO ../src/env/ahb_vip_env.sv(78) @ 0: uvm_test_top.env [ahb_vip_env] Coverage collectors created
# UVM_INFO ../src/mst/ahb_master_agent.sv(61) @ 0: uvm_test_top.env.master_agent [ahb_master_agent] ACTIVE mode - driver + sequencer created
# UVM_INFO ../src/slv/ahb_slave_agent.sv(64) @ 0: uvm_test_top.env.slave_agent [ahb_slave_agent] ACTIVE mode - driver + sequencer created (    auto responses)
# UVM_INFO ../src/env/ahb_vip_env.sv(92) @ 0: uvm_test_top.env [ahb_vip_env] Scoreboard connected: master_mon.ap -> scb, slave_mon.ap -> scb
# UVM_INFO ../src/env/ahb_vip_env.sv(99) @ 0: uvm_test_top.env [ahb_vip_env] Coverage connected: master_mon.ap -> master_cov, slave_mon.ap -> slave_cov
# UVM_INFO @ 0: reporter [UVMTOP] UVM testbench topology:
# ----------------------------------------------------------------
# Name                       Type                      Size  Value
# ----------------------------------------------------------------
# uvm_test_top               ahb_undefined_burst_test  -     @475 
#   env                      ahb_vip_env               -     @490 
#     master_agent           ahb_master_agent          -     @505 
#       drv                  ahb_master_driver         -     @570 
#         rsp_port           uvm_analysis_port         -     @585 
#         seq_item_port      uvm_seq_item_pull_port    -     @577 
#       mon                  ahb_master_monitor        -     @563 
#         ap                 uvm_analysis_port         -     @704 
#       sqr                  ahb_master_sequencer      -     @593 
#         rsp_export         uvm_analysis_export       -     @600 
#         seq_item_export    uvm_seq_item_pull_imp     -     @694 
#         arbitration_queue  array                     0     -    
#         lock_queue         array                     0     -    
#         num_last_reqs      integral                  32    'd1  
#         num_last_rsps      integral                  32    'd1  
#     master_cov             ahb_coverage              -     @526 
#       analysis_imp         uvm_analysis_imp          -     @533 
#     scb                    ahb_scoreboard            -     @519 
#       master_export        uvm_analysis_imp_master   -     @718 
#       slave_export         uvm_analysis_imp_slave    -     @726 
#     slave_agent            ahb_slave_agent           -     @512 
#       drv                  ahb_slave_driver          -     @748 
#         rsp_port           uvm_analysis_port         -     @763 
#         seq_item_port      uvm_seq_item_pull_port    -     @755 
#       mon                  ahb_slave_monitor         -     @741 
#         ap                 uvm_analysis_port         -     @882 
#       sqr                  ahb_slave_sequencer       -     @771 
#         rsp_export         uvm_analysis_export       -     @778 
#         seq_item_export    uvm_seq_item_pull_imp     -     @872 
#         arbitration_queue  array                     0     -    
#         lock_queue         array                     0     -    
#         num_last_reqs      integral                  32    'd1  
#         num_last_rsps      integral                  32    'd1  
#     slave_cov              ahb_coverage              -     @541 
#       analysis_imp         uvm_analysis_imp          -     @548 
# ----------------------------------------------------------------
# 
# UVM_INFO verilog_src/questa_uvm_pkg-1.2/src/questa_uvm_pkg.sv(277) @ 0: reporter [Questa UVM] End Of Elaboration
# UVM_INFO ../src/mst_seq/ahb_undefined_burst_seq.sv(55) @ 0: uvm_test_top.env.master_agent.sqr@@seq [ahb_undefined_burst_seq] Starting undefined-length INCR bursts: 8 iterations from 0x00005000
# UVM_INFO ../src/mst_seq/ahb_undefined_burst_seq.sv(119) @ 0: uvm_test_top.env.master_agent.sqr@@seq [ahb_undefined_burst_seq] INCR 1 beats, AHB_SIZE_16B @0x0000528a, trailing_busy=0, retract=0, pipelined=0
# UVM_INFO ../src/mst/ahb_master_driver.sv(183) @ 5000: uvm_test_top.env.master_agent.drv [ahb_master_driver] Flushed pending transactions (reset)
# UVM_INFO ../src/tb_top.sv(48) @ 95000: reporter [TB_TOP] Reset de-asserted
# UVM_INFO ../src/slv/ahb_slave_driver.sv(63) @ 95000: uvm_test_top.env.slave_agent.drv [ahb_slave_driver] Reset deasserted - slave driver active (    auto mode)
# UVM_INFO ../src/mst/ahb_master_driver.sv(72) @ 95000: uvm_test_top.env.master_agent.drv [ahb_master_driver] Reset deasserted - master driver active
# UVM_INFO ../src/mst/ahb_master_monitor.sv(75) @ 95000: uvm_test_top.env.master_agent.mon [ahb_master_monitor] Reset deasserted - master monitor active
# UVM_INFO ../src/slv/ahb_slave_monitor.sv(69) @ 95000: uvm_test_top.env.slave_agent.mon [ahb_slave_monitor] Reset deasserted - slave monitor active
# UVM_INFO ../src/mst/ahb_master_driver.sv(85) @ 95000: uvm_test_top.env.master_agent.drv [ahb_master_driver] Queueing [AHB_WRITE]: HADDR=0x0000528a, HBURST=AHB_BURST_INCR, HSIZE=AHB_SIZE_16B, 1 beats
# UVM_INFO ../src/mst/ahb_master_driver.sv(127) @ 95000: uvm_test_top.env.master_agent.drv [ahb_master_driver] Driving [AHB_WRITE]: HADDR=0x0000528a, HBURST=AHB_BURST_INCR, HSIZE=AHB_SIZE_16B, 1 beats               
# UVM_INFO ../src/mst/ahb_master_driver.sv(332) @ 115000: uvm_test_top.env.master_agent.drv [ahb_master_driver] Beat[0/1] addr=0x0000528a trans=AHB_TRANS_NONSEQ resp=AHB_RESP_OKAY wdata=0x3f990a66
# UVM_INFO ../src/mst/ahb_master_driver.sv(376) @ 115000: uvm_test_top.env.master_agent.drv [ahb_master_driver] Transaction complete: AHB_WRITE 0x0000528a, 1 beats, burst=AHB_BURST_INCR
# UVM_INFO ../src/slv/ahb_slave_driver.sv(184) @ 115000: uvm_test_top.env.slave_agent.drv [ahb_slave_driver] Beat AHB_WRITE addr=0x0000528a resp=AHB_RESP_OKAY waits=0 wdata=0x3f990a66
# UVM_INFO ../src/slv/ahb_slave_monitor.sv(197) @ 115000: uvm_test_top.env.slave_agent.mon [ahb_slave_monitor] Observed [AHB_WRITE]: HADDR=0x0000528a, HBURST=AHB_BURST_INCR, HSIZE=AHB_SIZE_16B, 1 beats
# UVM_INFO ../src/env/ahb_coverage.sv(126) @ 115000: uvm_test_top.env.slave_cov [ahb_coverage] Sampled [AHB_WRITE]: burst=AHB_BURST_INCR size=AHB_SIZE_16B beats=1 error=0
# UVM_INFO ../src/mst/ahb_master_monitor.sv(117) @ 115000: uvm_test_top.env.master_agent.mon [ahb_master_monitor] Beat[0] addr=0x0000528a wdata=0x3f990a66 resp=AHB_RESP_OKAY
# UVM_INFO ../src/mst/ahb_master_monitor.sv(220) @ 115000: uvm_test_top.env.master_agent.mon [ahb_master_monitor] Observed [AHB_WRITE]: HADDR=0x0000528a, HBURST=AHB_BURST_INCR, HSIZE=AHB_SIZE_16B, 1 beats
# UVM_INFO ../src/env/ahb_coverage.sv(126) @ 115000: uvm_test_top.env.master_cov [ahb_coverage] Sampled [AHB_WRITE]: burst=AHB_BURST_INCR size=AHB_SIZE_16B beats=1 error=0
# UVM_INFO ../src/env/ahb_scoreboard.sv(104) @ 115000: uvm_test_top.env.scb [ahb_scoreboard] MATCH #1: [AHB_WRITE] HADDR=0x0000528a AHB_BURST_INCR 1 beats
# UVM_INFO ../src/mst/ahb_master_driver.sv(85) @ 115000: uvm_test_top.env.master_agent.drv [ahb_master_driver] Queueing [AHB_READ]: HADDR=0x0000528a, HBURST=AHB_BURST_INCR, HSIZE=AHB_SIZE_16B, 1 beats
# UVM_INFO ../src/mst/ahb_master_driver.sv(127) @ 115000: uvm_test_top.env.master_agent.drv [ahb_master_driver] Driving [AHB_READ]: HADDR=0x0000528a, HBURST=AHB_BURST_INCR, HSIZE=AHB_SIZE_16B, 1 beats               
# UVM_INFO ../src/mst/ahb_master_driver.sv(332) @ 155000: uvm_test_top.env.master_agent.drv [ahb_master_driver] Beat[0/1] addr=0x0000528a trans=AHB_TRANS_NONSEQ resp=AHB_RESP_OKAY rdata=0x3f990a66
# UVM_INFO ../src/mst/ahb_master_driver.sv(376) @ 155000: uvm_test_top.env.master_agent.drv [ahb_master_driver] Transaction complete: AHB_READ 0x0000528a, 1 beats, burst=AHB_BURST_INCR
# UVM_INFO ../src/slv/ahb_slave_driver.sv(184) @ 155000: uvm_test_top.env.slave_agent.drv [ahb_slave_driver] Beat AHB_READ addr=0x0000528a resp=AHB_RESP_OKAY waits=1 rdata=0x3f990a66
# UVM_INFO ../src/slv/ahb_slave_monitor.sv(197) @ 155000: uvm_test_top.env.slave_agent.mon [ahb_slave_monitor] Observed [AHB_READ]: HADDR=0x0000528a, HBURST=AHB_BURST_INCR, HSIZE=AHB_SIZE_16B, 1 beats
# UVM_INFO ../src/env/ahb_coverage.sv(126) @ 155000: uvm_test_top.env.slave_cov [ahb_coverage] Sampled [AHB_READ]: burst=AHB_BURST_INCR size=AHB_SIZE_16B beats=1 error=0
# UVM_INFO ../src/mst/ahb_master_monitor.sv(117) @ 155000: uvm_test_top.env.master_agent.mon [ahb_master_monitor] Beat[0] addr=0x0000528a rdata=0x3f990a66 resp=AHB_RESP_OKAY
# UVM_INFO ../src/mst/ahb_master_monitor.sv(220) @ 155000: uvm_test_top.env.master_agent.mon [ahb_master_monitor] Observed [AHB_READ]: HADDR=0x0000528a, HBURST=AHB_BURST_INCR, HSIZE=AHB_SIZE_16B, 1 beats
# UVM_INFO ../src/env/ahb_coverage.sv(126) @ 155000: uvm_test_top.env.master_cov [ahb_coverage] Sampled [AHB_READ]: burst=AHB_BURST_INCR size=AHB_SIZE_16B beats=1 error=0
# UVM_INFO ../src/env/ahb_scoreboard.sv(104) @ 155000: uvm_test_top.env.scb [ahb_scoreboard] MATCH #2: [AHB_READ] HADDR=0x0000528a AHB_BURST_INCR 1 beats
# UVM_INFO ../src/mst_seq/ahb_base_seq.sv(157) @ 155000: uvm_test_top.env.master_agent.sqr@@seq [ahb_undefined_burst_seq] AHB_BURST_INCR AHB_SIZE_16B beat 0 @0x0000528a ok
# UVM_INFO ../src/mst_seq/ahb_undefined_burst_seq.sv(119) @ 155000: uvm_test_top.env.master_agent.sqr@@seq [ahb_undefined_burst_seq] INCR 256 beats, AHB_SIZE_8B @0x0000548f, trailing_busy=1, retract=0, pipelined=0
# UVM_INFO ../src/mst/ahb_master_driver.sv(85) @ 155000: uvm_test_top.env.master_agent.drv [ahb_master_driver] Queueing [AHB_WRITE]: HADDR=0x0000548f, HBURST=AHB_BURST_INCR, HSIZE=AHB_SIZE_8B, 256 beats
# UVM_INFO ../src/mst/ahb_master_driver.sv(127) @ 155000: uvm_test_top.env.master_agent.drv [ahb_master_driver] Driving [AHB_WRITE]: HADDR=0x0000548f, HBURST=AHB_BURST_INCR, HSIZE=AHB_SIZE_8B, 256 beats               
# UVM_INFO ../src/mst/ahb_master_driver.sv(332) @ 195000: uvm_test_top.env.master_agent.drv [ahb_master_driver] Beat[0/256] addr=0x0000548f trans=AHB_TRANS_NONSEQ resp=AHB_RESP_OKAY wdata=0x005dd546
# UVM_INFO ../src/slv/ahb_slave_driver.sv(184) @ 195000: uvm_test_top.env.slave_agent.drv [ahb_slave_driver] Beat AHB_WRITE addr=0x0000548f resp=AHB_RESP_OKAY waits=1 wdata=0x005dd546
# UVM_INFO ../src/mst/ahb_master_monitor.sv(117) @ 195000: uvm_test_top.env.master_agent.mon [ahb_master_monitor] Beat[0] addr=0x0000548f wdata=0x005dd546 resp=AHB_RESP_OKAY
# UVM_INFO ../src/mst/ahb_master_driver.sv(332) @ 215000: uvm_test_top.env.master_agent.drv [ahb_master_driver] Beat[1/256] addr=0x00005490 trans=AHB_TRANS_SEQ resp=AHB_RESP_OKAY wdata=0x995ce975
# UVM_INFO ../src/slv/ahb_slave_driver.sv(184) @ 215000: uvm_test_top.env.slave_agent.drv [ahb_slave_driver] Beat AHB_WRITE addr=0x00005490 resp=AHB_RESP_OKAY waits=1 wdata=0x995ce975
# UVM_INFO ../src/mst/ahb_master_monitor.sv(117) @ 215000: uvm_test_top.env.master_agent.mon [ahb_master_monitor] Beat[1] addr=0x00005490 wdata=0x995ce975 resp=AHB_RESP_OKAY
# UVM_INFO ../src/mst/ahb_master_driver.sv(332) @ 225000: uvm_test_top.env.master_agent.drv [ahb_master_driver] Beat[2/256] addr=0x00005491 trans=AHB_TRANS_SEQ resp=AHB_RESP_OKAY wdata=0xd476b259
# UVM_INFO ../src/slv/ahb_slave_driver.sv(184) @ 225000: uvm_test_top.env.slave_agent.drv [ahb_slave_driver] Beat AHB_WRITE addr=0x00005491 resp=AHB_RESP_OKAY waits=0 wdata=0xd476b259
# UVM_INFO ../src/mst/ahb_master_monitor.sv(117) @ 225000: uvm_test_top.env.master_agent.mon [ahb_master_monitor] Beat[2] addr=0x00005491 wdata=0xd476b259 resp=AHB_RESP_OKAY
# UVM_INFO ../src/mst/ahb_master_driver.sv(332) @ 235000: uvm_test_top.env.master_agent.drv [ahb_master_driver] Beat[3/256] addr=0x00005492 trans=AHB_TRANS_SEQ resp=AHB_RESP_OKAY wdata=0x43c10344
# UVM_INFO ../src/slv/ahb_slave_driver.sv(184) @ 235000: uvm_test_top.env.slave_agent.drv [ahb_slave_driver] Beat AHB_WRITE addr=0x00005492 resp=AHB_RESP_OKAY waits=0 wdata=0x43c10344
# UVM_INFO ../src/mst/ahb_master_monitor.sv(117) @ 235000: uvm_test_top.env.master_agent.mon [ahb_master_monitor] Beat[3] addr=0x00005492 wdata=0x43c10344 resp=AHB_RESP_OKAY
# UVM_INFO ../src/mst/ahb_master_driver.sv(332) @ 255000: uvm_test_top.env.master_agent.drv [ahb_master_driver] Beat[4/256] addr=0x00005493 trans=AHB_TRANS_SEQ resp=AHB_RESP_OKAY wdata=0x99bb33d9
# UVM_INFO ../src/slv/ahb_slave_driver.sv(184) @ 255000: uvm_test_top.env.slave_agent.drv [ahb_slave_driver] Beat AHB_WRITE addr=0x00005493 resp=AHB_RESP_OKAY waits=1 wdata=0x99bb33d9
# UVM_INFO ../src/mst/ahb_master_monitor.sv(117) @ 255000: uvm_test_top.env.master_agent.mon [ahb_master_monitor] Beat[4] addr=0x00005493 wdata=0x99bb33d9 resp=AHB_RESP_OKAY
# UVM_INFO ../src/mst/ahb_master_driver.sv(332) @ 285000: uvm_test_top.env.master_agent.drv [ahb_master_driver] Beat[5/256] addr=0x00005494 trans=AHB_TRANS_SEQ resp=AHB_RESP_OKAY wdata=0xfbed43fc
# UVM_INFO ../src/slv/ahb_slave_driver.sv(184) @ 285000: uvm_test_top.env.slave_agent.drv [ahb_slave_driver] Beat AHB_WRITE addr=0x00005494 resp=AHB_RESP_OKAY waits=2 wdata=0xfbed43fc
# UVM_INFO ../src/mst/ahb_master_monitor.sv(117) @ 285000: uvm_test_top.env.master_agent.mon [ahb_master_monitor] Beat[5] addr=0x00005494 wdata=0xfbed43fc resp=AHB_RESP_OKAY
# UVM_INFO ../src/mst/ahb_master_driver.sv(332) @ 315000: uvm_test_top.env.master_agent.drv [ahb_master_driver] Beat[6/256] addr=0x00005495 trans=AHB_TRANS_SEQ resp=AHB_RESP_OKAY wdata=0xf29105f5
# UVM_INFO ../src/slv/ahb_slave_driver.sv(184) @ 315000: uvm_test_top.env.slave_agent.drv [ahb_slave_driver] Beat AHB_WRITE addr=0x00005495 resp=AHB_RESP_OKAY waits=2 wdata=0xf29105f5
# UVM_INFO ../src/mst/ahb_master_monitor.sv(117) @ 315000: uvm_test_top.env.master_agent.mon [ahb_master_monitor] Beat[6] addr=0x00005495 wdata=0xf29105f5 resp=AHB_RESP_OKAY
# UVM_INFO ../src/mst/ahb_master_driver.sv(332) @ 345000: uvm_test_top.env.master_agent.drv [ahb_master_driver] Beat[7/256] addr=0x00005496 trans=AHB_TRANS_SEQ resp=AHB_RESP_OKAY wdata=0x0cbe946f
# UVM_INFO ../src/slv/ahb_slave_driver.sv(184) @ 345000: uvm_test_top.env.slave_agent.drv [ahb_slave_driver] Beat AHB_WRITE addr=0x00005496 resp=AHB_RESP_OKAY waits=2 wdata=0x0cbe946f
# UVM_INFO ../src/mst/ahb_master_monitor.sv(117) @ 345000: uvm_test_top.env.master_agent.mon [ahb_master_monitor] Beat[7] addr=0x00005496 wdata=0x0cbe946f resp=AHB_RESP_OKAY
# UVM_INFO ../src/mst/ahb_master_driver.sv(332) @ 375000: uvm_test_top.env.master_agent.drv [ahb_master_driver] Beat[8/256] addr=0x00005497 trans=AHB_TRANS_SEQ resp=AHB_RESP_OKAY wdata=0xd9b499a1
# UVM_INFO ../src/slv/ahb_slave_driver.sv(184) @ 375000: uvm_test_top.env.slave_agent.drv [ahb_slave_driver] Beat AHB_WRITE addr=0x00005497 resp=AHB_RESP_OKAY waits=1 wdata=0xd9b499a1
# UVM_INFO ../src/mst/ahb_master_monitor.sv(117) @ 375000: uvm_test_top.env.master_agent.mon [ahb_master_monitor] Beat[8] addr=0x00005497 wdata=0xd9b499a1 resp=AHB_RESP_OKAY
# UVM_INFO ../src/mst/ahb_master_driver.sv(332) @ 385000: uvm_test_top.env.master_agent.drv [ahb_master_driver] Beat[9/256] addr=0x00005498 trans=AHB_TRANS_SEQ resp=AHB_RESP_OKAY wdata=0xf5380b62
# UVM_INFO ../src/slv/ahb_slave_driver.sv(184) @ 385000: uvm_test_top.env.slave_agent.drv [ahb_slave_driver] Beat AHB_WRITE addr=0x00005498 resp=AHB_RESP_OKAY waits=0 wdata=0xf5380b62
# UVM_INFO ../src/mst/ahb_master_monitor.sv(117) @ 385000: uvm_test_top.env.master_agent.mon [ahb_master_monitor] Beat[9] addr=0x00005498 wdata=0xf5380b62 resp=AHB_RESP_OKAY
# UVM_INFO ../src/mst/ahb_master_driver.sv(332) @ 395000: uvm_test_top.env.master_agent.drv [ahb_master_driver] Beat[10/256] addr=0x00005499 trans=AHB_TRANS_SEQ resp=AHB_RESP_OKAY wdata=0x69f7aa7e
# UVM_INFO ../src/slv/ahb_slave_driver.sv(184) @ 395000: uvm_test_top.env.slave_agent.drv [ahb_slave_driver] Beat AHB_WRITE addr=0x00005499 resp=AHB_RESP_OKAY waits=0 wdata=0x69f7aa7e
# UVM_INFO ../src/mst/ahb_master_monitor.sv(117) @ 395000: uvm_test_top.env.master_agent.mon [ahb_master_monitor] Beat[10] addr=0x00005499 wdata=0x69f7aa7e resp=AHB_RESP_OKAY
# UVM_INFO ../src/mst/ahb_master_driver.sv(332) @ 425000: uvm_test_top.env.master_agent.drv [ahb_master_driver] Beat[11/256] addr=0x0000549a trans=AHB_TRANS_SEQ resp=AHB_RESP_OKAY wdata=0xe6bbff9c
# UVM_INFO ../src/slv/ahb_slave_driver.sv(184) @ 425000: uvm_test_top.env.slave_agent.drv [ahb_slave_driver] Beat AHB_WRITE addr=0x0000549a resp=AHB_RESP_OKAY waits=2 wdata=0xe6bbff9c
# UVM_INFO ../src/mst/ahb_master_monitor.sv(117) @ 425000: uvm_test_top.env.master_agent.mon [ahb_master_monitor] Beat[11] addr=0x0000549a wdata=0xe6bbff9c resp=AHB_RESP_OKAY
# UVM_INFO ../src/mst/ahb_master_driver.sv(332) @ 435000: uvm_test_top.env.master_agent.drv [ahb_master_driver] Beat[12/256] addr=0x0000549b trans=AHB_TRANS_SEQ resp=AHB_RESP_OKAY wdata=0xf3df8a85
# UVM_INFO ../src/slv/ahb_slave_driver.sv(184) @ 435000: uvm_test_top.env.slave_agent.drv [ahb_slave_driver] Beat AHB_WRITE addr=0x0000549b resp=AHB_RESP_OKAY waits=0 wdata=0xf3df8a85
# UVM_INFO ../src/mst/ahb_master_monitor.sv(117) @ 435000: uvm_test_top.env.master_agent.mon [ahb_master_monitor] Beat[12] addr=0x0000549b wdata=0xf3df8a85 resp=AHB_RESP_OKAY
# UVM_INFO ../src/mst/ahb_master_driver.sv(332) @ 455000: uvm_test_top.env.master_agent.drv [ahb_master_driver] Beat[13/256] addr=0x0000549c trans=AHB_TRANS_SEQ resp=AHB_RESP_OKAY wdata=0xf9a21ba4
# UVM_INFO ../src/slv/ahb_slave_driver.sv(184) @ 455000: uvm_test_top.env.slave_agent.drv [ahb_slave_driver] Beat AHB_WRITE addr=0x0000549c resp=AHB_RESP_OKAY waits=1 wdata=0xf9a21ba4
# UVM_INFO ../src/mst/ahb_master_monitor.sv(117) @ 455000: uvm_test_top.env.master_agent.mon [ahb_master_monitor] Beat[13] addr=0x0000549c wdata=0xf9a21ba4 resp=AHB_RESP_OKAY
# UVM_INFO ../src/mst/ahb_master_driver.sv(332) @ 475000: uvm_test_top.env.master_agent.drv [ahb_master_driver] Beat[14/256] addr=0x0000549d trans=AHB_TRANS_SEQ resp=AHB_RESP_OKAY wdata=0x8db1bf65
# UVM_INFO ../src/slv/ahb_slave_driver.sv(184) @ 475000: uvm_test_top.env.slave_agent.drv [ahb_slave_driver] Beat AHB_WRITE addr=0x0000549d resp=AHB_RESP_OKAY waits=1 wdata=0x8db1bf65
# UVM_INFO ../src/mst/ahb_master_monitor.sv(117) @ 475000: uvm_test_top.env.master_agent.mon [ahb_master_monitor] Beat[14] addr=0x0000549d wdata=0x8db1bf65 resp=AHB_RESP_OKAY
# UVM_INFO ../src/mst/ahb_master_driver.sv(332) @ 495000: uvm_test_top.env.master_agent.drv [ahb_master_driver] Beat[15/256] addr=0x0000549e trans=AHB_TRANS_SEQ resp=AHB_RESP_OKAY wdata=0x2b640944
# UVM_INFO ../src/slv/ahb_slave_driver.sv(184) @ 495000: uvm_test_top.env.slave_agent.drv [ahb_slave_driver] Beat AHB_WRITE addr=0x0000549e resp=AHB_RESP_OKAY waits=1 wdata=0x2b640944
# UVM_INFO ../src/mst/ahb_master_monitor.sv(117) @ 495000: uvm_test_top.env.master_agent.mon [ahb_master_monitor] Beat[15] addr=0x0000549e wdata=0x2b640944 resp=AHB_RESP_OKAY
# UVM_INFO ../src/mst/ahb_master_driver.sv(332) @ 515000: uvm_test_top.env.master_agent.drv [ahb_master_driver] Beat[16/256] addr=0x0000549f trans=AHB_TRANS_SEQ resp=AHB_RESP_OKAY wdata=0x49b409c7
# UVM_INFO ../src/slv/ahb_slave_driver.sv(184) @ 515000: uvm_test_top.env.slave_agent.drv [ahb_slave_driver] Beat AHB_WRITE addr=0x0000549f resp=AHB_RESP_OKAY waits=0 wdata=0x49b409c7
# UVM_INFO ../src/mst/ahb_master_monitor.sv(117) @ 515000: uvm_test_top.env.master_agent.mon [ahb_master_monitor] Beat[16] addr=0x0000549f wdata=0x49b409c7 resp=AHB_RESP_OKAY
# UVM_INFO ../src/mst/ahb_master_driver.sv(332) @ 535000: uvm_test_top.env.master_agent.drv [ahb_master_driver] Beat[17/256] addr=0x000054a0 trans=AHB_TRANS_SEQ resp=AHB_RESP_OKAY wdata=0x944e36b2
# UVM_INFO ../src/slv/ahb_slave_driver.sv(184) @ 535000: uvm_test_top.env.slave_agent.drv [ahb_slave_driver] Beat AHB_WRITE addr=0x000054a0 resp=AHB_RESP_OKAY waits=1 wdata=0x944e36b2
# UVM_INFO ../src/mst/ahb_master_monitor.sv(117) @ 535000: uvm_test_top.env.master_agent.mon [ahb_master_monitor] Beat[17] addr=0x000054a0 wdata=0x944e36b2 resp=AHB_RESP_OKAY
# UVM_INFO ../src/mst/ahb_master_driver.sv(332) @ 565000: uvm_test_top.env.master_agent.drv [ahb_master_driver] Beat[18/256] addr=0x000054a1 trans=AHB_TRANS_SEQ resp=AHB_RESP_OKAY wdata=0xc5d8c77b
# UVM_INFO ../src/slv/ahb_slave_driver.sv(184) @ 565000: uvm_test_top.env.slave_agent.drv [ahb_slave_driver] Beat AHB_WRITE addr=0x000054a1 resp=AHB_RESP_OKAY waits=2 wdata=0xc5d8c77b
# UVM_INFO ../src/mst/ahb_master_monitor.sv(117) @ 565000: uvm_test_top.env.master_agent.mon [ahb_master_monitor] Beat[18] addr=0x000054a1 wdata=0xc5d8c77b resp=AHB_RESP_OKAY
# UVM_INFO ../src/mst/ahb_master_driver.sv(332) @ 595000: uvm_test_top.env.master_agent.drv [ahb_master_driver] Beat[19/256] addr=0x000054a2 trans=AHB_TRANS_SEQ resp=AHB_RESP_OKAY wdata=0x8a2b74fa
# UVM_INFO ../src/slv/ahb_slave_driver.sv(184) @ 595000: uvm_test_top.env.slave_agent.drv [ahb_slave_driver] Beat AHB_WRITE addr=0x000054a2 resp=AHB_RESP_OKAY waits=2 wdata=0x8a2b74fa
# UVM_INFO ../src/mst/ahb_master_monitor.sv(117) @ 595000: uvm_test_top.env.master_agent.mon [ahb_master_monitor] Beat[19] addr=0x000054a2 wdata=0x8a2b74fa resp=AHB_RESP_OKAY
# UVM_INFO ../src/mst/ahb_master_driver.sv(332) @ 615000: uvm_test_top.env.master_agent.drv [ahb_master_driver] Beat[20/256] addr=0x000054a3 trans=AHB_TRANS_SEQ resp=AHB_RESP_OKAY wdata=0xfb30d062
# UVM_INFO ../src/slv/ahb_slave_driver.sv(184) @ 615000: uvm_test_top.env.slave_agent.drv [ahb_slave_driver] Beat AHB_WRITE addr=0x000054a3 resp=AHB_RESP_OKAY waits=1 wdata=0xfb30d062
# UVM_INFO ../src/mst/ahb_master_monitor.sv(117) @ 615000: uvm_test_top.env.master_agent.mon [ahb_master_monitor] Beat[20] addr=0x000054a3 wdata=0xfb30d062 resp=AHB_RESP_OKAY
# UVM_INFO ../src/mst/ahb_master_driver.sv(332) @ 635000: uvm_test_top.env.master_agent.drv [ahb_master_driver] Beat[21/256] addr=0x000054a4 trans=AHB_TRANS_SEQ resp=AHB_RESP_OKAY wdata=0x9ae245ac
# UVM_INFO ../src/slv/ahb_slave_driver.sv(184) @ 635000: uvm_test_top.env.slave_agent.drv [ahb_slave_driver] Beat AHB_WRITE addr=0x000054a4 resp=AHB_RESP_OKAY waits=1 wdata=0x9ae245ac
# UVM_INFO ../src/mst/ahb_master_monitor.sv(117) @ 635000: uvm_test_top.env.master_agent.mon [ahb_master_monitor] Beat[21] addr=0x000054a4 wdata=0x9ae245ac resp=AHB_RESP_OKAY
# UVM_INFO ../src/mst/ahb_master_driver.sv(332) @ 645000: uvm_test_top.env.master_agent.drv [ahb_master_driver] Beat[22/256] addr=0x000054a5 trans=AHB_TRANS_SEQ resp=AHB_RESP_OKAY wdata=0xdf98f568
# UVM_INFO ../src/slv/ahb_slave_driver.sv(184) @ 645000: uvm_test_top.env.slave_agent.drv [ahb_slave_driver] Beat AHB_WRITE addr=0x000054a5 resp=AHB_RESP_OKAY waits=0 wdata=0xdf98f568
# UVM_INFO ../src/mst/ahb_master_monitor.sv(117) @ 645000: uvm_test_top.env.master_agent.mon [ahb_master_monitor] Beat[22] addr=0x000054a5 wdata=0xdf98f568 resp=AHB_RESP_OKAY
# UVM_INFO ../src/mst/ahb_master_driver.sv(332) @ 655000: uvm_test_top.env.master_agent.drv [ahb_master_driver] Beat[23/256] addr=0x000054a6 trans=AHB_TRANS_SEQ resp=AHB_RESP_OKAY wdata=0xc30adca6
# UVM_INFO ../src/slv/ahb_slave_driver.sv(184) @ 655000: uvm_test_top.env.slave_agent.drv [ahb_slave_driver] Beat AHB_WRITE addr=0x000054a6 resp=AHB_RESP_OKAY waits=0 wdata=0xc30adca6
# UVM_INFO ../src/mst/ahb_master_monitor.sv(117) @ 655000: uvm_test_top.env.master_agent.mon [ahb_master_monitor] Beat[23] addr=0x000054a6 wdata=0xc30adca6 resp=AHB_RESP_OKAY
# UVM_INFO ../src/mst/ahb_master_driver.sv(332) @ 695000: uvm_test_top.env.master_agent.drv [ahb_master_driver] Beat[24/256] addr=0x000054a7 trans=AHB_TRANS_SEQ resp=AHB_RESP_OKAY wdata=0x5ec5f3ee
# UVM_INFO ../src/slv/ahb_slave_driver.sv(184) @ 695000: uvm_test_top.env.slave_agent.drv [ahb_slave_driver] Beat AHB_WRITE addr=0x000054a7 resp=AHB_RESP_OKAY waits=1 wdata=0x5ec5f3ee
# UVM_INFO ../src/mst/ahb_master_monitor.sv(117) @ 695000: uvm_test_top.env.master_agent.mon [ahb_master_monitor] Beat[24] addr=0x000054a7 wdata=0x5ec5f3ee resp=AHB_RESP_OKAY
# UVM_INFO ../src/mst/ahb_master_driver.sv(332) @ 705000: uvm_test_top.env.master_agent.drv [ahb_master_driver] Beat[25/256] addr=0x000054a8 trans=AHB_TRANS_SEQ resp=AHB_RESP_OKAY wdata=0xa6bb10f4
# UVM_INFO ../src/slv/ahb_slave_driver.sv(184) @ 705000: uvm_test_top.env.slave_agent.drv [ahb_slave_driver] Beat AHB_WRITE addr=0x000054a8 resp=AHB_RESP_OKAY waits=0 wdata=0xa6bb10f4
# UVM_INFO ../src/mst/ahb_master_monitor.sv(117) @ 705000: uvm_test_top.env.master_agent.mon [ahb_master_monitor] Beat[25] addr=0x000054a8 wdata=0xa6bb10f4 resp=AHB_RESP_OKAY
# UVM_INFO ../src/mst/ahb_master_driver.sv(332) @ 725000: uvm_test_top.env.master_agent.drv [ahb_master_driver] Beat[26/256] addr=0x000054a9 trans=AHB_TRANS_SEQ resp=AHB_RESP_OKAY wdata=0x3707f9ec
# UVM_INFO ../src/slv/ahb_slave_driver.sv(184) @ 725000: uvm_test_top.env.slave_agent.drv [ahb_slave_driver] Beat AHB_WRITE addr=0x000054a9 resp=AHB_RESP_OKAY waits=1 wdata=0x3707f9ec
# UVM_INFO ../src/mst/ahb_master_monitor.sv(117) @ 725000: uvm_test_top.env.master_agent.mon [ahb_master_monitor] Beat[26] addr=0x000054a9 wdata=0x3707f9ec resp=AHB_RESP_OKAY
# UVM_INFO ../src/mst/ahb_master_driver.sv(332) @ 745000: uvm_test_top.env.master_agent.drv [ahb_master_driver] Beat[27/256] addr=0x000054aa trans=AHB_TRANS_SEQ resp=AHB_RESP_OKAY wdata=0xa8fc8950
# UVM_INFO ../src/slv/ahb_slave_driver.sv(184) @ 745000: uvm_test_top.env.slave_agent.drv [ahb_slave_driver] Beat AHB_WRITE addr=0x000054aa resp=AHB_RESP_OKAY waits=1 wdata=0xa8fc8950
# UVM_INFO ../src/mst/ahb_master_monitor.sv(117) @ 745000: uvm_test_top.env.master_agent.mon [ahb_master_monitor] Beat[27] addr=0x000054aa wdata=0xa8fc8950 resp=AHB_RESP_OKAY
# UVM_INFO ../src/mst/ahb_master_driver.sv(332) @ 775000: uvm_test_top.env.master_agent.drv [ahb_master_driver] Beat[28/256] addr=0x000054ab trans=AHB_TRANS_SEQ resp=AHB_RESP_OKAY wdata=0x44aa3bb7
# UVM_INFO ../src/slv/ahb_slave_driver.sv(184) @ 775000: uvm_test_top.env.slave_agent.drv [ahb_slave_driver] Beat AHB_WRITE addr=0x000054ab resp=AHB_RESP_OKAY waits=2 wdata=0x44aa3bb7
# UVM_INFO ../src/mst/ahb_master_monitor.sv(117) @ 775000: uvm_test_top.env.master_agent.mon [ahb_master_monitor] Beat[28] addr=0x000054ab wdata=0x44aa3bb7 resp=AHB_RESP_OKAY
# UVM_INFO ../src/mst/ahb_master_driver.sv(332) @ 785000: uvm_test_top.env.master_agent.drv [ahb_master_driver] Beat[29/256] addr=0x000054ac trans=AHB_TRANS_SEQ resp=AHB_RESP_OKAY wdata=0x77b9bb85
# UVM_INFO ../src/slv/ahb_slave_driver.sv(184) @ 785000: uvm_test_top.env.slave_agent.drv [ahb_slave_driver] Beat AHB_WRITE addr=0x000054ac resp=AHB_RESP_OKAY waits=0 wdata=0x77b9bb85
# UVM_INFO ../src/mst/ahb_master_monitor.sv(117) @ 785000: uvm_test_top.env.master_agent.mon [ahb_master_monitor] Beat[29] addr=0x000054ac wdata=0x77b9bb85 resp=AHB_RESP_OKAY
# UVM_INFO ../src/mst/ahb_master_driver.sv(332) @ 805000: uvm_test_top.env.master_agent.drv [ahb_master_driver] Beat[30/256] addr=0x000054ad trans=AHB_TRANS_SEQ resp=AHB_RESP_OKAY wdata=0x5703885d
# UVM_INFO ../src/slv/ahb_slave_driver.sv(184) @ 805000: uvm_test_top.env.slave_agent.drv [ahb_slave_driver] Beat AHB_WRITE addr=0x000054ad resp=AHB_RESP_OKAY waits=1 wdata=0x5703885d
# UVM_INFO ../src/mst/ahb_master_monitor.sv(117) @ 805000: uvm_test_top.env.master_agent.mon [ahb_master_monitor] Beat[30] addr=0x000054ad wdata=0x5703885d resp=AHB_RESP_OKAY
# UVM_INFO ../src/mst/ahb_master_driver.sv(332) @ 815000: uvm_test_top.env.master_agent.drv [ahb_master_driver] Beat[31/256] addr=0x000054ae trans=AHB_TRANS_SEQ resp=AHB_RESP_OKAY wdata=0x7e93e731
# UVM_INFO ../src/slv/ahb_slave_driver.sv(184) @ 815000: uvm_test_top.env.slave_agent.drv [ahb_slave_driver] Beat AHB_WRITE addr=0x000054ae resp=AHB_RESP_OKAY waits=0 wdata=0x7e93e731
# UVM_INFO ../src/mst/ahb_master_monitor.sv(117) @ 815000: uvm_test_top.env.master_agent.mon [ahb_master_monitor] Beat[31] addr=0x000054ae wdata=0x7e93e731 resp=AHB_RESP_OKAY
# UVM_INFO ../src/mst/ahb_master_driver.sv(332) @ 855000: uvm_test_top.env.master_agent.drv [ahb_master_driver] Beat[32/256] addr=0x000054af trans=AHB_TRANS_SEQ resp=AHB_RESP_OKAY wdata=0x065ed343
# UVM_INFO ../src/slv/ahb_slave_driver.sv(184) @ 855000: uvm_test_top.env.slave_agent.drv [ahb_slave_driver] Beat AHB_WRITE addr=0x000054af resp=AHB_RESP_OKAY waits=1 wdata=0x065ed343
# UVM_INFO ../src/mst/ahb_master_monitor.sv(117) @ 855000: uvm_test_top.env.master_agent.mon [ahb_master_monitor] Beat[32] addr=0x000054af wdata=0x065ed343 resp=AHB_RESP_OKAY
# UVM_INFO ../src/mst/ahb_master_driver.sv(332) @ 875000: uvm_test_top.env.master_agent.drv [ahb_master_driver] Beat[33/256] addr=0x000054b0 trans=AHB_TRANS_SEQ resp=AHB_RESP_OKAY wdata=0xf2eedc1a
# UVM_INFO ../src/slv/ahb_slave_driver.sv(184) @ 875000: uvm_test_top.env.slave_agent.drv [ahb_slave_driver] Beat AHB_WRITE addr=0x000054b0 resp=AHB_RESP_OKAY waits=1 wdata=0xf2eedc1a
# UVM_INFO ../src/mst/ahb_master_monitor.sv(117) @ 875000: uvm_test_top.env.master_agent.mon [ahb_master_monitor] Beat[33] addr=0x000054b0 wdata=0xf2eedc1a resp=AHB_RESP_OKAY
# UVM_INFO ../src/mst/ahb_master_driver.sv(332) @ 885000: uvm_test_top.env.master_agent.drv [ahb_master_driver] Beat[34/256] addr=0x000054b1 trans=AHB_TRANS_SEQ resp=AHB_RESP_OKAY wdata=0xbcec24d8
# UVM_INFO ../src/slv/ahb_slave_driver.sv(184) @ 885000: uvm_test_top.env.slave_agent.drv [ahb_slave_driver] Beat AHB_WRITE addr=0x000054b1 resp=AHB_RESP_OKAY waits=0 wdata=0xbcec24d8
# UVM_INFO ../src/mst/ahb_master_monitor.sv(117) @ 885000: uvm_test_top.env.master_agent.mon [ahb_master_monitor] Beat[34] addr=0x000054b1 wdata=0xbcec24d8 resp=AHB_RESP_OKAY
# UVM_INFO ../src/mst/ahb_master_driver.sv(332) @ 915000: uvm_test_top.env.master_agent.drv [ahb_master_driver] Beat[35/256] addr=0x000054b2 trans=AHB_TRANS_SEQ resp=AHB_RESP_OKAY wdata=0xe5d83389
# UVM_INFO ../src/slv/ahb_slave_driver.sv(184) @ 915000: uvm_test_top.env.slave_agent.drv [ahb_slave_driver] Beat AHB_WRITE addr=0x000054b2 resp=AHB_RESP_OKAY waits=2 wdata=0xe5d83389
# UVM_INFO ../src/mst/ahb_master_monitor.sv(117) @ 915000: uvm_test_top.env.master_agent.mon [ahb_master_monitor] Beat[35] addr=0x000054b2 wdata=0xe5d83389 resp=AHB_RESP_OKAY
# UVM_INFO ../src/mst/ahb_master_driver.sv(332) @ 925000: uvm_test_top.env.master_agent.drv [ahb_master_driver] Beat[36/256] addr=0x000054b3 trans=AHB_TRANS_SEQ resp=AHB_RESP_OKAY wdata=0x53955d4a
# UVM_INFO ../src/slv/ahb_slave_driver.sv(184) @ 925000: uvm_test_top.env.slave_agent.drv [ahb_slave_driver] Beat AHB_WRITE addr=0x000054b3 resp=AHB_RESP_OKAY waits=0 wdata=0x53955d4a
# UVM_INFO ../src/mst/ahb_master_monitor.sv(117) @ 925000: uvm_test_top.env.master_agent.mon [ahb_master_monitor] Beat[36] addr=0x000054b3 wdata=0x53955d4a resp=AHB_RESP_OKAY
# UVM_INFO ../src/mst/ahb_master_driver.sv(332) @ 935000: uvm_test_top.env.master_agent.drv [ahb_master_driver] Beat[37/256] addr=0x000054b4 trans=AHB_TRANS_SEQ resp=AHB_RESP_OKAY wdata=0xc5294805
# UVM_INFO ../src/slv/ahb_slave_driver.sv(184) @ 935000: uvm_test_top.env.slave_agent.drv [ahb_slave_driver] Beat AHB_WRITE addr=0x000054b4 resp=AHB_RESP_OKAY waits=0 wdata=0xc5294805
# UVM_INFO ../src/mst/ahb_master_monitor.sv(117) @ 935000: uvm_test_top.env.master_agent.mon [ahb_master_monitor] Beat[37] addr=0x000054b4 wdata=0xc5294805 resp=AHB_RESP_OKAY
# UVM_INFO ../src/mst/ahb_master_driver.sv(332) @ 965000: uvm_test_top.env.master_agent.drv [ahb_master_driver] Beat[38/256] addr=0x000054b5 trans=AHB_TRANS_SEQ resp=AHB_RESP_OKAY wdata=0xd9c1236b
# UVM_INFO ../src/slv/ahb_slave_driver.sv(184) @ 965000: uvm_test_top.env.slave_agent.drv [ahb_slave_driver] Beat AHB_WRITE addr=0x000054b5 resp=AHB_RESP_OKAY waits=2 wdata=0xd9c1236b
# UVM_INFO ../src/mst/ahb_master_monitor.sv(117) @ 965000: uvm_test_top.env.master_agent.mon [ahb_master_monitor] Beat[38] addr=0x000054b5 wdata=0xd9c1236b resp=AHB_RESP_OKAY
# UVM_INFO ../src/mst/ahb_master_driver.sv(332) @ 985000: uvm_test_top.env.master_agent.drv [ahb_master_driver] Beat[39/256] addr=0x000054b6 trans=AHB_TRANS_SEQ resp=AHB_RESP_OKAY wdata=0x497f0f80
# UVM_INFO ../src/slv/ahb_slave_driver.sv(184) @ 985000: uvm_test_top.env.slave_agent.drv [ahb_slave_driver] Beat AHB_WRITE addr=0x000054b6 resp=AHB_RESP_OKAY waits=1 wdata=0x497f0f80
# UVM_INFO ../src/mst/ahb_master_monitor.sv(117) @ 985000: uvm_test_top.env.master_agent.mon [ahb_master_monitor] Beat[39] addr=0x000054b6 wdata=0x497f0f80 resp=AHB_RESP_OKAY
# UVM_INFO ../src/mst/ahb_master_driver.sv(332) @ 1025000: uvm_test_top.env.master_agent.drv [ahb_master_driver] Beat[40/256] addr=0x000054b7 trans=AHB_TRANS_SEQ resp=AHB_RESP_OKAY wdata=0xe656725c
# UVM_INFO ../src/slv/ahb_slave_driver.sv(184) @ 1025000: uvm_test_top.env.slave_agent.drv [ahb_slave_driver] Beat AHB_WRITE addr=0x000054b7 resp=AHB_RESP_OKAY waits=2 wdata=0xe656725c
# UVM_INFO ../src/mst/ahb_master_monitor.sv(117) @ 1025000: uvm_test_top.env.master_agent.mon [ahb_master_monitor] Beat[40] addr=0x000054b7 wdata=0xe656725c resp=AHB_RESP_OKAY
# UVM_INFO ../src/mst/ahb_master_driver.sv(332) @ 1055000: uvm_test_top.env.master_agent.drv [ahb_master_driver] Beat[41/256] addr=0x000054b8 trans=AHB_TRANS_SEQ resp=AHB_RESP_OKAY wdata=0xf7a802a6
# UVM_INFO ../src/slv/ahb_slave_driver.sv(184) @ 1055000: uvm_test_top.env.slave_agent.drv [ahb_slave_driver] Beat AHB_WRITE addr=0x000054b8 resp=AHB_RESP_OKAY waits=2 wdata=0xf7a802a6
# UVM_INFO ../src/mst/ahb_master_monitor.sv(117) @ 1055000: uvm_test_top.env.master_agent.mon [ahb_master_monitor] Beat[41] addr=0x000054b8 wdata=0xf7a802a6 resp=AHB_RESP_OKAY
# UVM_INFO ../src/mst/ahb_master_driver.sv(332) @ 1085000: uvm_test_top.env.master_agent.drv [ahb_master_driver] Beat[42/256] addr=0x000054b9 trans=AHB_TRANS_SEQ resp=AHB_RESP_OKAY wdata=0xbbda4144
# UVM_INFO ../src/slv/ahb_slave_driver.sv(184) @ 1085000: uvm_test_top.env.slave_agent.drv [ahb_slave_driver] Beat AHB_WRITE addr=0x000054b9 resp=AHB_RESP_OKAY waits=2 wdata=0xbbda4144
# UVM_INFO ../src/mst/ahb_master_monitor.sv(117) @ 1085000: uvm_test_top.env.master_agent.mon [ahb_master_monitor] Beat[42] addr=0x000054b9 wdata=0xbbda4144 resp=AHB_RESP_OKAY
# UVM_INFO ../src/mst/ahb_master_driver.sv(332) @ 1115000: uvm_test_top.env.master_agent.drv [ahb_master_driver] Beat[43/256] addr=0x000054ba trans=AHB_TRANS_SEQ resp=AHB_RESP_OKAY wdata=0xd4575c50
# UVM_INFO ../src/slv/ahb_slave_driver.sv(184) @ 1115000: uvm_test_top.env.slave_agent.drv [ahb_slave_driver] Beat AHB_WRITE addr=0x000054ba resp=AHB_RESP_OKAY waits=2 wdata=0xd4575c50
# UVM_INFO ../src/mst/ahb_master_monitor.sv(117) @ 1115000: uvm_test_top.env.master_agent.mon [ahb_master_monitor] Beat[43] addr=0x000054ba wdata=0xd4575c50 resp=AHB_RESP_OKAY
# UVM_INFO ../src/mst/ahb_master_driver.sv(332) @ 1145000: uvm_test_top.env.master_agent.drv [ahb_master_driver] Beat[44/256] addr=0x000054bb trans=AHB_TRANS_SEQ resp=AHB_RESP_OKAY wdata=0x34b10161
# UVM_INFO ../src/slv/ahb_slave_driver.sv(184) @ 1145000: uvm_test_top.env.slave_agent.drv [ahb_slave_driver] Beat AHB_WRITE addr=0x000054bb resp=AHB_RESP_OKAY waits=2 wdata=0x34b10161
# UVM_INFO ../src/mst/ahb_master_monitor.sv(117) @ 1145000: uvm_test_top.env.master_agent.mon [ahb_master_monitor] Beat[44] addr=0x000054bb wdata=0x34b10161 resp=AHB_RESP_OKAY
# UVM_INFO ../src/mst/ahb_master_driver.sv(332) @ 1175000: uvm_test_top.env.master_agent.drv [ahb_master_driver] Beat[45/256] addr=0x000054bc trans=AHB_TRANS_SEQ resp=AHB_RESP_OKAY wdata=0x8a365020
# UVM_INFO ../src/slv/ahb_slave_driver.sv(184) @ 1175000: uvm_test_top.env.slave_agent.drv [ahb_slave_driver] Beat AHB_WRITE addr=0x000054bc resp=AHB_RESP_OKAY waits=2 wdata=0x8a365020
# UVM_INFO ../src/mst/ahb_master_monitor.sv(117) @ 1175000: uvm_test_top.env.master_agent.mon [ahb_master_monitor] Beat[45] addr=0x000054bc wdata=0x8a365020 resp=AHB_RESP_OKAY
# UVM_INFO ../src/mst/ahb_master_driver.sv(332) @ 1205000: uvm_test_top.env.master_agent.drv [ahb_master_driver] Beat[46/256] addr=0x000054bd trans=AHB_TRANS_SEQ resp=AHB_RESP_OKAY wdata=0x9587bb6f
# UVM_INFO ../src/slv/ahb_slave_driver.sv(184) @ 1205000: uvm_test_top.env.slave_agent.drv [ahb_slave_driver] Beat AHB_WRITE addr=0x000054bd resp=AHB_RESP_OKAY waits=2 wdata=0x9587bb6f
# UVM_INFO ../src/mst/ahb_master_monitor.sv(117) @ 1205000: uvm_test_top.env.master_agent.mon [ahb_master_monitor] Beat[46] addr=0x000054bd wdata=0x9587bb6f resp=AHB_RESP_OKAY
# UVM_INFO ../src/mst/ahb_master_driver.sv(332) @ 1235000: uvm_test_top.env.master_agent.drv [ahb_master_driver] Beat[47/256] addr=0x000054be trans=AHB_TRANS_SEQ resp=AHB_RESP_OKAY wdata=0xd0a252f3
# UVM_INFO ../src/slv/ahb_slave_driver.sv(184) @ 1235000: uvm_test_top.env.slave_agent.drv [ahb_slave_driver] Beat AHB_WRITE addr=0x000054be resp=AHB_RESP_OKAY waits=2 wdata=0xd0a252f3
# UVM_INFO ../src/mst/ahb_master_monitor.sv(117) @ 1235000: uvm_test_top.env.master_agent.mon [ahb_master_monitor] Beat[47] addr=0x000054be wdata=0xd0a252f3 resp=AHB_RESP_OKAY
# UVM_INFO ../src/mst/ahb_master_driver.sv(332) @ 1285000: uvm_test_top.env.master_agent.drv [ahb_master_driver] Beat[48/256] addr=0x000054bf trans=AHB_TRANS_SEQ resp=AHB_RESP_OKAY wdata=0x9632065a
# UVM_INFO ../src/slv/ahb_slave_driver.sv(184) @ 1285000: uvm_test_top.env.slave_agent.drv [ahb_slave_driver] Beat AHB_WRITE addr=0x000054bf resp=AHB_RESP_OKAY waits=2 wdata=0x9632065a
# UVM_INFO ../src/mst/ahb_master_monitor.sv(117) @ 1285000: uvm_test_top.env.master_agent.mon [ahb_master_monitor] Beat[48] addr=0x000054bf wdata=0x9632065a resp=AHB_RESP_OKAY
# UVM_INFO ../src/mst/ahb_master_driver.sv(332) @ 1315000: uvm_test_top.env.master_agent.drv [ahb_master_driver] Beat[49/256] addr=0x000054c0 trans=AHB_TRANS_SEQ resp=AHB_RESP_OKAY wdata=0x0f96d0ea
# UVM_INFO ../src/slv/ahb_slave_driver.sv(184) @ 1315000: uvm_test_top.env.slave_agent.drv [ahb_slave_driver] Beat AHB_WRITE addr=0x000054c0 resp=AHB_RESP_OKAY waits=2 wdata=0x0f96d0ea
# UVM_INFO ../src/mst/ahb_master_monitor.sv(117) @ 1315000: uvm_test_top.env.master_agent.mon [ahb_master_monitor] Beat[49] addr=0x000054c0 wdata=0x0f96d0ea resp=AHB_RESP_OKAY
# UVM_INFO ../src/mst/ahb_master_driver.sv(332) @ 1335000: uvm_test_top.env.master_agent.drv [ahb_master_driver] Beat[50/256] addr=0x000054c1 trans=AHB_TRANS_SEQ resp=AHB_RESP_OKAY wdata=0xa8e1d590
# UVM_INFO ../src/slv/ahb_slave_driver.sv(184) @ 1335000: uvm_test_top.env.slave_agent.drv [ahb_slave_driver] Beat AHB_WRITE addr=0x000054c1 resp=AHB_RESP_OKAY waits=1 wdata=0xa8e1d590
# UVM_INFO ../src/mst/ahb_master_monitor.sv(117) @ 1335000: uvm_test_top.env.master_agent.mon [ahb_master_monitor] Beat[50] addr=0x000054c1 wdata=0xa8e1d590 resp=AHB_RESP_OKAY
# UVM_INFO ../src/mst/ahb_master_driver.sv(332) @ 1345000: uvm_test_top.env.master_agent.drv [ahb_master_driver] Beat[51/256] addr=0x000054c2 trans=AHB_TRANS_SEQ resp=AHB_RESP_OKAY wdata=0x3349b964
# UVM_INFO ../src/slv/ahb_slave_driver.sv(184) @ 1345000: uvm_test_top.env.slave_agent.drv [ahb_slave_driver] Beat AHB_WRITE addr=0x000054c2 resp=AHB_RESP_OKAY waits=0 wdata=0x3349b964
# UVM_INFO ../src/mst/ahb_master_monitor.sv(117) @ 1345000: uvm_test_top.env.master_agent.mon [ahb_master_monitor] Beat[51] addr=0x000054c2 wdata=0x3349b964 resp=AHB_RESP_OKAY
# UVM_INFO ../src/mst/ahb_master_driver.sv(332) @ 1365000: uvm_test_top.env.master_agent.drv [ahb_master_driver] Beat[52/256] addr=0x000054c3 trans=AHB_TRANS_SEQ resp=AHB_RESP_OKAY wdata=0x935459f6
# UVM_INFO ../src/slv/ahb_slave_driver.sv(184) @ 1365000: uvm_test_top.env.slave_agent.drv [ahb_slave_driver] Beat AHB_WRITE addr=0x000054c3 resp=AHB_RESP_OKAY waits=1 wdata=0x935459f6
# UVM_INFO ../src/mst/ahb_master_monitor.sv(117) @ 1365000: uvm_test_top.env.master_agent.mon [ahb_master_monitor] Beat[52] addr=0x000054c3 wdata=0x935459f6 resp=AHB_RESP_OKAY
# UVM_INFO ../src/mst/ahb_master_driver.sv(332) @ 1375000: uvm_test_top.env.master_agent.drv [ahb_master_driver] Beat[53/256] addr=0x000054c4 trans=AHB_TRANS_SEQ resp=AHB_RESP_OKAY wdata=0x006e1a0d
# UVM_INFO ../src/slv/ahb_slave_driver.sv(184) @ 1375000: uvm_test_top.env.slave_agent.drv [ahb_slave_driver] Beat AHB_WRITE addr=0x000054c4 resp=AHB_RESP_OKAY waits=0 wdata=0x006e1a0d
# UVM_INFO ../src/mst/ahb_master_monitor.sv(117) @ 1375000: uvm_test_top.env.master_agent.mon [ahb_master_monitor] Beat[53] addr=0x000054c4 wdata=0x006e1a0d resp=AHB_RESP_OKAY
# UVM_INFO ../src/mst/ahb_master_driver.sv(332) @ 1405000: uvm_test_top.env.master_agent.drv [ahb_master_driver] Beat[54/256] addr=0x000054c5 trans=AHB_TRANS_SEQ resp=AHB_RESP_OKAY wdata=0xfcbc7a7a
# UVM_INFO ../src/slv/ahb_slave_driver.sv(184) @ 1405000: uvm_test_top.env.slave_agent.drv [ahb_slave_driver] Beat AHB_WRITE addr=0x000054c5 resp=AHB_RESP_OKAY waits=2 wdata=0xfcbc7a7a
# UVM_INFO ../src/mst/ahb_master_monitor.sv(117) @ 1405000: uvm_test_top.env.master_agent.mon [ahb_master_monitor] Beat[54] addr=0x000054c5 wdata=0xfcbc7a7a resp=AHB_RESP_OKAY
# UVM_INFO ../src/mst/ahb_master_driver.sv(332) @ 1425000: uvm_test_top.env.master_agent.drv [ahb_master_driver] Beat[55/256] addr=0x000054c6 trans=AHB_TRANS_SEQ resp=AHB_RESP_OKAY wdata=0x3eb1d0a0
# UVM_INFO ../src/slv/ahb_slave_driver.sv(184) @ 1425000: uvm_test_top.env.slave_agent.drv [ahb_slave_driver] Beat AHB_WRITE addr=0x000054c6 resp=AHB_RESP_OKAY waits=1 wdata=0x3eb1d0a0
# UVM_INFO ../src/mst/ahb_master_monitor.sv(117) @ 1425000: uvm_test_top.env.master_agent.mon [ahb_master_monitor] Beat[55] addr=0x000054c6 wdata=0x3eb1d0a0 resp=AHB_RESP_OKAY
# UVM_INFO ../src/mst/ahb_master_driver.sv(332) @ 1455000: uvm_test_top.env.master_agent.drv [ahb_master_driver] Beat[56/256] addr=0x000054c7 trans=AHB_TRANS_SEQ resp=AHB_RESP_OKAY wdata=0x1d83b270
# UVM_INFO ../src/slv/ahb_slave_driver.sv(184) @ 1455000: uvm_test_top.env.slave_agent.drv [ahb_slave_driver] Beat AHB_WRITE addr=0x000054c7 resp=AHB_RESP_OKAY waits=1 wdata=0x1d83b270
# UVM_INFO ../src/mst/ahb_master_monitor.sv(117) @ 1455000: uvm_test_top.env.master_agent.mon [ahb_master_monitor] Beat[56] addr=0x000054c7 wdata=0x1d83b270 resp=AHB_RESP_OKAY
# UVM_INFO ../src/mst/ahb_master_driver.sv(332) @ 1485000: uvm_test_top.env.master_agent.drv [ahb_master_driver] Beat[57/256] addr=0x000054c8 trans=AHB_TRANS_SEQ resp=AHB_RESP_OKAY wdata=0x7db22910
# UVM_INFO ../src/slv/ahb_slave_driver.sv(184) @ 1485000: uvm_test_top.env.slave_agent.drv [ahb_slave_driver] Beat AHB_WRITE addr=0x000054c8 resp=AHB_RESP_OKAY waits=2 wdata=0x7db22910
# UVM_INFO ../src/mst/ahb_master_monitor.sv(117) @ 1485000: uvm_test_top.env.master_agent.mon [ahb_master_monitor] Beat[57] addr=0x000054c8 wdata=0x7db22910 resp=AHB_RESP_OKAY
# UVM_INFO ../src/mst/ahb_master_driver.sv(332) @ 1505000: uvm_test_top.env.master_agent.drv [ahb_master_driver] Beat[58/256] addr=0x000054c9 trans=AHB_TRANS_SEQ resp=AHB_RESP_OKAY wdata=0xb6defe35
# UVM_INFO ../src/slv/ahb_slave_driver.sv(184) @ 1505000: uvm_test_top.env.slave_agent.drv [ahb_slave_driver] Beat AHB_WRITE addr=0x000054c9 resp=AHB_RESP_OKAY waits=1 wdata=0xb6defe35
# UVM_INFO ../src/mst/ahb_master_monitor.sv(117) @ 1505000: uvm_test_top.env.master_agent.mon [ahb_master_monitor] Beat[58] addr=0x000054c9 wdata=0xb6defe35 resp=AHB_RESP_OKAY
# UVM_INFO ../src/mst/ahb_master_driver.sv(332) @ 1525000: uvm_test_top.env.master_agent.drv [ahb_master_driver] Beat[59/256] addr=0x000054ca trans=AHB_TRANS_SEQ resp=AHB_RESP_OKAY wdata=0xf3e17f0a
# UVM_INFO ../src/slv/ahb_slave_driver.sv(184) @ 1525000: uvm_test_top.env.slave_agent.drv [ahb_slave_driver] Beat AHB_WRITE addr=0x000054ca resp=AHB_RESP_OKAY waits=1 wdata=0xf3e17f0a
# UVM_INFO ../src/mst/ahb_master_monitor.sv(117) @ 1525000: uvm_test_top.env.master_agent.mon [ahb_master_monitor] Beat[59] addr=0x000054ca wdata=0xf3e17f0a resp=AHB_RESP_OKAY
# UVM_INFO ../src/mst/ahb_master_driver.sv(332) @ 1535000: uvm_test_top.env.master_agent.drv [ahb_master_driver] Beat[60/256] addr=0x000054cb trans=AHB_TRANS_SEQ resp=AHB_RESP_OKAY wdata=0x103f4b40
# UVM_INFO ../src/slv/ahb_slave_driver.sv(184) @ 1535000: uvm_test_top.env.slave_agent.drv [ahb_slave_driver] Beat AHB_WRITE addr=0x000054cb resp=AHB_RESP_OKAY waits=0 wdata=0x103f4b40
# UVM_INFO ../src/mst/ahb_master_monitor.sv(117) @ 1535000: uvm_test_top.env.master_agent.mon [ahb_master_monitor] Beat[60] addr=0x000054cb wdata=0x103f4b40 resp=AHB_RESP_OKAY
# UVM_INFO ../src/mst/ahb_master_driver.sv(332) @ 1565000: uvm_test_top.env.master_agent.drv [ahb_master_driver] Beat[61/256] addr=0x000054cc trans=AHB_TRANS_SEQ resp=AHB_RESP_OKAY wdata=0x7054f420
# UVM_INFO ../src/slv/ahb_slave_driver.sv(184) @ 1565000: uvm_test_top.env.slave_agent.drv [ahb_slave_driver] Beat AHB_WRITE addr=0x000054cc resp=AHB_RESP_OKAY waits=2 wdata=0x7054f420
# UVM_INFO ../src/mst/ahb_master_monitor.sv(117) @ 1565000: uvm_test_top.env.master_agent.mon [ahb_master_monitor] Beat[61] addr=0x000054cc wdata=0x7054f420 resp=AHB_RESP_OKAY
# UVM_INFO ../src/mst/ahb_master_driver.sv(332) @ 1575000: uvm_test_top.env.master_agent.drv [ahb_master_driver] Beat[62/256] addr=0x000054cd trans=AHB_TRANS_SEQ resp=AHB_RESP_OKAY wdata=0xaa715a8a
# UVM_INFO ../src/slv/ahb_slave_driver.sv(184) @ 1575000: uvm_test_top.env.slave_agent.drv [ahb_slave_driver] Beat AHB_WRITE addr=0x000054cd resp=AHB_RESP_OKAY waits=0 wdata=0xaa715a8a
# UVM_INFO ../src/mst/ahb_master_monitor.sv(117) @ 1575000: uvm_test_top.env.master_agent.mon [ahb_master_monitor] Beat[62] addr=0x000054cd wdata=0xaa715a8a resp=AHB_RESP_OKAY
# UVM_INFO ../src/mst/ahb_master_driver.sv(332) @ 1595000: uvm_test_top.env.master_agent.drv [ahb_master_driver] Beat[63/256] addr=0x000054ce trans=AHB_TRANS_SEQ resp=AHB_RESP_OKAY wdata=0x20483c3b
# UVM_INFO ../src/slv/ahb_slave_driver.sv(184) @ 1595000: uvm_test_top.env.slave_agent.drv [ahb_slave_driver] Beat AHB_WRITE addr=0x000054ce resp=AHB_RESP_OKAY waits=1 wdata=0x20483c3b
# UVM_INFO ../src/mst/ahb_master_monitor.sv(117) @ 1595000: uvm_test_top.env.master_agent.mon [ahb_master_monitor] Beat[63] addr=0x000054ce wdata=0x20483c3b resp=AHB_RESP_OKAY
# UVM_INFO ../src/mst/ahb_master_driver.sv(332) @ 1625000: uvm_test_top.env.master_agent.drv [ahb_master_driver] Beat[64/256] addr=0x000054cf trans=AHB_TRANS_SEQ resp=AHB_RESP_OKAY wdata=0xd730d212
# UVM_INFO ../src/slv/ahb_slave_driver.sv(184) @ 1625000: uvm_test_top.env.slave_agent.drv [ahb_slave_driver] Beat AHB_WRITE addr=0x000054cf resp=AHB_RESP_OKAY waits=0 wdata=0xd730d212
# UVM_INFO ../src/mst/ahb_master_monitor.sv(117) @ 1625000: uvm_test_top.env.master_agent.mon [ahb_master_monitor] Beat[64] addr=0x000054cf wdata=0xd730d212 resp=AHB_RESP_OKAY
# UVM_INFO ../src/mst/ahb_master_driver.sv(332) @ 1635000: uvm_test_top.env.master_agent.drv [ahb_master_driver] Beat[65/256] addr=0x000054d0 trans=AHB_TRANS_SEQ resp=AHB_RESP_OKAY wdata=0xee6141f7
# UVM_INFO ../src/slv/ahb_slave_driver.sv(184) @ 1635000: uvm_test_top.env.slave_agent.drv [ahb_slave_driver] Beat AHB_WRITE addr=0x000054d0 resp=AHB_RESP_OKAY waits=0 wdata=0xee6141f7
# UVM_INFO ../src/mst/ahb_master_monitor.sv(117) @ 1635000: uvm_test_top.env.master_agent.mon [ahb_master_monitor] Beat[65] addr=0x000054d0 wdata=0xee6141f7 resp=AHB_RESP_OKAY
# UVM_INFO ../src/mst/ahb_master_driver.sv(332) @ 1655000: uvm_test_top.env.master_agent.drv [ahb_master_driver] Beat[66/256] addr=0x000054d1 trans=AHB_TRANS_SEQ resp=AHB_RESP_OKAY wdata=0x19bd4e77
# UVM_INFO ../src/slv/ahb_slave_driver.sv(184) @ 1655000: uvm_test_top.env.slave_agent.drv [ahb_slave_driver] Beat AHB_WRITE addr=0x000054d1 resp=AHB_RESP_OKAY waits=1 wdata=0x19bd4e77
# UVM_INFO ../src/mst/ahb_master_monitor.sv(117) @ 1655000: uvm_test_top.env.master_agent.mon [ahb_master_monitor] Beat[66] addr=0x000054d1 wdata=0x19bd4e77 resp=AHB_RESP_OKAY
# UVM_INFO ../src/mst/ahb_master_driver.sv(332) @ 1675000: uvm_test_top.env.master_agent.drv [ahb_master_driver] Beat[67/256] addr=0x000054d2 trans=AHB_TRANS_SEQ resp=AHB_RESP_OKAY wdata=0x75332250
# UVM_INFO ../src/slv/ahb_slave_driver.sv(184) @ 1675000: uvm_test_top.env.slave_agent.drv [ahb_slave_driver] Beat AHB_WRITE addr=0x000054d2 resp=AHB_RESP_OKAY waits=1 wdata=0x75332250
# UVM_INFO ../src/mst/ahb_master_monitor.sv(117) @ 1675000: uvm_test_top.env.master_agent.mon [ahb_master_monitor] Beat[67] addr=0x000054d2 wdata=0x75332250 resp=AHB_RESP_OKAY
# UVM_INFO ../src/mst/ahb_master_driver.sv(332) @ 1695000: uvm_test_top.env.master_agent.drv [ahb_master_driver] Beat[68/256] addr=0x000054d3 trans=AHB_TRANS_SEQ resp=AHB_RESP_OKAY wdata=0x66f7dd4f
# UVM_INFO ../src/slv/ahb_slave_driver.sv(184) @ 1695000: uvm_test_top.env.slave_agent.drv [ahb_slave_driver] Beat AHB_WRITE addr=0x000054d3 resp=AHB_RESP_OKAY waits=1 wdata=0x66f7dd4f
# UVM_INFO ../src/mst/ahb_master_monitor.sv(117) @ 1695000: uvm_test_top.env.master_agent.mon [ahb_master_monitor] Beat[68] addr=0x000054d3 wdata=0x66f7dd4f resp=AHB_RESP_OKAY
# UVM_INFO ../src/mst/ahb_master_driver.sv(332) @ 1715000: uvm_test_top.env.master_agent.drv [ahb_master_driver] Beat[69/256] addr=0x000054d4 trans=AHB_TRANS_SEQ resp=AHB_RESP_OKAY wdata=0x02ac619e
# UVM_INFO ../src/slv/ahb_slave_driver.sv(184) @ 1715000: uvm_test_top.env.slave_agent.drv [ahb_slave_driver] Beat AHB_WRITE addr=0x000054d4 resp=AHB_RESP_OKAY waits=1 wdata=0x02ac619e
# UVM_INFO ../src/mst/ahb_master_monitor.sv(117) @ 1715000: uvm_test_top.env.master_agent.mon [ahb_master_monitor] Beat[69] addr=0x000054d4 wdata=0x02ac619e resp=AHB_RESP_OKAY
# UVM_INFO ../src/mst/ahb_master_driver.sv(332) @ 1725000: uvm_test_top.env.master_agent.drv [ahb_master_driver] Beat[70/256] addr=0x000054d5 trans=AHB_TRANS_SEQ resp=AHB_RESP_OKAY wdata=0xb0cc590d
# UVM_INFO ../src/slv/ahb_slave_driver.sv(184) @ 1725000: uvm_test_top.env.slave_agent.drv [ahb_slave_driver] Beat AHB_WRITE addr=0x000054d5 resp=AHB_RESP_OKAY waits=0 wdata=0xb0cc590d
# UVM_INFO ../src/mst/ahb_master_monitor.sv(117) @ 1725000: uvm_test_top.env.master_agent.mon [ahb_master_monitor] Beat[70] addr=0x000054d5 wdata=0xb0cc590d resp=AHB_RESP_OKAY
# UVM_INFO ../src/mst/ahb_master_driver.sv(332) @ 1735000: uvm_test_top.env.master_agent.drv [ahb_master_driver] Beat[71/256] addr=0x000054d6 trans=AHB_TRANS_SEQ resp=AHB_RESP_OKAY wdata=0xbec5ee1f
# UVM_INFO ../src/slv/ahb_slave_driver.sv(184) @ 1735000: uvm_test_top.env.slave_agent.drv [ahb_slave_driver] Beat AHB_WRITE addr=0x000054d6 resp=AHB_RESP_OKAY waits=0 wdata=0xbec5ee1f
# UVM_INFO ../src/mst/ahb_master_monitor.sv(117) @ 1735000: uvm_test_top.env.master_agent.mon [ahb_master_monitor] Beat[71] addr=0x000054d6 wdata=0xbec5ee1f resp=AHB_RESP_OKAY
# UVM_INFO ../src/mst/ahb_master_driver.sv(332) @ 1785000: uvm_test_top.env.master_agent.drv [ahb_master_driver] Beat[72/256] addr=0x000054d7 trans=AHB_TRANS_SEQ resp=AHB_RESP_OKAY wdata=0x40ee4a31
# UVM_INFO ../src/slv/ahb_slave_driver.sv(184) @ 1785000: uvm_test_top.env.slave_agent.drv [ahb_slave_driver] Beat AHB_WRITE addr=0x000054d7 resp=AHB_RESP_OKAY waits=2 wdata=0x40ee4a31
# UVM_INFO ../src/mst/ahb_master_monitor.sv(117) @ 1785000: uvm_test_top.env.master_agent.mon [ahb_master_monitor] Beat[72] addr=0x000054d7 wdata=0x40ee4a31 resp=AHB_RESP_OKAY
# UVM_INFO ../src/mst/ahb_master_driver.sv(332) @ 1815000: uvm_test_top.env.master_agent.drv [ahb_master_driver] Beat[73/256] addr=0x000054d8 trans=AHB_TRANS_SEQ resp=AHB_RESP_OKAY wdata=0x08e47127
# UVM_INFO ../src/slv/ahb_slave_driver.sv(184) @ 1815000: uvm_test_top.env.slave_agent.drv [ahb_slave_driver] Beat AHB_WRITE addr=0x000054d8 resp=AHB_RESP_OKAY waits=2 wdata=0x08e47127
# UVM_INFO ../src/mst/ahb_master_monitor.sv(117) @ 1815000: uvm_test_top.env.master_agent.mon [ahb_master_monitor] Beat[73] addr=0x000054d8 wdata=0x08e47127 resp=AHB_RESP_OKAY
# UVM_INFO ../src/mst/ahb_master_driver.sv(332) @ 1845000: uvm_test_top.env.master_agent.drv [ahb_master_driver] Beat[74/256] addr=0x000054d9 trans=AHB_TRANS_SEQ resp=AHB_RESP_OKAY wdata=0xf7dfffde
# UVM_INFO ../src/slv/ahb_slave_driver.sv(184) @ 1845000: uvm_test_top.env.slave_agent.drv [ahb_slave_driver] Beat AHB_WRITE addr=0x000054d9 resp=AHB_RESP_OKAY waits=2 wdata=0xf7dfffde
# UVM_INFO ../src/mst/ahb_master_monitor.sv(117) @ 1845000: uvm_test_top.env.master_agent.mon [ahb_master_monitor] Beat[74] addr=0x000054d9 wdata=0xf7dfffde resp=AHB_RESP_OKAY
# UVM_INFO ../src/mst/ahb_master_driver.sv(332) @ 1865000: uvm_test_top.env.master_agent.drv [ahb_master_driver] Beat[75/256] addr=0x000054da trans=AHB_TRANS_SEQ resp=AHB_RESP_OKAY wdata=0xe8361dea
# UVM_INFO ../src/slv/ahb_slave_driver.sv(184) @ 1865000: uvm_test_top.env.slave_agent.drv [ahb_slave_driver] Beat AHB_WRITE addr=0x000054da resp=AHB_RESP_OKAY waits=1 wdata=0xe8361dea
# UVM_INFO ../src/mst/ahb_master_monitor.sv(117) @ 1865000: uvm_test_top.env.master_agent.mon [ahb_master_monitor] Beat[75] addr=0x000054da wdata=0xe8361dea resp=AHB_RESP_OKAY
# UVM_INFO ../src/mst/ahb_master_driver.sv(332) @ 1875000: uvm_test_top.env.master_agent.drv [ahb_master_driver] Beat[76/256] addr=0x000054db trans=AHB_TRANS_SEQ resp=AHB_RESP_OKAY wdata=0x721dc97c
# UVM_INFO ../src/slv/ahb_slave_driver.sv(184) @ 1875000: uvm_test_top.env.slave_agent.drv [ahb_slave_driver] Beat AHB_WRITE addr=0x000054db resp=AHB_RESP_OKAY waits=0 wdata=0x721dc97c
# UVM_INFO ../src/mst/ahb_master_monitor.sv(117) @ 1875000: uvm_test_top.env.master_agent.mon [ahb_master_monitor] Beat[76] addr=0x000054db wdata=0x721dc97c resp=AHB_RESP_OKAY
# UVM_INFO ../src/mst/ahb_master_driver.sv(332) @ 1905000: uvm_test_top.env.master_agent.drv [ahb_master_driver] Beat[77/256] addr=0x000054dc trans=AHB_TRANS_SEQ resp=AHB_RESP_OKAY wdata=0x99f6983e
# UVM_INFO ../src/slv/ahb_slave_driver.sv(184) @ 1905000: uvm_test_top.env.slave_agent.drv [ahb_slave_driver] Beat AHB_WRITE addr=0x000054dc resp=AHB_RESP_OKAY waits=2 wdata=0x99f6983e
# UVM_INFO ../src/mst/ahb_master_monitor.sv(117) @ 1905000: uvm_test_top.env.master_agent.mon [ahb_master_monitor] Beat[77] addr=0x000054dc wdata=0x99f6983e resp=AHB_RESP_OKAY
# UVM_INFO ../src/mst/ahb_master_driver.sv(332) @ 1915000: uvm_test_top.env.master_agent.drv [ahb_master_driver] Beat[78/256] addr=0x000054dd trans=AHB_TRANS_SEQ resp=AHB_RESP_OKAY wdata=0xb25afc25
# UVM_INFO ../src/slv/ahb_slave_driver.sv(184) @ 1915000: uvm_test_top.env.slave_agent.drv [ahb_slave_driver] Beat AHB_WRITE addr=0x000054dd resp=AHB_RESP_OKAY waits=0 wdata=0xb25afc25
# UVM_INFO ../src/mst/ahb_master_monitor.sv(117) @ 1915000: uvm_test_top.env.master_agent.mon [ahb_master_monitor] Beat[78] addr=0x000054dd wdata=0xb25afc25 resp=AHB_RESP_OKAY
# UVM_INFO ../src/mst/ahb_master_driver.sv(332) @ 1925000: uvm_test_top.env.master_agent.drv [ahb_master_driver] Beat[79/256] addr=0x000054de trans=AHB_TRANS_SEQ resp=AHB_RESP_OKAY wdata=0x3473442f
# UVM_INFO ../src/slv/ahb_slave_driver.sv(184) @ 1925000: uvm_test_top.env.slave_agent.drv [ahb_slave_driver] Beat AHB_WRITE addr=0x000054de resp=AHB_RESP_OKAY waits=0 wdata=0x3473442f
# UVM_INFO ../src/mst/ahb_master_monitor.sv(117) @ 1925000: uvm_test_top.env.master_agent.mon [ahb_master_monitor] Beat[79] addr=0x000054de wdata=0x3473442f resp=AHB_RESP_OKAY
# UVM_INFO ../src/mst/ahb_master_driver.sv(332) @ 1975000: uvm_test_top.env.master_agent.drv [ahb_master_driver] Beat[80/256] addr=0x000054df trans=AHB_TRANS_SEQ resp=AHB_RESP_OKAY wdata=0x2496053d
# UVM_INFO ../src/slv/ahb_slave_driver.sv(184) @ 1975000: uvm_test_top.env.slave_agent.drv [ahb_slave_driver] Beat AHB_WRITE addr=0x000054df resp=AHB_RESP_OKAY waits=2 wdata=0x2496053d
# UVM_INFO ../src/mst/ahb_master_monitor.sv(117) @ 1975000: uvm_test_top.env.master_agent.mon [ahb_master_monitor] Beat[80] addr=0x000054df wdata=0x2496053d resp=AHB_RESP_OKAY
# UVM_INFO ../src/mst/ahb_master_driver.sv(332) @ 2005000: uvm_test_top.env.master_agent.drv [ahb_master_driver] Beat[81/256] addr=0x000054e0 trans=AHB_TRANS_SEQ resp=AHB_RESP_OKAY wdata=0x850ffc93
# UVM_INFO ../src/slv/ahb_slave_driver.sv(184) @ 2005000: uvm_test_top.env.slave_agent.drv [ahb_slave_driver] Beat AHB_WRITE addr=0x000054e0 resp=AHB_RESP_OKAY waits=2 wdata=0x850ffc93
# UVM_INFO ../src/mst/ahb_master_monitor.sv(117) @ 2005000: uvm_test_top.env.master_agent.mon [ahb_master_monitor] Beat[81] addr=0x000054e0 wdata=0x850ffc93 resp=AHB_RESP_OKAY
# UVM_INFO ../src/mst/ahb_master_driver.sv(332) @ 2015000: uvm_test_top.env.master_agent.drv [ahb_master_driver] Beat[82/256] addr=0x000054e1 trans=AHB_TRANS_SEQ resp=AHB_RESP_OKAY wdata=0x5ab95b22
# UVM_INFO ../src/slv/ahb_slave_driver.sv(184) @ 2015000: uvm_test_top.env.slave_agent.drv [ahb_slave_driver] Beat AHB_WRITE addr=0x000054e1 resp=AHB_RESP_OKAY waits=0 wdata=0x5ab95b22
# UVM_INFO ../src/mst/ahb_master_monitor.sv(117) @ 2015000: uvm_test_top.env.master_agent.mon [ahb_master_monitor] Beat[82] addr=0x000054e1 wdata=0x5ab95b22 resp=AHB_RESP_OKAY
# UVM_INFO ../src/mst/ahb_master_driver.sv(332) @ 2025000: uvm_test_top.env.master_agent.drv [ahb_master_driver] Beat[83/256] addr=0x000054e2 trans=AHB_TRANS_SEQ resp=AHB_RESP_OKAY wdata=0xa121a9a9
# UVM_INFO ../src/slv/ahb_slave_driver.sv(184) @ 2025000: uvm_test_top.env.slave_agent.drv [ahb_slave_driver] Beat AHB_WRITE addr=0x000054e2 resp=AHB_RESP_OKAY waits=0 wdata=0xa121a9a9
# UVM_INFO ../src/mst/ahb_master_monitor.sv(117) @ 2025000: uvm_test_top.env.master_agent.mon [ahb_master_monitor] Beat[83] addr=0x000054e2 wdata=0xa121a9a9 resp=AHB_RESP_OKAY
# UVM_INFO ../src/mst/ahb_master_driver.sv(332) @ 2045000: uvm_test_top.env.master_agent.drv [ahb_master_driver] Beat[84/256] addr=0x000054e3 trans=AHB_TRANS_SEQ resp=AHB_RESP_OKAY wdata=0xc52cd221
# UVM_INFO ../src/slv/ahb_slave_driver.sv(184) @ 2045000: uvm_test_top.env.slave_agent.drv [ahb_slave_driver] Beat AHB_WRITE addr=0x000054e3 resp=AHB_RESP_OKAY waits=1 wdata=0xc52cd221
# UVM_INFO ../src/mst/ahb_master_monitor.sv(117) @ 2045000: uvm_test_top.env.master_agent.mon [ahb_master_monitor] Beat[84] addr=0x000054e3 wdata=0xc52cd221 resp=AHB_RESP_OKAY
# UVM_INFO ../src/mst/ahb_master_driver.sv(332) @ 2075000: uvm_test_top.env.master_agent.drv [ahb_master_driver] Beat[85/256] addr=0x000054e4 trans=AHB_TRANS_SEQ resp=AHB_RESP_OKAY wdata=0xc550de55
# UVM_INFO ../src/slv/ahb_slave_driver.sv(184) @ 2075000: uvm_test_top.env.slave_agent.drv [ahb_slave_driver] Beat AHB_WRITE addr=0x000054e4 resp=AHB_RESP_OKAY waits=2 wdata=0xc550de55
# UVM_INFO ../src/mst/ahb_master_monitor.sv(117) @ 2075000: uvm_test_top.env.master_agent.mon [ahb_master_monitor] Beat[85] addr=0x000054e4 wdata=0xc550de55 resp=AHB_RESP_OKAY
# UVM_INFO ../src/mst/ahb_master_driver.sv(332) @ 2085000: uvm_test_top.env.master_agent.drv [ahb_master_driver] Beat[86/256] addr=0x000054e5 trans=AHB_TRANS_SEQ resp=AHB_RESP_OKAY wdata=0xe524318d
# UVM_INFO ../src/slv/ahb_slave_driver.sv(184) @ 2085000: uvm_test_top.env.slave_agent.drv [ahb_slave_driver] Beat AHB_WRITE addr=0x000054e5 resp=AHB_RESP_OKAY waits=0 wdata=0xe524318d
# UVM_INFO ../src/mst/ahb_master_monitor.sv(117) @ 2085000: uvm_test_top.env.master_agent.mon [ahb_master_monitor] Beat[86] addr=0x000054e5 wdata=0xe524318d resp=AHB_RESP_OKAY
# UVM_INFO ../src/mst/ahb_master_driver.sv(332) @ 2115000: uvm_test_top.env.master_agent.drv [ahb_master_driver] Beat[87/256] addr=0x000054e6 trans=AHB_TRANS_SEQ resp=AHB_RESP_OKAY wdata=0x255836c0
# UVM_INFO ../src/slv/ahb_slave_driver.sv(184) @ 2115000: uvm_test_top.env.slave_agent.drv [ahb_slave_driver] Beat AHB_WRITE addr=0x000054e6 resp=AHB_RESP_OKAY waits=2 wdata=0x255836c0
# UVM_INFO ../src/mst/ahb_master_monitor.sv(117) @ 2115000: uvm_test_top.env.master_agent.mon [ahb_master_monitor] Beat[87] addr=0x000054e6 wdata=0x255836c0 resp=AHB_RESP_OKAY
# UVM_INFO ../src/mst/ahb_master_driver.sv(332) @ 2145000: uvm_test_top.env.master_agent.drv [ahb_master_driver] Beat[88/256] addr=0x000054e7 trans=AHB_TRANS_SEQ resp=AHB_RESP_OKAY wdata=0xbdbc28ff
# UVM_INFO ../src/slv/ahb_slave_driver.sv(184) @ 2145000: uvm_test_top.env.slave_agent.drv [ahb_slave_driver] Beat AHB_WRITE addr=0x000054e7 resp=AHB_RESP_OKAY waits=0 wdata=0xbdbc28ff
# UVM_INFO ../src/mst/ahb_master_monitor.sv(117) @ 2145000: uvm_test_top.env.master_agent.mon [ahb_master_monitor] Beat[88] addr=0x000054e7 wdata=0xbdbc28ff resp=AHB_RESP_OKAY
# UVM_INFO ../src/mst/ahb_master_driver.sv(332) @ 2175000: uvm_test_top.env.master_agent.drv [ahb_master_driver] Beat[89/256] addr=0x000054e8 trans=AHB_TRANS_SEQ resp=AHB_RESP_OKAY wdata=0x0df5626b
# UVM_INFO ../src/slv/ahb_slave_driver.sv(184) @ 2175000: uvm_test_top.env.slave_agent.drv [ahb_slave_driver] Beat AHB_WRITE addr=0x000054e8 resp=AHB_RESP_OKAY waits=2 wdata=0x0df5626b
# UVM_INFO ../src/mst/ahb_master_monitor.sv(117) @ 2175000: uvm_test_top.env.master_agent.mon [ahb_master_monitor] Beat[89] addr=0x000054e8 wdata=0x0df5626b resp=AHB_RESP_OKAY
# UVM_INFO ../src/mst/ahb_master_driver.sv(332) @ 2185000: uvm_test_top.env.master_agent.drv [ahb_master_driver] Beat[90/256] addr=0x000054e9 trans=AHB_TRANS_SEQ resp=AHB_RESP_OKAY wdata=0x830e8a4e
# UVM_INFO ../src/slv/ahb_slave_driver.sv(184) @ 2185000: uvm_test_top.env.slave_agent.drv [ahb_slave_driver] Beat AHB_WRITE addr=0x000054e9 resp=AHB_RESP_OKAY waits=0 wdata=0x830e8a4e
# UVM_INFO ../src/mst/ahb_master_monitor.sv(117) @ 2185000: uvm_test_top.env.master_agent.mon [ahb_master_monitor] Beat[90] addr=0x000054e9 wdata=0x830e8a4e resp=AHB_RESP_OKAY
# UVM_INFO ../src/mst/ahb_master_driver.sv(332) @ 2205000: uvm_test_top.env.master_agent.drv [ahb_master_driver] Beat[91/256] addr=0x000054ea trans=AHB_TRANS_SEQ resp=AHB_RESP_OKAY wdata=0xf34e0b0f
# UVM_INFO ../src/slv/ahb_slave_driver.sv(184) @ 2205000: uvm_test_top.env.slave_agent.drv [ahb_slave_driver] Beat AHB_WRITE addr=0x000054ea resp=AHB_RESP_OKAY waits=1 wdata=0xf34e0b0f
# UVM_INFO ../src/mst/ahb_master_monitor.sv(117) @ 2205000: uvm_test_top.env.master_agent.mon [ahb_master_monitor] Beat[91] addr=0x000054ea wdata=0xf34e0b0f resp=AHB_RESP_OKAY
# UVM_INFO ../src/mst/ahb_master_driver.sv(332) @ 2225000: uvm_test_top.env.master_agent.drv [ahb_master_driver] Beat[92/256] addr=0x000054eb trans=AHB_TRANS_SEQ resp=AHB_RESP_OKAY wdata=0x9b7e88a3
# UVM_INFO ../src/slv/ahb_slave_driver.sv(184) @ 2225000: uvm_test_top.env.slave_agent.drv [ahb_slave_driver] Beat AHB_WRITE addr=0x000054eb resp=AHB_RESP_OKAY waits=1 wdata=0x9b7e88a3
# UVM_INFO ../src/mst/ahb_master_monitor.sv(117) @ 2225000: uvm_test_top.env.master_agent.mon [ahb_master_monitor] Beat[92] addr=0x000054eb wdata=0x9b7e88a3 resp=AHB_RESP_OKAY
# UVM_INFO ../src/mst/ahb_master_driver.sv(332) @ 2235000: uvm_test_top.env.master_agent.drv [ahb_master_driver] Beat[93/256] addr=0x000054ec trans=AHB_TRANS_SEQ resp=AHB_RESP_OKAY wdata=0x9e9bfb23
# UVM_INFO ../src/slv/ahb_slave_driver.sv(184) @ 2235000: uvm_test_top.env.slave_agent.drv [ahb_slave_driver] Beat AHB_WRITE addr=0x000054ec resp=AHB_RESP_OKAY waits=0 wdata=0x9e9bfb23
# UVM_INFO ../src/mst/ahb_master_monitor.sv(117) @ 2235000: uvm_test_top.env.master_agent.mon [ahb_master_monitor] Beat[93] addr=0x000054ec wdata=0x9e9bfb23 resp=AHB_RESP_OKAY
# UVM_INFO ../src/mst/ahb_master_driver.sv(332) @ 2245000: uvm_test_top.env.master_agent.drv [ahb_master_driver] Beat[94/256] addr=0x000054ed trans=AHB_TRANS_SEQ resp=AHB_RESP_OKAY wdata=0x7bde9b47
# UVM_INFO ../src/slv/ahb_slave_driver.sv(184) @ 2245000: uvm_test_top.env.slave_agent.drv [ahb_slave_driver] Beat AHB_WRITE addr=0x000054ed resp=AHB_RESP_OKAY waits=0 wdata=0x7bde9b47
# UVM_INFO ../src/mst/ahb_master_monitor.sv(117) @ 2245000: uvm_test_top.env.master_agent.mon [ahb_master_monitor] Beat[94] addr=0x000054ed wdata=0x7bde9b47 resp=AHB_RESP_OKAY
# UVM_INFO ../src/mst/ahb_master_driver.sv(332) @ 2275000: uvm_test_top.env.master_agent.drv [ahb_master_driver] Beat[95/256] addr=0x000054ee trans=AHB_TRANS_SEQ resp=AHB_RESP_OKAY wdata=0x50e2fd0b
# UVM_INFO ../src/slv/ahb_slave_driver.sv(184) @ 2275000: uvm_test_top.env.slave_agent.drv [ahb_slave_driver] Beat AHB_WRITE addr=0x000054ee resp=AHB_RESP_OKAY waits=2 wdata=0x50e2fd0b
# UVM_INFO ../src/mst/ahb_master_monitor.sv(117) @ 2275000: uvm_test_top.env.master_agent.mon [ahb_master_monitor] Beat[95] addr=0x000054ee wdata=0x50e2fd0b resp=AHB_RESP_OKAY
# UVM_INFO ../src/mst/ahb_master_driver.sv(332) @ 2315000: uvm_test_top.env.master_agent.drv [ahb_master_driver] Beat[96/256] addr=0x000054ef trans=AHB_TRANS_SEQ resp=AHB_RESP_OKAY wdata=0x6d0e9a1e
# UVM_INFO ../src/slv/ahb_slave_driver.sv(184) @ 2315000: uvm_test_top.env.slave_agent.drv [ahb_slave_driver] Beat AHB_WRITE addr=0x000054ef resp=AHB_RESP_OKAY waits=1 wdata=0x6d0e9a1e
# UVM_INFO ../src/mst/ahb_master_monitor.sv(117) @ 2315000: uvm_test_top.env.master_agent.mon [ahb_master_monitor] Beat[96] addr=0x000054ef wdata=0x6d0e9a1e resp=AHB_RESP_OKAY
# UVM_INFO ../src/mst/ahb_master_driver.sv(332) @ 2335000: uvm_test_top.env.master_agent.drv [ahb_master_driver] Beat[97/256] addr=0x000054f0 trans=AHB_TRANS_SEQ resp=AHB_RESP_OKAY wdata=0x273529dc
# UVM_INFO ../src/slv/ahb_slave_driver.sv(184) @ 2335000: uvm_test_top.env.slave_agent.drv [ahb_slave_driver] Beat AHB_WRITE addr=0x000054f0 resp=AHB_RESP_OKAY waits=1 wdata=0x273529dc
# UVM_INFO ../src/mst/ahb_master_monitor.sv(117) @ 2335000: uvm_test_top.env.master_agent.mon [ahb_master_monitor] Beat[97] addr=0x000054f0 wdata=0x273529dc resp=AHB_RESP_OKAY
# UVM_INFO ../src/mst/ahb_master_driver.sv(332) @ 2345000: uvm_test_top.env.master_agent.drv [ahb_master_driver] Beat[98/256] addr=0x000054f1 trans=AHB_TRANS_SEQ resp=AHB_RESP_OKAY wdata=0x4a9b3421
# UVM_INFO ../src/slv/ahb_slave_driver.sv(184) @ 2345000: uvm_test_top.env.slave_agent.drv [ahb_slave_driver] Beat AHB_WRITE addr=0x000054f1 resp=AHB_RESP_OKAY waits=0 wdata=0x4a9b3421
# UVM_INFO ../src/mst/ahb_master_monitor.sv(117) @ 2345000: uvm_test_top.env.master_agent.mon [ahb_master_monitor] Beat[98] addr=0x000054f1 wdata=0x4a9b3421 resp=AHB_RESP_OKAY
# UVM_INFO ../src/mst/ahb_master_driver.sv(332) @ 2365000: uvm_test_top.env.master_agent.drv [ahb_master_driver] Beat[99/256] addr=0x000054f2 trans=AHB_TRANS_SEQ resp=AHB_RESP_OKAY wdata=0x1ab3de3f
# UVM_INFO ../src/slv/ahb_slave_driver.sv(184) @ 2365000: uvm_test_top.env.slave_agent.drv [ahb_slave_driver] Beat AHB_WRITE addr=0x000054f2 resp=AHB_RESP_OKAY waits=1 wdata=0x1ab3de3f
# UVM_INFO ../src/mst/ahb_master_monitor.sv(117) @ 2365000: uvm_test_top.env.master_agent.mon [ahb_master_monitor] Beat[99] addr=0x000054f2 wdata=0x1ab3de3f resp=AHB_RESP_OKAY
# UVM_INFO ../src/mst/ahb_master_driver.sv(332) @ 2375000: uvm_test_top.env.master_agent.drv [ahb_master_driver] Beat[100/256] addr=0x000054f3 trans=AHB_TRANS_SEQ resp=AHB_RESP_OKAY wdata=0x772d0569
# UVM_INFO ../src/slv/ahb_slave_driver.sv(184) @ 2375000: uvm_test_top.env.slave_agent.drv [ahb_slave_driver] Beat AHB_WRITE addr=0x000054f3 resp=AHB_RESP_OKAY waits=0 wdata=0x772d0569
# UVM_INFO ../src/mst/ahb_master_monitor.sv(117) @ 2375000: uvm_test_top.env.master_agent.mon [ahb_master_monitor] Beat[100] addr=0x000054f3 wdata=0x772d0569 resp=AHB_RESP_OKAY
# UVM_INFO ../src/mst/ahb_master_driver.sv(332) @ 2385000: uvm_test_top.env.master_agent.drv [ahb_master_driver] Beat[101/256] addr=0x000054f4 trans=AHB_TRANS_SEQ resp=AHB_RESP_OKAY wdata=0xdb308569
# UVM_INFO ../src/slv/ahb_slave_driver.sv(184) @ 2385000: uvm_test_top.env.slave_agent.drv [ahb_slave_driver] Beat AHB_WRITE addr=0x000054f4 resp=AHB_RESP_OKAY waits=0 wdata=0xdb308569
# UVM_INFO ../src/mst/ahb_master_monitor.sv(117) @ 2385000: uvm_test_top.env.master_agent.mon [ahb_master_monitor] Beat[101] addr=0x000054f4 wdata=0xdb308569 resp=AHB_RESP_OKAY
# UVM_INFO ../src/mst/ahb_master_driver.sv(332) @ 2405000: uvm_test_top.env.master_agent.drv [ahb_master_driver] Beat[102/256] addr=0x000054f5 trans=AHB_TRANS_SEQ resp=AHB_RESP_OKAY wdata=0x12851ea8
# UVM_INFO ../src/slv/ahb_slave_driver.sv(184) @ 2405000: uvm_test_top.env.slave_agent.drv [ahb_slave_driver] Beat AHB_WRITE addr=0x000054f5 resp=AHB_RESP_OKAY waits=1 wdata=0x12851ea8
# UVM_INFO ../src/mst/ahb_master_monitor.sv(117) @ 2405000: uvm_test_top.env.master_agent.mon [ahb_master_monitor] Beat[102] addr=0x000054f5 wdata=0x12851ea8 resp=AHB_RESP_OKAY
# UVM_INFO ../src/mst/ahb_master_driver.sv(332) @ 2435000: uvm_test_top.env.master_agent.drv [ahb_master_driver] Beat[103/256] addr=0x000054f6 trans=AHB_TRANS_SEQ resp=AHB_RESP_OKAY wdata=0xfd3ca854
# UVM_INFO ../src/slv/ahb_slave_driver.sv(184) @ 2435000: uvm_test_top.env.slave_agent.drv [ahb_slave_driver] Beat AHB_WRITE addr=0x000054f6 resp=AHB_RESP_OKAY waits=2 wdata=0xfd3ca854
# UVM_INFO ../src/mst/ahb_master_monitor.sv(117) @ 2435000: uvm_test_top.env.master_agent.mon [ahb_master_monitor] Beat[103] addr=0x000054f6 wdata=0xfd3ca854 resp=AHB_RESP_OKAY
# UVM_INFO ../src/mst/ahb_master_driver.sv(332) @ 2485000: uvm_test_top.env.master_agent.drv [ahb_master_driver] Beat[104/256] addr=0x000054f7 trans=AHB_TRANS_SEQ resp=AHB_RESP_OKAY wdata=0x16a9f85f
# UVM_INFO ../src/slv/ahb_slave_driver.sv(184) @ 2485000: uvm_test_top.env.slave_agent.drv [ahb_slave_driver] Beat AHB_WRITE addr=0x000054f7 resp=AHB_RESP_OKAY waits=2 wdata=0x16a9f85f
# UVM_INFO ../src/mst/ahb_master_monitor.sv(117) @ 2485000: uvm_test_top.env.master_agent.mon [ahb_master_monitor] Beat[104] addr=0x000054f7 wdata=0x16a9f85f resp=AHB_RESP_OKAY
# UVM_INFO ../src/mst/ahb_master_driver.sv(332) @ 2505000: uvm_test_top.env.master_agent.drv [ahb_master_driver] Beat[105/256] addr=0x000054f8 trans=AHB_TRANS_SEQ resp=AHB_RESP_OKAY wdata=0x56f4c923
# UVM_INFO ../src/slv/ahb_slave_driver.sv(184) @ 2505000: uvm_test_top.env.slave_agent.drv [ahb_slave_driver] Beat AHB_WRITE addr=0x000054f8 resp=AHB_RESP_OKAY waits=1 wdata=0x56f4c923
# UVM_INFO ../src/mst/ahb_master_monitor.sv(117) @ 2505000: uvm_test_top.env.master_agent.mon [ahb_master_monitor] Beat[105] addr=0x000054f8 wdata=0x56f4c923 resp=AHB_RESP_OKAY
# UVM_INFO ../src/mst/ahb_master_driver.sv(332) @ 2515000: uvm_test_top.env.master_agent.drv [ahb_master_driver] Beat[106/256] addr=0x000054f9 trans=AHB_TRANS_SEQ resp=AHB_RESP_OKAY wdata=0xb6f9e4be
# UVM_INFO ../src/slv/ahb_slave_driver.sv(184) @ 2515000: uvm_test_top.env.slave_agent.drv [ahb_slave_driver] Beat AHB_WRITE addr=0x000054f9 resp=AHB_RESP_OKAY waits=0 wdata=0xb6f9e4be
# UVM_INFO ../src/mst/ahb_master_monitor.sv(117) @ 2515000: uvm_test_top.env.master_agent.mon [ahb_master_monitor] Beat[106] addr=0x000054f9 wdata=0xb6f9e4be resp=AHB_RESP_OKAY
# UVM_INFO ../src/mst/ahb_master_driver.sv(332) @ 2525000: uvm_test_top.env.master_agent.drv [ahb_master_driver] Beat[107/256] addr=0x000054fa trans=AHB_TRANS_SEQ resp=AHB_RESP_OKAY wdata=0x49899564
# UVM_INFO ../src/slv/ahb_slave_driver.sv(184) @ 2525000: uvm_test_top.env.slave_agent.drv [ahb_slave_driver] Beat AHB_WRITE addr=0x000054fa resp=AHB_RESP_OKAY waits=0 wdata=0x49899564
# UVM_INFO ../src/mst/ahb_master_monitor.sv(117) @ 2525000: uvm_test_top.env.master_agent.mon [ahb_master_monitor] Beat[107] addr=0x000054fa wdata=0x49899564 resp=AHB_RESP_OKAY
# UVM_INFO ../src/mst/ahb_master_driver.sv(332) @ 2555000: uvm_test_top.env.master_agent.drv [ahb_master_driver] Beat[108/256] addr=0x000054fb trans=AHB_TRANS_SEQ resp=AHB_RESP_OKAY wdata=0xe73c1a6c
# UVM_INFO ../src/slv/ahb_slave_driver.sv(184) @ 2555000: uvm_test_top.env.slave_agent.drv [ahb_slave_driver] Beat AHB_WRITE addr=0x000054fb resp=AHB_RESP_OKAY waits=2 wdata=0xe73c1a6c
# UVM_INFO ../src/mst/ahb_master_monitor.sv(117) @ 2555000: uvm_test_top.env.master_agent.mon [ahb_master_monitor] Beat[108] addr=0x000054fb wdata=0xe73c1a6c resp=AHB_RESP_OKAY
# UVM_INFO ../src/mst/ahb_master_driver.sv(332) @ 2575000: uvm_test_top.env.master_agent.drv [ahb_master_driver] Beat[109/256] addr=0x000054fc trans=AHB_TRANS_SEQ resp=AHB_RESP_OKAY wdata=0x4ae987c2
# UVM_INFO ../src/slv/ahb_slave_driver.sv(184) @ 2575000: uvm_test_top.env.slave_agent.drv [ahb_slave_driver] Beat AHB_WRITE addr=0x000054fc resp=AHB_RESP_OKAY waits=1 wdata=0x4ae987c2
# UVM_INFO ../src/mst/ahb_master_monitor.sv(117) @ 2575000: uvm_test_top.env.master_agent.mon [ahb_master_monitor] Beat[109] addr=0x000054fc wdata=0x4ae987c2 resp=AHB_RESP_OKAY
# UVM_INFO ../src/mst/ahb_master_driver.sv(332) @ 2585000: uvm_test_top.env.master_agent.drv [ahb_master_driver] Beat[110/256] addr=0x000054fd trans=AHB_TRANS_SEQ resp=AHB_RESP_OKAY wdata=0xc9c8ecc6
# UVM_INFO ../src/slv/ahb_slave_driver.sv(184) @ 2585000: uvm_test_top.env.slave_agent.drv [ahb_slave_driver] Beat AHB_WRITE addr=0x000054fd resp=AHB_RESP_OKAY waits=0 wdata=0xc9c8ecc6
# UVM_INFO ../src/mst/ahb_master_monitor.sv(117) @ 2585000: uvm_test_top.env.master_agent.mon [ahb_master_monitor] Beat[110] addr=0x000054fd wdata=0xc9c8ecc6 resp=AHB_RESP_OKAY
# UVM_INFO ../src/mst/ahb_master_driver.sv(332) @ 2615000: uvm_test_top.env.master_agent.drv [ahb_master_driver] Beat[111/256] addr=0x000054fe trans=AHB_TRANS_SEQ resp=AHB_RESP_OKAY wdata=0x5bbd604c
# UVM_INFO ../src/slv/ahb_slave_driver.sv(184) @ 2615000: uvm_test_top.env.slave_agent.drv [ahb_slave_driver] Beat AHB_WRITE addr=0x000054fe resp=AHB_RESP_OKAY waits=2 wdata=0x5bbd604c
# UVM_INFO ../src/mst/ahb_master_monitor.sv(117) @ 2615000: uvm_test_top.env.master_agent.mon [ahb_master_monitor] Beat[111] addr=0x000054fe wdata=0x5bbd604c resp=AHB_RESP_OKAY
# UVM_INFO ../src/mst/ahb_master_driver.sv(332) @ 2655000: uvm_test_top.env.master_agent.drv [ahb_master_driver] Beat[112/256] addr=0x000054ff trans=AHB_TRANS_SEQ resp=AHB_RESP_OKAY wdata=0xca0329a5
# UVM_INFO ../src/slv/ahb_slave_driver.sv(184) @ 2655000: uvm_test_top.env.slave_agent.drv [ahb_slave_driver] Beat AHB_WRITE addr=0x000054ff resp=AHB_RESP_OKAY waits=1 wdata=0xca0329a5
# UVM_INFO ../src/mst/ahb_master_monitor.sv(117) @ 2655000: uvm_test_top.env.master_agent.mon [ahb_master_monitor] Beat[112] addr=0x000054ff wdata=0xca0329a5 resp=AHB_RESP_OKAY
# UVM_INFO ../src/mst/ahb_master_driver.sv(332) @ 2675000: uvm_test_top.env.master_agent.drv [ahb_master_driver] Beat[113/256] addr=0x00005500 trans=AHB_TRANS_SEQ resp=AHB_RESP_OKAY wdata=0x93dcc4ef
# UVM_INFO ../src/slv/ahb_slave_driver.sv(184) @ 2675000: uvm_test_top.env.slave_agent.drv [ahb_slave_driver] Beat AHB_WRITE addr=0x00005500 resp=AHB_RESP_OKAY waits=1 wdata=0x93dcc4ef
# UVM_INFO ../src/mst/ahb_master_monitor.sv(117) @ 2675000: uvm_test_top.env.master_agent.mon [ahb_master_monitor] Beat[113] addr=0x00005500 wdata=0x93dcc4ef resp=AHB_RESP_OKAY
# UVM_INFO ../src/mst/ahb_master_driver.sv(332) @ 2685000: uvm_test_top.env.master_agent.drv [ahb_master_driver] Beat[114/256] addr=0x00005501 trans=AHB_TRANS_SEQ resp=AHB_RESP_OKAY wdata=0xb88758af
# UVM_INFO ../src/slv/ahb_slave_driver.sv(184) @ 2685000: uvm_test_top.env.slave_agent.drv [ahb_slave_driver] Beat AHB_WRITE addr=0x00005501 resp=AHB_RESP_OKAY waits=0 wdata=0xb88758af
# UVM_INFO ../src/mst/ahb_master_monitor.sv(117) @ 2685000: uvm_test_top.env.master_agent.mon [ahb_master_monitor] Beat[114] addr=0x00005501 wdata=0xb88758af resp=AHB_RESP_OKAY
# UVM_INFO ../src/mst/ahb_master_driver.sv(332) @ 2695000: uvm_test_top.env.master_agent.drv [ahb_master_driver] Beat[115/256] addr=0x00005502 trans=AHB_TRANS_SEQ resp=AHB_RESP_OKAY wdata=0xd25a631c
# UVM_INFO ../src/slv/ahb_slave_driver.sv(184) @ 2695000: uvm_test_top.env.slave_agent.drv [ahb_slave_driver] Beat AHB_WRITE addr=0x00005502 resp=AHB_RESP_OKAY waits=0 wdata=0xd25a631c
# UVM_INFO ../src/mst/ahb_master_monitor.sv(117) @ 2695000: uvm_test_top.env.master_agent.mon [ahb_master_monitor] Beat[115] addr=0x00005502 wdata=0xd25a631c resp=AHB_RESP_OKAY
# UVM_INFO ../src/mst/ahb_master_driver.sv(332) @ 2705000: uvm_test_top.env.master_agent.drv [ahb_master_driver] Beat[116/256] addr=0x00005503 trans=AHB_TRANS_SEQ resp=AHB_RESP_OKAY wdata=0x03b3563e
# UVM_INFO ../src/slv/ahb_slave_driver.sv(184) @ 2705000: uvm_test_top.env.slave_agent.drv [ahb_slave_driver] Beat AHB_WRITE addr=0x00005503 resp=AHB_RESP_OKAY waits=0 wdata=0x03b3563e
# UVM_INFO ../src/mst/ahb_master_monitor.sv(117) @ 2705000: uvm_test_top.env.master_agent.mon [ahb_master_monitor] Beat[116] addr=0x00005503 wdata=0x03b3563e resp=AHB_RESP_OKAY
# UVM_INFO ../src/mst/ahb_master_driver.sv(332) @ 2735000: uvm_test_top.env.master_agent.drv [ahb_master_driver] Beat[117/256] addr=0x00005504 trans=AHB_TRANS_SEQ resp=AHB_RESP_OKAY wdata=0x4360e662
# UVM_INFO ../src/slv/ahb_slave_driver.sv(184) @ 2735000: uvm_test_top.env.slave_agent.drv [ahb_slave_driver] Beat AHB_WRITE addr=0x00005504 resp=AHB_RESP_OKAY waits=2 wdata=0x4360e662
# UVM_INFO ../src/mst/ahb_master_monitor.sv(117) @ 2735000: uvm_test_top.env.master_agent.mon [ahb_master_monitor] Beat[117] addr=0x00005504 wdata=0x4360e662 resp=AHB_RESP_OKAY
# UVM_INFO ../src/mst/ahb_master_driver.sv(332) @ 2745000: uvm_test_top.env.master_agent.drv [ahb_master_driver] Beat[118/256] addr=0x00005505 trans=AHB_TRANS_SEQ resp=AHB_RESP_OKAY wdata=0x5e1a6e7d
# UVM_INFO ../src/slv/ahb_slave_driver.sv(184) @ 2745000: uvm_test_top.env.slave_agent.drv [ahb_slave_driver] Beat AHB_WRITE addr=0x00005505 resp=AHB_RESP_OKAY waits=0 wdata=0x5e1a6e7d
# UVM_INFO ../src/mst/ahb_master_monitor.sv(117) @ 2745000: uvm_test_top.env.master_agent.mon [ahb_master_monitor] Beat[118] addr=0x00005505 wdata=0x5e1a6e7d resp=AHB_RESP_OKAY
# UVM_INFO ../src/mst/ahb_master_driver.sv(332) @ 2755000: uvm_test_top.env.master_agent.drv [ahb_master_driver] Beat[119/256] addr=0x00005506 trans=AHB_TRANS_SEQ resp=AHB_RESP_OKAY wdata=0x209f3474
# UVM_INFO ../src/slv/ahb_slave_driver.sv(184) @ 2755000: uvm_test_top.env.slave_agent.drv [ahb_slave_driver] Beat AHB_WRITE addr=0x00005506 resp=AHB_RESP_OKAY waits=0 wdata=0x209f3474
# UVM_INFO ../src/mst/ahb_master_monitor.sv(117) @ 2755000: uvm_test_top.env.master_agent.mon [ahb_master_monitor] Beat[119] addr=0x00005506 wdata=0x209f3474 resp=AHB_RESP_OKAY
# UVM_INFO ../src/mst/ahb_master_driver.sv(332) @ 2805000: uvm_test_top.env.master_agent.drv [ahb_master_driver] Beat[120/256] addr=0x00005507 trans=AHB_TRANS_SEQ resp=AHB_RESP_OKAY wdata=0xb5267496
# UVM_INFO ../src/slv/ahb_slave_driver.sv(184) @ 2805000: uvm_test_top.env.slave_agent.drv [ahb_slave_driver] Beat AHB_WRITE addr=0x00005507 resp=AHB_RESP_OKAY waits=2 wdata=0xb5267496
# UVM_INFO ../src/mst/ahb_master_monitor.sv(117) @ 2805000: uvm_test_top.env.master_agent.mon [ahb_master_monitor] Beat[120] addr=0x00005507 wdata=0xb5267496 resp=AHB_RESP_OKAY
# UVM_INFO ../src/mst/ahb_master_driver.sv(332) @ 2815000: uvm_test_top.env.master_agent.drv [ahb_master_driver] Beat[121/256] addr=0x00005508 trans=AHB_TRANS_SEQ resp=AHB_RESP_OKAY wdata=0xa2e615c7
# UVM_INFO ../src/slv/ahb_slave_driver.sv(184) @ 2815000: uvm_test_top.env.slave_agent.drv [ahb_slave_driver] Beat AHB_WRITE addr=0x00005508 resp=AHB_RESP_OKAY waits=0 wdata=0xa2e615c7
# UVM_INFO ../src/mst/ahb_master_monitor.sv(117) @ 2815000: uvm_test_top.env.master_agent.mon [ahb_master_monitor] Beat[121] addr=0x00005508 wdata=0xa2e615c7 resp=AHB_RESP_OKAY
# UVM_INFO ../src/mst/ahb_master_driver.sv(332) @ 2825000: uvm_test_top.env.master_agent.drv [ahb_master_driver] Beat[122/256] addr=0x00005509 trans=AHB_TRANS_SEQ resp=AHB_RESP_OKAY wdata=0xf8a891d2
# UVM_INFO ../src/slv/ahb_slave_driver.sv(184) @ 2825000: uvm_test_top.env.slave_agent.drv [ahb_slave_driver] Beat AHB_WRITE addr=0x00005509 resp=AHB_RESP_OKAY waits=0 wdata=0xf8a891d2
# UVM_INFO ../src/mst/ahb_master_monitor.sv(117) @ 2825000: uvm_test_top.env.master_agent.mon [ahb_master_monitor] Beat[122] addr=0x00005509 wdata=0xf8a891d2 resp=AHB_RESP_OKAY
# UVM_INFO ../src/mst/ahb_master_driver.sv(332) @ 2855000: uvm_test_top.env.master_agent.drv [ahb_master_driver] Beat[123/256] addr=0x0000550a trans=AHB_TRANS_SEQ resp=AHB_RESP_OKAY wdata=0xa7cedf4e
# UVM_INFO ../src/slv/ahb_slave_driver.sv(184) @ 2855000: uvm_test_top.env.slave_agent.drv [ahb_slave_driver] Beat AHB_WRITE addr=0x0000550a resp=AHB_RESP_OKAY waits=2 wdata=0xa7cedf4e
# UVM_INFO ../src/mst/ahb_master_monitor.sv(117) @ 2855000: uvm_test_top.env.master_agent.mon [ahb_master_monitor] Beat[123] addr=0x0000550a wdata=0xa7cedf4e resp=AHB_RESP_OKAY
# UVM_INFO ../src/mst/ahb_master_driver.sv(332) @ 2865000: uvm_test_top.env.master_agent.drv [ahb_master_driver] Beat[124/256] addr=0x0000550b trans=AHB_TRANS_SEQ resp=AHB_RESP_OKAY wdata=0x5e7abc88
# UVM_INFO ../src/slv/ahb_slave_driver.sv(184) @ 2865000: uvm_test_top.env.slave_agent.drv [ahb_slave_driver] Beat AHB_WRITE addr=0x0000550b resp=AHB_RESP_OKAY waits=0 wdata=0x5e7abc88
# UVM_INFO ../src/mst/ahb_master_monitor.sv(117) @ 2865000: uvm_test_top.env.master_agent.mon [ahb_master_monitor] Beat[124] addr=0x0000550b wdata=0x5e7abc88 resp=AHB_RESP_OKAY
# UVM_INFO ../src/mst/ahb_master_driver.sv(332) @ 2885000: uvm_test_top.env.master_agent.drv [ahb_master_driver] Beat[125/256] addr=0x0000550c trans=AHB_TRANS_SEQ resp=AHB_RESP_OKAY wdata=0x5de865e3
# UVM_INFO ../src/slv/ahb_slave_driver.sv(184) @ 2885000: uvm_test_top.env.slave_agent.drv [ahb_slave_driver] Beat AHB_WRITE addr=0x0000550c resp=AHB_RESP_OKAY waits=1 wdata=0x5de865e3
# UVM_INFO ../src/mst/ahb_master_monitor.sv(117) @ 2885000: uvm_test_top.env.master_agent.mon [ahb_master_monitor] Beat[125] addr=0x0000550c wdata=0x5de865e3 resp=AHB_RESP_OKAY
# UVM_INFO ../src/mst/ahb_master_driver.sv(332) @ 2905000: uvm_test_top.env.master_agent.drv [ahb_master_driver] Beat[126/256] addr=0x0000550d trans=AHB_TRANS_SEQ resp=AHB_RESP_OKAY wdata=0x86274d99
# UVM_INFO ../src/slv/ahb_slave_driver.sv(184) @ 2905000: uvm_test_top.env.slave_agent.drv [ahb_slave_driver] Beat AHB_WRITE addr=0x0000550d resp=AHB_RESP_OKAY waits=1 wdata=0x86274d99
# UVM_INFO ../src/mst/ahb_master_monitor.sv(117) @ 2905000: uvm_test_top.env.master_agent.mon [ahb_master_monitor] Beat[126] addr=0x0000550d wdata=0x86274d99 resp=AHB_RESP_OKAY
# UVM_INFO ../src/mst/ahb_master_driver.sv(332) @ 2925000: uvm_test_top.env.master_agent.drv [ahb_master_driver] Beat[127/256] addr=0x0000550e trans=AHB_TRANS_SEQ resp=AHB_RESP_OKAY wdata=0x0606774b
# UVM_INFO ../src/slv/ahb_slave_driver.sv(184) @ 2925000: uvm_test_top.env.slave_agent.drv [ahb_slave_driver] Beat AHB_WRITE addr=0x0000550e resp=AHB_RESP_OKAY waits=1 wdata=0x0606774b
# UVM_INFO ../src/mst/ahb_master_monitor.sv(117) @ 2925000: uvm_test_top.env.master_agent.mon [ahb_master_monitor] Beat[127] addr=0x0000550e wdata=0x0606774b resp=AHB_RESP_OKAY
# UVM_INFO ../src/mst/ahb_master_driver.sv(332) @ 2955000: uvm_test_top.env.master_agent.drv [ahb_master_driver] Beat[128/256] addr=0x0000550f trans=AHB_TRANS_SEQ resp=AHB_RESP_OKAY wdata=0xd8eb06e1
# UVM_INFO ../src/slv/ahb_slave_driver.sv(184) @ 2955000: uvm_test_top.env.slave_agent.drv [ahb_slave_driver] Beat AHB_WRITE addr=0x0000550f resp=AHB_RESP_OKAY waits=0 wdata=0xd8eb06e1
# UVM_INFO ../src/mst/ahb_master_monitor.sv(117) @ 2955000: uvm_test_top.env.master_agent.mon [ahb_master_monitor] Beat[128] addr=0x0000550f wdata=0xd8eb06e1 resp=AHB_RESP_OKAY
# UVM_INFO ../src/mst/ahb_master_driver.sv(332) @ 2965000: uvm_test_top.env.master_agent.drv [ahb_master_driver] Beat[129/256] addr=0x00005510 trans=AHB_TRANS_SEQ resp=AHB_RESP_OKAY wdata=0x62e92926
# UVM_INFO ../src/slv/ahb_slave_driver.sv(184) @ 2965000: uvm_test_top.env.slave_agent.drv [ahb_slave_driver] Beat AHB_WRITE addr=0x00005510 resp=AHB_RESP_OKAY waits=0 wdata=0x62e92926
# UVM_INFO ../src/mst/ahb_master_monitor.sv(117) @ 2965000: uvm_test_top.env.master_agent.mon [ahb_master_monitor] Beat[129] addr=0x00005510 wdata=0x62e92926 resp=AHB_RESP_OKAY
# UVM_INFO ../src/mst/ahb_master_driver.sv(332) @ 2985000: uvm_test_top.env.master_agent.drv [ahb_master_driver] Beat[130/256] addr=0x00005511 trans=AHB_TRANS_SEQ resp=AHB_RESP_OKAY wdata=0xecef8436
# UVM_INFO ../src/slv/ahb_slave_driver.sv(184) @ 2985000: uvm_test_top.env.slave_agent.drv [ahb_slave_driver] Beat AHB_WRITE addr=0x00005511 resp=AHB_RESP_OKAY waits=1 wdata=0xecef8436
# UVM_INFO ../src/mst/ahb_master_monitor.sv(117) @ 2985000: uvm_test_top.env.master_agent.mon [ahb_master_monitor] Beat[130] addr=0x00005511 wdata=0xecef8436 resp=AHB_RESP_OKAY
# UVM_INFO ../src/mst/ahb_master_driver.sv(332) @ 2995000: uvm_test_top.env.master_agent.drv [ahb_master_driver] Beat[131/256] addr=0x00005512 trans=AHB_TRANS_SEQ resp=AHB_RESP_OKAY wdata=0x15190d7c
# UVM_INFO ../src/slv/ahb_slave_driver.sv(184) @ 2995000: uvm_test_top.env.slave_agent.drv [ahb_slave_driver] Beat AHB_WRITE addr=0x00005512 resp=AHB_RESP_OKAY waits=0 wdata=0x15190d7c
# UVM_INFO ../src/mst/ahb_master_monitor.sv(117) @ 2995000: uvm_test_top.env.master_agent.mon [ahb_master_monitor] Beat[131] addr=0x00005512 wdata=0x15190d7c resp=AHB_RESP_OKAY
# UVM_INFO ../src/mst/ahb_master_driver.sv(332) @ 3015000: uvm_test_top.env.master_agent.drv [ahb_master_driver] Beat[132/256] addr=0x00005513 trans=AHB_TRANS_SEQ resp=AHB_RESP_OKAY wdata=0x67747d0c
# UVM_INFO ../src/slv/ahb_slave_driver.sv(184) @ 3015000: uvm_test_top.env.slave_agent.drv [ahb_slave_driver] Beat AHB_WRITE addr=0x00005513 resp=AHB_RESP_OKAY waits=1 wdata=0x67747d0c
# UVM_INFO ../src/mst/ahb_master_monitor.sv(117) @ 3015000: uvm_test_top.env.master_agent.mon [ahb_master_monitor] Beat[132] addr=0x00005513 wdata=0x67747d0c resp=AHB_RESP_OKAY
# UVM_INFO ../src/mst/ahb_master_driver.sv(332) @ 3045000: uvm_test_top.env.master_agent.drv [ahb_master_driver] Beat[133/256] addr=0x00005514 trans=AHB_TRANS_SEQ resp=AHB_RESP_OKAY wdata=0x971299fd
# UVM_INFO ../src/slv/ahb_slave_driver.sv(184) @ 3045000: uvm_test_top.env.slave_agent.drv [ahb_slave_driver] Beat AHB_WRITE addr=0x00005514 resp=AHB_RESP_OKAY waits=2 wdata=0x971299fd
# UVM_INFO ../src/mst/ahb_master_monitor.sv(117) @ 3045000: uvm_test_top.env.master_agent.mon [ahb_master_monitor] Beat[133] addr=0x00005514 wdata=0x971299fd resp=AHB_RESP_OKAY
# UVM_INFO ../src/mst/ahb_master_driver.sv(332) @ 3075000: uvm_test_top.env.master_agent.drv [ahb_master_driver] Beat[134/256] addr=0x00005515 trans=AHB_TRANS_SEQ resp=AHB_RESP_OKAY wdata=0x45e5c498
# UVM_INFO ../src/slv/ahb_slave_driver.sv(184) @ 3075000: uvm_test_top.env.slave_agent.drv [ahb_slave_driver] Beat AHB_WRITE addr=0x00005515 resp=AHB_RESP_OKAY waits=2 wdata=0x45e5c498
# UVM_INFO ../src/mst/ahb_master_monitor.sv(117) @ 3075000: uvm_test_top.env.master_agent.mon [ahb_master_monitor] Beat[134] addr=0x00005515 wdata=0x45e5c498 resp=AHB_RESP_OKAY
# UVM_INFO ../src/mst/ahb_master_driver.sv(332) @ 3095000: uvm_test_top.env.master_agent.drv [ahb_master_driver] Beat[135/256] addr=0x00005516 trans=AHB_TRANS_SEQ resp=AHB_RESP_OKAY wdata=0x63403ff6
# UVM_INFO ../src/slv/ahb_slave_driver.sv(184) @ 3095000: uvm_test_top.env.slave_agent.drv [ahb_slave_driver] Beat AHB_WRITE addr=0x00005516 resp=AHB_RESP_OKAY waits=1 wdata=0x63403ff6
# UVM_INFO ../src/mst/ahb_master_monitor.sv(117) @ 3095000: uvm_test_top.env.master_agent.mon [ahb_master_monitor] Beat[135] addr=0x00005516 wdata=0x63403ff6 resp=AHB_RESP_OKAY
# UVM_INFO ../src/mst/ahb_master_driver.sv(332) @ 3125000: uvm_test_top.env.master_agent.drv [ahb_master_driver] Beat[136/256] addr=0x00005517 trans=AHB_TRANS_SEQ resp=AHB_RESP_OKAY wdata=0xf4ad3b57
# UVM_INFO ../src/slv/ahb_slave_driver.sv(184) @ 3125000: uvm_test_top.env.slave_agent.drv [ahb_slave_driver] Beat AHB_WRITE addr=0x00005517 resp=AHB_RESP_OKAY waits=0 wdata=0xf4ad3b57
# UVM_INFO ../src/mst/ahb_master_monitor.sv(117) @ 3125000: uvm_test_top.env.master_agent.mon [ahb_master_monitor] Beat[136] addr=0x00005517 wdata=0xf4ad3b57 resp=AHB_RESP_OKAY
# UVM_INFO ../src/mst/ahb_master_driver.sv(332) @ 3135000: uvm_test_top.env.master_agent.drv [ahb_master_driver] Beat[137/256] addr=0x00005518 trans=AHB_TRANS_SEQ resp=AHB_RESP_OKAY wdata=0x94900610
# UVM_INFO ../src/slv/ahb_slave_driver.sv(184) @ 3135000: uvm_test_top.env.slave_agent.drv [ahb_slave_driver] Beat AHB_WRITE addr=0x00005518 resp=AHB_RESP_OKAY waits=0 wdata=0x94900610
# UVM_INFO ../src/mst/ahb_master_monitor.sv(117) @ 3135000: uvm_test_top.env.master_agent.mon [ahb_master_monitor] Beat[137] addr=0x00005518 wdata=0x94900610 resp=AHB_RESP_OKAY
# UVM_INFO ../src/mst/ahb_master_driver.sv(332) @ 3155000: uvm_test_top.env.master_agent.drv [ahb_master_driver] Beat[138/256] addr=0x00005519 trans=AHB_TRANS_SEQ resp=AHB_RESP_OKAY wdata=0x7d260b00
# UVM_INFO ../src/slv/ahb_slave_driver.sv(184) @ 3155000: uvm_test_top.env.slave_agent.drv [ahb_slave_driver] Beat AHB_WRITE addr=0x00005519 resp=AHB_RESP_OKAY waits=1 wdata=0x7d260b00
# UVM_INFO ../src/mst/ahb_master_monitor.sv(117) @ 3155000: uvm_test_top.env.master_agent.mon [ahb_master_monitor] Beat[138] addr=0x00005519 wdata=0x7d260b00 resp=AHB_RESP_OKAY
# UVM_INFO ../src/mst/ahb_master_driver.sv(332) @ 3165000: uvm_test_top.env.master_agent.drv [ahb_master_driver] Beat[139/256] addr=0x0000551a trans=AHB_TRANS_SEQ resp=AHB_RESP_OKAY wdata=0x93a08d6b
# UVM_INFO ../src/slv/ahb_slave_driver.sv(184) @ 3165000: uvm_test_top.env.slave_agent.drv [ahb_slave_driver] Beat AHB_WRITE addr=0x0000551a resp=AHB_RESP_OKAY waits=0 wdata=0x93a08d6b
# UVM_INFO ../src/mst/ahb_master_monitor.sv(117) @ 3165000: uvm_test_top.env.master_agent.mon [ahb_master_monitor] Beat[139] addr=0x0000551a wdata=0x93a08d6b resp=AHB_RESP_OKAY
# UVM_INFO ../src/mst/ahb_master_driver.sv(332) @ 3195000: uvm_test_top.env.master_agent.drv [ahb_master_driver] Beat[140/256] addr=0x0000551b trans=AHB_TRANS_SEQ resp=AHB_RESP_OKAY wdata=0x0b13049e
# UVM_INFO ../src/slv/ahb_slave_driver.sv(184) @ 3195000: uvm_test_top.env.slave_agent.drv [ahb_slave_driver] Beat AHB_WRITE addr=0x0000551b resp=AHB_RESP_OKAY waits=2 wdata=0x0b13049e
# UVM_INFO ../src/mst/ahb_master_monitor.sv(117) @ 3195000: uvm_test_top.env.master_agent.mon [ahb_master_monitor] Beat[140] addr=0x0000551b wdata=0x0b13049e resp=AHB_RESP_OKAY
# UVM_INFO ../src/mst/ahb_master_driver.sv(332) @ 3215000: uvm_test_top.env.master_agent.drv [ahb_master_driver] Beat[141/256] addr=0x0000551c trans=AHB_TRANS_SEQ resp=AHB_RESP_OKAY wdata=0x5b45a707
# UVM_INFO ../src/slv/ahb_slave_driver.sv(184) @ 3215000: uvm_test_top.env.slave_agent.drv [ahb_slave_driver] Beat AHB_WRITE addr=0x0000551c resp=AHB_RESP_OKAY waits=1 wdata=0x5b45a707
# UVM_INFO ../src/mst/ahb_master_monitor.sv(117) @ 3215000: uvm_test_top.env.master_agent.mon [ahb_master_monitor] Beat[141] addr=0x0000551c wdata=0x5b45a707 resp=AHB_RESP_OKAY
# UVM_INFO ../src/mst/ahb_master_driver.sv(332) @ 3225000: uvm_test_top.env.master_agent.drv [ahb_master_driver] Beat[142/256] addr=0x0000551d trans=AHB_TRANS_SEQ resp=AHB_RESP_OKAY wdata=0xcb072c9d
# UVM_INFO ../src/slv/ahb_slave_driver.sv(184) @ 3225000: uvm_test_top.env.slave_agent.drv [ahb_slave_driver] Beat AHB_WRITE addr=0x0000551d resp=AHB_RESP_OKAY waits=0 wdata=0xcb072c9d
# UVM_INFO ../src/mst/ahb_master_monitor.sv(117) @ 3225000: uvm_test_top.env.master_agent.mon [ahb_master_monitor] Beat[142] addr=0x0000551d wdata=0xcb072c9d resp=AHB_RESP_OKAY
# UVM_INFO ../src/mst/ahb_master_driver.sv(332) @ 3235000: uvm_test_top.env.master_agent.drv [ahb_master_driver] Beat[143/256] addr=0x0000551e trans=AHB_TRANS_SEQ resp=AHB_RESP_OKAY wdata=0x81f9b4d0
# UVM_INFO ../src/slv/ahb_slave_driver.sv(184) @ 3235000: uvm_test_top.env.slave_agent.drv [ahb_slave_driver] Beat AHB_WRITE addr=0x0000551e resp=AHB_RESP_OKAY waits=0 wdata=0x81f9b4d0
# UVM_INFO ../src/mst/ahb_master_monitor.sv(117) @ 3235000: uvm_test_top.env.master_agent.mon [ahb_master_monitor] Beat[143] addr=0x0000551e wdata=0x81f9b4d0 resp=AHB_RESP_OKAY
# UVM_INFO ../src/mst/ahb_master_driver.sv(332) @ 3255000: uvm_test_top.env.master_agent.drv [ahb_master_driver] Beat[144/256] addr=0x0000551f trans=AHB_TRANS_SEQ resp=AHB_RESP_OKAY wdata=0x4ef5fea4
# UVM_INFO ../src/slv/ahb_slave_driver.sv(184) @ 3255000: uvm_test_top.env.slave_agent.drv [ahb_slave_driver] Beat AHB_WRITE addr=0x0000551f resp=AHB_RESP_OKAY waits=0 wdata=0x4ef5fea4
# UVM_INFO ../src/mst/ahb_master_monitor.sv(117) @ 3255000: uvm_test_top.env.master_agent.mon [ahb_master_monitor] Beat[144] addr=0x0000551f wdata=0x4ef5fea4 resp=AHB_RESP_OKAY
# UVM_INFO ../src/mst/ahb_master_driver.sv(332) @ 3275000: uvm_test_top.env.master_agent.drv [ahb_master_driver] Beat[145/256] addr=0x00005520 trans=AHB_TRANS_SEQ resp=AHB_RESP_OKAY wdata=0xc14bfe99
# UVM_INFO ../src/slv/ahb_slave_driver.sv(184) @ 3275000: uvm_test_top.env.slave_agent.drv [ahb_slave_driver] Beat AHB_WRITE addr=0x00005520 resp=AHB_RESP_OKAY waits=1 wdata=0xc14bfe99
# UVM_INFO ../src/mst/ahb_master_monitor.sv(117) @ 3275000: uvm_test_top.env.master_agent.mon [ahb_master_monitor] Beat[145] addr=0x00005520 wdata=0xc14bfe99 resp=AHB_RESP_OKAY
# UVM_INFO ../src/mst/ahb_master_driver.sv(332) @ 3305000: uvm_test_top.env.master_agent.drv [ahb_master_driver] Beat[146/256] addr=0x00005521 trans=AHB_TRANS_SEQ resp=AHB_RESP_OKAY wdata=0x47251ea0
# UVM_INFO ../src/slv/ahb_slave_driver.sv(184) @ 3305000: uvm_test_top.env.slave_agent.drv [ahb_slave_driver] Beat AHB_WRITE addr=0x00005521 resp=AHB_RESP_OKAY waits=2 wdata=0x47251ea0
# UVM_INFO ../src/mst/ahb_master_monitor.sv(117) @ 3305000: uvm_test_top.env.master_agent.mon [ahb_master_monitor] Beat[146] addr=0x00005521 wdata=0x47251ea0 resp=AHB_RESP_OKAY
# UVM_INFO ../src/mst/ahb_master_driver.sv(332) @ 3325000: uvm_test_top.env.master_agent.drv [ahb_master_driver] Beat[147/256] addr=0x00005522 trans=AHB_TRANS_SEQ resp=AHB_RESP_OKAY wdata=0xada1fb50
# UVM_INFO ../src/slv/ahb_slave_driver.sv(184) @ 3325000: uvm_test_top.env.slave_agent.drv [ahb_slave_driver] Beat AHB_WRITE addr=0x00005522 resp=AHB_RESP_OKAY waits=1 wdata=0xada1fb50
# UVM_INFO ../src/mst/ahb_master_monitor.sv(117) @ 3325000: uvm_test_top.env.master_agent.mon [ahb_master_monitor] Beat[147] addr=0x00005522 wdata=0xada1fb50 resp=AHB_RESP_OKAY
# UVM_INFO ../src/mst/ahb_master_driver.sv(332) @ 3345000: uvm_test_top.env.master_agent.drv [ahb_master_driver] Beat[148/256] addr=0x00005523 trans=AHB_TRANS_SEQ resp=AHB_RESP_OKAY wdata=0x331fba3d
# UVM_INFO ../src/slv/ahb_slave_driver.sv(184) @ 3345000: uvm_test_top.env.slave_agent.drv [ahb_slave_driver] Beat AHB_WRITE addr=0x00005523 resp=AHB_RESP_OKAY waits=1 wdata=0x331fba3d
# UVM_INFO ../src/mst/ahb_master_monitor.sv(117) @ 3345000: uvm_test_top.env.master_agent.mon [ahb_master_monitor] Beat[148] addr=0x00005523 wdata=0x331fba3d resp=AHB_RESP_OKAY
# UVM_INFO ../src/mst/ahb_master_driver.sv(332) @ 3355000: uvm_test_top.env.master_agent.drv [ahb_master_driver] Beat[149/256] addr=0x00005524 trans=AHB_TRANS_SEQ resp=AHB_RESP_OKAY wdata=0x1ce1ef7a
# UVM_INFO ../src/slv/ahb_slave_driver.sv(184) @ 3355000: uvm_test_top.env.slave_agent.drv [ahb_slave_driver] Beat AHB_WRITE addr=0x00005524 resp=AHB_RESP_OKAY waits=0 wdata=0x1ce1ef7a
# UVM_INFO ../src/mst/ahb_master_monitor.sv(117) @ 3355000: uvm_test_top.env.master_agent.mon [ahb_master_monitor] Beat[149] addr=0x00005524 wdata=0x1ce1ef7a resp=AHB_RESP_OKAY
# UVM_INFO ../src/mst/ahb_master_driver.sv(332) @ 3385000: uvm_test_top.env.master_agent.drv [ahb_master_driver] Beat[150/256] addr=0x00005525 trans=AHB_TRANS_SEQ resp=AHB_RESP_OKAY wdata=0xb4be1ae4
# UVM_INFO ../src/slv/ahb_slave_driver.sv(184) @ 3385000: uvm_test_top.env.slave_agent.drv [ahb_slave_driver] Beat AHB_WRITE addr=0x00005525 resp=AHB_RESP_OKAY waits=2 wdata=0xb4be1ae4
# UVM_INFO ../src/mst/ahb_master_monitor.sv(117) @ 3385000: uvm_test_top.env.master_agent.mon [ahb_master_monitor] Beat[150] addr=0x00005525 wdata=0xb4be1ae4 resp=AHB_RESP_OKAY
# UVM_INFO ../src/mst/ahb_master_driver.sv(332) @ 3415000: uvm_test_top.env.master_agent.drv [ahb_master_driver] Beat[151/256] addr=0x00005526 trans=AHB_TRANS_SEQ resp=AHB_RESP_OKAY wdata=0x33101653
# UVM_INFO ../src/slv/ahb_slave_driver.sv(184) @ 3415000: uvm_test_top.env.slave_agent.drv [ahb_slave_driver] Beat AHB_WRITE addr=0x00005526 resp=AHB_RESP_OKAY waits=2 wdata=0x33101653
# UVM_INFO ../src/mst/ahb_master_monitor.sv(117) @ 3415000: uvm_test_top.env.master_agent.mon [ahb_master_monitor] Beat[151] addr=0x00005526 wdata=0x33101653 resp=AHB_RESP_OKAY
# UVM_INFO ../src/mst/ahb_master_driver.sv(332) @ 3455000: uvm_test_top.env.master_agent.drv [ahb_master_driver] Beat[152/256] addr=0x00005527 trans=AHB_TRANS_SEQ resp=AHB_RESP_OKAY wdata=0xae9f2fde
# UVM_INFO ../src/slv/ahb_slave_driver.sv(184) @ 3455000: uvm_test_top.env.slave_agent.drv [ahb_slave_driver] Beat AHB_WRITE addr=0x00005527 resp=AHB_RESP_OKAY waits=1 wdata=0xae9f2fde
# UVM_INFO ../src/mst/ahb_master_monitor.sv(117) @ 3455000: uvm_test_top.env.master_agent.mon [ahb_master_monitor] Beat[152] addr=0x00005527 wdata=0xae9f2fde resp=AHB_RESP_OKAY
# UVM_INFO ../src/mst/ahb_master_driver.sv(332) @ 3485000: uvm_test_top.env.master_agent.drv [ahb_master_driver] Beat[153/256] addr=0x00005528 trans=AHB_TRANS_SEQ resp=AHB_RESP_OKAY wdata=0xe329fdd1
# UVM_INFO ../src/slv/ahb_slave_driver.sv(184) @ 3485000: uvm_test_top.env.slave_agent.drv [ahb_slave_driver] Beat AHB_WRITE addr=0x00005528 resp=AHB_RESP_OKAY waits=2 wdata=0xe329fdd1
# UVM_INFO ../src/mst/ahb_master_monitor.sv(117) @ 3485000: uvm_test_top.env.master_agent.mon [ahb_master_monitor] Beat[153] addr=0x00005528 wdata=0xe329fdd1 resp=AHB_RESP_OKAY
# UVM_INFO ../src/mst/ahb_master_driver.sv(332) @ 3515000: uvm_test_top.env.master_agent.drv [ahb_master_driver] Beat[154/256] addr=0x00005529 trans=AHB_TRANS_SEQ resp=AHB_RESP_OKAY wdata=0x3f275946
# UVM_INFO ../src/slv/ahb_slave_driver.sv(184) @ 3515000: uvm_test_top.env.slave_agent.drv [ahb_slave_driver] Beat AHB_WRITE addr=0x00005529 resp=AHB_RESP_OKAY waits=2 wdata=0x3f275946
# UVM_INFO ../src/mst/ahb_master_monitor.sv(117) @ 3515000: uvm_test_top.env.master_agent.mon [ahb_master_monitor] Beat[154] addr=0x00005529 wdata=0x3f275946 resp=AHB_RESP_OKAY
# UVM_INFO ../src/mst/ahb_master_driver.sv(332) @ 3535000: uvm_test_top.env.master_agent.drv [ahb_master_driver] Beat[155/256] addr=0x0000552a trans=AHB_TRANS_SEQ resp=AHB_RESP_OKAY wdata=0x9ef61133
# UVM_INFO ../src/slv/ahb_slave_driver.sv(184) @ 3535000: uvm_test_top.env.slave_agent.drv [ahb_slave_driver] Beat AHB_WRITE addr=0x0000552a resp=AHB_RESP_OKAY waits=1 wdata=0x9ef61133
# UVM_INFO ../src/mst/ahb_master_monitor.sv(117) @ 3535000: uvm_test_top.env.master_agent.mon [ahb_master_monitor] Beat[155] addr=0x0000552a wdata=0x9ef61133 resp=AHB_RESP_OKAY
