# vsim -c -coverage -sv_seed 32299973 "+UVM_TESTNAME=ahb_incr_burst_test" "+UVM_VERBOSITY=UVM_HIGH" "+DUMP_VCD" -l ./report/logs/ahb_incr_burst_test_run_1_seed_32299973.log -do "coverage save -onexit ./report/coverage/ahb_incr_burst_test_run_1_seed_32299973.ucdb; run -all; quit -f" opt_tb_top 
# Start time: 13:37:24 on Jul 30,2026
# //  Questa Sim-64
# //  Version 10.6b linux_x86_64 May 25 2017
# //
# //  Copyright 1991-2017 Mentor Graphics Corporation
# //  All Rights Reserved.
# //
# //  QuestaSim and its associated documentation contain trade
# //  secrets and commercial or financial information that are the property of
# //  Mentor Graphics Corporation and are privileged, confidential,
# //  and exempt from disclosure under the Freedom of Information Act,
# //  5 U.S.C. Section 552. Furthermore, this information
# //  is prohibited from disclosure under the Trade Secrets Act,
# //  18 U.S.C. Section 1905.
# //
# Loading sv_std.std
# Loading work.ahb_if(fast)
# Loading mtiUvm.uvm_pkg
# Loading work.ahb_pkg(fast)
# Loading work.ahb_seq_pkg(fast)
# Loading work.ahb_test_pkg(fast)
# Loading work.tb_top(fast)
# Loading work.ahb_if(fast)
# Loading work.ahb_sva(fast)
# Loading mtiUvm.questa_uvm_pkg(fast)
# Loading /cadtools/mentor/Questa_10.6b/questasim/uvm-1.1d/linux_x86_64/uvm_dpi.so
# coverage save -onexit ./report/coverage/ahb_incr_burst_test_run_1_seed_32299973.ucdb
#  run -all
# ----------------------------------------------------------------
# UVM-1.1d
# (C) 2007-2013 Mentor Graphics Corporation
# (C) 2007-2013 Cadence Design Systems, Inc.
# (C) 2006-2013 Synopsys, Inc.
# (C) 2011-2013 Cypress Semiconductor Corp.
# ----------------------------------------------------------------
# 
#   ***********       IMPORTANT RELEASE NOTES         ************
# 
#   You are using a version of the UVM library that has been compiled
#   with `UVM_NO_DEPRECATED undefined.
#   See http://www.eda.org/svdb/view.php?id=3313 for more details.
# 
#   You are using a version of the UVM library that has been compiled
#   with `UVM_OBJECT_MUST_HAVE_CONSTRUCTOR undefined.
#   See http://www.eda.org/svdb/view.php?id=3770 for more details.
# 
#       (Specify +UVM_NO_RELNOTES to turn off this notice)
# 
# UVM_INFO verilog_src/questa_uvm_pkg-1.2/src/questa_uvm_pkg.sv(215) @ 0: reporter [Questa UVM] QUESTA_UVM-1.2.3
# UVM_INFO verilog_src/questa_uvm_pkg-1.2/src/questa_uvm_pkg.sv(217) @ 0: reporter [Questa UVM]  questa_uvm::init(+struct)
# UVM_INFO ../src/tb_top.sv(126) @ 0: reporter [TB_TOP] Virtual interface set in config_db
# UVM_INFO @ 0: reporter [RNTST] Running test ahb_incr_burst_test...
# UVM_INFO ../src/tb_top.sv(140) @ 0: reporter [TB_TOP] Waveform VCD dumping enabled (ahb_lite_vip.vcd)
# UVM_INFO ../src/env/ahb_vip_env.sv(64) @ 0: uvm_test_top.env [ahb_vip_env] slave_vif not set - reusing master_vif (passthrough mode)
# UVM_INFO ../src/env/ahb_vip_env.sv(72) @ 0: uvm_test_top.env [ahb_vip_env] Scoreboard created
# UVM_INFO ../src/env/ahb_vip_env.sv(78) @ 0: uvm_test_top.env [ahb_vip_env] Coverage collectors created
# UVM_INFO ../src/mst/ahb_master_agent.sv(61) @ 0: uvm_test_top.env.master_agent [ahb_master_agent] ACTIVE mode - driver + sequencer created
# UVM_INFO ../src/slv/ahb_slave_agent.sv(64) @ 0: uvm_test_top.env.slave_agent [ahb_slave_agent] ACTIVE mode - driver + sequencer created (    auto responses)
# UVM_INFO ../src/env/ahb_vip_env.sv(92) @ 0: uvm_test_top.env [ahb_vip_env] Scoreboard connected: master_mon.ap -> scb, slave_mon.ap -> scb
# UVM_INFO ../src/env/ahb_vip_env.sv(99) @ 0: uvm_test_top.env [ahb_vip_env] Coverage connected: master_mon.ap -> master_cov, slave_mon.ap -> slave_cov
# UVM_INFO @ 0: reporter [UVMTOP] UVM testbench topology:
# ---------------------------------------------------------------
# Name                       Type                     Size  Value
# ---------------------------------------------------------------
# uvm_test_top               ahb_incr_burst_test      -     @475 
#   env                      ahb_vip_env              -     @490 
#     master_agent           ahb_master_agent         -     @505 
#       drv                  ahb_master_driver        -     @570 
#         rsp_port           uvm_analysis_port        -     @585 
#         seq_item_port      uvm_seq_item_pull_port   -     @577 
#       mon                  ahb_master_monitor       -     @563 
#         ap                 uvm_analysis_port        -     @704 
#       sqr                  ahb_master_sequencer     -     @593 
#         rsp_export         uvm_analysis_export      -     @600 
#         seq_item_export    uvm_seq_item_pull_imp    -     @694 
#         arbitration_queue  array                    0     -    
#         lock_queue         array                    0     -    
#         num_last_reqs      integral                 32    'd1  
#         num_last_rsps      integral                 32    'd1  
#     master_cov             ahb_coverage             -     @526 
#       analysis_imp         uvm_analysis_imp         -     @533 
#     scb                    ahb_scoreboard           -     @519 
#       master_export        uvm_analysis_imp_master  -     @718 
#       slave_export         uvm_analysis_imp_slave   -     @726 
#     slave_agent            ahb_slave_agent          -     @512 
#       drv                  ahb_slave_driver         -     @748 
#         rsp_port           uvm_analysis_port        -     @763 
#         seq_item_port      uvm_seq_item_pull_port   -     @755 
#       mon                  ahb_slave_monitor        -     @741 
#         ap                 uvm_analysis_port        -     @882 
#       sqr                  ahb_slave_sequencer      -     @771 
#         rsp_export         uvm_analysis_export      -     @778 
#         seq_item_export    uvm_seq_item_pull_imp    -     @872 
#         arbitration_queue  array                    0     -    
#         lock_queue         array                    0     -    
#         num_last_reqs      integral                 32    'd1  
#         num_last_rsps      integral                 32    'd1  
#     slave_cov              ahb_coverage             -     @541 
#       analysis_imp         uvm_analysis_imp         -     @548 
# ---------------------------------------------------------------
# 
# UVM_INFO verilog_src/questa_uvm_pkg-1.2/src/questa_uvm_pkg.sv(277) @ 0: reporter [Questa UVM] End Of Elaboration
# UVM_INFO ../src/mst_seq/ahb_incr_burst_seq.sv(50) @ 0: uvm_test_top.env.master_agent.sqr@@seq [ahb_incr_burst_seq] Starting INCR bursts: 16 iterations from 0x00003000
# UVM_INFO ../src/mst/ahb_master_driver.sv(181) @ 5000: uvm_test_top.env.master_agent.drv [ahb_master_driver] Flushed pending transactions (reset)
# UVM_INFO ../src/tb_top.sv(48) @ 95000: reporter [TB_TOP] Reset de-asserted
# UVM_INFO ../src/slv/ahb_slave_driver.sv(59) @ 95000: uvm_test_top.env.slave_agent.drv [ahb_slave_driver] Reset deasserted - slave driver active (    auto mode)
# UVM_INFO ../src/mst/ahb_master_driver.sv(68) @ 95000: uvm_test_top.env.master_agent.drv [ahb_master_driver] Reset deasserted - master driver active
# UVM_INFO ../src/mst/ahb_master_monitor.sv(75) @ 95000: uvm_test_top.env.master_agent.mon [ahb_master_monitor] Reset deasserted - master monitor active
# UVM_INFO ../src/slv/ahb_slave_monitor.sv(69) @ 95000: uvm_test_top.env.slave_agent.mon [ahb_slave_monitor] Reset deasserted - slave monitor active
# UVM_INFO ../src/mst/ahb_master_driver.sv(82) @ 95000: uvm_test_top.env.master_agent.drv [ahb_master_driver] Queueing [AHB_WRITE]: HADDR=0x00003026, HBURST=AHB_BURST_INCR4, HSIZE=AHB_SIZE_16B, 4 beats
# UVM_INFO ../src/mst/ahb_master_driver.sv(124) @ 95000: uvm_test_top.env.master_agent.drv [ahb_master_driver] Driving [AHB_WRITE]: HADDR=0x00003026, HBURST=AHB_BURST_INCR4, HSIZE=AHB_SIZE_16B, 4 beats               
# UVM_INFO ../src/mst/ahb_master_driver.sv(283) @ 115000: uvm_test_top.env.master_agent.drv [ahb_master_driver] Beat[0/4] addr=0x00003026 trans=AHB_TRANS_NONSEQ resp=AHB_RESP_OKAY wdata=0x1ba0340f
# UVM_INFO ../src/slv/ahb_slave_driver.sv(174) @ 115000: uvm_test_top.env.slave_agent.drv [ahb_slave_driver] Beat AHB_WRITE addr=0x00003026 resp=AHB_RESP_OKAY waits=0 wdata=0x1ba0340f
# UVM_INFO ../src/mst/ahb_master_monitor.sv(117) @ 115000: uvm_test_top.env.master_agent.mon [ahb_master_monitor] Beat[0] addr=0x00003026 wdata=0x1ba0340f resp=AHB_RESP_OKAY
# UVM_INFO ../src/mst/ahb_master_driver.sv(283) @ 125000: uvm_test_top.env.master_agent.drv [ahb_master_driver] Beat[1/4] addr=0x00003028 trans=AHB_TRANS_SEQ resp=AHB_RESP_OKAY wdata=0x86c8d082
# UVM_INFO ../src/slv/ahb_slave_driver.sv(174) @ 125000: uvm_test_top.env.slave_agent.drv [ahb_slave_driver] Beat AHB_WRITE addr=0x00003028 resp=AHB_RESP_OKAY waits=0 wdata=0x86c8d082
# UVM_INFO ../src/mst/ahb_master_monitor.sv(117) @ 125000: uvm_test_top.env.master_agent.mon [ahb_master_monitor] Beat[1] addr=0x00003028 wdata=0x86c8d082 resp=AHB_RESP_OKAY
# UVM_INFO ../src/mst/ahb_master_driver.sv(283) @ 155000: uvm_test_top.env.master_agent.drv [ahb_master_driver] Beat[2/4] addr=0x0000302a trans=AHB_TRANS_SEQ resp=AHB_RESP_OKAY wdata=0x491fd133
# UVM_INFO ../src/slv/ahb_slave_driver.sv(174) @ 155000: uvm_test_top.env.slave_agent.drv [ahb_slave_driver] Beat AHB_WRITE addr=0x0000302a resp=AHB_RESP_OKAY waits=2 wdata=0x491fd133
# UVM_INFO ../src/mst/ahb_master_monitor.sv(117) @ 155000: uvm_test_top.env.master_agent.mon [ahb_master_monitor] Beat[2] addr=0x0000302a wdata=0x491fd133 resp=AHB_RESP_OKAY
# UVM_INFO ../src/mst/ahb_master_driver.sv(283) @ 185000: uvm_test_top.env.master_agent.drv [ahb_master_driver] Beat[3/4] addr=0x0000302c trans=AHB_TRANS_SEQ resp=AHB_RESP_OKAY wdata=0x7757250c
# UVM_INFO ../src/mst/ahb_master_driver.sv(327) @ 185000: uvm_test_top.env.master_agent.drv [ahb_master_driver] Transaction complete: AHB_WRITE 0x00003026, 4 beats, burst=AHB_BURST_INCR4
# UVM_INFO ../src/slv/ahb_slave_driver.sv(174) @ 185000: uvm_test_top.env.slave_agent.drv [ahb_slave_driver] Beat AHB_WRITE addr=0x0000302c resp=AHB_RESP_OKAY waits=2 wdata=0x7757250c
# UVM_INFO ../src/mst/ahb_master_monitor.sv(117) @ 185000: uvm_test_top.env.master_agent.mon [ahb_master_monitor] Beat[3] addr=0x0000302c wdata=0x7757250c resp=AHB_RESP_OKAY
# UVM_INFO ../src/mst/ahb_master_monitor.sv(222) @ 185000: uvm_test_top.env.master_agent.mon [ahb_master_monitor] Observed [AHB_WRITE]: HADDR=0x00003026, HBURST=AHB_BURST_INCR4, HSIZE=AHB_SIZE_16B, 4 beats
# UVM_INFO ../src/env/ahb_coverage.sv(127) @ 185000: uvm_test_top.env.master_cov [ahb_coverage] Sampled [AHB_WRITE]: burst=AHB_BURST_INCR4 size=AHB_SIZE_16B beats=4 error=0
# UVM_INFO ../src/slv/ahb_slave_monitor.sv(197) @ 185000: uvm_test_top.env.slave_agent.mon [ahb_slave_monitor] Observed [AHB_WRITE]: HADDR=0x00003026, HBURST=AHB_BURST_INCR4, HSIZE=AHB_SIZE_16B, 4 beats
# UVM_INFO ../src/env/ahb_scoreboard.sv(104) @ 185000: uvm_test_top.env.scb [ahb_scoreboard] MATCH #1: [AHB_WRITE] HADDR=0x00003026 AHB_BURST_INCR4 4 beats
# UVM_INFO ../src/env/ahb_coverage.sv(127) @ 185000: uvm_test_top.env.slave_cov [ahb_coverage] Sampled [AHB_WRITE]: burst=AHB_BURST_INCR4 size=AHB_SIZE_16B beats=4 error=0
# UVM_INFO ../src/mst/ahb_master_driver.sv(82) @ 185000: uvm_test_top.env.master_agent.drv [ahb_master_driver] Queueing [AHB_READ]: HADDR=0x00003026, HBURST=AHB_BURST_INCR4, HSIZE=AHB_SIZE_16B, 4 beats
# UVM_INFO ../src/mst/ahb_master_driver.sv(124) @ 185000: uvm_test_top.env.master_agent.drv [ahb_master_driver] Driving [AHB_READ]: HADDR=0x00003026, HBURST=AHB_BURST_INCR4, HSIZE=AHB_SIZE_16B, 4 beats               
# UVM_INFO ../src/mst/ahb_master_driver.sv(283) @ 215000: uvm_test_top.env.master_agent.drv [ahb_master_driver] Beat[0/4] addr=0x00003026 trans=AHB_TRANS_NONSEQ resp=AHB_RESP_OKAY rdata=0x1ba0340f
# UVM_INFO ../src/slv/ahb_slave_driver.sv(174) @ 215000: uvm_test_top.env.slave_agent.drv [ahb_slave_driver] Beat AHB_READ addr=0x00003026 resp=AHB_RESP_OKAY waits=0 rdata=0x1ba0340f
# UVM_INFO ../src/mst/ahb_master_monitor.sv(117) @ 215000: uvm_test_top.env.master_agent.mon [ahb_master_monitor] Beat[0] addr=0x00003026 rdata=0x1ba0340f resp=AHB_RESP_OKAY
# UVM_INFO ../src/mst/ahb_master_driver.sv(283) @ 245000: uvm_test_top.env.master_agent.drv [ahb_master_driver] Beat[1/4] addr=0x00003028 trans=AHB_TRANS_SEQ resp=AHB_RESP_OKAY rdata=0x86c8d082
# UVM_INFO ../src/slv/ahb_slave_driver.sv(174) @ 245000: uvm_test_top.env.slave_agent.drv [ahb_slave_driver] Beat AHB_READ addr=0x00003028 resp=AHB_RESP_OKAY waits=2 rdata=0x86c8d082
# UVM_INFO ../src/mst/ahb_master_monitor.sv(117) @ 245000: uvm_test_top.env.master_agent.mon [ahb_master_monitor] Beat[1] addr=0x00003028 rdata=0x86c8d082 resp=AHB_RESP_OKAY
# UVM_INFO ../src/mst/ahb_master_driver.sv(283) @ 275000: uvm_test_top.env.master_agent.drv [ahb_master_driver] Beat[2/4] addr=0x0000302a trans=AHB_TRANS_SEQ resp=AHB_RESP_OKAY rdata=0x491fd133
# UVM_INFO ../src/slv/ahb_slave_driver.sv(174) @ 275000: uvm_test_top.env.slave_agent.drv [ahb_slave_driver] Beat AHB_READ addr=0x0000302a resp=AHB_RESP_OKAY waits=2 rdata=0x491fd133
# UVM_INFO ../src/mst/ahb_master_monitor.sv(117) @ 275000: uvm_test_top.env.master_agent.mon [ahb_master_monitor] Beat[2] addr=0x0000302a rdata=0x491fd133 resp=AHB_RESP_OKAY
# UVM_INFO ../src/mst/ahb_master_driver.sv(283) @ 305000: uvm_test_top.env.master_agent.drv [ahb_master_driver] Beat[3/4] addr=0x0000302c trans=AHB_TRANS_SEQ resp=AHB_RESP_OKAY rdata=0x7757250c
# UVM_INFO ../src/mst/ahb_master_driver.sv(327) @ 305000: uvm_test_top.env.master_agent.drv [ahb_master_driver] Transaction complete: AHB_READ 0x00003026, 4 beats, burst=AHB_BURST_INCR4
# UVM_INFO ../src/slv/ahb_slave_driver.sv(174) @ 305000: uvm_test_top.env.slave_agent.drv [ahb_slave_driver] Beat AHB_READ addr=0x0000302c resp=AHB_RESP_OKAY waits=2 rdata=0x7757250c
# UVM_INFO ../src/mst/ahb_master_monitor.sv(117) @ 305000: uvm_test_top.env.master_agent.mon [ahb_master_monitor] Beat[3] addr=0x0000302c rdata=0x7757250c resp=AHB_RESP_OKAY
# UVM_INFO ../src/mst/ahb_master_monitor.sv(222) @ 305000: uvm_test_top.env.master_agent.mon [ahb_master_monitor] Observed [AHB_READ]: HADDR=0x00003026, HBURST=AHB_BURST_INCR4, HSIZE=AHB_SIZE_16B, 4 beats
# UVM_INFO ../src/env/ahb_coverage.sv(127) @ 305000: uvm_test_top.env.master_cov [ahb_coverage] Sampled [AHB_READ]: burst=AHB_BURST_INCR4 size=AHB_SIZE_16B beats=4 error=0
# UVM_INFO ../src/slv/ahb_slave_monitor.sv(197) @ 305000: uvm_test_top.env.slave_agent.mon [ahb_slave_monitor] Observed [AHB_READ]: HADDR=0x00003026, HBURST=AHB_BURST_INCR4, HSIZE=AHB_SIZE_16B, 4 beats
# UVM_INFO ../src/env/ahb_scoreboard.sv(104) @ 305000: uvm_test_top.env.scb [ahb_scoreboard] MATCH #2: [AHB_READ] HADDR=0x00003026 AHB_BURST_INCR4 4 beats
# UVM_INFO ../src/env/ahb_coverage.sv(127) @ 305000: uvm_test_top.env.slave_cov [ahb_coverage] Sampled [AHB_READ]: burst=AHB_BURST_INCR4 size=AHB_SIZE_16B beats=4 error=0
# UVM_INFO ../src/mst_seq/ahb_base_seq.sv(138) @ 305000: uvm_test_top.env.master_agent.sqr@@seq [ahb_incr_burst_seq] AHB_BURST_INCR4 AHB_SIZE_16B beat 0 @0x00003026 ok
# UVM_INFO ../src/mst_seq/ahb_base_seq.sv(138) @ 305000: uvm_test_top.env.master_agent.sqr@@seq [ahb_incr_burst_seq] AHB_BURST_INCR4 AHB_SIZE_16B beat 1 @0x00003028 ok
# UVM_INFO ../src/mst_seq/ahb_base_seq.sv(138) @ 305000: uvm_test_top.env.master_agent.sqr@@seq [ahb_incr_burst_seq] AHB_BURST_INCR4 AHB_SIZE_16B beat 2 @0x0000302a ok
# UVM_INFO ../src/mst_seq/ahb_base_seq.sv(138) @ 305000: uvm_test_top.env.master_agent.sqr@@seq [ahb_incr_burst_seq] AHB_BURST_INCR4 AHB_SIZE_16B beat 3 @0x0000302c ok
# UVM_INFO ../src/mst/ahb_master_driver.sv(82) @ 305000: uvm_test_top.env.master_agent.drv [ahb_master_driver] Queueing [AHB_WRITE]: HADDR=0x00003060, HBURST=AHB_BURST_INCR8, HSIZE=AHB_SIZE_32B, 8 beats
# UVM_INFO ../src/mst/ahb_master_driver.sv(124) @ 305000: uvm_test_top.env.master_agent.drv [ahb_master_driver] Driving [AHB_WRITE]: HADDR=0x00003060, HBURST=AHB_BURST_INCR8, HSIZE=AHB_SIZE_32B, 8 beats               
# UVM_INFO ../src/mst/ahb_master_driver.sv(283) @ 335000: uvm_test_top.env.master_agent.drv [ahb_master_driver] Beat[0/8] addr=0x00003060 trans=AHB_TRANS_NONSEQ resp=AHB_RESP_OKAY wdata=0x950e830a
# UVM_INFO ../src/slv/ahb_slave_driver.sv(174) @ 335000: uvm_test_top.env.slave_agent.drv [ahb_slave_driver] Beat AHB_WRITE addr=0x00003060 resp=AHB_RESP_OKAY waits=0 wdata=0x950e830a
# UVM_INFO ../src/mst/ahb_master_monitor.sv(117) @ 335000: uvm_test_top.env.master_agent.mon [ahb_master_monitor] Beat[0] addr=0x00003060 wdata=0x950e830a resp=AHB_RESP_OKAY
# UVM_INFO ../src/mst/ahb_master_driver.sv(283) @ 355000: uvm_test_top.env.master_agent.drv [ahb_master_driver] Beat[1/8] addr=0x00003064 trans=AHB_TRANS_SEQ resp=AHB_RESP_OKAY wdata=0x934630e7
# UVM_INFO ../src/slv/ahb_slave_driver.sv(174) @ 355000: uvm_test_top.env.slave_agent.drv [ahb_slave_driver] Beat AHB_WRITE addr=0x00003064 resp=AHB_RESP_OKAY waits=1 wdata=0x934630e7
# UVM_INFO ../src/mst/ahb_master_monitor.sv(117) @ 355000: uvm_test_top.env.master_agent.mon [ahb_master_monitor] Beat[1] addr=0x00003064 wdata=0x934630e7 resp=AHB_RESP_OKAY
# UVM_INFO ../src/mst/ahb_master_driver.sv(283) @ 365000: uvm_test_top.env.master_agent.drv [ahb_master_driver] Beat[2/8] addr=0x00003068 trans=AHB_TRANS_SEQ resp=AHB_RESP_OKAY wdata=0x53c7a79f
# UVM_INFO ../src/slv/ahb_slave_driver.sv(174) @ 365000: uvm_test_top.env.slave_agent.drv [ahb_slave_driver] Beat AHB_WRITE addr=0x00003068 resp=AHB_RESP_OKAY waits=0 wdata=0x53c7a79f
# UVM_INFO ../src/mst/ahb_master_monitor.sv(117) @ 365000: uvm_test_top.env.master_agent.mon [ahb_master_monitor] Beat[2] addr=0x00003068 wdata=0x53c7a79f resp=AHB_RESP_OKAY
# UVM_INFO ../src/mst/ahb_master_driver.sv(283) @ 375000: uvm_test_top.env.master_agent.drv [ahb_master_driver] Beat[3/8] addr=0x0000306c trans=AHB_TRANS_SEQ resp=AHB_RESP_OKAY wdata=0x84fcddb7
# UVM_INFO ../src/slv/ahb_slave_driver.sv(174) @ 375000: uvm_test_top.env.slave_agent.drv [ahb_slave_driver] Beat AHB_WRITE addr=0x0000306c resp=AHB_RESP_OKAY waits=0 wdata=0x84fcddb7
# UVM_INFO ../src/mst/ahb_master_monitor.sv(117) @ 375000: uvm_test_top.env.master_agent.mon [ahb_master_monitor] Beat[3] addr=0x0000306c wdata=0x84fcddb7 resp=AHB_RESP_OKAY
# UVM_INFO ../src/mst/ahb_master_driver.sv(283) @ 405000: uvm_test_top.env.master_agent.drv [ahb_master_driver] Beat[4/8] addr=0x00003070 trans=AHB_TRANS_SEQ resp=AHB_RESP_OKAY wdata=0x7b03a06a
# UVM_INFO ../src/slv/ahb_slave_driver.sv(174) @ 405000: uvm_test_top.env.slave_agent.drv [ahb_slave_driver] Beat AHB_WRITE addr=0x00003070 resp=AHB_RESP_OKAY waits=2 wdata=0x7b03a06a
# UVM_INFO ../src/mst/ahb_master_monitor.sv(117) @ 405000: uvm_test_top.env.master_agent.mon [ahb_master_monitor] Beat[4] addr=0x00003070 wdata=0x7b03a06a resp=AHB_RESP_OKAY
# UVM_INFO ../src/mst/ahb_master_driver.sv(283) @ 435000: uvm_test_top.env.master_agent.drv [ahb_master_driver] Beat[5/8] addr=0x00003074 trans=AHB_TRANS_SEQ resp=AHB_RESP_OKAY wdata=0xad69d964
# UVM_INFO ../src/slv/ahb_slave_driver.sv(174) @ 435000: uvm_test_top.env.slave_agent.drv [ahb_slave_driver] Beat AHB_WRITE addr=0x00003074 resp=AHB_RESP_OKAY waits=2 wdata=0xad69d964
# UVM_INFO ../src/mst/ahb_master_monitor.sv(117) @ 435000: uvm_test_top.env.master_agent.mon [ahb_master_monitor] Beat[5] addr=0x00003074 wdata=0xad69d964 resp=AHB_RESP_OKAY
# UVM_INFO ../src/mst/ahb_master_driver.sv(283) @ 455000: uvm_test_top.env.master_agent.drv [ahb_master_driver] Beat[6/8] addr=0x00003078 trans=AHB_TRANS_SEQ resp=AHB_RESP_OKAY wdata=0x0baf35e3
# UVM_INFO ../src/slv/ahb_slave_driver.sv(174) @ 455000: uvm_test_top.env.slave_agent.drv [ahb_slave_driver] Beat AHB_WRITE addr=0x00003078 resp=AHB_RESP_OKAY waits=1 wdata=0x0baf35e3
# UVM_INFO ../src/mst/ahb_master_monitor.sv(117) @ 455000: uvm_test_top.env.master_agent.mon [ahb_master_monitor] Beat[6] addr=0x00003078 wdata=0x0baf35e3 resp=AHB_RESP_OKAY
# UVM_INFO ../src/mst/ahb_master_driver.sv(283) @ 475000: uvm_test_top.env.master_agent.drv [ahb_master_driver] Beat[7/8] addr=0x0000307c trans=AHB_TRANS_SEQ resp=AHB_RESP_OKAY wdata=0x1790d300
# UVM_INFO ../src/mst/ahb_master_driver.sv(327) @ 475000: uvm_test_top.env.master_agent.drv [ahb_master_driver] Transaction complete: AHB_WRITE 0x00003060, 8 beats, burst=AHB_BURST_INCR8
# UVM_INFO ../src/slv/ahb_slave_driver.sv(174) @ 475000: uvm_test_top.env.slave_agent.drv [ahb_slave_driver] Beat AHB_WRITE addr=0x0000307c resp=AHB_RESP_OKAY waits=1 wdata=0x1790d300
# UVM_INFO ../src/slv/ahb_slave_monitor.sv(197) @ 475000: uvm_test_top.env.slave_agent.mon [ahb_slave_monitor] Observed [AHB_WRITE]: HADDR=0x00003060, HBURST=AHB_BURST_INCR8, HSIZE=AHB_SIZE_32B, 8 beats
# UVM_INFO ../src/env/ahb_coverage.sv(127) @ 475000: uvm_test_top.env.slave_cov [ahb_coverage] Sampled [AHB_WRITE]: burst=AHB_BURST_INCR8 size=AHB_SIZE_32B beats=8 error=0
# UVM_INFO ../src/mst/ahb_master_monitor.sv(117) @ 475000: uvm_test_top.env.master_agent.mon [ahb_master_monitor] Beat[7] addr=0x0000307c wdata=0x1790d300 resp=AHB_RESP_OKAY
# UVM_INFO ../src/mst/ahb_master_monitor.sv(222) @ 475000: uvm_test_top.env.master_agent.mon [ahb_master_monitor] Observed [AHB_WRITE]: HADDR=0x00003060, HBURST=AHB_BURST_INCR8, HSIZE=AHB_SIZE_32B, 8 beats
# UVM_INFO ../src/env/ahb_coverage.sv(127) @ 475000: uvm_test_top.env.master_cov [ahb_coverage] Sampled [AHB_WRITE]: burst=AHB_BURST_INCR8 size=AHB_SIZE_32B beats=8 error=0
# UVM_INFO ../src/env/ahb_scoreboard.sv(104) @ 475000: uvm_test_top.env.scb [ahb_scoreboard] MATCH #3: [AHB_WRITE] HADDR=0x00003060 AHB_BURST_INCR8 8 beats
# UVM_INFO ../src/mst/ahb_master_driver.sv(82) @ 475000: uvm_test_top.env.master_agent.drv [ahb_master_driver] Queueing [AHB_READ]: HADDR=0x00003060, HBURST=AHB_BURST_INCR8, HSIZE=AHB_SIZE_32B, 8 beats
# UVM_INFO ../src/mst/ahb_master_driver.sv(124) @ 475000: uvm_test_top.env.master_agent.drv [ahb_master_driver] Driving [AHB_READ]: HADDR=0x00003060, HBURST=AHB_BURST_INCR8, HSIZE=AHB_SIZE_32B, 8 beats               
# UVM_INFO ../src/mst/ahb_master_driver.sv(283) @ 525000: uvm_test_top.env.master_agent.drv [ahb_master_driver] Beat[0/8] addr=0x00003060 trans=AHB_TRANS_NONSEQ resp=AHB_RESP_OKAY rdata=0x950e830a
# UVM_INFO ../src/slv/ahb_slave_driver.sv(174) @ 525000: uvm_test_top.env.slave_agent.drv [ahb_slave_driver] Beat AHB_READ addr=0x00003060 resp=AHB_RESP_OKAY waits=2 rdata=0x950e830a
# UVM_INFO ../src/mst/ahb_master_monitor.sv(117) @ 525000: uvm_test_top.env.master_agent.mon [ahb_master_monitor] Beat[0] addr=0x00003060 rdata=0x950e830a resp=AHB_RESP_OKAY
# UVM_INFO ../src/mst/ahb_master_driver.sv(283) @ 555000: uvm_test_top.env.master_agent.drv [ahb_master_driver] Beat[1/8] addr=0x00003064 trans=AHB_TRANS_SEQ resp=AHB_RESP_OKAY rdata=0x934630e7
# UVM_INFO ../src/slv/ahb_slave_driver.sv(174) @ 555000: uvm_test_top.env.slave_agent.drv [ahb_slave_driver] Beat AHB_READ addr=0x00003064 resp=AHB_RESP_OKAY waits=2 rdata=0x934630e7
# UVM_INFO ../src/mst/ahb_master_monitor.sv(117) @ 555000: uvm_test_top.env.master_agent.mon [ahb_master_monitor] Beat[1] addr=0x00003064 rdata=0x934630e7 resp=AHB_RESP_OKAY
# UVM_INFO ../src/mst/ahb_master_driver.sv(283) @ 585000: uvm_test_top.env.master_agent.drv [ahb_master_driver] Beat[2/8] addr=0x00003068 trans=AHB_TRANS_SEQ resp=AHB_RESP_OKAY rdata=0x53c7a79f
# UVM_INFO ../src/slv/ahb_slave_driver.sv(174) @ 585000: uvm_test_top.env.slave_agent.drv [ahb_slave_driver] Beat AHB_READ addr=0x00003068 resp=AHB_RESP_OKAY waits=2 rdata=0x53c7a79f
# UVM_INFO ../src/mst/ahb_master_monitor.sv(117) @ 585000: uvm_test_top.env.master_agent.mon [ahb_master_monitor] Beat[2] addr=0x00003068 rdata=0x53c7a79f resp=AHB_RESP_OKAY
# UVM_INFO ../src/mst/ahb_master_driver.sv(283) @ 605000: uvm_test_top.env.master_agent.drv [ahb_master_driver] Beat[3/8] addr=0x0000306c trans=AHB_TRANS_SEQ resp=AHB_RESP_OKAY rdata=0x84fcddb7
# UVM_INFO ../src/slv/ahb_slave_driver.sv(174) @ 605000: uvm_test_top.env.slave_agent.drv [ahb_slave_driver] Beat AHB_READ addr=0x0000306c resp=AHB_RESP_OKAY waits=1 rdata=0x84fcddb7
# UVM_INFO ../src/mst/ahb_master_monitor.sv(117) @ 605000: uvm_test_top.env.master_agent.mon [ahb_master_monitor] Beat[3] addr=0x0000306c rdata=0x84fcddb7 resp=AHB_RESP_OKAY
# UVM_INFO ../src/mst/ahb_master_driver.sv(283) @ 625000: uvm_test_top.env.master_agent.drv [ahb_master_driver] Beat[4/8] addr=0x00003070 trans=AHB_TRANS_SEQ resp=AHB_RESP_OKAY rdata=0x7b03a06a
# UVM_INFO ../src/slv/ahb_slave_driver.sv(174) @ 625000: uvm_test_top.env.slave_agent.drv [ahb_slave_driver] Beat AHB_READ addr=0x00003070 resp=AHB_RESP_OKAY waits=1 rdata=0x7b03a06a
# UVM_INFO ../src/mst/ahb_master_monitor.sv(117) @ 625000: uvm_test_top.env.master_agent.mon [ahb_master_monitor] Beat[4] addr=0x00003070 rdata=0x7b03a06a resp=AHB_RESP_OKAY
# UVM_INFO ../src/mst/ahb_master_driver.sv(283) @ 645000: uvm_test_top.env.master_agent.drv [ahb_master_driver] Beat[5/8] addr=0x00003074 trans=AHB_TRANS_SEQ resp=AHB_RESP_OKAY rdata=0xad69d964
# UVM_INFO ../src/slv/ahb_slave_driver.sv(174) @ 645000: uvm_test_top.env.slave_agent.drv [ahb_slave_driver] Beat AHB_READ addr=0x00003074 resp=AHB_RESP_OKAY waits=1 rdata=0xad69d964
# UVM_INFO ../src/mst/ahb_master_monitor.sv(117) @ 645000: uvm_test_top.env.master_agent.mon [ahb_master_monitor] Beat[5] addr=0x00003074 rdata=0xad69d964 resp=AHB_RESP_OKAY
# UVM_INFO ../src/mst/ahb_master_driver.sv(283) @ 655000: uvm_test_top.env.master_agent.drv [ahb_master_driver] Beat[6/8] addr=0x00003078 trans=AHB_TRANS_SEQ resp=AHB_RESP_OKAY rdata=0x0baf35e3
# UVM_INFO ../src/slv/ahb_slave_driver.sv(174) @ 655000: uvm_test_top.env.slave_agent.drv [ahb_slave_driver] Beat AHB_READ addr=0x00003078 resp=AHB_RESP_OKAY waits=0 rdata=0x0baf35e3
# UVM_INFO ../src/mst/ahb_master_monitor.sv(117) @ 655000: uvm_test_top.env.master_agent.mon [ahb_master_monitor] Beat[6] addr=0x00003078 rdata=0x0baf35e3 resp=AHB_RESP_OKAY
# UVM_INFO ../src/mst/ahb_master_driver.sv(283) @ 685000: uvm_test_top.env.master_agent.drv [ahb_master_driver] Beat[7/8] addr=0x0000307c trans=AHB_TRANS_SEQ resp=AHB_RESP_OKAY rdata=0x1790d300
# UVM_INFO ../src/mst/ahb_master_driver.sv(327) @ 685000: uvm_test_top.env.master_agent.drv [ahb_master_driver] Transaction complete: AHB_READ 0x00003060, 8 beats, burst=AHB_BURST_INCR8
# UVM_INFO ../src/slv/ahb_slave_driver.sv(174) @ 685000: uvm_test_top.env.slave_agent.drv [ahb_slave_driver] Beat AHB_READ addr=0x0000307c resp=AHB_RESP_OKAY waits=2 rdata=0x1790d300
# UVM_INFO ../src/mst/ahb_master_monitor.sv(117) @ 685000: uvm_test_top.env.master_agent.mon [ahb_master_monitor] Beat[7] addr=0x0000307c rdata=0x1790d300 resp=AHB_RESP_OKAY
# UVM_INFO ../src/mst/ahb_master_monitor.sv(222) @ 685000: uvm_test_top.env.master_agent.mon [ahb_master_monitor] Observed [AHB_READ]: HADDR=0x00003060, HBURST=AHB_BURST_INCR8, HSIZE=AHB_SIZE_32B, 8 beats
# UVM_INFO ../src/env/ahb_coverage.sv(127) @ 685000: uvm_test_top.env.master_cov [ahb_coverage] Sampled [AHB_READ]: burst=AHB_BURST_INCR8 size=AHB_SIZE_32B beats=8 error=0
# UVM_INFO ../src/slv/ahb_slave_monitor.sv(197) @ 685000: uvm_test_top.env.slave_agent.mon [ahb_slave_monitor] Observed [AHB_READ]: HADDR=0x00003060, HBURST=AHB_BURST_INCR8, HSIZE=AHB_SIZE_32B, 8 beats
# UVM_INFO ../src/env/ahb_scoreboard.sv(104) @ 685000: uvm_test_top.env.scb [ahb_scoreboard] MATCH #4: [AHB_READ] HADDR=0x00003060 AHB_BURST_INCR8 8 beats
# UVM_INFO ../src/env/ahb_coverage.sv(127) @ 685000: uvm_test_top.env.slave_cov [ahb_coverage] Sampled [AHB_READ]: burst=AHB_BURST_INCR8 size=AHB_SIZE_32B beats=8 error=0
# UVM_INFO ../src/mst_seq/ahb_base_seq.sv(138) @ 685000: uvm_test_top.env.master_agent.sqr@@seq [ahb_incr_burst_seq] AHB_BURST_INCR8 AHB_SIZE_32B beat 0 @0x00003060 ok
# UVM_INFO ../src/mst_seq/ahb_base_seq.sv(138) @ 685000: uvm_test_top.env.master_agent.sqr@@seq [ahb_incr_burst_seq] AHB_BURST_INCR8 AHB_SIZE_32B beat 1 @0x00003064 ok
# UVM_INFO ../src/mst_seq/ahb_base_seq.sv(138) @ 685000: uvm_test_top.env.master_agent.sqr@@seq [ahb_incr_burst_seq] AHB_BURST_INCR8 AHB_SIZE_32B beat 2 @0x00003068 ok
# UVM_INFO ../src/mst_seq/ahb_base_seq.sv(138) @ 685000: uvm_test_top.env.master_agent.sqr@@seq [ahb_incr_burst_seq] AHB_BURST_INCR8 AHB_SIZE_32B beat 3 @0x0000306c ok
# UVM_INFO ../src/mst_seq/ahb_base_seq.sv(138) @ 685000: uvm_test_top.env.master_agent.sqr@@seq [ahb_incr_burst_seq] AHB_BURST_INCR8 AHB_SIZE_32B beat 4 @0x00003070 ok
# UVM_INFO ../src/mst_seq/ahb_base_seq.sv(138) @ 685000: uvm_test_top.env.master_agent.sqr@@seq [ahb_incr_burst_seq] AHB_BURST_INCR8 AHB_SIZE_32B beat 5 @0x00003074 ok
# UVM_INFO ../src/mst_seq/ahb_base_seq.sv(138) @ 685000: uvm_test_top.env.master_agent.sqr@@seq [ahb_incr_burst_seq] AHB_BURST_INCR8 AHB_SIZE_32B beat 6 @0x00003078 ok
# UVM_INFO ../src/mst_seq/ahb_base_seq.sv(138) @ 685000: uvm_test_top.env.master_agent.sqr@@seq [ahb_incr_burst_seq] AHB_BURST_INCR8 AHB_SIZE_32B beat 7 @0x0000307c ok
# UVM_INFO ../src/mst/ahb_master_driver.sv(82) @ 685000: uvm_test_top.env.master_agent.drv [ahb_master_driver] Queueing [AHB_WRITE]: HADDR=0x000030a4, HBURST=AHB_BURST_INCR8, HSIZE=AHB_SIZE_8B, 8 beats
# UVM_INFO ../src/mst/ahb_master_driver.sv(124) @ 685000: uvm_test_top.env.master_agent.drv [ahb_master_driver] Driving [AHB_WRITE]: HADDR=0x000030a4, HBURST=AHB_BURST_INCR8, HSIZE=AHB_SIZE_8B, 8 beats               
# UVM_INFO ../src/mst/ahb_master_driver.sv(283) @ 735000: uvm_test_top.env.master_agent.drv [ahb_master_driver] Beat[0/8] addr=0x000030a4 trans=AHB_TRANS_NONSEQ resp=AHB_RESP_OKAY wdata=0x0244bbb5
# UVM_INFO ../src/slv/ahb_slave_driver.sv(174) @ 735000: uvm_test_top.env.slave_agent.drv [ahb_slave_driver] Beat AHB_WRITE addr=0x000030a4 resp=AHB_RESP_OKAY waits=2 wdata=0x0244bbb5
# UVM_INFO ../src/mst/ahb_master_monitor.sv(117) @ 735000: uvm_test_top.env.master_agent.mon [ahb_master_monitor] Beat[0] addr=0x000030a4 wdata=0x0244bbb5 resp=AHB_RESP_OKAY
# UVM_INFO ../src/mst/ahb_master_driver.sv(283) @ 755000: uvm_test_top.env.master_agent.drv [ahb_master_driver] Beat[1/8] addr=0x000030a5 trans=AHB_TRANS_SEQ resp=AHB_RESP_OKAY wdata=0x934262a4
# UVM_INFO ../src/slv/ahb_slave_driver.sv(174) @ 755000: uvm_test_top.env.slave_agent.drv [ahb_slave_driver] Beat AHB_WRITE addr=0x000030a5 resp=AHB_RESP_OKAY waits=1 wdata=0x934262a4
# UVM_INFO ../src/mst/ahb_master_monitor.sv(117) @ 755000: uvm_test_top.env.master_agent.mon [ahb_master_monitor] Beat[1] addr=0x000030a5 wdata=0x934262a4 resp=AHB_RESP_OKAY
# UVM_INFO ../src/mst/ahb_master_driver.sv(283) @ 775000: uvm_test_top.env.master_agent.drv [ahb_master_driver] Beat[2/8] addr=0x000030a6 trans=AHB_TRANS_SEQ resp=AHB_RESP_OKAY wdata=0xacf694b4
# UVM_INFO ../src/slv/ahb_slave_driver.sv(174) @ 775000: uvm_test_top.env.slave_agent.drv [ahb_slave_driver] Beat AHB_WRITE addr=0x000030a6 resp=AHB_RESP_OKAY waits=1 wdata=0xacf694b4
# UVM_INFO ../src/mst/ahb_master_monitor.sv(117) @ 775000: uvm_test_top.env.master_agent.mon [ahb_master_monitor] Beat[2] addr=0x000030a6 wdata=0xacf694b4 resp=AHB_RESP_OKAY
# UVM_INFO ../src/mst/ahb_master_driver.sv(283) @ 805000: uvm_test_top.env.master_agent.drv [ahb_master_driver] Beat[3/8] addr=0x000030a7 trans=AHB_TRANS_SEQ resp=AHB_RESP_OKAY wdata=0xf36cd788
# UVM_INFO ../src/slv/ahb_slave_driver.sv(174) @ 805000: uvm_test_top.env.slave_agent.drv [ahb_slave_driver] Beat AHB_WRITE addr=0x000030a7 resp=AHB_RESP_OKAY waits=2 wdata=0xf36cd788
# UVM_INFO ../src/mst/ahb_master_monitor.sv(117) @ 805000: uvm_test_top.env.master_agent.mon [ahb_master_monitor] Beat[3] addr=0x000030a7 wdata=0xf36cd788 resp=AHB_RESP_OKAY
# UVM_INFO ../src/mst/ahb_master_driver.sv(283) @ 835000: uvm_test_top.env.master_agent.drv [ahb_master_driver] Beat[4/8] addr=0x000030a8 trans=AHB_TRANS_SEQ resp=AHB_RESP_OKAY wdata=0x67146246
# UVM_INFO ../src/slv/ahb_slave_driver.sv(174) @ 835000: uvm_test_top.env.slave_agent.drv [ahb_slave_driver] Beat AHB_WRITE addr=0x000030a8 resp=AHB_RESP_OKAY waits=2 wdata=0x67146246
# UVM_INFO ../src/mst/ahb_master_monitor.sv(117) @ 835000: uvm_test_top.env.master_agent.mon [ahb_master_monitor] Beat[4] addr=0x000030a8 wdata=0x67146246 resp=AHB_RESP_OKAY
# UVM_INFO ../src/mst/ahb_master_driver.sv(283) @ 855000: uvm_test_top.env.master_agent.drv [ahb_master_driver] Beat[5/8] addr=0x000030a9 trans=AHB_TRANS_SEQ resp=AHB_RESP_OKAY wdata=0x06c51eba
# UVM_INFO ../src/slv/ahb_slave_driver.sv(174) @ 855000: uvm_test_top.env.slave_agent.drv [ahb_slave_driver] Beat AHB_WRITE addr=0x000030a9 resp=AHB_RESP_OKAY waits=1 wdata=0x06c51eba
# UVM_INFO ../src/mst/ahb_master_monitor.sv(117) @ 855000: uvm_test_top.env.master_agent.mon [ahb_master_monitor] Beat[5] addr=0x000030a9 wdata=0x06c51eba resp=AHB_RESP_OKAY
# UVM_INFO ../src/mst/ahb_master_driver.sv(283) @ 885000: uvm_test_top.env.master_agent.drv [ahb_master_driver] Beat[6/8] addr=0x000030aa trans=AHB_TRANS_SEQ resp=AHB_RESP_OKAY wdata=0xd90e32f4
# UVM_INFO ../src/slv/ahb_slave_driver.sv(174) @ 885000: uvm_test_top.env.slave_agent.drv [ahb_slave_driver] Beat AHB_WRITE addr=0x000030aa resp=AHB_RESP_OKAY waits=2 wdata=0xd90e32f4
# UVM_INFO ../src/mst/ahb_master_monitor.sv(117) @ 885000: uvm_test_top.env.master_agent.mon [ahb_master_monitor] Beat[6] addr=0x000030aa wdata=0xd90e32f4 resp=AHB_RESP_OKAY
# UVM_INFO ../src/mst/ahb_master_driver.sv(283) @ 905000: uvm_test_top.env.master_agent.drv [ahb_master_driver] Beat[7/8] addr=0x000030ab trans=AHB_TRANS_SEQ resp=AHB_RESP_OKAY wdata=0x0a38338f
# UVM_INFO ../src/mst/ahb_master_driver.sv(327) @ 905000: uvm_test_top.env.master_agent.drv [ahb_master_driver] Transaction complete: AHB_WRITE 0x000030a4, 8 beats, burst=AHB_BURST_INCR8
# UVM_INFO ../src/slv/ahb_slave_driver.sv(174) @ 905000: uvm_test_top.env.slave_agent.drv [ahb_slave_driver] Beat AHB_WRITE addr=0x000030ab resp=AHB_RESP_OKAY waits=1 wdata=0x0a38338f
# UVM_INFO ../src/mst/ahb_master_monitor.sv(117) @ 905000: uvm_test_top.env.master_agent.mon [ahb_master_monitor] Beat[7] addr=0x000030ab wdata=0x0a38338f resp=AHB_RESP_OKAY
# UVM_INFO ../src/mst/ahb_master_monitor.sv(222) @ 905000: uvm_test_top.env.master_agent.mon [ahb_master_monitor] Observed [AHB_WRITE]: HADDR=0x000030a4, HBURST=AHB_BURST_INCR8, HSIZE=AHB_SIZE_8B, 8 beats
# UVM_INFO ../src/env/ahb_coverage.sv(127) @ 905000: uvm_test_top.env.master_cov [ahb_coverage] Sampled [AHB_WRITE]: burst=AHB_BURST_INCR8 size=AHB_SIZE_8B beats=8 error=0
# UVM_INFO ../src/slv/ahb_slave_monitor.sv(197) @ 905000: uvm_test_top.env.slave_agent.mon [ahb_slave_monitor] Observed [AHB_WRITE]: HADDR=0x000030a4, HBURST=AHB_BURST_INCR8, HSIZE=AHB_SIZE_8B, 8 beats
# UVM_INFO ../src/env/ahb_scoreboard.sv(104) @ 905000: uvm_test_top.env.scb [ahb_scoreboard] MATCH #5: [AHB_WRITE] HADDR=0x000030a4 AHB_BURST_INCR8 8 beats
# UVM_INFO ../src/env/ahb_coverage.sv(127) @ 905000: uvm_test_top.env.slave_cov [ahb_coverage] Sampled [AHB_WRITE]: burst=AHB_BURST_INCR8 size=AHB_SIZE_8B beats=8 error=0
# UVM_INFO ../src/mst/ahb_master_driver.sv(82) @ 905000: uvm_test_top.env.master_agent.drv [ahb_master_driver] Queueing [AHB_READ]: HADDR=0x000030a4, HBURST=AHB_BURST_INCR8, HSIZE=AHB_SIZE_8B, 8 beats
# UVM_INFO ../src/mst/ahb_master_driver.sv(124) @ 905000: uvm_test_top.env.master_agent.drv [ahb_master_driver] Driving [AHB_READ]: HADDR=0x000030a4, HBURST=AHB_BURST_INCR8, HSIZE=AHB_SIZE_8B, 8 beats               
# UVM_INFO ../src/mst/ahb_master_driver.sv(283) @ 945000: uvm_test_top.env.master_agent.drv [ahb_master_driver] Beat[0/8] addr=0x000030a4 trans=AHB_TRANS_NONSEQ resp=AHB_RESP_OKAY rdata=0x0244bbb5
# UVM_INFO ../src/slv/ahb_slave_driver.sv(174) @ 945000: uvm_test_top.env.slave_agent.drv [ahb_slave_driver] Beat AHB_READ addr=0x000030a4 resp=AHB_RESP_OKAY waits=1 rdata=0x0244bbb5
# UVM_INFO ../src/mst/ahb_master_monitor.sv(117) @ 945000: uvm_test_top.env.master_agent.mon [ahb_master_monitor] Beat[0] addr=0x000030a4 rdata=0x0244bbb5 resp=AHB_RESP_OKAY
# UVM_INFO ../src/mst/ahb_master_driver.sv(283) @ 975000: uvm_test_top.env.master_agent.drv [ahb_master_driver] Beat[1/8] addr=0x000030a5 trans=AHB_TRANS_SEQ resp=AHB_RESP_OKAY rdata=0x934262a4
# UVM_INFO ../src/slv/ahb_slave_driver.sv(174) @ 975000: uvm_test_top.env.slave_agent.drv [ahb_slave_driver] Beat AHB_READ addr=0x000030a5 resp=AHB_RESP_OKAY waits=2 rdata=0x934262a4
# UVM_INFO ../src/mst/ahb_master_monitor.sv(117) @ 975000: uvm_test_top.env.master_agent.mon [ahb_master_monitor] Beat[1] addr=0x000030a5 rdata=0x934262a4 resp=AHB_RESP_OKAY
# UVM_INFO ../src/mst/ahb_master_driver.sv(283) @ 1005000: uvm_test_top.env.master_agent.drv [ahb_master_driver] Beat[2/8] addr=0x000030a6 trans=AHB_TRANS_SEQ resp=AHB_RESP_OKAY rdata=0xacf694b4
# UVM_INFO ../src/slv/ahb_slave_driver.sv(174) @ 1005000: uvm_test_top.env.slave_agent.drv [ahb_slave_driver] Beat AHB_READ addr=0x000030a6 resp=AHB_RESP_OKAY waits=2 rdata=0xacf694b4
# UVM_INFO ../src/mst/ahb_master_monitor.sv(117) @ 1005000: uvm_test_top.env.master_agent.mon [ahb_master_monitor] Beat[2] addr=0x000030a6 rdata=0xacf694b4 resp=AHB_RESP_OKAY
# UVM_INFO ../src/mst/ahb_master_driver.sv(283) @ 1025000: uvm_test_top.env.master_agent.drv [ahb_master_driver] Beat[3/8] addr=0x000030a7 trans=AHB_TRANS_SEQ resp=AHB_RESP_OKAY rdata=0xf36cd788
# UVM_INFO ../src/slv/ahb_slave_driver.sv(174) @ 1025000: uvm_test_top.env.slave_agent.drv [ahb_slave_driver] Beat AHB_READ addr=0x000030a7 resp=AHB_RESP_OKAY waits=1 rdata=0xf36cd788
# UVM_INFO ../src/mst/ahb_master_monitor.sv(117) @ 1025000: uvm_test_top.env.master_agent.mon [ahb_master_monitor] Beat[3] addr=0x000030a7 rdata=0xf36cd788 resp=AHB_RESP_OKAY
# UVM_INFO ../src/mst/ahb_master_driver.sv(283) @ 1045000: uvm_test_top.env.master_agent.drv [ahb_master_driver] Beat[4/8] addr=0x000030a8 trans=AHB_TRANS_SEQ resp=AHB_RESP_OKAY rdata=0x67146246
# UVM_INFO ../src/slv/ahb_slave_driver.sv(174) @ 1045000: uvm_test_top.env.slave_agent.drv [ahb_slave_driver] Beat AHB_READ addr=0x000030a8 resp=AHB_RESP_OKAY waits=1 rdata=0x67146246
# UVM_INFO ../src/mst/ahb_master_monitor.sv(117) @ 1045000: uvm_test_top.env.master_agent.mon [ahb_master_monitor] Beat[4] addr=0x000030a8 rdata=0x67146246 resp=AHB_RESP_OKAY
# UVM_INFO ../src/mst/ahb_master_driver.sv(283) @ 1065000: uvm_test_top.env.master_agent.drv [ahb_master_driver] Beat[5/8] addr=0x000030a9 trans=AHB_TRANS_SEQ resp=AHB_RESP_OKAY rdata=0x06c51eba
# UVM_INFO ../src/slv/ahb_slave_driver.sv(174) @ 1065000: uvm_test_top.env.slave_agent.drv [ahb_slave_driver] Beat AHB_READ addr=0x000030a9 resp=AHB_RESP_OKAY waits=1 rdata=0x06c51eba
# UVM_INFO ../src/mst/ahb_master_monitor.sv(117) @ 1065000: uvm_test_top.env.master_agent.mon [ahb_master_monitor] Beat[5] addr=0x000030a9 rdata=0x06c51eba resp=AHB_RESP_OKAY
# UVM_INFO ../src/mst/ahb_master_driver.sv(283) @ 1075000: uvm_test_top.env.master_agent.drv [ahb_master_driver] Beat[6/8] addr=0x000030aa trans=AHB_TRANS_SEQ resp=AHB_RESP_OKAY rdata=0xd90e32f4
# UVM_INFO ../src/slv/ahb_slave_driver.sv(174) @ 1075000: uvm_test_top.env.slave_agent.drv [ahb_slave_driver] Beat AHB_READ addr=0x000030aa resp=AHB_RESP_OKAY waits=0 rdata=0xd90e32f4
# UVM_INFO ../src/mst/ahb_master_monitor.sv(117) @ 1075000: uvm_test_top.env.master_agent.mon [ahb_master_monitor] Beat[6] addr=0x000030aa rdata=0xd90e32f4 resp=AHB_RESP_OKAY
# UVM_INFO ../src/mst/ahb_master_driver.sv(283) @ 1095000: uvm_test_top.env.master_agent.drv [ahb_master_driver] Beat[7/8] addr=0x000030ab trans=AHB_TRANS_SEQ resp=AHB_RESP_OKAY rdata=0x0a38338f
# UVM_INFO ../src/mst/ahb_master_driver.sv(327) @ 1095000: uvm_test_top.env.master_agent.drv [ahb_master_driver] Transaction complete: AHB_READ 0x000030a4, 8 beats, burst=AHB_BURST_INCR8
# UVM_INFO ../src/slv/ahb_slave_driver.sv(174) @ 1095000: uvm_test_top.env.slave_agent.drv [ahb_slave_driver] Beat AHB_READ addr=0x000030ab resp=AHB_RESP_OKAY waits=1 rdata=0x0a38338f
# UVM_INFO ../src/slv/ahb_slave_monitor.sv(197) @ 1095000: uvm_test_top.env.slave_agent.mon [ahb_slave_monitor] Observed [AHB_READ]: HADDR=0x000030a4, HBURST=AHB_BURST_INCR8, HSIZE=AHB_SIZE_8B, 8 beats
# UVM_INFO ../src/env/ahb_coverage.sv(127) @ 1095000: uvm_test_top.env.slave_cov [ahb_coverage] Sampled [AHB_READ]: burst=AHB_BURST_INCR8 size=AHB_SIZE_8B beats=8 error=0
# UVM_INFO ../src/mst/ahb_master_monitor.sv(117) @ 1095000: uvm_test_top.env.master_agent.mon [ahb_master_monitor] Beat[7] addr=0x000030ab rdata=0x0a38338f resp=AHB_RESP_OKAY
# UVM_INFO ../src/mst/ahb_master_monitor.sv(222) @ 1095000: uvm_test_top.env.master_agent.mon [ahb_master_monitor] Observed [AHB_READ]: HADDR=0x000030a4, HBURST=AHB_BURST_INCR8, HSIZE=AHB_SIZE_8B, 8 beats
# UVM_INFO ../src/env/ahb_coverage.sv(127) @ 1095000: uvm_test_top.env.master_cov [ahb_coverage] Sampled [AHB_READ]: burst=AHB_BURST_INCR8 size=AHB_SIZE_8B beats=8 error=0
# UVM_INFO ../src/env/ahb_scoreboard.sv(104) @ 1095000: uvm_test_top.env.scb [ahb_scoreboard] MATCH #6: [AHB_READ] HADDR=0x000030a4 AHB_BURST_INCR8 8 beats
# UVM_INFO ../src/mst_seq/ahb_base_seq.sv(138) @ 1095000: uvm_test_top.env.master_agent.sqr@@seq [ahb_incr_burst_seq] AHB_BURST_INCR8 AHB_SIZE_8B beat 0 @0x000030a4 ok
# UVM_INFO ../src/mst_seq/ahb_base_seq.sv(138) @ 1095000: uvm_test_top.env.master_agent.sqr@@seq [ahb_incr_burst_seq] AHB_BURST_INCR8 AHB_SIZE_8B beat 1 @0x000030a5 ok
# UVM_INFO ../src/mst_seq/ahb_base_seq.sv(138) @ 1095000: uvm_test_top.env.master_agent.sqr@@seq [ahb_incr_burst_seq] AHB_BURST_INCR8 AHB_SIZE_8B beat 2 @0x000030a6 ok
# UVM_INFO ../src/mst_seq/ahb_base_seq.sv(138) @ 1095000: uvm_test_top.env.master_agent.sqr@@seq [ahb_incr_burst_seq] AHB_BURST_INCR8 AHB_SIZE_8B beat 3 @0x000030a7 ok
# UVM_INFO ../src/mst_seq/ahb_base_seq.sv(138) @ 1095000: uvm_test_top.env.master_agent.sqr@@seq [ahb_incr_burst_seq] AHB_BURST_INCR8 AHB_SIZE_8B beat 4 @0x000030a8 ok
# UVM_INFO ../src/mst_seq/ahb_base_seq.sv(138) @ 1095000: uvm_test_top.env.master_agent.sqr@@seq [ahb_incr_burst_seq] AHB_BURST_INCR8 AHB_SIZE_8B beat 5 @0x000030a9 ok
# UVM_INFO ../src/mst_seq/ahb_base_seq.sv(138) @ 1095000: uvm_test_top.env.master_agent.sqr@@seq [ahb_incr_burst_seq] AHB_BURST_INCR8 AHB_SIZE_8B beat 6 @0x000030aa ok
# UVM_INFO ../src/mst_seq/ahb_base_seq.sv(138) @ 1095000: uvm_test_top.env.master_agent.sqr@@seq [ahb_incr_burst_seq] AHB_BURST_INCR8 AHB_SIZE_8B beat 7 @0x000030ab ok
# UVM_INFO ../src/mst/ahb_master_driver.sv(82) @ 1095000: uvm_test_top.env.master_agent.drv [ahb_master_driver] Queueing [AHB_WRITE]: HADDR=0x000030d8, HBURST=AHB_BURST_INCR4, HSIZE=AHB_SIZE_32B, 4 beats
# UVM_INFO ../src/mst/ahb_master_driver.sv(124) @ 1095000: uvm_test_top.env.master_agent.drv [ahb_master_driver] Driving [AHB_WRITE]: HADDR=0x000030d8, HBURST=AHB_BURST_INCR4, HSIZE=AHB_SIZE_32B, 4 beats               
# UVM_INFO ../src/mst/ahb_master_driver.sv(283) @ 1145000: uvm_test_top.env.master_agent.drv [ahb_master_driver] Beat[0/4] addr=0x000030d8 trans=AHB_TRANS_NONSEQ resp=AHB_RESP_OKAY wdata=0x12acfefc
# UVM_INFO ../src/slv/ahb_slave_driver.sv(174) @ 1145000: uvm_test_top.env.slave_agent.drv [ahb_slave_driver] Beat AHB_WRITE addr=0x000030d8 resp=AHB_RESP_OKAY waits=2 wdata=0x12acfefc
# UVM_INFO ../src/mst/ahb_master_monitor.sv(117) @ 1145000: uvm_test_top.env.master_agent.mon [ahb_master_monitor] Beat[0] addr=0x000030d8 wdata=0x12acfefc resp=AHB_RESP_OKAY
# UVM_INFO ../src/mst/ahb_master_driver.sv(283) @ 1165000: uvm_test_top.env.master_agent.drv [ahb_master_driver] Beat[1/4] addr=0x000030dc trans=AHB_TRANS_SEQ resp=AHB_RESP_OKAY wdata=0xab6de070
# UVM_INFO ../src/slv/ahb_slave_driver.sv(174) @ 1165000: uvm_test_top.env.slave_agent.drv [ahb_slave_driver] Beat AHB_WRITE addr=0x000030dc resp=AHB_RESP_OKAY waits=1 wdata=0xab6de070
# UVM_INFO ../src/mst/ahb_master_monitor.sv(117) @ 1165000: uvm_test_top.env.master_agent.mon [ahb_master_monitor] Beat[1] addr=0x000030dc wdata=0xab6de070 resp=AHB_RESP_OKAY
# UVM_INFO ../src/mst/ahb_master_driver.sv(283) @ 1185000: uvm_test_top.env.master_agent.drv [ahb_master_driver] Beat[2/4] addr=0x000030e0 trans=AHB_TRANS_SEQ resp=AHB_RESP_OKAY wdata=0x14aa21c4
# UVM_INFO ../src/slv/ahb_slave_driver.sv(174) @ 1185000: uvm_test_top.env.slave_agent.drv [ahb_slave_driver] Beat AHB_WRITE addr=0x000030e0 resp=AHB_RESP_OKAY waits=1 wdata=0x14aa21c4
# UVM_INFO ../src/mst/ahb_master_monitor.sv(117) @ 1185000: uvm_test_top.env.master_agent.mon [ahb_master_monitor] Beat[2] addr=0x000030e0 wdata=0x14aa21c4 resp=AHB_RESP_OKAY
# UVM_INFO ../src/mst/ahb_master_driver.sv(283) @ 1205000: uvm_test_top.env.master_agent.drv [ahb_master_driver] Beat[3/4] addr=0x000030e4 trans=AHB_TRANS_SEQ resp=AHB_RESP_OKAY wdata=0x4500eef8
# UVM_INFO ../src/mst/ahb_master_driver.sv(327) @ 1205000: uvm_test_top.env.master_agent.drv [ahb_master_driver] Transaction complete: AHB_WRITE 0x000030d8, 4 beats, burst=AHB_BURST_INCR4
# UVM_INFO ../src/slv/ahb_slave_driver.sv(174) @ 1205000: uvm_test_top.env.slave_agent.drv [ahb_slave_driver] Beat AHB_WRITE addr=0x000030e4 resp=AHB_RESP_OKAY waits=1 wdata=0x4500eef8
# UVM_INFO ../src/mst/ahb_master_monitor.sv(117) @ 1205000: uvm_test_top.env.master_agent.mon [ahb_master_monitor] Beat[3] addr=0x000030e4 wdata=0x4500eef8 resp=AHB_RESP_OKAY
# UVM_INFO ../src/mst/ahb_master_monitor.sv(222) @ 1205000: uvm_test_top.env.master_agent.mon [ahb_master_monitor] Observed [AHB_WRITE]: HADDR=0x000030d8, HBURST=AHB_BURST_INCR4, HSIZE=AHB_SIZE_32B, 4 beats
# UVM_INFO ../src/env/ahb_coverage.sv(127) @ 1205000: uvm_test_top.env.master_cov [ahb_coverage] Sampled [AHB_WRITE]: burst=AHB_BURST_INCR4 size=AHB_SIZE_32B beats=4 error=0
# UVM_INFO ../src/slv/ahb_slave_monitor.sv(197) @ 1205000: uvm_test_top.env.slave_agent.mon [ahb_slave_monitor] Observed [AHB_WRITE]: HADDR=0x000030d8, HBURST=AHB_BURST_INCR4, HSIZE=AHB_SIZE_32B, 4 beats
# UVM_INFO ../src/env/ahb_scoreboard.sv(104) @ 1205000: uvm_test_top.env.scb [ahb_scoreboard] MATCH #7: [AHB_WRITE] HADDR=0x000030d8 AHB_BURST_INCR4 4 beats
# UVM_INFO ../src/env/ahb_coverage.sv(127) @ 1205000: uvm_test_top.env.slave_cov [ahb_coverage] Sampled [AHB_WRITE]: burst=AHB_BURST_INCR4 size=AHB_SIZE_32B beats=4 error=0
# UVM_INFO ../src/mst/ahb_master_driver.sv(82) @ 1205000: uvm_test_top.env.master_agent.drv [ahb_master_driver] Queueing [AHB_READ]: HADDR=0x000030d8, HBURST=AHB_BURST_INCR4, HSIZE=AHB_SIZE_32B, 4 beats
# UVM_INFO ../src/mst/ahb_master_driver.sv(124) @ 1205000: uvm_test_top.env.master_agent.drv [ahb_master_driver] Driving [AHB_READ]: HADDR=0x000030d8, HBURST=AHB_BURST_INCR4, HSIZE=AHB_SIZE_32B, 4 beats               
# UVM_INFO ../src/mst/ahb_master_driver.sv(283) @ 1245000: uvm_test_top.env.master_agent.drv [ahb_master_driver] Beat[0/4] addr=0x000030d8 trans=AHB_TRANS_NONSEQ resp=AHB_RESP_OKAY rdata=0x12acfefc
# UVM_INFO ../src/slv/ahb_slave_driver.sv(174) @ 1245000: uvm_test_top.env.slave_agent.drv [ahb_slave_driver] Beat AHB_READ addr=0x000030d8 resp=AHB_RESP_OKAY waits=1 rdata=0x12acfefc
# UVM_INFO ../src/mst/ahb_master_monitor.sv(117) @ 1245000: uvm_test_top.env.master_agent.mon [ahb_master_monitor] Beat[0] addr=0x000030d8 rdata=0x12acfefc resp=AHB_RESP_OKAY
# UVM_INFO ../src/mst/ahb_master_driver.sv(283) @ 1275000: uvm_test_top.env.master_agent.drv [ahb_master_driver] Beat[1/4] addr=0x000030dc trans=AHB_TRANS_SEQ resp=AHB_RESP_OKAY rdata=0xab6de070
# UVM_INFO ../src/slv/ahb_slave_driver.sv(174) @ 1275000: uvm_test_top.env.slave_agent.drv [ahb_slave_driver] Beat AHB_READ addr=0x000030dc resp=AHB_RESP_OKAY waits=2 rdata=0xab6de070
# UVM_INFO ../src/mst/ahb_master_monitor.sv(117) @ 1275000: uvm_test_top.env.master_agent.mon [ahb_master_monitor] Beat[1] addr=0x000030dc rdata=0xab6de070 resp=AHB_RESP_OKAY
# UVM_INFO ../src/mst/ahb_master_driver.sv(283) @ 1305000: uvm_test_top.env.master_agent.drv [ahb_master_driver] Beat[2/4] addr=0x000030e0 trans=AHB_TRANS_SEQ resp=AHB_RESP_OKAY rdata=0x14aa21c4
# UVM_INFO ../src/slv/ahb_slave_driver.sv(174) @ 1305000: uvm_test_top.env.slave_agent.drv [ahb_slave_driver] Beat AHB_READ addr=0x000030e0 resp=AHB_RESP_OKAY waits=2 rdata=0x14aa21c4
# UVM_INFO ../src/mst/ahb_master_monitor.sv(117) @ 1305000: uvm_test_top.env.master_agent.mon [ahb_master_monitor] Beat[2] addr=0x000030e0 rdata=0x14aa21c4 resp=AHB_RESP_OKAY
# UVM_INFO ../src/mst/ahb_master_driver.sv(283) @ 1335000: uvm_test_top.env.master_agent.drv [ahb_master_driver] Beat[3/4] addr=0x000030e4 trans=AHB_TRANS_SEQ resp=AHB_RESP_OKAY rdata=0x4500eef8
# UVM_INFO ../src/mst/ahb_master_driver.sv(327) @ 1335000: uvm_test_top.env.master_agent.drv [ahb_master_driver] Transaction complete: AHB_READ 0x000030d8, 4 beats, burst=AHB_BURST_INCR4
# UVM_INFO ../src/slv/ahb_slave_driver.sv(174) @ 1335000: uvm_test_top.env.slave_agent.drv [ahb_slave_driver] Beat AHB_READ addr=0x000030e4 resp=AHB_RESP_OKAY waits=2 rdata=0x4500eef8
# UVM_INFO ../src/slv/ahb_slave_monitor.sv(197) @ 1335000: uvm_test_top.env.slave_agent.mon [ahb_slave_monitor] Observed [AHB_READ]: HADDR=0x000030d8, HBURST=AHB_BURST_INCR4, HSIZE=AHB_SIZE_32B, 4 beats
# UVM_INFO ../src/env/ahb_coverage.sv(127) @ 1335000: uvm_test_top.env.slave_cov [ahb_coverage] Sampled [AHB_READ]: burst=AHB_BURST_INCR4 size=AHB_SIZE_32B beats=4 error=0
# UVM_INFO ../src/mst/ahb_master_monitor.sv(117) @ 1335000: uvm_test_top.env.master_agent.mon [ahb_master_monitor] Beat[3] addr=0x000030e4 rdata=0x4500eef8 resp=AHB_RESP_OKAY
# UVM_INFO ../src/mst/ahb_master_monitor.sv(222) @ 1335000: uvm_test_top.env.master_agent.mon [ahb_master_monitor] Observed [AHB_READ]: HADDR=0x000030d8, HBURST=AHB_BURST_INCR4, HSIZE=AHB_SIZE_32B, 4 beats
# UVM_INFO ../src/env/ahb_coverage.sv(127) @ 1335000: uvm_test_top.env.master_cov [ahb_coverage] Sampled [AHB_READ]: burst=AHB_BURST_INCR4 size=AHB_SIZE_32B beats=4 error=0
# UVM_INFO ../src/env/ahb_scoreboard.sv(104) @ 1335000: uvm_test_top.env.scb [ahb_scoreboard] MATCH #8: [AHB_READ] HADDR=0x000030d8 AHB_BURST_INCR4 4 beats
# UVM_INFO ../src/mst_seq/ahb_base_seq.sv(138) @ 1335000: uvm_test_top.env.master_agent.sqr@@seq [ahb_incr_burst_seq] AHB_BURST_INCR4 AHB_SIZE_32B beat 0 @0x000030d8 ok
# UVM_INFO ../src/mst_seq/ahb_base_seq.sv(138) @ 1335000: uvm_test_top.env.master_agent.sqr@@seq [ahb_incr_burst_seq] AHB_BURST_INCR4 AHB_SIZE_32B beat 1 @0x000030dc ok
# UVM_INFO ../src/mst_seq/ahb_base_seq.sv(138) @ 1335000: uvm_test_top.env.master_agent.sqr@@seq [ahb_incr_burst_seq] AHB_BURST_INCR4 AHB_SIZE_32B beat 2 @0x000030e0 ok
# UVM_INFO ../src/mst_seq/ahb_base_seq.sv(138) @ 1335000: uvm_test_top.env.master_agent.sqr@@seq [ahb_incr_burst_seq] AHB_BURST_INCR4 AHB_SIZE_32B beat 3 @0x000030e4 ok
# UVM_INFO ../src/mst/ahb_master_driver.sv(82) @ 1335000: uvm_test_top.env.master_agent.drv [ahb_master_driver] Queueing [AHB_WRITE]: HADDR=0x00003128, HBURST=AHB_BURST_INCR4, HSIZE=AHB_SIZE_16B, 4 beats
# UVM_INFO ../src/mst/ahb_master_driver.sv(124) @ 1335000: uvm_test_top.env.master_agent.drv [ahb_master_driver] Driving [AHB_WRITE]: HADDR=0x00003128, HBURST=AHB_BURST_INCR4, HSIZE=AHB_SIZE_16B, 4 beats               
# UVM_INFO ../src/mst/ahb_master_driver.sv(283) @ 1365000: uvm_test_top.env.master_agent.drv [ahb_master_driver] Beat[0/4] addr=0x00003128 trans=AHB_TRANS_NONSEQ resp=AHB_RESP_OKAY wdata=0x33113b07
# UVM_INFO ../src/slv/ahb_slave_driver.sv(174) @ 1365000: uvm_test_top.env.slave_agent.drv [ahb_slave_driver] Beat AHB_WRITE addr=0x00003128 resp=AHB_RESP_OKAY waits=0 wdata=0x33113b07
# UVM_INFO ../src/mst/ahb_master_monitor.sv(117) @ 1365000: uvm_test_top.env.master_agent.mon [ahb_master_monitor] Beat[0] addr=0x00003128 wdata=0x33113b07 resp=AHB_RESP_OKAY
# UVM_INFO ../src/mst/ahb_master_driver.sv(283) @ 1395000: uvm_test_top.env.master_agent.drv [ahb_master_driver] Beat[1/4] addr=0x0000312a trans=AHB_TRANS_SEQ resp=AHB_RESP_OKAY wdata=0x912064b9
# UVM_INFO ../src/slv/ahb_slave_driver.sv(174) @ 1395000: uvm_test_top.env.slave_agent.drv [ahb_slave_driver] Beat AHB_WRITE addr=0x0000312a resp=AHB_RESP_OKAY waits=2 wdata=0x912064b9
# UVM_INFO ../src/mst/ahb_master_monitor.sv(117) @ 1395000: uvm_test_top.env.master_agent.mon [ahb_master_monitor] Beat[1] addr=0x0000312a wdata=0x912064b9 resp=AHB_RESP_OKAY
# UVM_INFO ../src/mst/ahb_master_driver.sv(283) @ 1405000: uvm_test_top.env.master_agent.drv [ahb_master_driver] Beat[2/4] addr=0x0000312c trans=AHB_TRANS_SEQ resp=AHB_RESP_OKAY wdata=0x687cc63b
# UVM_INFO ../src/slv/ahb_slave_driver.sv(174) @ 1405000: uvm_test_top.env.slave_agent.drv [ahb_slave_driver] Beat AHB_WRITE addr=0x0000312c resp=AHB_RESP_OKAY waits=0 wdata=0x687cc63b
# UVM_INFO ../src/mst/ahb_master_monitor.sv(117) @ 1405000: uvm_test_top.env.master_agent.mon [ahb_master_monitor] Beat[2] addr=0x0000312c wdata=0x687cc63b resp=AHB_RESP_OKAY
# UVM_INFO ../src/mst/ahb_master_driver.sv(283) @ 1415000: uvm_test_top.env.master_agent.drv [ahb_master_driver] Beat[3/4] addr=0x0000312e trans=AHB_TRANS_SEQ resp=AHB_RESP_OKAY wdata=0xdc717bdd
# UVM_INFO ../src/mst/ahb_master_driver.sv(327) @ 1415000: uvm_test_top.env.master_agent.drv [ahb_master_driver] Transaction complete: AHB_WRITE 0x00003128, 4 beats, burst=AHB_BURST_INCR4
# UVM_INFO ../src/slv/ahb_slave_driver.sv(174) @ 1415000: uvm_test_top.env.slave_agent.drv [ahb_slave_driver] Beat AHB_WRITE addr=0x0000312e resp=AHB_RESP_OKAY waits=0 wdata=0xdc717bdd
# UVM_INFO ../src/slv/ahb_slave_monitor.sv(197) @ 1415000: uvm_test_top.env.slave_agent.mon [ahb_slave_monitor] Observed [AHB_WRITE]: HADDR=0x00003128, HBURST=AHB_BURST_INCR4, HSIZE=AHB_SIZE_16B, 4 beats
# UVM_INFO ../src/env/ahb_coverage.sv(127) @ 1415000: uvm_test_top.env.slave_cov [ahb_coverage] Sampled [AHB_WRITE]: burst=AHB_BURST_INCR4 size=AHB_SIZE_16B beats=4 error=0
# UVM_INFO ../src/mst/ahb_master_monitor.sv(117) @ 1415000: uvm_test_top.env.master_agent.mon [ahb_master_monitor] Beat[3] addr=0x0000312e wdata=0xdc717bdd resp=AHB_RESP_OKAY
# UVM_INFO ../src/mst/ahb_master_monitor.sv(222) @ 1415000: uvm_test_top.env.master_agent.mon [ahb_master_monitor] Observed [AHB_WRITE]: HADDR=0x00003128, HBURST=AHB_BURST_INCR4, HSIZE=AHB_SIZE_16B, 4 beats
# UVM_INFO ../src/env/ahb_coverage.sv(127) @ 1415000: uvm_test_top.env.master_cov [ahb_coverage] Sampled [AHB_WRITE]: burst=AHB_BURST_INCR4 size=AHB_SIZE_16B beats=4 error=0
# UVM_INFO ../src/env/ahb_scoreboard.sv(104) @ 1415000: uvm_test_top.env.scb [ahb_scoreboard] MATCH #9: [AHB_WRITE] HADDR=0x00003128 AHB_BURST_INCR4 4 beats
# UVM_INFO ../src/mst/ahb_master_driver.sv(82) @ 1415000: uvm_test_top.env.master_agent.drv [ahb_master_driver] Queueing [AHB_READ]: HADDR=0x00003128, HBURST=AHB_BURST_INCR4, HSIZE=AHB_SIZE_16B, 4 beats
# UVM_INFO ../src/mst/ahb_master_driver.sv(124) @ 1415000: uvm_test_top.env.master_agent.drv [ahb_master_driver] Driving [AHB_READ]: HADDR=0x00003128, HBURST=AHB_BURST_INCR4, HSIZE=AHB_SIZE_16B, 4 beats               
# UVM_INFO ../src/mst/ahb_master_driver.sv(283) @ 1465000: uvm_test_top.env.master_agent.drv [ahb_master_driver] Beat[0/4] addr=0x00003128 trans=AHB_TRANS_NONSEQ resp=AHB_RESP_OKAY rdata=0x33113b07
# UVM_INFO ../src/slv/ahb_slave_driver.sv(174) @ 1465000: uvm_test_top.env.slave_agent.drv [ahb_slave_driver] Beat AHB_READ addr=0x00003128 resp=AHB_RESP_OKAY waits=2 rdata=0x33113b07
# UVM_INFO ../src/mst/ahb_master_monitor.sv(117) @ 1465000: uvm_test_top.env.master_agent.mon [ahb_master_monitor] Beat[0] addr=0x00003128 rdata=0x33113b07 resp=AHB_RESP_OKAY
# UVM_INFO ../src/mst/ahb_master_driver.sv(283) @ 1485000: uvm_test_top.env.master_agent.drv [ahb_master_driver] Beat[1/4] addr=0x0000312a trans=AHB_TRANS_SEQ resp=AHB_RESP_OKAY rdata=0x912064b9
# UVM_INFO ../src/slv/ahb_slave_driver.sv(174) @ 1485000: uvm_test_top.env.slave_agent.drv [ahb_slave_driver] Beat AHB_READ addr=0x0000312a resp=AHB_RESP_OKAY waits=1 rdata=0x912064b9
# UVM_INFO ../src/mst/ahb_master_monitor.sv(117) @ 1485000: uvm_test_top.env.master_agent.mon [ahb_master_monitor] Beat[1] addr=0x0000312a rdata=0x912064b9 resp=AHB_RESP_OKAY
# UVM_INFO ../src/mst/ahb_master_driver.sv(283) @ 1505000: uvm_test_top.env.master_agent.drv [ahb_master_driver] Beat[2/4] addr=0x0000312c trans=AHB_TRANS_SEQ resp=AHB_RESP_OKAY rdata=0x687cc63b
# UVM_INFO ../src/slv/ahb_slave_driver.sv(174) @ 1505000: uvm_test_top.env.slave_agent.drv [ahb_slave_driver] Beat AHB_READ addr=0x0000312c resp=AHB_RESP_OKAY waits=1 rdata=0x687cc63b
# UVM_INFO ../src/mst/ahb_master_monitor.sv(117) @ 1505000: uvm_test_top.env.master_agent.mon [ahb_master_monitor] Beat[2] addr=0x0000312c rdata=0x687cc63b resp=AHB_RESP_OKAY
# UVM_INFO ../src/mst/ahb_master_driver.sv(283) @ 1535000: uvm_test_top.env.master_agent.drv [ahb_master_driver] Beat[3/4] addr=0x0000312e trans=AHB_TRANS_SEQ resp=AHB_RESP_OKAY rdata=0xdc717bdd
# UVM_INFO ../src/mst/ahb_master_driver.sv(327) @ 1535000: uvm_test_top.env.master_agent.drv [ahb_master_driver] Transaction complete: AHB_READ 0x00003128, 4 beats, burst=AHB_BURST_INCR4
# UVM_INFO ../src/slv/ahb_slave_driver.sv(174) @ 1535000: uvm_test_top.env.slave_agent.drv [ahb_slave_driver] Beat AHB_READ addr=0x0000312e resp=AHB_RESP_OKAY waits=2 rdata=0xdc717bdd
# UVM_INFO ../src/slv/ahb_slave_monitor.sv(197) @ 1535000: uvm_test_top.env.slave_agent.mon [ahb_slave_monitor] Observed [AHB_READ]: HADDR=0x00003128, HBURST=AHB_BURST_INCR4, HSIZE=AHB_SIZE_16B, 4 beats
# UVM_INFO ../src/env/ahb_coverage.sv(127) @ 1535000: uvm_test_top.env.slave_cov [ahb_coverage] Sampled [AHB_READ]: burst=AHB_BURST_INCR4 size=AHB_SIZE_16B beats=4 error=0
# UVM_INFO ../src/mst/ahb_master_monitor.sv(117) @ 1535000: uvm_test_top.env.master_agent.mon [ahb_master_monitor] Beat[3] addr=0x0000312e rdata=0xdc717bdd resp=AHB_RESP_OKAY
# UVM_INFO ../src/mst/ahb_master_monitor.sv(222) @ 1535000: uvm_test_top.env.master_agent.mon [ahb_master_monitor] Observed [AHB_READ]: HADDR=0x00003128, HBURST=AHB_BURST_INCR4, HSIZE=AHB_SIZE_16B, 4 beats
# UVM_INFO ../src/env/ahb_coverage.sv(127) @ 1535000: uvm_test_top.env.master_cov [ahb_coverage] Sampled [AHB_READ]: burst=AHB_BURST_INCR4 size=AHB_SIZE_16B beats=4 error=0
# UVM_INFO ../src/env/ahb_scoreboard.sv(104) @ 1535000: uvm_test_top.env.scb [ahb_scoreboard] MATCH #10: [AHB_READ] HADDR=0x00003128 AHB_BURST_INCR4 4 beats
# UVM_INFO ../src/mst_seq/ahb_base_seq.sv(138) @ 1535000: uvm_test_top.env.master_agent.sqr@@seq [ahb_incr_burst_seq] AHB_BURST_INCR4 AHB_SIZE_16B beat 0 @0x00003128 ok
# UVM_INFO ../src/mst_seq/ahb_base_seq.sv(138) @ 1535000: uvm_test_top.env.master_agent.sqr@@seq [ahb_incr_burst_seq] AHB_BURST_INCR4 AHB_SIZE_16B beat 1 @0x0000312a ok
# UVM_INFO ../src/mst_seq/ahb_base_seq.sv(138) @ 1535000: uvm_test_top.env.master_agent.sqr@@seq [ahb_incr_burst_seq] AHB_BURST_INCR4 AHB_SIZE_16B beat 2 @0x0000312c ok
# UVM_INFO ../src/mst_seq/ahb_base_seq.sv(138) @ 1535000: uvm_test_top.env.master_agent.sqr@@seq [ahb_incr_burst_seq] AHB_BURST_INCR4 AHB_SIZE_16B beat 3 @0x0000312e ok
# UVM_INFO ../src/mst/ahb_master_driver.sv(82) @ 1535000: uvm_test_top.env.master_agent.drv [ahb_master_driver] Queueing [AHB_WRITE]: HADDR=0x0000315c, HBURST=AHB_BURST_INCR4, HSIZE=AHB_SIZE_8B, 4 beats
# UVM_INFO ../src/mst/ahb_master_driver.sv(124) @ 1535000: uvm_test_top.env.master_agent.drv [ahb_master_driver] Driving [AHB_WRITE]: HADDR=0x0000315c, HBURST=AHB_BURST_INCR4, HSIZE=AHB_SIZE_8B, 4 beats               
# UVM_INFO ../src/mst/ahb_master_driver.sv(283) @ 1575000: uvm_test_top.env.master_agent.drv [ahb_master_driver] Beat[0/4] addr=0x0000315c trans=AHB_TRANS_NONSEQ resp=AHB_RESP_OKAY wdata=0x2164ef63
# UVM_INFO ../src/slv/ahb_slave_driver.sv(174) @ 1575000: uvm_test_top.env.slave_agent.drv [ahb_slave_driver] Beat AHB_WRITE addr=0x0000315c resp=AHB_RESP_OKAY waits=1 wdata=0x2164ef63
# UVM_INFO ../src/mst/ahb_master_monitor.sv(117) @ 1575000: uvm_test_top.env.master_agent.mon [ahb_master_monitor] Beat[0] addr=0x0000315c wdata=0x2164ef63 resp=AHB_RESP_OKAY
# UVM_INFO ../src/mst/ahb_master_driver.sv(283) @ 1585000: uvm_test_top.env.master_agent.drv [ahb_master_driver] Beat[1/4] addr=0x0000315d trans=AHB_TRANS_SEQ resp=AHB_RESP_OKAY wdata=0xfba3dae5
# UVM_INFO ../src/slv/ahb_slave_driver.sv(174) @ 1585000: uvm_test_top.env.slave_agent.drv [ahb_slave_driver] Beat AHB_WRITE addr=0x0000315d resp=AHB_RESP_OKAY waits=0 wdata=0xfba3dae5
# UVM_INFO ../src/mst/ahb_master_monitor.sv(117) @ 1585000: uvm_test_top.env.master_agent.mon [ahb_master_monitor] Beat[1] addr=0x0000315d wdata=0xfba3dae5 resp=AHB_RESP_OKAY
# UVM_INFO ../src/mst/ahb_master_driver.sv(283) @ 1605000: uvm_test_top.env.master_agent.drv [ahb_master_driver] Beat[2/4] addr=0x0000315e trans=AHB_TRANS_SEQ resp=AHB_RESP_OKAY wdata=0xd1aa44a8
# UVM_INFO ../src/slv/ahb_slave_driver.sv(174) @ 1605000: uvm_test_top.env.slave_agent.drv [ahb_slave_driver] Beat AHB_WRITE addr=0x0000315e resp=AHB_RESP_OKAY waits=1 wdata=0xd1aa44a8
# UVM_INFO ../src/mst/ahb_master_monitor.sv(117) @ 1605000: uvm_test_top.env.master_agent.mon [ahb_master_monitor] Beat[2] addr=0x0000315e wdata=0xd1aa44a8 resp=AHB_RESP_OKAY
# UVM_INFO ../src/mst/ahb_master_driver.sv(283) @ 1625000: uvm_test_top.env.master_agent.drv [ahb_master_driver] Beat[3/4] addr=0x0000315f trans=AHB_TRANS_SEQ resp=AHB_RESP_OKAY wdata=0x5c7d6b11
# UVM_INFO ../src/mst/ahb_master_driver.sv(327) @ 1625000: uvm_test_top.env.master_agent.drv [ahb_master_driver] Transaction complete: AHB_WRITE 0x0000315c, 4 beats, burst=AHB_BURST_INCR4
# UVM_INFO ../src/slv/ahb_slave_driver.sv(174) @ 1625000: uvm_test_top.env.slave_agent.drv [ahb_slave_driver] Beat AHB_WRITE addr=0x0000315f resp=AHB_RESP_OKAY waits=1 wdata=0x5c7d6b11
# UVM_INFO ../src/mst/ahb_master_monitor.sv(117) @ 1625000: uvm_test_top.env.master_agent.mon [ahb_master_monitor] Beat[3] addr=0x0000315f wdata=0x5c7d6b11 resp=AHB_RESP_OKAY
# UVM_INFO ../src/mst/ahb_master_monitor.sv(222) @ 1625000: uvm_test_top.env.master_agent.mon [ahb_master_monitor] Observed [AHB_WRITE]: HADDR=0x0000315c, HBURST=AHB_BURST_INCR4, HSIZE=AHB_SIZE_8B, 4 beats
# UVM_INFO ../src/env/ahb_coverage.sv(127) @ 1625000: uvm_test_top.env.master_cov [ahb_coverage] Sampled [AHB_WRITE]: burst=AHB_BURST_INCR4 size=AHB_SIZE_8B beats=4 error=0
# UVM_INFO ../src/slv/ahb_slave_monitor.sv(197) @ 1625000: uvm_test_top.env.slave_agent.mon [ahb_slave_monitor] Observed [AHB_WRITE]: HADDR=0x0000315c, HBURST=AHB_BURST_INCR4, HSIZE=AHB_SIZE_8B, 4 beats
# UVM_INFO ../src/env/ahb_scoreboard.sv(104) @ 1625000: uvm_test_top.env.scb [ahb_scoreboard] MATCH #11: [AHB_WRITE] HADDR=0x0000315c AHB_BURST_INCR4 4 beats
# UVM_INFO ../src/env/ahb_coverage.sv(127) @ 1625000: uvm_test_top.env.slave_cov [ahb_coverage] Sampled [AHB_WRITE]: burst=AHB_BURST_INCR4 size=AHB_SIZE_8B beats=4 error=0
# UVM_INFO ../src/mst/ahb_master_driver.sv(82) @ 1625000: uvm_test_top.env.master_agent.drv [ahb_master_driver] Queueing [AHB_READ]: HADDR=0x0000315c, HBURST=AHB_BURST_INCR4, HSIZE=AHB_SIZE_8B, 4 beats
# UVM_INFO ../src/mst/ahb_master_driver.sv(124) @ 1625000: uvm_test_top.env.master_agent.drv [ahb_master_driver] Driving [AHB_READ]: HADDR=0x0000315c, HBURST=AHB_BURST_INCR4, HSIZE=AHB_SIZE_8B, 4 beats               
# UVM_INFO ../src/mst/ahb_master_driver.sv(283) @ 1665000: uvm_test_top.env.master_agent.drv [ahb_master_driver] Beat[0/4] addr=0x0000315c trans=AHB_TRANS_NONSEQ resp=AHB_RESP_OKAY rdata=0x2164ef63
# UVM_INFO ../src/slv/ahb_slave_driver.sv(174) @ 1665000: uvm_test_top.env.slave_agent.drv [ahb_slave_driver] Beat AHB_READ addr=0x0000315c resp=AHB_RESP_OKAY waits=1 rdata=0x2164ef63
# UVM_INFO ../src/mst/ahb_master_monitor.sv(117) @ 1665000: uvm_test_top.env.master_agent.mon [ahb_master_monitor] Beat[0] addr=0x0000315c rdata=0x2164ef63 resp=AHB_RESP_OKAY
# UVM_INFO ../src/mst/ahb_master_driver.sv(283) @ 1675000: uvm_test_top.env.master_agent.drv [ahb_master_driver] Beat[1/4] addr=0x0000315d trans=AHB_TRANS_SEQ resp=AHB_RESP_OKAY rdata=0xfba3dae5
# UVM_INFO ../src/slv/ahb_slave_driver.sv(174) @ 1675000: uvm_test_top.env.slave_agent.drv [ahb_slave_driver] Beat AHB_READ addr=0x0000315d resp=AHB_RESP_OKAY waits=0 rdata=0xfba3dae5
# UVM_INFO ../src/mst/ahb_master_monitor.sv(117) @ 1675000: uvm_test_top.env.master_agent.mon [ahb_master_monitor] Beat[1] addr=0x0000315d rdata=0xfba3dae5 resp=AHB_RESP_OKAY
# UVM_INFO ../src/mst/ahb_master_driver.sv(283) @ 1685000: uvm_test_top.env.master_agent.drv [ahb_master_driver] Beat[2/4] addr=0x0000315e trans=AHB_TRANS_SEQ resp=AHB_RESP_OKAY rdata=0xd1aa44a8
# UVM_INFO ../src/slv/ahb_slave_driver.sv(174) @ 1685000: uvm_test_top.env.slave_agent.drv [ahb_slave_driver] Beat AHB_READ addr=0x0000315e resp=AHB_RESP_OKAY waits=0 rdata=0xd1aa44a8
# UVM_INFO ../src/mst/ahb_master_monitor.sv(117) @ 1685000: uvm_test_top.env.master_agent.mon [ahb_master_monitor] Beat[2] addr=0x0000315e rdata=0xd1aa44a8 resp=AHB_RESP_OKAY
# UVM_INFO ../src/mst/ahb_master_driver.sv(283) @ 1705000: uvm_test_top.env.master_agent.drv [ahb_master_driver] Beat[3/4] addr=0x0000315f trans=AHB_TRANS_SEQ resp=AHB_RESP_OKAY rdata=0x5c7d6b11
# UVM_INFO ../src/mst/ahb_master_driver.sv(327) @ 1705000: uvm_test_top.env.master_agent.drv [ahb_master_driver] Transaction complete: AHB_READ 0x0000315c, 4 beats, burst=AHB_BURST_INCR4
# UVM_INFO ../src/slv/ahb_slave_driver.sv(174) @ 1705000: uvm_test_top.env.slave_agent.drv [ahb_slave_driver] Beat AHB_READ addr=0x0000315f resp=AHB_RESP_OKAY waits=1 rdata=0x5c7d6b11
# UVM_INFO ../src/mst/ahb_master_monitor.sv(117) @ 1705000: uvm_test_top.env.master_agent.mon [ahb_master_monitor] Beat[3] addr=0x0000315f rdata=0x5c7d6b11 resp=AHB_RESP_OKAY
# UVM_INFO ../src/mst/ahb_master_monitor.sv(222) @ 1705000: uvm_test_top.env.master_agent.mon [ahb_master_monitor] Observed [AHB_READ]: HADDR=0x0000315c, HBURST=AHB_BURST_INCR4, HSIZE=AHB_SIZE_8B, 4 beats
# UVM_INFO ../src/env/ahb_coverage.sv(127) @ 1705000: uvm_test_top.env.master_cov [ahb_coverage] Sampled [AHB_READ]: burst=AHB_BURST_INCR4 size=AHB_SIZE_8B beats=4 error=0
# UVM_INFO ../src/slv/ahb_slave_monitor.sv(197) @ 1705000: uvm_test_top.env.slave_agent.mon [ahb_slave_monitor] Observed [AHB_READ]: HADDR=0x0000315c, HBURST=AHB_BURST_INCR4, HSIZE=AHB_SIZE_8B, 4 beats
# UVM_INFO ../src/env/ahb_scoreboard.sv(104) @ 1705000: uvm_test_top.env.scb [ahb_scoreboard] MATCH #12: [AHB_READ] HADDR=0x0000315c AHB_BURST_INCR4 4 beats
# UVM_INFO ../src/env/ahb_coverage.sv(127) @ 1705000: uvm_test_top.env.slave_cov [ahb_coverage] Sampled [AHB_READ]: burst=AHB_BURST_INCR4 size=AHB_SIZE_8B beats=4 error=0
# UVM_INFO ../src/mst_seq/ahb_base_seq.sv(138) @ 1705000: uvm_test_top.env.master_agent.sqr@@seq [ahb_incr_burst_seq] AHB_BURST_INCR4 AHB_SIZE_8B beat 0 @0x0000315c ok
# UVM_INFO ../src/mst_seq/ahb_base_seq.sv(138) @ 1705000: uvm_test_top.env.master_agent.sqr@@seq [ahb_incr_burst_seq] AHB_BURST_INCR4 AHB_SIZE_8B beat 1 @0x0000315d ok
# UVM_INFO ../src/mst_seq/ahb_base_seq.sv(138) @ 1705000: uvm_test_top.env.master_agent.sqr@@seq [ahb_incr_burst_seq] AHB_BURST_INCR4 AHB_SIZE_8B beat 2 @0x0000315e ok
# UVM_INFO ../src/mst_seq/ahb_base_seq.sv(138) @ 1705000: uvm_test_top.env.master_agent.sqr@@seq [ahb_incr_burst_seq] AHB_BURST_INCR4 AHB_SIZE_8B beat 3 @0x0000315f ok
# UVM_INFO ../src/mst/ahb_master_driver.sv(82) @ 1705000: uvm_test_top.env.master_agent.drv [ahb_master_driver] Queueing [AHB_WRITE]: HADDR=0x000031ab, HBURST=AHB_BURST_INCR8, HSIZE=AHB_SIZE_8B, 8 beats
# UVM_INFO ../src/mst/ahb_master_driver.sv(124) @ 1705000: uvm_test_top.env.master_agent.drv [ahb_master_driver] Driving [AHB_WRITE]: HADDR=0x000031ab, HBURST=AHB_BURST_INCR8, HSIZE=AHB_SIZE_8B, 8 beats               
# UVM_INFO ../src/mst/ahb_master_driver.sv(283) @ 1735000: uvm_test_top.env.master_agent.drv [ahb_master_driver] Beat[0/8] addr=0x000031ab trans=AHB_TRANS_NONSEQ resp=AHB_RESP_OKAY wdata=0x42b8d98b
# UVM_INFO ../src/slv/ahb_slave_driver.sv(174) @ 1735000: uvm_test_top.env.slave_agent.drv [ahb_slave_driver] Beat AHB_WRITE addr=0x000031ab resp=AHB_RESP_OKAY waits=0 wdata=0x42b8d98b
# UVM_INFO ../src/mst/ahb_master_monitor.sv(117) @ 1735000: uvm_test_top.env.master_agent.mon [ahb_master_monitor] Beat[0] addr=0x000031ab wdata=0x42b8d98b resp=AHB_RESP_OKAY
# UVM_INFO ../src/mst/ahb_master_driver.sv(283) @ 1745000: uvm_test_top.env.master_agent.drv [ahb_master_driver] Beat[1/8] addr=0x000031ac trans=AHB_TRANS_SEQ resp=AHB_RESP_OKAY wdata=0x41d07d94
# UVM_INFO ../src/slv/ahb_slave_driver.sv(174) @ 1745000: uvm_test_top.env.slave_agent.drv [ahb_slave_driver] Beat AHB_WRITE addr=0x000031ac resp=AHB_RESP_OKAY waits=0 wdata=0x41d07d94
# UVM_INFO ../src/mst/ahb_master_monitor.sv(117) @ 1745000: uvm_test_top.env.master_agent.mon [ahb_master_monitor] Beat[1] addr=0x000031ac wdata=0x41d07d94 resp=AHB_RESP_OKAY
# UVM_INFO ../src/mst/ahb_master_driver.sv(283) @ 1755000: uvm_test_top.env.master_agent.drv [ahb_master_driver] Beat[2/8] addr=0x000031ad trans=AHB_TRANS_SEQ resp=AHB_RESP_OKAY wdata=0xeeeeee30
# UVM_INFO ../src/slv/ahb_slave_driver.sv(174) @ 1755000: uvm_test_top.env.slave_agent.drv [ahb_slave_driver] Beat AHB_WRITE addr=0x000031ad resp=AHB_RESP_OKAY waits=0 wdata=0xeeeeee30
# UVM_INFO ../src/mst/ahb_master_monitor.sv(117) @ 1755000: uvm_test_top.env.master_agent.mon [ahb_master_monitor] Beat[2] addr=0x000031ad wdata=0xeeeeee30 resp=AHB_RESP_OKAY
# UVM_INFO ../src/mst/ahb_master_driver.sv(283) @ 1775000: uvm_test_top.env.master_agent.drv [ahb_master_driver] Beat[3/8] addr=0x000031ae trans=AHB_TRANS_SEQ resp=AHB_RESP_OKAY wdata=0x3cf9d184
# UVM_INFO ../src/slv/ahb_slave_driver.sv(174) @ 1775000: uvm_test_top.env.slave_agent.drv [ahb_slave_driver] Beat AHB_WRITE addr=0x000031ae resp=AHB_RESP_OKAY waits=1 wdata=0x3cf9d184
# UVM_INFO ../src/mst/ahb_master_monitor.sv(117) @ 1775000: uvm_test_top.env.master_agent.mon [ahb_master_monitor] Beat[3] addr=0x000031ae wdata=0x3cf9d184 resp=AHB_RESP_OKAY
# UVM_INFO ../src/mst/ahb_master_driver.sv(283) @ 1805000: uvm_test_top.env.master_agent.drv [ahb_master_driver] Beat[4/8] addr=0x000031af trans=AHB_TRANS_SEQ resp=AHB_RESP_OKAY wdata=0xad43f68b
# UVM_INFO ../src/slv/ahb_slave_driver.sv(174) @ 1805000: uvm_test_top.env.slave_agent.drv [ahb_slave_driver] Beat AHB_WRITE addr=0x000031af resp=AHB_RESP_OKAY waits=2 wdata=0xad43f68b
# UVM_INFO ../src/mst/ahb_master_monitor.sv(117) @ 1805000: uvm_test_top.env.master_agent.mon [ahb_master_monitor] Beat[4] addr=0x000031af wdata=0xad43f68b resp=AHB_RESP_OKAY
# UVM_INFO ../src/mst/ahb_master_driver.sv(283) @ 1815000: uvm_test_top.env.master_agent.drv [ahb_master_driver] Beat[5/8] addr=0x000031b0 trans=AHB_TRANS_SEQ resp=AHB_RESP_OKAY wdata=0x049bda91
# UVM_INFO ../src/slv/ahb_slave_driver.sv(174) @ 1815000: uvm_test_top.env.slave_agent.drv [ahb_slave_driver] Beat AHB_WRITE addr=0x000031b0 resp=AHB_RESP_OKAY waits=0 wdata=0x049bda91
# UVM_INFO ../src/mst/ahb_master_monitor.sv(117) @ 1815000: uvm_test_top.env.master_agent.mon [ahb_master_monitor] Beat[5] addr=0x000031b0 wdata=0x049bda91 resp=AHB_RESP_OKAY
# UVM_INFO ../src/mst/ahb_master_driver.sv(283) @ 1835000: uvm_test_top.env.master_agent.drv [ahb_master_driver] Beat[6/8] addr=0x000031b1 trans=AHB_TRANS_SEQ resp=AHB_RESP_OKAY wdata=0xb9285052
# UVM_INFO ../src/slv/ahb_slave_driver.sv(174) @ 1835000: uvm_test_top.env.slave_agent.drv [ahb_slave_driver] Beat AHB_WRITE addr=0x000031b1 resp=AHB_RESP_OKAY waits=1 wdata=0xb9285052
# UVM_INFO ../src/mst/ahb_master_monitor.sv(117) @ 1835000: uvm_test_top.env.master_agent.mon [ahb_master_monitor] Beat[6] addr=0x000031b1 wdata=0xb9285052 resp=AHB_RESP_OKAY
# UVM_INFO ../src/mst/ahb_master_driver.sv(283) @ 1845000: uvm_test_top.env.master_agent.drv [ahb_master_driver] Beat[7/8] addr=0x000031b2 trans=AHB_TRANS_SEQ resp=AHB_RESP_OKAY wdata=0xa63a6534
# UVM_INFO ../src/mst/ahb_master_driver.sv(327) @ 1845000: uvm_test_top.env.master_agent.drv [ahb_master_driver] Transaction complete: AHB_WRITE 0x000031ab, 8 beats, burst=AHB_BURST_INCR8
# UVM_INFO ../src/slv/ahb_slave_driver.sv(174) @ 1845000: uvm_test_top.env.slave_agent.drv [ahb_slave_driver] Beat AHB_WRITE addr=0x000031b2 resp=AHB_RESP_OKAY waits=0 wdata=0xa63a6534
# UVM_INFO ../src/mst/ahb_master_monitor.sv(117) @ 1845000: uvm_test_top.env.master_agent.mon [ahb_master_monitor] Beat[7] addr=0x000031b2 wdata=0xa63a6534 resp=AHB_RESP_OKAY
# UVM_INFO ../src/mst/ahb_master_monitor.sv(222) @ 1845000: uvm_test_top.env.master_agent.mon [ahb_master_monitor] Observed [AHB_WRITE]: HADDR=0x000031ab, HBURST=AHB_BURST_INCR8, HSIZE=AHB_SIZE_8B, 8 beats
# UVM_INFO ../src/env/ahb_coverage.sv(127) @ 1845000: uvm_test_top.env.master_cov [ahb_coverage] Sampled [AHB_WRITE]: burst=AHB_BURST_INCR8 size=AHB_SIZE_8B beats=8 error=0
# UVM_INFO ../src/slv/ahb_slave_monitor.sv(197) @ 1845000: uvm_test_top.env.slave_agent.mon [ahb_slave_monitor] Observed [AHB_WRITE]: HADDR=0x000031ab, HBURST=AHB_BURST_INCR8, HSIZE=AHB_SIZE_8B, 8 beats
# UVM_INFO ../src/env/ahb_scoreboard.sv(104) @ 1845000: uvm_test_top.env.scb [ahb_scoreboard] MATCH #13: [AHB_WRITE] HADDR=0x000031ab AHB_BURST_INCR8 8 beats
# UVM_INFO ../src/env/ahb_coverage.sv(127) @ 1845000: uvm_test_top.env.slave_cov [ahb_coverage] Sampled [AHB_WRITE]: burst=AHB_BURST_INCR8 size=AHB_SIZE_8B beats=8 error=0
# UVM_INFO ../src/mst/ahb_master_driver.sv(82) @ 1845000: uvm_test_top.env.master_agent.drv [ahb_master_driver] Queueing [AHB_READ]: HADDR=0x000031ab, HBURST=AHB_BURST_INCR8, HSIZE=AHB_SIZE_8B, 8 beats
# UVM_INFO ../src/mst/ahb_master_driver.sv(124) @ 1845000: uvm_test_top.env.master_agent.drv [ahb_master_driver] Driving [AHB_READ]: HADDR=0x000031ab, HBURST=AHB_BURST_INCR8, HSIZE=AHB_SIZE_8B, 8 beats               
# UVM_INFO ../src/mst/ahb_master_driver.sv(283) @ 1885000: uvm_test_top.env.master_agent.drv [ahb_master_driver] Beat[0/8] addr=0x000031ab trans=AHB_TRANS_NONSEQ resp=AHB_RESP_OKAY rdata=0x42b8d98b
# UVM_INFO ../src/slv/ahb_slave_driver.sv(174) @ 1885000: uvm_test_top.env.slave_agent.drv [ahb_slave_driver] Beat AHB_READ addr=0x000031ab resp=AHB_RESP_OKAY waits=1 rdata=0x42b8d98b
# UVM_INFO ../src/mst/ahb_master_monitor.sv(117) @ 1885000: uvm_test_top.env.master_agent.mon [ahb_master_monitor] Beat[0] addr=0x000031ab rdata=0x42b8d98b resp=AHB_RESP_OKAY
# UVM_INFO ../src/mst/ahb_master_driver.sv(283) @ 1895000: uvm_test_top.env.master_agent.drv [ahb_master_driver] Beat[1/8] addr=0x000031ac trans=AHB_TRANS_SEQ resp=AHB_RESP_OKAY rdata=0x41d07d94
# UVM_INFO ../src/slv/ahb_slave_driver.sv(174) @ 1895000: uvm_test_top.env.slave_agent.drv [ahb_slave_driver] Beat AHB_READ addr=0x000031ac resp=AHB_RESP_OKAY waits=0 rdata=0x41d07d94
# UVM_INFO ../src/mst/ahb_master_monitor.sv(117) @ 1895000: uvm_test_top.env.master_agent.mon [ahb_master_monitor] Beat[1] addr=0x000031ac rdata=0x41d07d94 resp=AHB_RESP_OKAY
# UVM_INFO ../src/mst/ahb_master_driver.sv(283) @ 1905000: uvm_test_top.env.master_agent.drv [ahb_master_driver] Beat[2/8] addr=0x000031ad trans=AHB_TRANS_SEQ resp=AHB_RESP_OKAY rdata=0xeeeeee30
# UVM_INFO ../src/slv/ahb_slave_driver.sv(174) @ 1905000: uvm_test_top.env.slave_agent.drv [ahb_slave_driver] Beat AHB_READ addr=0x000031ad resp=AHB_RESP_OKAY waits=0 rdata=0xeeeeee30
# UVM_INFO ../src/mst/ahb_master_monitor.sv(117) @ 1905000: uvm_test_top.env.master_agent.mon [ahb_master_monitor] Beat[2] addr=0x000031ad rdata=0xeeeeee30 resp=AHB_RESP_OKAY
# UVM_INFO ../src/mst/ahb_master_driver.sv(283) @ 1935000: uvm_test_top.env.master_agent.drv [ahb_master_driver] Beat[3/8] addr=0x000031ae trans=AHB_TRANS_SEQ resp=AHB_RESP_OKAY rdata=0x3cf9d184
# UVM_INFO ../src/slv/ahb_slave_driver.sv(174) @ 1935000: uvm_test_top.env.slave_agent.drv [ahb_slave_driver] Beat AHB_READ addr=0x000031ae resp=AHB_RESP_OKAY waits=2 rdata=0x3cf9d184
# UVM_INFO ../src/mst/ahb_master_monitor.sv(117) @ 1935000: uvm_test_top.env.master_agent.mon [ahb_master_monitor] Beat[3] addr=0x000031ae rdata=0x3cf9d184 resp=AHB_RESP_OKAY
# UVM_INFO ../src/mst/ahb_master_driver.sv(283) @ 1955000: uvm_test_top.env.master_agent.drv [ahb_master_driver] Beat[4/8] addr=0x000031af trans=AHB_TRANS_SEQ resp=AHB_RESP_OKAY rdata=0xad43f68b
# UVM_INFO ../src/slv/ahb_slave_driver.sv(174) @ 1955000: uvm_test_top.env.slave_agent.drv [ahb_slave_driver] Beat AHB_READ addr=0x000031af resp=AHB_RESP_OKAY waits=1 rdata=0xad43f68b
# UVM_INFO ../src/mst/ahb_master_monitor.sv(117) @ 1955000: uvm_test_top.env.master_agent.mon [ahb_master_monitor] Beat[4] addr=0x000031af rdata=0xad43f68b resp=AHB_RESP_OKAY
# UVM_INFO ../src/mst/ahb_master_driver.sv(283) @ 1985000: uvm_test_top.env.master_agent.drv [ahb_master_driver] Beat[5/8] addr=0x000031b0 trans=AHB_TRANS_SEQ resp=AHB_RESP_OKAY rdata=0x049bda91
# UVM_INFO ../src/slv/ahb_slave_driver.sv(174) @ 1985000: uvm_test_top.env.slave_agent.drv [ahb_slave_driver] Beat AHB_READ addr=0x000031b0 resp=AHB_RESP_OKAY waits=2 rdata=0x049bda91
# UVM_INFO ../src/mst/ahb_master_monitor.sv(117) @ 1985000: uvm_test_top.env.master_agent.mon [ahb_master_monitor] Beat[5] addr=0x000031b0 rdata=0x049bda91 resp=AHB_RESP_OKAY
# UVM_INFO ../src/mst/ahb_master_driver.sv(283) @ 2015000: uvm_test_top.env.master_agent.drv [ahb_master_driver] Beat[6/8] addr=0x000031b1 trans=AHB_TRANS_SEQ resp=AHB_RESP_OKAY rdata=0xb9285052
# UVM_INFO ../src/slv/ahb_slave_driver.sv(174) @ 2015000: uvm_test_top.env.slave_agent.drv [ahb_slave_driver] Beat AHB_READ addr=0x000031b1 resp=AHB_RESP_OKAY waits=2 rdata=0xb9285052
# UVM_INFO ../src/mst/ahb_master_monitor.sv(117) @ 2015000: uvm_test_top.env.master_agent.mon [ahb_master_monitor] Beat[6] addr=0x000031b1 rdata=0xb9285052 resp=AHB_RESP_OKAY
# UVM_INFO ../src/mst/ahb_master_driver.sv(283) @ 2035000: uvm_test_top.env.master_agent.drv [ahb_master_driver] Beat[7/8] addr=0x000031b2 trans=AHB_TRANS_SEQ resp=AHB_RESP_OKAY rdata=0xa63a6534
# UVM_INFO ../src/mst/ahb_master_driver.sv(327) @ 2035000: uvm_test_top.env.master_agent.drv [ahb_master_driver] Transaction complete: AHB_READ 0x000031ab, 8 beats, burst=AHB_BURST_INCR8
# UVM_INFO ../src/slv/ahb_slave_driver.sv(174) @ 2035000: uvm_test_top.env.slave_agent.drv [ahb_slave_driver] Beat AHB_READ addr=0x000031b2 resp=AHB_RESP_OKAY waits=1 rdata=0xa63a6534
# UVM_INFO ../src/slv/ahb_slave_monitor.sv(197) @ 2035000: uvm_test_top.env.slave_agent.mon [ahb_slave_monitor] Observed [AHB_READ]: HADDR=0x000031ab, HBURST=AHB_BURST_INCR8, HSIZE=AHB_SIZE_8B, 8 beats
# UVM_INFO ../src/env/ahb_coverage.sv(127) @ 2035000: uvm_test_top.env.slave_cov [ahb_coverage] Sampled [AHB_READ]: burst=AHB_BURST_INCR8 size=AHB_SIZE_8B beats=8 error=0
# UVM_INFO ../src/mst/ahb_master_monitor.sv(117) @ 2035000: uvm_test_top.env.master_agent.mon [ahb_master_monitor] Beat[7] addr=0x000031b2 rdata=0xa63a6534 resp=AHB_RESP_OKAY
# UVM_INFO ../src/mst/ahb_master_monitor.sv(222) @ 2035000: uvm_test_top.env.master_agent.mon [ahb_master_monitor] Observed [AHB_READ]: HADDR=0x000031ab, HBURST=AHB_BURST_INCR8, HSIZE=AHB_SIZE_8B, 8 beats
# UVM_INFO ../src/env/ahb_coverage.sv(127) @ 2035000: uvm_test_top.env.master_cov [ahb_coverage] Sampled [AHB_READ]: burst=AHB_BURST_INCR8 size=AHB_SIZE_8B beats=8 error=0
# UVM_INFO ../src/env/ahb_scoreboard.sv(104) @ 2035000: uvm_test_top.env.scb [ahb_scoreboard] MATCH #14: [AHB_READ] HADDR=0x000031ab AHB_BURST_INCR8 8 beats
# UVM_INFO ../src/mst_seq/ahb_base_seq.sv(138) @ 2035000: uvm_test_top.env.master_agent.sqr@@seq [ahb_incr_burst_seq] AHB_BURST_INCR8 AHB_SIZE_8B beat 0 @0x000031ab ok
# UVM_INFO ../src/mst_seq/ahb_base_seq.sv(138) @ 2035000: uvm_test_top.env.master_agent.sqr@@seq [ahb_incr_burst_seq] AHB_BURST_INCR8 AHB_SIZE_8B beat 1 @0x000031ac ok
# UVM_INFO ../src/mst_seq/ahb_base_seq.sv(138) @ 2035000: uvm_test_top.env.master_agent.sqr@@seq [ahb_incr_burst_seq] AHB_BURST_INCR8 AHB_SIZE_8B beat 2 @0x000031ad ok
# UVM_INFO ../src/mst_seq/ahb_base_seq.sv(138) @ 2035000: uvm_test_top.env.master_agent.sqr@@seq [ahb_incr_burst_seq] AHB_BURST_INCR8 AHB_SIZE_8B beat 3 @0x000031ae ok
# UVM_INFO ../src/mst_seq/ahb_base_seq.sv(138) @ 2035000: uvm_test_top.env.master_agent.sqr@@seq [ahb_incr_burst_seq] AHB_BURST_INCR8 AHB_SIZE_8B beat 4 @0x000031af ok
# UVM_INFO ../src/mst_seq/ahb_base_seq.sv(138) @ 2035000: uvm_test_top.env.master_agent.sqr@@seq [ahb_incr_burst_seq] AHB_BURST_INCR8 AHB_SIZE_8B beat 5 @0x000031b0 ok
# UVM_INFO ../src/mst_seq/ahb_base_seq.sv(138) @ 2035000: uvm_test_top.env.master_agent.sqr@@seq [ahb_incr_burst_seq] AHB_BURST_INCR8 AHB_SIZE_8B beat 6 @0x000031b1 ok
# UVM_INFO ../src/mst_seq/ahb_base_seq.sv(138) @ 2035000: uvm_test_top.env.master_agent.sqr@@seq [ahb_incr_burst_seq] AHB_BURST_INCR8 AHB_SIZE_8B beat 7 @0x000031b2 ok
# UVM_INFO ../src/mst/ahb_master_driver.sv(82) @ 2035000: uvm_test_top.env.master_agent.drv [ahb_master_driver] Queueing [AHB_WRITE]: HADDR=0x000031d7, HBURST=AHB_BURST_INCR4, HSIZE=AHB_SIZE_8B, 4 beats
# UVM_INFO ../src/mst/ahb_master_driver.sv(124) @ 2035000: uvm_test_top.env.master_agent.drv [ahb_master_driver] Driving [AHB_WRITE]: HADDR=0x000031d7, HBURST=AHB_BURST_INCR4, HSIZE=AHB_SIZE_8B, 4 beats               
# UVM_INFO ../src/mst/ahb_master_driver.sv(283) @ 2065000: uvm_test_top.env.master_agent.drv [ahb_master_driver] Beat[0/4] addr=0x000031d7 trans=AHB_TRANS_NONSEQ resp=AHB_RESP_OKAY wdata=0x30e5530a
# UVM_INFO ../src/slv/ahb_slave_driver.sv(174) @ 2065000: uvm_test_top.env.slave_agent.drv [ahb_slave_driver] Beat AHB_WRITE addr=0x000031d7 resp=AHB_RESP_OKAY waits=0 wdata=0x30e5530a
# UVM_INFO ../src/mst/ahb_master_monitor.sv(117) @ 2065000: uvm_test_top.env.master_agent.mon [ahb_master_monitor] Beat[0] addr=0x000031d7 wdata=0x30e5530a resp=AHB_RESP_OKAY
# UVM_INFO ../src/mst/ahb_master_driver.sv(283) @ 2095000: uvm_test_top.env.master_agent.drv [ahb_master_driver] Beat[1/4] addr=0x000031d8 trans=AHB_TRANS_SEQ resp=AHB_RESP_OKAY wdata=0x857fed30
# UVM_INFO ../src/slv/ahb_slave_driver.sv(174) @ 2095000: uvm_test_top.env.slave_agent.drv [ahb_slave_driver] Beat AHB_WRITE addr=0x000031d8 resp=AHB_RESP_OKAY waits=2 wdata=0x857fed30
# UVM_INFO ../src/mst/ahb_master_monitor.sv(117) @ 2095000: uvm_test_top.env.master_agent.mon [ahb_master_monitor] Beat[1] addr=0x000031d8 wdata=0x857fed30 resp=AHB_RESP_OKAY
# UVM_INFO ../src/mst/ahb_master_driver.sv(283) @ 2115000: uvm_test_top.env.master_agent.drv [ahb_master_driver] Beat[2/4] addr=0x000031d9 trans=AHB_TRANS_SEQ resp=AHB_RESP_OKAY wdata=0x85d81718
# UVM_INFO ../src/slv/ahb_slave_driver.sv(174) @ 2115000: uvm_test_top.env.slave_agent.drv [ahb_slave_driver] Beat AHB_WRITE addr=0x000031d9 resp=AHB_RESP_OKAY waits=1 wdata=0x85d81718
# UVM_INFO ../src/mst/ahb_master_monitor.sv(117) @ 2115000: uvm_test_top.env.master_agent.mon [ahb_master_monitor] Beat[2] addr=0x000031d9 wdata=0x85d81718 resp=AHB_RESP_OKAY
# UVM_INFO ../src/mst/ahb_master_driver.sv(283) @ 2145000: uvm_test_top.env.master_agent.drv [ahb_master_driver] Beat[3/4] addr=0x000031da trans=AHB_TRANS_SEQ resp=AHB_RESP_OKAY wdata=0x7cd9d19c
# UVM_INFO ../src/mst/ahb_master_driver.sv(327) @ 2145000: uvm_test_top.env.master_agent.drv [ahb_master_driver] Transaction complete: AHB_WRITE 0x000031d7, 4 beats, burst=AHB_BURST_INCR4
# UVM_INFO ../src/slv/ahb_slave_driver.sv(174) @ 2145000: uvm_test_top.env.slave_agent.drv [ahb_slave_driver] Beat AHB_WRITE addr=0x000031da resp=AHB_RESP_OKAY waits=2 wdata=0x7cd9d19c
# UVM_INFO ../src/mst/ahb_master_monitor.sv(117) @ 2145000: uvm_test_top.env.master_agent.mon [ahb_master_monitor] Beat[3] addr=0x000031da wdata=0x7cd9d19c resp=AHB_RESP_OKAY
# UVM_INFO ../src/mst/ahb_master_monitor.sv(222) @ 2145000: uvm_test_top.env.master_agent.mon [ahb_master_monitor] Observed [AHB_WRITE]: HADDR=0x000031d7, HBURST=AHB_BURST_INCR4, HSIZE=AHB_SIZE_8B, 4 beats
# UVM_INFO ../src/env/ahb_coverage.sv(127) @ 2145000: uvm_test_top.env.master_cov [ahb_coverage] Sampled [AHB_WRITE]: burst=AHB_BURST_INCR4 size=AHB_SIZE_8B beats=4 error=0
# UVM_INFO ../src/slv/ahb_slave_monitor.sv(197) @ 2145000: uvm_test_top.env.slave_agent.mon [ahb_slave_monitor] Observed [AHB_WRITE]: HADDR=0x000031d7, HBURST=AHB_BURST_INCR4, HSIZE=AHB_SIZE_8B, 4 beats
# UVM_INFO ../src/env/ahb_scoreboard.sv(104) @ 2145000: uvm_test_top.env.scb [ahb_scoreboard] MATCH #15: [AHB_WRITE] HADDR=0x000031d7 AHB_BURST_INCR4 4 beats
# UVM_INFO ../src/env/ahb_coverage.sv(127) @ 2145000: uvm_test_top.env.slave_cov [ahb_coverage] Sampled [AHB_WRITE]: burst=AHB_BURST_INCR4 size=AHB_SIZE_8B beats=4 error=0
# UVM_INFO ../src/mst/ahb_master_driver.sv(82) @ 2145000: uvm_test_top.env.master_agent.drv [ahb_master_driver] Queueing [AHB_READ]: HADDR=0x000031d7, HBURST=AHB_BURST_INCR4, HSIZE=AHB_SIZE_8B, 4 beats
# UVM_INFO ../src/mst/ahb_master_driver.sv(124) @ 2145000: uvm_test_top.env.master_agent.drv [ahb_master_driver] Driving [AHB_READ]: HADDR=0x000031d7, HBURST=AHB_BURST_INCR4, HSIZE=AHB_SIZE_8B, 4 beats               
# UVM_INFO ../src/mst/ahb_master_driver.sv(283) @ 2195000: uvm_test_top.env.master_agent.drv [ahb_master_driver] Beat[0/4] addr=0x000031d7 trans=AHB_TRANS_NONSEQ resp=AHB_RESP_OKAY rdata=0x30e5530a
# UVM_INFO ../src/slv/ahb_slave_driver.sv(174) @ 2195000: uvm_test_top.env.slave_agent.drv [ahb_slave_driver] Beat AHB_READ addr=0x000031d7 resp=AHB_RESP_OKAY waits=2 rdata=0x30e5530a
# UVM_INFO ../src/mst/ahb_master_monitor.sv(117) @ 2195000: uvm_test_top.env.master_agent.mon [ahb_master_monitor] Beat[0] addr=0x000031d7 rdata=0x30e5530a resp=AHB_RESP_OKAY
# UVM_INFO ../src/mst/ahb_master_driver.sv(283) @ 2205000: uvm_test_top.env.master_agent.drv [ahb_master_driver] Beat[1/4] addr=0x000031d8 trans=AHB_TRANS_SEQ resp=AHB_RESP_OKAY rdata=0x857fed30
# UVM_INFO ../src/slv/ahb_slave_driver.sv(174) @ 2205000: uvm_test_top.env.slave_agent.drv [ahb_slave_driver] Beat AHB_READ addr=0x000031d8 resp=AHB_RESP_OKAY waits=0 rdata=0x857fed30
# UVM_INFO ../src/mst/ahb_master_monitor.sv(117) @ 2205000: uvm_test_top.env.master_agent.mon [ahb_master_monitor] Beat[1] addr=0x000031d8 rdata=0x857fed30 resp=AHB_RESP_OKAY
# UVM_INFO ../src/mst/ahb_master_driver.sv(283) @ 2235000: uvm_test_top.env.master_agent.drv [ahb_master_driver] Beat[2/4] addr=0x000031d9 trans=AHB_TRANS_SEQ resp=AHB_RESP_OKAY rdata=0x85d81718
# UVM_INFO ../src/slv/ahb_slave_driver.sv(174) @ 2235000: uvm_test_top.env.slave_agent.drv [ahb_slave_driver] Beat AHB_READ addr=0x000031d9 resp=AHB_RESP_OKAY waits=2 rdata=0x85d81718
# UVM_INFO ../src/mst/ahb_master_monitor.sv(117) @ 2235000: uvm_test_top.env.master_agent.mon [ahb_master_monitor] Beat[2] addr=0x000031d9 rdata=0x85d81718 resp=AHB_RESP_OKAY
# UVM_INFO ../src/mst/ahb_master_driver.sv(283) @ 2245000: uvm_test_top.env.master_agent.drv [ahb_master_driver] Beat[3/4] addr=0x000031da trans=AHB_TRANS_SEQ resp=AHB_RESP_OKAY rdata=0x7cd9d19c
# UVM_INFO ../src/mst/ahb_master_driver.sv(327) @ 2245000: uvm_test_top.env.master_agent.drv [ahb_master_driver] Transaction complete: AHB_READ 0x000031d7, 4 beats, burst=AHB_BURST_INCR4
# UVM_INFO ../src/slv/ahb_slave_driver.sv(174) @ 2245000: uvm_test_top.env.slave_agent.drv [ahb_slave_driver] Beat AHB_READ addr=0x000031da resp=AHB_RESP_OKAY waits=0 rdata=0x7cd9d19c
# UVM_INFO ../src/mst/ahb_master_monitor.sv(117) @ 2245000: uvm_test_top.env.master_agent.mon [ahb_master_monitor] Beat[3] addr=0x000031da rdata=0x7cd9d19c resp=AHB_RESP_OKAY
# UVM_INFO ../src/mst/ahb_master_monitor.sv(222) @ 2245000: uvm_test_top.env.master_agent.mon [ahb_master_monitor] Observed [AHB_READ]: HADDR=0x000031d7, HBURST=AHB_BURST_INCR4, HSIZE=AHB_SIZE_8B, 4 beats
# UVM_INFO ../src/env/ahb_coverage.sv(127) @ 2245000: uvm_test_top.env.master_cov [ahb_coverage] Sampled [AHB_READ]: burst=AHB_BURST_INCR4 size=AHB_SIZE_8B beats=4 error=0
# UVM_INFO ../src/slv/ahb_slave_monitor.sv(197) @ 2245000: uvm_test_top.env.slave_agent.mon [ahb_slave_monitor] Observed [AHB_READ]: HADDR=0x000031d7, HBURST=AHB_BURST_INCR4, HSIZE=AHB_SIZE_8B, 4 beats
# UVM_INFO ../src/env/ahb_scoreboard.sv(104) @ 2245000: uvm_test_top.env.scb [ahb_scoreboard] MATCH #16: [AHB_READ] HADDR=0x000031d7 AHB_BURST_INCR4 4 beats
# UVM_INFO ../src/env/ahb_coverage.sv(127) @ 2245000: uvm_test_top.env.slave_cov [ahb_coverage] Sampled [AHB_READ]: burst=AHB_BURST_INCR4 size=AHB_SIZE_8B beats=4 error=0
# UVM_INFO ../src/mst_seq/ahb_base_seq.sv(138) @ 2245000: uvm_test_top.env.master_agent.sqr@@seq [ahb_incr_burst_seq] AHB_BURST_INCR4 AHB_SIZE_8B beat 0 @0x000031d7 ok
# UVM_INFO ../src/mst_seq/ahb_base_seq.sv(138) @ 2245000: uvm_test_top.env.master_agent.sqr@@seq [ahb_incr_burst_seq] AHB_BURST_INCR4 AHB_SIZE_8B beat 1 @0x000031d8 ok
# UVM_INFO ../src/mst_seq/ahb_base_seq.sv(138) @ 2245000: uvm_test_top.env.master_agent.sqr@@seq [ahb_incr_burst_seq] AHB_BURST_INCR4 AHB_SIZE_8B beat 2 @0x000031d9 ok
# UVM_INFO ../src/mst_seq/ahb_base_seq.sv(138) @ 2245000: uvm_test_top.env.master_agent.sqr@@seq [ahb_incr_burst_seq] AHB_BURST_INCR4 AHB_SIZE_8B beat 3 @0x000031da ok
# UVM_INFO ../src/mst/ahb_master_driver.sv(82) @ 2245000: uvm_test_top.env.master_agent.drv [ahb_master_driver] Queueing [AHB_WRITE]: HADDR=0x00003214, HBURST=AHB_BURST_INCR4, HSIZE=AHB_SIZE_8B, 4 beats
# UVM_INFO ../src/mst/ahb_master_driver.sv(124) @ 2245000: uvm_test_top.env.master_agent.drv [ahb_master_driver] Driving [AHB_WRITE]: HADDR=0x00003214, HBURST=AHB_BURST_INCR4, HSIZE=AHB_SIZE_8B, 4 beats               
# UVM_INFO ../src/mst/ahb_master_driver.sv(283) @ 2275000: uvm_test_top.env.master_agent.drv [ahb_master_driver] Beat[0/4] addr=0x00003214 trans=AHB_TRANS_NONSEQ resp=AHB_RESP_OKAY wdata=0x853e218d
# UVM_INFO ../src/slv/ahb_slave_driver.sv(174) @ 2275000: uvm_test_top.env.slave_agent.drv [ahb_slave_driver] Beat AHB_WRITE addr=0x00003214 resp=AHB_RESP_OKAY waits=0 wdata=0x853e218d
# UVM_INFO ../src/mst/ahb_master_monitor.sv(117) @ 2275000: uvm_test_top.env.master_agent.mon [ahb_master_monitor] Beat[0] addr=0x00003214 wdata=0x853e218d resp=AHB_RESP_OKAY
# UVM_INFO ../src/mst/ahb_master_driver.sv(283) @ 2305000: uvm_test_top.env.master_agent.drv [ahb_master_driver] Beat[1/4] addr=0x00003215 trans=AHB_TRANS_SEQ resp=AHB_RESP_OKAY wdata=0x623c8b18
# UVM_INFO ../src/slv/ahb_slave_driver.sv(174) @ 2305000: uvm_test_top.env.slave_agent.drv [ahb_slave_driver] Beat AHB_WRITE addr=0x00003215 resp=AHB_RESP_OKAY waits=2 wdata=0x623c8b18
# UVM_INFO ../src/mst/ahb_master_monitor.sv(117) @ 2305000: uvm_test_top.env.master_agent.mon [ahb_master_monitor] Beat[1] addr=0x00003215 wdata=0x623c8b18 resp=AHB_RESP_OKAY
# UVM_INFO ../src/mst/ahb_master_driver.sv(283) @ 2315000: uvm_test_top.env.master_agent.drv [ahb_master_driver] Beat[2/4] addr=0x00003216 trans=AHB_TRANS_SEQ resp=AHB_RESP_OKAY wdata=0x7152fe79
# UVM_INFO ../src/slv/ahb_slave_driver.sv(174) @ 2315000: uvm_test_top.env.slave_agent.drv [ahb_slave_driver] Beat AHB_WRITE addr=0x00003216 resp=AHB_RESP_OKAY waits=0 wdata=0x7152fe79
# UVM_INFO ../src/mst/ahb_master_monitor.sv(117) @ 2315000: uvm_test_top.env.master_agent.mon [ahb_master_monitor] Beat[2] addr=0x00003216 wdata=0x7152fe79 resp=AHB_RESP_OKAY
# UVM_INFO ../src/mst/ahb_master_driver.sv(283) @ 2325000: uvm_test_top.env.master_agent.drv [ahb_master_driver] Beat[3/4] addr=0x00003217 trans=AHB_TRANS_SEQ resp=AHB_RESP_OKAY wdata=0x2432ec33
# UVM_INFO ../src/mst/ahb_master_driver.sv(327) @ 2325000: uvm_test_top.env.master_agent.drv [ahb_master_driver] Transaction complete: AHB_WRITE 0x00003214, 4 beats, burst=AHB_BURST_INCR4
# UVM_INFO ../src/slv/ahb_slave_driver.sv(174) @ 2325000: uvm_test_top.env.slave_agent.drv [ahb_slave_driver] Beat AHB_WRITE addr=0x00003217 resp=AHB_RESP_OKAY waits=0 wdata=0x2432ec33
# UVM_INFO ../src/mst/ahb_master_monitor.sv(117) @ 2325000: uvm_test_top.env.master_agent.mon [ahb_master_monitor] Beat[3] addr=0x00003217 wdata=0x2432ec33 resp=AHB_RESP_OKAY
# UVM_INFO ../src/mst/ahb_master_monitor.sv(222) @ 2325000: uvm_test_top.env.master_agent.mon [ahb_master_monitor] Observed [AHB_WRITE]: HADDR=0x00003214, HBURST=AHB_BURST_INCR4, HSIZE=AHB_SIZE_8B, 4 beats
# UVM_INFO ../src/env/ahb_coverage.sv(127) @ 2325000: uvm_test_top.env.master_cov [ahb_coverage] Sampled [AHB_WRITE]: burst=AHB_BURST_INCR4 size=AHB_SIZE_8B beats=4 error=0
# UVM_INFO ../src/slv/ahb_slave_monitor.sv(197) @ 2325000: uvm_test_top.env.slave_agent.mon [ahb_slave_monitor] Observed [AHB_WRITE]: HADDR=0x00003214, HBURST=AHB_BURST_INCR4, HSIZE=AHB_SIZE_8B, 4 beats
# UVM_INFO ../src/env/ahb_scoreboard.sv(104) @ 2325000: uvm_test_top.env.scb [ahb_scoreboard] MATCH #17: [AHB_WRITE] HADDR=0x00003214 AHB_BURST_INCR4 4 beats
# UVM_INFO ../src/env/ahb_coverage.sv(127) @ 2325000: uvm_test_top.env.slave_cov [ahb_coverage] Sampled [AHB_WRITE]: burst=AHB_BURST_INCR4 size=AHB_SIZE_8B beats=4 error=0
# UVM_INFO ../src/mst/ahb_master_driver.sv(82) @ 2325000: uvm_test_top.env.master_agent.drv [ahb_master_driver] Queueing [AHB_READ]: HADDR=0x00003214, HBURST=AHB_BURST_INCR4, HSIZE=AHB_SIZE_8B, 4 beats
# UVM_INFO ../src/mst/ahb_master_driver.sv(124) @ 2325000: uvm_test_top.env.master_agent.drv [ahb_master_driver] Driving [AHB_READ]: HADDR=0x00003214, HBURST=AHB_BURST_INCR4, HSIZE=AHB_SIZE_8B, 4 beats               
# UVM_INFO ../src/mst/ahb_master_driver.sv(283) @ 2355000: uvm_test_top.env.master_agent.drv [ahb_master_driver] Beat[0/4] addr=0x00003214 trans=AHB_TRANS_NONSEQ resp=AHB_RESP_OKAY rdata=0x853e218d
# UVM_INFO ../src/slv/ahb_slave_driver.sv(174) @ 2355000: uvm_test_top.env.slave_agent.drv [ahb_slave_driver] Beat AHB_READ addr=0x00003214 resp=AHB_RESP_OKAY waits=0 rdata=0x853e218d
# UVM_INFO ../src/mst/ahb_master_monitor.sv(117) @ 2355000: uvm_test_top.env.master_agent.mon [ahb_master_monitor] Beat[0] addr=0x00003214 rdata=0x853e218d resp=AHB_RESP_OKAY
# UVM_INFO ../src/mst/ahb_master_driver.sv(283) @ 2365000: uvm_test_top.env.master_agent.drv [ahb_master_driver] Beat[1/4] addr=0x00003215 trans=AHB_TRANS_SEQ resp=AHB_RESP_OKAY rdata=0x623c8b18
# UVM_INFO ../src/slv/ahb_slave_driver.sv(174) @ 2365000: uvm_test_top.env.slave_agent.drv [ahb_slave_driver] Beat AHB_READ addr=0x00003215 resp=AHB_RESP_OKAY waits=0 rdata=0x623c8b18
# UVM_INFO ../src/mst/ahb_master_monitor.sv(117) @ 2365000: uvm_test_top.env.master_agent.mon [ahb_master_monitor] Beat[1] addr=0x00003215 rdata=0x623c8b18 resp=AHB_RESP_OKAY
# UVM_INFO ../src/mst/ahb_master_driver.sv(283) @ 2375000: uvm_test_top.env.master_agent.drv [ahb_master_driver] Beat[2/4] addr=0x00003216 trans=AHB_TRANS_SEQ resp=AHB_RESP_OKAY rdata=0x7152fe79
# UVM_INFO ../src/slv/ahb_slave_driver.sv(174) @ 2375000: uvm_test_top.env.slave_agent.drv [ahb_slave_driver] Beat AHB_READ addr=0x00003216 resp=AHB_RESP_OKAY waits=0 rdata=0x7152fe79
# UVM_INFO ../src/mst/ahb_master_monitor.sv(117) @ 2375000: uvm_test_top.env.master_agent.mon [ahb_master_monitor] Beat[2] addr=0x00003216 rdata=0x7152fe79 resp=AHB_RESP_OKAY
# UVM_INFO ../src/mst/ahb_master_driver.sv(283) @ 2405000: uvm_test_top.env.master_agent.drv [ahb_master_driver] Beat[3/4] addr=0x00003217 trans=AHB_TRANS_SEQ resp=AHB_RESP_OKAY rdata=0x2432ec33
# UVM_INFO ../src/mst/ahb_master_driver.sv(327) @ 2405000: uvm_test_top.env.master_agent.drv [ahb_master_driver] Transaction complete: AHB_READ 0x00003214, 4 beats, burst=AHB_BURST_INCR4
# UVM_INFO ../src/slv/ahb_slave_driver.sv(174) @ 2405000: uvm_test_top.env.slave_agent.drv [ahb_slave_driver] Beat AHB_READ addr=0x00003217 resp=AHB_RESP_OKAY waits=2 rdata=0x2432ec33
# UVM_INFO ../src/mst/ahb_master_monitor.sv(117) @ 2405000: uvm_test_top.env.master_agent.mon [ahb_master_monitor] Beat[3] addr=0x00003217 rdata=0x2432ec33 resp=AHB_RESP_OKAY
# UVM_INFO ../src/mst/ahb_master_monitor.sv(222) @ 2405000: uvm_test_top.env.master_agent.mon [ahb_master_monitor] Observed [AHB_READ]: HADDR=0x00003214, HBURST=AHB_BURST_INCR4, HSIZE=AHB_SIZE_8B, 4 beats
# UVM_INFO ../src/env/ahb_coverage.sv(127) @ 2405000: uvm_test_top.env.master_cov [ahb_coverage] Sampled [AHB_READ]: burst=AHB_BURST_INCR4 size=AHB_SIZE_8B beats=4 error=0
# UVM_INFO ../src/slv/ahb_slave_monitor.sv(197) @ 2405000: uvm_test_top.env.slave_agent.mon [ahb_slave_monitor] Observed [AHB_READ]: HADDR=0x00003214, HBURST=AHB_BURST_INCR4, HSIZE=AHB_SIZE_8B, 4 beats
# UVM_INFO ../src/env/ahb_scoreboard.sv(104) @ 2405000: uvm_test_top.env.scb [ahb_scoreboard] MATCH #18: [AHB_READ] HADDR=0x00003214 AHB_BURST_INCR4 4 beats
# UVM_INFO ../src/env/ahb_coverage.sv(127) @ 2405000: uvm_test_top.env.slave_cov [ahb_coverage] Sampled [AHB_READ]: burst=AHB_BURST_INCR4 size=AHB_SIZE_8B beats=4 error=0
# UVM_INFO ../src/mst_seq/ahb_base_seq.sv(138) @ 2405000: uvm_test_top.env.master_agent.sqr@@seq [ahb_incr_burst_seq] AHB_BURST_INCR4 AHB_SIZE_8B beat 0 @0x00003214 ok
# UVM_INFO ../src/mst_seq/ahb_base_seq.sv(138) @ 2405000: uvm_test_top.env.master_agent.sqr@@seq [ahb_incr_burst_seq] AHB_BURST_INCR4 AHB_SIZE_8B beat 1 @0x00003215 ok
# UVM_INFO ../src/mst_seq/ahb_base_seq.sv(138) @ 2405000: uvm_test_top.env.master_agent.sqr@@seq [ahb_incr_burst_seq] AHB_BURST_INCR4 AHB_SIZE_8B beat 2 @0x00003216 ok
# UVM_INFO ../src/mst_seq/ahb_base_seq.sv(138) @ 2405000: uvm_test_top.env.master_agent.sqr@@seq [ahb_incr_burst_seq] AHB_BURST_INCR4 AHB_SIZE_8B beat 3 @0x00003217 ok
# UVM_INFO ../src/mst/ahb_master_driver.sv(82) @ 2405000: uvm_test_top.env.master_agent.drv [ahb_master_driver] Queueing [AHB_WRITE]: HADDR=0x0000324e, HBURST=AHB_BURST_INCR16, HSIZE=AHB_SIZE_16B, 16 beats
# UVM_INFO ../src/mst/ahb_master_driver.sv(124) @ 2405000: uvm_test_top.env.master_agent.drv [ahb_master_driver] Driving [AHB_WRITE]: HADDR=0x0000324e, HBURST=AHB_BURST_INCR16, HSIZE=AHB_SIZE_16B, 16 beats               
# UVM_INFO ../src/mst/ahb_master_driver.sv(283) @ 2455000: uvm_test_top.env.master_agent.drv [ahb_master_driver] Beat[0/16] addr=0x0000324e trans=AHB_TRANS_NONSEQ resp=AHB_RESP_OKAY wdata=0xf41069c2
# UVM_INFO ../src/slv/ahb_slave_driver.sv(174) @ 2455000: uvm_test_top.env.slave_agent.drv [ahb_slave_driver] Beat AHB_WRITE addr=0x0000324e resp=AHB_RESP_OKAY waits=2 wdata=0xf41069c2
# UVM_INFO ../src/mst/ahb_master_monitor.sv(117) @ 2455000: uvm_test_top.env.master_agent.mon [ahb_master_monitor] Beat[0] addr=0x0000324e wdata=0xf41069c2 resp=AHB_RESP_OKAY
# UVM_INFO ../src/mst/ahb_master_driver.sv(283) @ 2465000: uvm_test_top.env.master_agent.drv [ahb_master_driver] Beat[1/16] addr=0x00003250 trans=AHB_TRANS_SEQ resp=AHB_RESP_OKAY wdata=0x767c1c79
# UVM_INFO ../src/slv/ahb_slave_driver.sv(174) @ 2465000: uvm_test_top.env.slave_agent.drv [ahb_slave_driver] Beat AHB_WRITE addr=0x00003250 resp=AHB_RESP_OKAY waits=0 wdata=0x767c1c79
# UVM_INFO ../src/mst/ahb_master_monitor.sv(117) @ 2465000: uvm_test_top.env.master_agent.mon [ahb_master_monitor] Beat[1] addr=0x00003250 wdata=0x767c1c79 resp=AHB_RESP_OKAY
# UVM_INFO ../src/mst/ahb_master_driver.sv(283) @ 2475000: uvm_test_top.env.master_agent.drv [ahb_master_driver] Beat[2/16] addr=0x00003252 trans=AHB_TRANS_SEQ resp=AHB_RESP_OKAY wdata=0xefbd1cdc
# UVM_INFO ../src/slv/ahb_slave_driver.sv(174) @ 2475000: uvm_test_top.env.slave_agent.drv [ahb_slave_driver] Beat AHB_WRITE addr=0x00003252 resp=AHB_RESP_OKAY waits=0 wdata=0xefbd1cdc
# UVM_INFO ../src/mst/ahb_master_monitor.sv(117) @ 2475000: uvm_test_top.env.master_agent.mon [ahb_master_monitor] Beat[2] addr=0x00003252 wdata=0xefbd1cdc resp=AHB_RESP_OKAY
# UVM_INFO ../src/mst/ahb_master_driver.sv(283) @ 2495000: uvm_test_top.env.master_agent.drv [ahb_master_driver] Beat[3/16] addr=0x00003254 trans=AHB_TRANS_SEQ resp=AHB_RESP_OKAY wdata=0x704f5ea9
# UVM_INFO ../src/slv/ahb_slave_driver.sv(174) @ 2495000: uvm_test_top.env.slave_agent.drv [ahb_slave_driver] Beat AHB_WRITE addr=0x00003254 resp=AHB_RESP_OKAY waits=1 wdata=0x704f5ea9
# UVM_INFO ../src/mst/ahb_master_monitor.sv(117) @ 2495000: uvm_test_top.env.master_agent.mon [ahb_master_monitor] Beat[3] addr=0x00003254 wdata=0x704f5ea9 resp=AHB_RESP_OKAY
# UVM_INFO ../src/mst/ahb_master_driver.sv(283) @ 2515000: uvm_test_top.env.master_agent.drv [ahb_master_driver] Beat[4/16] addr=0x00003256 trans=AHB_TRANS_SEQ resp=AHB_RESP_OKAY wdata=0xfc59e746
# UVM_INFO ../src/slv/ahb_slave_driver.sv(174) @ 2515000: uvm_test_top.env.slave_agent.drv [ahb_slave_driver] Beat AHB_WRITE addr=0x00003256 resp=AHB_RESP_OKAY waits=1 wdata=0xfc59e746
# UVM_INFO ../src/mst/ahb_master_monitor.sv(117) @ 2515000: uvm_test_top.env.master_agent.mon [ahb_master_monitor] Beat[4] addr=0x00003256 wdata=0xfc59e746 resp=AHB_RESP_OKAY
# UVM_INFO ../src/mst/ahb_master_driver.sv(283) @ 2525000: uvm_test_top.env.master_agent.drv [ahb_master_driver] Beat[5/16] addr=0x00003258 trans=AHB_TRANS_SEQ resp=AHB_RESP_OKAY wdata=0xc5fb1809
# UVM_INFO ../src/slv/ahb_slave_driver.sv(174) @ 2525000: uvm_test_top.env.slave_agent.drv [ahb_slave_driver] Beat AHB_WRITE addr=0x00003258 resp=AHB_RESP_OKAY waits=0 wdata=0xc5fb1809
# UVM_INFO ../src/mst/ahb_master_monitor.sv(117) @ 2525000: uvm_test_top.env.master_agent.mon [ahb_master_monitor] Beat[5] addr=0x00003258 wdata=0xc5fb1809 resp=AHB_RESP_OKAY
# UVM_INFO ../src/mst/ahb_master_driver.sv(283) @ 2545000: uvm_test_top.env.master_agent.drv [ahb_master_driver] Beat[6/16] addr=0x0000325a trans=AHB_TRANS_SEQ resp=AHB_RESP_OKAY wdata=0x6e94efd3
