# vsim -c -coverage -sv_seed 80904457 "+UVM_TESTNAME=ahb_reset_test" "+UVM_VERBOSITY=UVM_HIGH" "+DUMP_VCD" -l ./report/logs/ahb_reset_test_run_3_seed_80904457.log -do "coverage save -onexit ./report/coverage/ahb_reset_test_run_3_seed_80904457.ucdb; run -all; quit -f" opt_tb_top 
# Start time: 10:23:52 on Aug 05,2026
# //  Questa Sim-64
# //  Version 10.6b linux_x86_64 May 25 2017
# //
# //  Copyright 1991-2017 Mentor Graphics Corporation
# //  All Rights Reserved.
# //
# //  QuestaSim and its associated documentation contain trade
# //  secrets and commercial or financial information that are the property of
# //  Mentor Graphics Corporation and are privileged, confidential,
# //  and exempt from disclosure under the Freedom of Information Act,
# //  5 U.S.C. Section 552. Furthermore, this information
# //  is prohibited from disclosure under the Trade Secrets Act,
# //  18 U.S.C. Section 1905.
# //
# Loading sv_std.std
# Loading work.ahb_if(fast)
# Loading mtiUvm.uvm_pkg
# Loading work.ahb_pkg(fast)
# Loading work.ahb_seq_pkg(fast)
# Loading work.ahb_test_pkg(fast)
# Loading work.tb_top(fast)
# Loading work.ahb_if(fast)
# Loading work.ahb_sva(fast)
# Loading mtiUvm.questa_uvm_pkg(fast)
# Loading /cadtools/mentor/Questa_10.6b/questasim/uvm-1.1d/linux_x86_64/uvm_dpi.so
# coverage save -onexit ./report/coverage/ahb_reset_test_run_3_seed_80904457.ucdb
#  run -all
# ----------------------------------------------------------------
# UVM-1.1d
# (C) 2007-2013 Mentor Graphics Corporation
# (C) 2007-2013 Cadence Design Systems, Inc.
# (C) 2006-2013 Synopsys, Inc.
# (C) 2011-2013 Cypress Semiconductor Corp.
# ----------------------------------------------------------------
# 
#   ***********       IMPORTANT RELEASE NOTES         ************
# 
#   You are using a version of the UVM library that has been compiled
#   with `UVM_NO_DEPRECATED undefined.
#   See http://www.eda.org/svdb/view.php?id=3313 for more details.
# 
#   You are using a version of the UVM library that has been compiled
#   with `UVM_OBJECT_MUST_HAVE_CONSTRUCTOR undefined.
#   See http://www.eda.org/svdb/view.php?id=3770 for more details.
# 
#       (Specify +UVM_NO_RELNOTES to turn off this notice)
# 
# UVM_INFO verilog_src/questa_uvm_pkg-1.2/src/questa_uvm_pkg.sv(215) @ 0: reporter [Questa UVM] QUESTA_UVM-1.2.3
# UVM_INFO verilog_src/questa_uvm_pkg-1.2/src/questa_uvm_pkg.sv(217) @ 0: reporter [Questa UVM]  questa_uvm::init(+struct)
# UVM_INFO ../src/tb_top.sv(126) @ 0: reporter [TB_TOP] Virtual interface set in config_db
# UVM_INFO @ 0: reporter [RNTST] Running test ahb_reset_test...
# UVM_INFO ../src/tb_top.sv(140) @ 0: reporter [TB_TOP] Waveform VCD dumping enabled (ahb_lite_vip.vcd)
# UVM_INFO ../src/env/ahb_vip_env.sv(64) @ 0: uvm_test_top.env [ahb_vip_env] slave_vif not set - reusing master_vif (passthrough mode)
# UVM_INFO ../src/env/ahb_vip_env.sv(72) @ 0: uvm_test_top.env [ahb_vip_env] Scoreboard created
# UVM_INFO ../src/env/ahb_vip_env.sv(78) @ 0: uvm_test_top.env [ahb_vip_env] Coverage collectors created
# UVM_INFO ../src/mst/ahb_master_agent.sv(61) @ 0: uvm_test_top.env.master_agent [ahb_master_agent] ACTIVE mode - driver + sequencer created
# UVM_INFO ../src/slv/ahb_slave_agent.sv(64) @ 0: uvm_test_top.env.slave_agent [ahb_slave_agent] ACTIVE mode - driver + sequencer created (    auto responses)
# UVM_INFO ../src/env/ahb_vip_env.sv(92) @ 0: uvm_test_top.env [ahb_vip_env] Scoreboard connected: master_mon.ap -> scb, slave_mon.ap -> scb
# UVM_INFO ../src/env/ahb_vip_env.sv(99) @ 0: uvm_test_top.env [ahb_vip_env] Coverage connected: master_mon.ap -> master_cov, slave_mon.ap -> slave_cov
# UVM_INFO @ 0: reporter [UVMTOP] UVM testbench topology:
# ---------------------------------------------------------------
# Name                       Type                     Size  Value
# ---------------------------------------------------------------
# uvm_test_top               ahb_reset_test           -     @475 
#   env                      ahb_vip_env              -     @490 
#     master_agent           ahb_master_agent         -     @505 
#       drv                  ahb_master_driver        -     @570 
#         rsp_port           uvm_analysis_port        -     @585 
#         seq_item_port      uvm_seq_item_pull_port   -     @577 
#       mon                  ahb_master_monitor       -     @563 
#         ap                 uvm_analysis_port        -     @704 
#       sqr                  ahb_master_sequencer     -     @593 
#         rsp_export         uvm_analysis_export      -     @600 
#         seq_item_export    uvm_seq_item_pull_imp    -     @694 
#         arbitration_queue  array                    0     -    
#         lock_queue         array                    0     -    
#         num_last_reqs      integral                 32    'd1  
#         num_last_rsps      integral                 32    'd1  
#     master_cov             ahb_coverage             -     @526 
#       analysis_imp         uvm_analysis_imp         -     @533 
#     scb                    ahb_scoreboard           -     @519 
#       master_export        uvm_analysis_imp_master  -     @718 
#       slave_export         uvm_analysis_imp_slave   -     @726 
#     slave_agent            ahb_slave_agent          -     @512 
#       drv                  ahb_slave_driver         -     @748 
#         rsp_port           uvm_analysis_port        -     @763 
#         seq_item_port      uvm_seq_item_pull_port   -     @755 
#       mon                  ahb_slave_monitor        -     @741 
#         ap                 uvm_analysis_port        -     @882 
#       sqr                  ahb_slave_sequencer      -     @771 
#         rsp_export         uvm_analysis_export      -     @778 
#         seq_item_export    uvm_seq_item_pull_imp    -     @872 
#         arbitration_queue  array                    0     -    
#         lock_queue         array                    0     -    
#         num_last_reqs      integral                 32    'd1  
#         num_last_rsps      integral                 32    'd1  
#     slave_cov              ahb_coverage             -     @541 
#       analysis_imp         uvm_analysis_imp         -     @548 
# ---------------------------------------------------------------
# 
# UVM_INFO verilog_src/questa_uvm_pkg-1.2/src/questa_uvm_pkg.sv(277) @ 0: reporter [Questa UVM] End Of Elaboration
# UVM_INFO ../src/mst_seq/ahb_reset_seq.sv(64) @ 0: uvm_test_top.env.master_agent.sqr@@seq [ahb_reset_seq] Reset phase: 18 bursts, reset on every 3th
# UVM_INFO ../src/mst/ahb_master_driver.sv(183) @ 5000: uvm_test_top.env.master_agent.drv [ahb_master_driver] Flushed pending transactions (reset)
# UVM_INFO ../src/tb_top.sv(48) @ 95000: reporter [TB_TOP] Reset de-asserted
# UVM_INFO ../src/slv/ahb_slave_driver.sv(63) @ 95000: uvm_test_top.env.slave_agent.drv [ahb_slave_driver] Reset deasserted - slave driver active (    auto mode)
# UVM_INFO ../src/mst/ahb_master_driver.sv(72) @ 95000: uvm_test_top.env.master_agent.drv [ahb_master_driver] Reset deasserted - master driver active
# UVM_INFO ../src/mst/ahb_master_monitor.sv(75) @ 95000: uvm_test_top.env.master_agent.mon [ahb_master_monitor] Reset deasserted - master monitor active
# UVM_INFO ../src/slv/ahb_slave_monitor.sv(69) @ 95000: uvm_test_top.env.slave_agent.mon [ahb_slave_monitor] Reset deasserted - slave monitor active
# UVM_INFO ../src/mst/ahb_master_driver.sv(85) @ 95000: uvm_test_top.env.master_agent.drv [ahb_master_driver] Queueing [AHB_WRITE]: HADDR=0x0000a000, HBURST=AHB_BURST_INCR16, HSIZE=AHB_SIZE_32B, 16 beats
# UVM_INFO ../src/mst/ahb_master_driver.sv(127) @ 95000: uvm_test_top.env.master_agent.drv [ahb_master_driver] Driving [AHB_WRITE]: HADDR=0x0000a000, HBURST=AHB_BURST_INCR16, HSIZE=AHB_SIZE_32B, 16 beats               
# UVM_INFO ../src/mst/ahb_master_driver.sv(332) @ 135000: uvm_test_top.env.master_agent.drv [ahb_master_driver] Beat[0/16] addr=0x0000a000 trans=AHB_TRANS_NONSEQ resp=AHB_RESP_OKAY wdata=0xef84f16c
# UVM_INFO ../src/slv/ahb_slave_driver.sv(184) @ 135000: uvm_test_top.env.slave_agent.drv [ahb_slave_driver] Beat AHB_WRITE addr=0x0000a000 resp=AHB_RESP_OKAY waits=2 wdata=0xef84f16c
# UVM_INFO ../src/mst/ahb_master_monitor.sv(117) @ 135000: uvm_test_top.env.master_agent.mon [ahb_master_monitor] Beat[0] addr=0x0000a000 wdata=0xef84f16c resp=AHB_RESP_OKAY
# UVM_INFO ../src/mst/ahb_master_driver.sv(332) @ 145000: uvm_test_top.env.master_agent.drv [ahb_master_driver] Beat[1/16] addr=0x0000a004 trans=AHB_TRANS_SEQ resp=AHB_RESP_OKAY wdata=0xb21890e1
# UVM_INFO ../src/slv/ahb_slave_driver.sv(184) @ 145000: uvm_test_top.env.slave_agent.drv [ahb_slave_driver] Beat AHB_WRITE addr=0x0000a004 resp=AHB_RESP_OKAY waits=0 wdata=0xb21890e1
# UVM_INFO ../src/mst/ahb_master_monitor.sv(117) @ 145000: uvm_test_top.env.master_agent.mon [ahb_master_monitor] Beat[1] addr=0x0000a004 wdata=0xb21890e1 resp=AHB_RESP_OKAY
# UVM_INFO ../src/mst/ahb_master_driver.sv(332) @ 175000: uvm_test_top.env.master_agent.drv [ahb_master_driver] Beat[2/16] addr=0x0000a008 trans=AHB_TRANS_SEQ resp=AHB_RESP_OKAY wdata=0x02ad9468
# UVM_INFO ../src/slv/ahb_slave_driver.sv(184) @ 175000: uvm_test_top.env.slave_agent.drv [ahb_slave_driver] Beat AHB_WRITE addr=0x0000a008 resp=AHB_RESP_OKAY waits=2 wdata=0x02ad9468
# UVM_INFO ../src/mst/ahb_master_monitor.sv(117) @ 175000: uvm_test_top.env.master_agent.mon [ahb_master_monitor] Beat[2] addr=0x0000a008 wdata=0x02ad9468 resp=AHB_RESP_OKAY
# UVM_INFO ../src/mst/ahb_master_driver.sv(332) @ 185000: uvm_test_top.env.master_agent.drv [ahb_master_driver] Beat[3/16] addr=0x0000a00c trans=AHB_TRANS_SEQ resp=AHB_RESP_OKAY wdata=0xdb23c1c1
# UVM_INFO ../src/slv/ahb_slave_driver.sv(184) @ 185000: uvm_test_top.env.slave_agent.drv [ahb_slave_driver] Beat AHB_WRITE addr=0x0000a00c resp=AHB_RESP_OKAY waits=0 wdata=0xdb23c1c1
# UVM_INFO ../src/mst/ahb_master_monitor.sv(117) @ 185000: uvm_test_top.env.master_agent.mon [ahb_master_monitor] Beat[3] addr=0x0000a00c wdata=0xdb23c1c1 resp=AHB_RESP_OKAY
# UVM_INFO ../src/mst/ahb_master_driver.sv(332) @ 205000: uvm_test_top.env.master_agent.drv [ahb_master_driver] Beat[4/16] addr=0x0000a010 trans=AHB_TRANS_SEQ resp=AHB_RESP_OKAY wdata=0x0a763c1f
# UVM_INFO ../src/slv/ahb_slave_driver.sv(184) @ 205000: uvm_test_top.env.slave_agent.drv [ahb_slave_driver] Beat AHB_WRITE addr=0x0000a010 resp=AHB_RESP_OKAY waits=1 wdata=0x0a763c1f
# UVM_INFO ../src/mst/ahb_master_monitor.sv(117) @ 205000: uvm_test_top.env.master_agent.mon [ahb_master_monitor] Beat[4] addr=0x0000a010 wdata=0x0a763c1f resp=AHB_RESP_OKAY
# UVM_INFO ../src/mst/ahb_master_driver.sv(332) @ 225000: uvm_test_top.env.master_agent.drv [ahb_master_driver] Beat[5/16] addr=0x0000a014 trans=AHB_TRANS_SEQ resp=AHB_RESP_OKAY wdata=0x1aab1105
# UVM_INFO ../src/slv/ahb_slave_driver.sv(184) @ 225000: uvm_test_top.env.slave_agent.drv [ahb_slave_driver] Beat AHB_WRITE addr=0x0000a014 resp=AHB_RESP_OKAY waits=1 wdata=0x1aab1105
# UVM_INFO ../src/mst/ahb_master_monitor.sv(117) @ 225000: uvm_test_top.env.master_agent.mon [ahb_master_monitor] Beat[5] addr=0x0000a014 wdata=0x1aab1105 resp=AHB_RESP_OKAY
# UVM_INFO ../src/mst/ahb_master_driver.sv(332) @ 245000: uvm_test_top.env.master_agent.drv [ahb_master_driver] Beat[6/16] addr=0x0000a018 trans=AHB_TRANS_SEQ resp=AHB_RESP_OKAY wdata=0x5c98e7b9
# UVM_INFO ../src/slv/ahb_slave_driver.sv(184) @ 245000: uvm_test_top.env.slave_agent.drv [ahb_slave_driver] Beat AHB_WRITE addr=0x0000a018 resp=AHB_RESP_OKAY waits=1 wdata=0x5c98e7b9
# UVM_INFO ../src/mst/ahb_master_monitor.sv(117) @ 245000: uvm_test_top.env.master_agent.mon [ahb_master_monitor] Beat[6] addr=0x0000a018 wdata=0x5c98e7b9 resp=AHB_RESP_OKAY
# UVM_INFO ../src/mst/ahb_master_driver.sv(332) @ 255000: uvm_test_top.env.master_agent.drv [ahb_master_driver] Beat[7/16] addr=0x0000a01c trans=AHB_TRANS_SEQ resp=AHB_RESP_OKAY wdata=0x98b16473
# UVM_INFO ../src/slv/ahb_slave_driver.sv(184) @ 255000: uvm_test_top.env.slave_agent.drv [ahb_slave_driver] Beat AHB_WRITE addr=0x0000a01c resp=AHB_RESP_OKAY waits=0 wdata=0x98b16473
# UVM_INFO ../src/mst/ahb_master_monitor.sv(117) @ 255000: uvm_test_top.env.master_agent.mon [ahb_master_monitor] Beat[7] addr=0x0000a01c wdata=0x98b16473 resp=AHB_RESP_OKAY
# UVM_INFO ../src/mst/ahb_master_driver.sv(332) @ 285000: uvm_test_top.env.master_agent.drv [ahb_master_driver] Beat[8/16] addr=0x0000a020 trans=AHB_TRANS_SEQ resp=AHB_RESP_OKAY wdata=0x58aa3afb
# UVM_INFO ../src/slv/ahb_slave_driver.sv(184) @ 285000: uvm_test_top.env.slave_agent.drv [ahb_slave_driver] Beat AHB_WRITE addr=0x0000a020 resp=AHB_RESP_OKAY waits=2 wdata=0x58aa3afb
# UVM_INFO ../src/mst/ahb_master_monitor.sv(117) @ 285000: uvm_test_top.env.master_agent.mon [ahb_master_monitor] Beat[8] addr=0x0000a020 wdata=0x58aa3afb resp=AHB_RESP_OKAY
# UVM_INFO ../src/mst/ahb_master_driver.sv(332) @ 295000: uvm_test_top.env.master_agent.drv [ahb_master_driver] Beat[9/16] addr=0x0000a024 trans=AHB_TRANS_SEQ resp=AHB_RESP_OKAY wdata=0xcd359939
# UVM_INFO ../src/slv/ahb_slave_driver.sv(184) @ 295000: uvm_test_top.env.slave_agent.drv [ahb_slave_driver] Beat AHB_WRITE addr=0x0000a024 resp=AHB_RESP_OKAY waits=0 wdata=0xcd359939
# UVM_INFO ../src/mst/ahb_master_monitor.sv(117) @ 295000: uvm_test_top.env.master_agent.mon [ahb_master_monitor] Beat[9] addr=0x0000a024 wdata=0xcd359939 resp=AHB_RESP_OKAY
# UVM_INFO ../src/mst/ahb_master_driver.sv(332) @ 325000: uvm_test_top.env.master_agent.drv [ahb_master_driver] Beat[10/16] addr=0x0000a028 trans=AHB_TRANS_SEQ resp=AHB_RESP_OKAY wdata=0x47608bd1
# UVM_INFO ../src/slv/ahb_slave_driver.sv(184) @ 325000: uvm_test_top.env.slave_agent.drv [ahb_slave_driver] Beat AHB_WRITE addr=0x0000a028 resp=AHB_RESP_OKAY waits=2 wdata=0x47608bd1
# UVM_INFO ../src/mst/ahb_master_monitor.sv(117) @ 325000: uvm_test_top.env.master_agent.mon [ahb_master_monitor] Beat[10] addr=0x0000a028 wdata=0x47608bd1 resp=AHB_RESP_OKAY
# UVM_INFO ../src/mst/ahb_master_driver.sv(332) @ 335000: uvm_test_top.env.master_agent.drv [ahb_master_driver] Beat[11/16] addr=0x0000a02c trans=AHB_TRANS_SEQ resp=AHB_RESP_OKAY wdata=0x37c693ac
# UVM_INFO ../src/slv/ahb_slave_driver.sv(184) @ 335000: uvm_test_top.env.slave_agent.drv [ahb_slave_driver] Beat AHB_WRITE addr=0x0000a02c resp=AHB_RESP_OKAY waits=0 wdata=0x37c693ac
# UVM_INFO ../src/mst/ahb_master_monitor.sv(117) @ 335000: uvm_test_top.env.master_agent.mon [ahb_master_monitor] Beat[11] addr=0x0000a02c wdata=0x37c693ac resp=AHB_RESP_OKAY
# UVM_INFO ../src/mst/ahb_master_driver.sv(332) @ 365000: uvm_test_top.env.master_agent.drv [ahb_master_driver] Beat[12/16] addr=0x0000a030 trans=AHB_TRANS_SEQ resp=AHB_RESP_OKAY wdata=0x6c48cf96
# UVM_INFO ../src/slv/ahb_slave_driver.sv(184) @ 365000: uvm_test_top.env.slave_agent.drv [ahb_slave_driver] Beat AHB_WRITE addr=0x0000a030 resp=AHB_RESP_OKAY waits=2 wdata=0x6c48cf96
# UVM_INFO ../src/mst/ahb_master_monitor.sv(117) @ 365000: uvm_test_top.env.master_agent.mon [ahb_master_monitor] Beat[12] addr=0x0000a030 wdata=0x6c48cf96 resp=AHB_RESP_OKAY
# UVM_INFO ../src/mst/ahb_master_driver.sv(332) @ 375000: uvm_test_top.env.master_agent.drv [ahb_master_driver] Beat[13/16] addr=0x0000a034 trans=AHB_TRANS_SEQ resp=AHB_RESP_OKAY wdata=0xe93100c7
# UVM_INFO ../src/slv/ahb_slave_driver.sv(184) @ 375000: uvm_test_top.env.slave_agent.drv [ahb_slave_driver] Beat AHB_WRITE addr=0x0000a034 resp=AHB_RESP_OKAY waits=0 wdata=0xe93100c7
# UVM_INFO ../src/mst/ahb_master_monitor.sv(117) @ 375000: uvm_test_top.env.master_agent.mon [ahb_master_monitor] Beat[13] addr=0x0000a034 wdata=0xe93100c7 resp=AHB_RESP_OKAY
# UVM_INFO ../src/mst/ahb_master_driver.sv(332) @ 385000: uvm_test_top.env.master_agent.drv [ahb_master_driver] Beat[14/16] addr=0x0000a038 trans=AHB_TRANS_SEQ resp=AHB_RESP_OKAY wdata=0xe7ce6f06
# UVM_INFO ../src/slv/ahb_slave_driver.sv(184) @ 385000: uvm_test_top.env.slave_agent.drv [ahb_slave_driver] Beat AHB_WRITE addr=0x0000a038 resp=AHB_RESP_OKAY waits=0 wdata=0xe7ce6f06
# UVM_INFO ../src/mst/ahb_master_monitor.sv(117) @ 385000: uvm_test_top.env.master_agent.mon [ahb_master_monitor] Beat[14] addr=0x0000a038 wdata=0xe7ce6f06 resp=AHB_RESP_OKAY
# UVM_INFO ../src/mst/ahb_master_driver.sv(332) @ 395000: uvm_test_top.env.master_agent.drv [ahb_master_driver] Beat[15/16] addr=0x0000a03c trans=AHB_TRANS_SEQ resp=AHB_RESP_OKAY wdata=0xf43d7766
# UVM_INFO ../src/mst/ahb_master_driver.sv(376) @ 395000: uvm_test_top.env.master_agent.drv [ahb_master_driver] Transaction complete: AHB_WRITE 0x0000a000, 16 beats, burst=AHB_BURST_INCR16
# UVM_INFO ../src/slv/ahb_slave_driver.sv(184) @ 395000: uvm_test_top.env.slave_agent.drv [ahb_slave_driver] Beat AHB_WRITE addr=0x0000a03c resp=AHB_RESP_OKAY waits=0 wdata=0xf43d7766
# UVM_INFO ../src/slv/ahb_slave_monitor.sv(197) @ 395000: uvm_test_top.env.slave_agent.mon [ahb_slave_monitor] Observed [AHB_WRITE]: HADDR=0x0000a000, HBURST=AHB_BURST_INCR16, HSIZE=AHB_SIZE_32B, 16 beats
# UVM_INFO ../src/env/ahb_coverage.sv(126) @ 395000: uvm_test_top.env.slave_cov [ahb_coverage] Sampled [AHB_WRITE]: burst=AHB_BURST_INCR16 size=AHB_SIZE_32B beats=16 error=0
# UVM_INFO ../src/mst/ahb_master_monitor.sv(117) @ 395000: uvm_test_top.env.master_agent.mon [ahb_master_monitor] Beat[15] addr=0x0000a03c wdata=0xf43d7766 resp=AHB_RESP_OKAY
# UVM_INFO ../src/mst/ahb_master_monitor.sv(220) @ 395000: uvm_test_top.env.master_agent.mon [ahb_master_monitor] Observed [AHB_WRITE]: HADDR=0x0000a000, HBURST=AHB_BURST_INCR16, HSIZE=AHB_SIZE_32B, 16 beats
# UVM_INFO ../src/env/ahb_coverage.sv(126) @ 395000: uvm_test_top.env.master_cov [ahb_coverage] Sampled [AHB_WRITE]: burst=AHB_BURST_INCR16 size=AHB_SIZE_32B beats=16 error=0
# UVM_INFO ../src/env/ahb_scoreboard.sv(104) @ 395000: uvm_test_top.env.scb [ahb_scoreboard] MATCH #1: [AHB_WRITE] HADDR=0x0000a000 AHB_BURST_INCR16 16 beats
# UVM_INFO ../src/mst/ahb_master_driver.sv(85) @ 395000: uvm_test_top.env.master_agent.drv [ahb_master_driver] Queueing [AHB_WRITE]: HADDR=0x0000a040, HBURST=AHB_BURST_INCR16, HSIZE=AHB_SIZE_32B, 16 beats
# UVM_INFO ../src/mst/ahb_master_driver.sv(127) @ 395000: uvm_test_top.env.master_agent.drv [ahb_master_driver] Driving [AHB_WRITE]: HADDR=0x0000a040, HBURST=AHB_BURST_INCR16, HSIZE=AHB_SIZE_32B, 16 beats               
# UVM_INFO ../src/mst/ahb_master_driver.sv(332) @ 425000: uvm_test_top.env.master_agent.drv [ahb_master_driver] Beat[0/16] addr=0x0000a040 trans=AHB_TRANS_NONSEQ resp=AHB_RESP_OKAY wdata=0x38fd7229
# UVM_INFO ../src/slv/ahb_slave_driver.sv(184) @ 425000: uvm_test_top.env.slave_agent.drv [ahb_slave_driver] Beat AHB_WRITE addr=0x0000a040 resp=AHB_RESP_OKAY waits=0 wdata=0x38fd7229
# UVM_INFO ../src/mst/ahb_master_monitor.sv(117) @ 425000: uvm_test_top.env.master_agent.mon [ahb_master_monitor] Beat[0] addr=0x0000a040 wdata=0x38fd7229 resp=AHB_RESP_OKAY
# UVM_INFO ../src/mst/ahb_master_driver.sv(332) @ 455000: uvm_test_top.env.master_agent.drv [ahb_master_driver] Beat[1/16] addr=0x0000a044 trans=AHB_TRANS_SEQ resp=AHB_RESP_OKAY wdata=0x96217a43
# UVM_INFO ../src/slv/ahb_slave_driver.sv(184) @ 455000: uvm_test_top.env.slave_agent.drv [ahb_slave_driver] Beat AHB_WRITE addr=0x0000a044 resp=AHB_RESP_OKAY waits=2 wdata=0x96217a43
# UVM_INFO ../src/mst/ahb_master_monitor.sv(117) @ 455000: uvm_test_top.env.master_agent.mon [ahb_master_monitor] Beat[1] addr=0x0000a044 wdata=0x96217a43 resp=AHB_RESP_OKAY
# UVM_INFO ../src/mst/ahb_master_driver.sv(332) @ 465000: uvm_test_top.env.master_agent.drv [ahb_master_driver] Beat[2/16] addr=0x0000a048 trans=AHB_TRANS_SEQ resp=AHB_RESP_OKAY wdata=0xe5968a70
# UVM_INFO ../src/slv/ahb_slave_driver.sv(184) @ 465000: uvm_test_top.env.slave_agent.drv [ahb_slave_driver] Beat AHB_WRITE addr=0x0000a048 resp=AHB_RESP_OKAY waits=0 wdata=0xe5968a70
# UVM_INFO ../src/mst/ahb_master_monitor.sv(117) @ 465000: uvm_test_top.env.master_agent.mon [ahb_master_monitor] Beat[2] addr=0x0000a048 wdata=0xe5968a70 resp=AHB_RESP_OKAY
# UVM_INFO ../src/mst/ahb_master_driver.sv(332) @ 485000: uvm_test_top.env.master_agent.drv [ahb_master_driver] Beat[3/16] addr=0x0000a04c trans=AHB_TRANS_SEQ resp=AHB_RESP_OKAY wdata=0x85f6b836
# UVM_INFO ../src/slv/ahb_slave_driver.sv(184) @ 485000: uvm_test_top.env.slave_agent.drv [ahb_slave_driver] Beat AHB_WRITE addr=0x0000a04c resp=AHB_RESP_OKAY waits=1 wdata=0x85f6b836
# UVM_INFO ../src/mst/ahb_master_monitor.sv(117) @ 485000: uvm_test_top.env.master_agent.mon [ahb_master_monitor] Beat[3] addr=0x0000a04c wdata=0x85f6b836 resp=AHB_RESP_OKAY
# UVM_INFO ../src/mst/ahb_master_driver.sv(332) @ 505000: uvm_test_top.env.master_agent.drv [ahb_master_driver] Beat[4/16] addr=0x0000a050 trans=AHB_TRANS_SEQ resp=AHB_RESP_OKAY wdata=0x84ed3bff
# UVM_INFO ../src/slv/ahb_slave_driver.sv(184) @ 505000: uvm_test_top.env.slave_agent.drv [ahb_slave_driver] Beat AHB_WRITE addr=0x0000a050 resp=AHB_RESP_OKAY waits=1 wdata=0x84ed3bff
# UVM_INFO ../src/mst/ahb_master_monitor.sv(117) @ 505000: uvm_test_top.env.master_agent.mon [ahb_master_monitor] Beat[4] addr=0x0000a050 wdata=0x84ed3bff resp=AHB_RESP_OKAY
# UVM_INFO ../src/mst/ahb_master_driver.sv(332) @ 525000: uvm_test_top.env.master_agent.drv [ahb_master_driver] Beat[5/16] addr=0x0000a054 trans=AHB_TRANS_SEQ resp=AHB_RESP_OKAY wdata=0xa8edadb0
# UVM_INFO ../src/slv/ahb_slave_driver.sv(184) @ 525000: uvm_test_top.env.slave_agent.drv [ahb_slave_driver] Beat AHB_WRITE addr=0x0000a054 resp=AHB_RESP_OKAY waits=1 wdata=0xa8edadb0
# UVM_INFO ../src/mst/ahb_master_monitor.sv(117) @ 525000: uvm_test_top.env.master_agent.mon [ahb_master_monitor] Beat[5] addr=0x0000a054 wdata=0xa8edadb0 resp=AHB_RESP_OKAY
# UVM_INFO ../src/mst/ahb_master_driver.sv(332) @ 535000: uvm_test_top.env.master_agent.drv [ahb_master_driver] Beat[6/16] addr=0x0000a058 trans=AHB_TRANS_SEQ resp=AHB_RESP_OKAY wdata=0x731a85bd
# UVM_INFO ../src/slv/ahb_slave_driver.sv(184) @ 535000: uvm_test_top.env.slave_agent.drv [ahb_slave_driver] Beat AHB_WRITE addr=0x0000a058 resp=AHB_RESP_OKAY waits=0 wdata=0x731a85bd
# UVM_INFO ../src/mst/ahb_master_monitor.sv(117) @ 535000: uvm_test_top.env.master_agent.mon [ahb_master_monitor] Beat[6] addr=0x0000a058 wdata=0x731a85bd resp=AHB_RESP_OKAY
# UVM_INFO ../src/mst/ahb_master_driver.sv(332) @ 565000: uvm_test_top.env.master_agent.drv [ahb_master_driver] Beat[7/16] addr=0x0000a05c trans=AHB_TRANS_SEQ resp=AHB_RESP_OKAY wdata=0x5c46e072
# UVM_INFO ../src/slv/ahb_slave_driver.sv(184) @ 565000: uvm_test_top.env.slave_agent.drv [ahb_slave_driver] Beat AHB_WRITE addr=0x0000a05c resp=AHB_RESP_OKAY waits=2 wdata=0x5c46e072
# UVM_INFO ../src/mst/ahb_master_monitor.sv(117) @ 565000: uvm_test_top.env.master_agent.mon [ahb_master_monitor] Beat[7] addr=0x0000a05c wdata=0x5c46e072 resp=AHB_RESP_OKAY
# UVM_INFO ../src/mst/ahb_master_driver.sv(332) @ 575000: uvm_test_top.env.master_agent.drv [ahb_master_driver] Beat[8/16] addr=0x0000a060 trans=AHB_TRANS_SEQ resp=AHB_RESP_OKAY wdata=0x1de495c5
# UVM_INFO ../src/slv/ahb_slave_driver.sv(184) @ 575000: uvm_test_top.env.slave_agent.drv [ahb_slave_driver] Beat AHB_WRITE addr=0x0000a060 resp=AHB_RESP_OKAY waits=0 wdata=0x1de495c5
# UVM_INFO ../src/mst/ahb_master_monitor.sv(117) @ 575000: uvm_test_top.env.master_agent.mon [ahb_master_monitor] Beat[8] addr=0x0000a060 wdata=0x1de495c5 resp=AHB_RESP_OKAY
# UVM_INFO ../src/mst/ahb_master_driver.sv(332) @ 585000: uvm_test_top.env.master_agent.drv [ahb_master_driver] Beat[9/16] addr=0x0000a064 trans=AHB_TRANS_SEQ resp=AHB_RESP_OKAY wdata=0xc2279ec8
# UVM_INFO ../src/slv/ahb_slave_driver.sv(184) @ 585000: uvm_test_top.env.slave_agent.drv [ahb_slave_driver] Beat AHB_WRITE addr=0x0000a064 resp=AHB_RESP_OKAY waits=0 wdata=0xc2279ec8
# UVM_INFO ../src/mst/ahb_master_monitor.sv(117) @ 585000: uvm_test_top.env.master_agent.mon [ahb_master_monitor] Beat[9] addr=0x0000a064 wdata=0xc2279ec8 resp=AHB_RESP_OKAY
# UVM_INFO ../src/mst/ahb_master_driver.sv(332) @ 595000: uvm_test_top.env.master_agent.drv [ahb_master_driver] Beat[10/16] addr=0x0000a068 trans=AHB_TRANS_SEQ resp=AHB_RESP_OKAY wdata=0xff45be41
# UVM_INFO ../src/slv/ahb_slave_driver.sv(184) @ 595000: uvm_test_top.env.slave_agent.drv [ahb_slave_driver] Beat AHB_WRITE addr=0x0000a068 resp=AHB_RESP_OKAY waits=0 wdata=0xff45be41
# UVM_INFO ../src/mst/ahb_master_monitor.sv(117) @ 595000: uvm_test_top.env.master_agent.mon [ahb_master_monitor] Beat[10] addr=0x0000a068 wdata=0xff45be41 resp=AHB_RESP_OKAY
# UVM_INFO ../src/mst/ahb_master_driver.sv(332) @ 625000: uvm_test_top.env.master_agent.drv [ahb_master_driver] Beat[11/16] addr=0x0000a06c trans=AHB_TRANS_SEQ resp=AHB_RESP_OKAY wdata=0xfec47790
# UVM_INFO ../src/slv/ahb_slave_driver.sv(184) @ 625000: uvm_test_top.env.slave_agent.drv [ahb_slave_driver] Beat AHB_WRITE addr=0x0000a06c resp=AHB_RESP_OKAY waits=2 wdata=0xfec47790
# UVM_INFO ../src/mst/ahb_master_monitor.sv(117) @ 625000: uvm_test_top.env.master_agent.mon [ahb_master_monitor] Beat[11] addr=0x0000a06c wdata=0xfec47790 resp=AHB_RESP_OKAY
# UVM_INFO ../src/mst/ahb_master_driver.sv(332) @ 645000: uvm_test_top.env.master_agent.drv [ahb_master_driver] Beat[12/16] addr=0x0000a070 trans=AHB_TRANS_SEQ resp=AHB_RESP_OKAY wdata=0x1d9f3b2d
# UVM_INFO ../src/slv/ahb_slave_driver.sv(184) @ 645000: uvm_test_top.env.slave_agent.drv [ahb_slave_driver] Beat AHB_WRITE addr=0x0000a070 resp=AHB_RESP_OKAY waits=1 wdata=0x1d9f3b2d
# UVM_INFO ../src/mst/ahb_master_monitor.sv(117) @ 645000: uvm_test_top.env.master_agent.mon [ahb_master_monitor] Beat[12] addr=0x0000a070 wdata=0x1d9f3b2d resp=AHB_RESP_OKAY
# UVM_INFO ../src/mst/ahb_master_driver.sv(332) @ 665000: uvm_test_top.env.master_agent.drv [ahb_master_driver] Beat[13/16] addr=0x0000a074 trans=AHB_TRANS_SEQ resp=AHB_RESP_OKAY wdata=0x328d12a6
# UVM_INFO ../src/slv/ahb_slave_driver.sv(184) @ 665000: uvm_test_top.env.slave_agent.drv [ahb_slave_driver] Beat AHB_WRITE addr=0x0000a074 resp=AHB_RESP_OKAY waits=1 wdata=0x328d12a6
# UVM_INFO ../src/mst/ahb_master_monitor.sv(117) @ 665000: uvm_test_top.env.master_agent.mon [ahb_master_monitor] Beat[13] addr=0x0000a074 wdata=0x328d12a6 resp=AHB_RESP_OKAY
# UVM_INFO ../src/mst/ahb_master_driver.sv(332) @ 675000: uvm_test_top.env.master_agent.drv [ahb_master_driver] Beat[14/16] addr=0x0000a078 trans=AHB_TRANS_SEQ resp=AHB_RESP_OKAY wdata=0xdd9d8566
# UVM_INFO ../src/slv/ahb_slave_driver.sv(184) @ 675000: uvm_test_top.env.slave_agent.drv [ahb_slave_driver] Beat AHB_WRITE addr=0x0000a078 resp=AHB_RESP_OKAY waits=0 wdata=0xdd9d8566
# UVM_INFO ../src/mst/ahb_master_monitor.sv(117) @ 675000: uvm_test_top.env.master_agent.mon [ahb_master_monitor] Beat[14] addr=0x0000a078 wdata=0xdd9d8566 resp=AHB_RESP_OKAY
# UVM_INFO ../src/mst/ahb_master_driver.sv(332) @ 695000: uvm_test_top.env.master_agent.drv [ahb_master_driver] Beat[15/16] addr=0x0000a07c trans=AHB_TRANS_SEQ resp=AHB_RESP_OKAY wdata=0x2ab2a493
# UVM_INFO ../src/mst/ahb_master_driver.sv(376) @ 695000: uvm_test_top.env.master_agent.drv [ahb_master_driver] Transaction complete: AHB_WRITE 0x0000a040, 16 beats, burst=AHB_BURST_INCR16
# UVM_INFO ../src/slv/ahb_slave_driver.sv(184) @ 695000: uvm_test_top.env.slave_agent.drv [ahb_slave_driver] Beat AHB_WRITE addr=0x0000a07c resp=AHB_RESP_OKAY waits=1 wdata=0x2ab2a493
# UVM_INFO ../src/slv/ahb_slave_monitor.sv(197) @ 695000: uvm_test_top.env.slave_agent.mon [ahb_slave_monitor] Observed [AHB_WRITE]: HADDR=0x0000a040, HBURST=AHB_BURST_INCR16, HSIZE=AHB_SIZE_32B, 16 beats
# UVM_INFO ../src/env/ahb_coverage.sv(126) @ 695000: uvm_test_top.env.slave_cov [ahb_coverage] Sampled [AHB_WRITE]: burst=AHB_BURST_INCR16 size=AHB_SIZE_32B beats=16 error=0
# UVM_INFO ../src/mst/ahb_master_monitor.sv(117) @ 695000: uvm_test_top.env.master_agent.mon [ahb_master_monitor] Beat[15] addr=0x0000a07c wdata=0x2ab2a493 resp=AHB_RESP_OKAY
# UVM_INFO ../src/mst/ahb_master_monitor.sv(220) @ 695000: uvm_test_top.env.master_agent.mon [ahb_master_monitor] Observed [AHB_WRITE]: HADDR=0x0000a040, HBURST=AHB_BURST_INCR16, HSIZE=AHB_SIZE_32B, 16 beats
# UVM_INFO ../src/env/ahb_coverage.sv(126) @ 695000: uvm_test_top.env.master_cov [ahb_coverage] Sampled [AHB_WRITE]: burst=AHB_BURST_INCR16 size=AHB_SIZE_32B beats=16 error=0
# UVM_INFO ../src/env/ahb_scoreboard.sv(104) @ 695000: uvm_test_top.env.scb [ahb_scoreboard] MATCH #2: [AHB_WRITE] HADDR=0x0000a040 AHB_BURST_INCR16 16 beats
# UVM_INFO ../src/mst/ahb_master_driver.sv(85) @ 695000: uvm_test_top.env.master_agent.drv [ahb_master_driver] Queueing [AHB_WRITE]: HADDR=0x0000a080, HBURST=AHB_BURST_INCR16, HSIZE=AHB_SIZE_32B, 16 beats
# UVM_INFO ../src/mst/ahb_master_driver.sv(127) @ 695000: uvm_test_top.env.master_agent.drv [ahb_master_driver] Driving [AHB_WRITE]: HADDR=0x0000a080, HBURST=AHB_BURST_INCR16, HSIZE=AHB_SIZE_32B, 16 beats               
# UVM_INFO ../src/mst/ahb_master_driver.sv(332) @ 735000: uvm_test_top.env.master_agent.drv [ahb_master_driver] Beat[0/16] addr=0x0000a080 trans=AHB_TRANS_NONSEQ resp=AHB_RESP_OKAY wdata=0xe2712274
# UVM_INFO ../src/slv/ahb_slave_driver.sv(184) @ 735000: uvm_test_top.env.slave_agent.drv [ahb_slave_driver] Beat AHB_WRITE addr=0x0000a080 resp=AHB_RESP_OKAY waits=1 wdata=0xe2712274
# UVM_INFO ../src/mst/ahb_master_monitor.sv(117) @ 735000: uvm_test_top.env.master_agent.mon [ahb_master_monitor] Beat[0] addr=0x0000a080 wdata=0xe2712274 resp=AHB_RESP_OKAY
# UVM_INFO ../src/mst/ahb_master_driver.sv(332) @ 745000: uvm_test_top.env.master_agent.drv [ahb_master_driver] Beat[1/16] addr=0x0000a084 trans=AHB_TRANS_SEQ resp=AHB_RESP_OKAY wdata=0x3d51b376
# UVM_INFO ../src/slv/ahb_slave_driver.sv(184) @ 745000: uvm_test_top.env.slave_agent.drv [ahb_slave_driver] Beat AHB_WRITE addr=0x0000a084 resp=AHB_RESP_OKAY waits=0 wdata=0x3d51b376
# UVM_INFO ../src/mst/ahb_master_monitor.sv(117) @ 745000: uvm_test_top.env.master_agent.mon [ahb_master_monitor] Beat[1] addr=0x0000a084 wdata=0x3d51b376 resp=AHB_RESP_OKAY
# UVM_INFO ../src/mst/ahb_master_driver.sv(332) @ 765000: uvm_test_top.env.master_agent.drv [ahb_master_driver] Beat[2/16] addr=0x0000a088 trans=AHB_TRANS_SEQ resp=AHB_RESP_OKAY wdata=0xefe45199
# UVM_INFO ../src/slv/ahb_slave_driver.sv(184) @ 765000: uvm_test_top.env.slave_agent.drv [ahb_slave_driver] Beat AHB_WRITE addr=0x0000a088 resp=AHB_RESP_OKAY waits=1 wdata=0xefe45199
# UVM_INFO ../src/mst/ahb_master_monitor.sv(117) @ 765000: uvm_test_top.env.master_agent.mon [ahb_master_monitor] Beat[2] addr=0x0000a088 wdata=0xefe45199 resp=AHB_RESP_OKAY
# UVM_INFO ../src/mst/ahb_master_driver.sv(332) @ 785000: uvm_test_top.env.master_agent.drv [ahb_master_driver] Beat[3/16] addr=0x0000a08c trans=AHB_TRANS_SEQ resp=AHB_RESP_OKAY wdata=0x68b731fd
# UVM_INFO ../src/slv/ahb_slave_driver.sv(184) @ 785000: uvm_test_top.env.slave_agent.drv [ahb_slave_driver] Beat AHB_WRITE addr=0x0000a08c resp=AHB_RESP_OKAY waits=1 wdata=0x68b731fd
# UVM_INFO ../src/mst/ahb_master_monitor.sv(117) @ 785000: uvm_test_top.env.master_agent.mon [ahb_master_monitor] Beat[3] addr=0x0000a08c wdata=0x68b731fd resp=AHB_RESP_OKAY
# UVM_INFO ../src/mst/ahb_master_driver.sv(332) @ 805000: uvm_test_top.env.master_agent.drv [ahb_master_driver] Beat[4/16] addr=0x0000a090 trans=AHB_TRANS_SEQ resp=AHB_RESP_OKAY wdata=0xdd902735
# UVM_INFO ../src/slv/ahb_slave_driver.sv(184) @ 805000: uvm_test_top.env.slave_agent.drv [ahb_slave_driver] Beat AHB_WRITE addr=0x0000a090 resp=AHB_RESP_OKAY waits=1 wdata=0xdd902735
# UVM_INFO ../src/mst/ahb_master_monitor.sv(117) @ 805000: uvm_test_top.env.master_agent.mon [ahb_master_monitor] Beat[4] addr=0x0000a090 wdata=0xdd902735 resp=AHB_RESP_OKAY
# UVM_INFO ../src/mst/ahb_master_driver.sv(332) @ 815000: uvm_test_top.env.master_agent.drv [ahb_master_driver] Beat[5/16] addr=0x0000a094 trans=AHB_TRANS_SEQ resp=AHB_RESP_OKAY wdata=0x1f9cda4c
# UVM_INFO ../src/slv/ahb_slave_driver.sv(184) @ 815000: uvm_test_top.env.slave_agent.drv [ahb_slave_driver] Beat AHB_WRITE addr=0x0000a094 resp=AHB_RESP_OKAY waits=0 wdata=0x1f9cda4c
# UVM_INFO ../src/mst/ahb_master_monitor.sv(117) @ 815000: uvm_test_top.env.master_agent.mon [ahb_master_monitor] Beat[5] addr=0x0000a094 wdata=0x1f9cda4c resp=AHB_RESP_OKAY
# UVM_INFO ../src/mst_seq/ahb_reset_seq.sv(85) @ 818000: uvm_test_top.env.master_agent.sqr@@seq [ahb_reset_seq] Asserting reset 123 ns into burst 2
# UVM_INFO ../src/tb_top.sv(59) @ 818000: reporter [TB_TOP] Mid-sim reset requested - asserting rst_n
# UVM_INFO ../src/slv/ahb_slave_monitor.sv(75) @ 818000: uvm_test_top.env.slave_agent.mon [ahb_slave_monitor] Reset asserted - discarding partial transaction
# UVM_INFO ../src/slv/ahb_slave_monitor.sv(226) @ 818000: uvm_test_top.env.slave_agent.mon [ahb_slave_monitor] Discarding partial burst at reset (7 beats accepted)
# UVM_INFO ../src/mst/ahb_master_monitor.sv(82) @ 818000: uvm_test_top.env.master_agent.mon [ahb_master_monitor] Reset asserted - discarding partial transaction
# UVM_INFO ../src/mst/ahb_master_monitor.sv(249) @ 818000: uvm_test_top.env.master_agent.mon [ahb_master_monitor] Discarding partial burst at reset (7 beats accepted)
# UVM_INFO ../src/mst/ahb_master_driver.sv(97) @ 818000: uvm_test_top.env.master_agent.drv [ahb_master_driver] Reset asserted - aborting transaction
# UVM_INFO ../src/slv/ahb_slave_driver.sv(69) @ 818000: uvm_test_top.env.slave_agent.drv [ahb_slave_driver] Reset asserted - slave driver idle
# UVM_INFO ../src/mst/ahb_master_driver.sv(183) @ 825000: uvm_test_top.env.master_agent.drv [ahb_master_driver] Flushed pending transactions (reset)
# UVM_INFO ../src/mst_seq/ahb_base_seq.sv(51) @ 825000: uvm_test_top.env.master_agent.sqr@@seq [ahb_reset_seq] Transaction aborted by reset: AHB_WRITE 0x0000a080
# UVM_INFO ../src/tb_top.sv(63) @ 895000: reporter [TB_TOP] Mid-sim reset pulse complete - rst_n deasserted
# UVM_INFO ../src/slv/ahb_slave_driver.sv(63) @ 895000: uvm_test_top.env.slave_agent.drv [ahb_slave_driver] Reset deasserted - slave driver active (    auto mode)
# UVM_INFO ../src/mst/ahb_master_driver.sv(72) @ 895000: uvm_test_top.env.master_agent.drv [ahb_master_driver] Reset deasserted - master driver active
# UVM_INFO ../src/mst/ahb_master_monitor.sv(75) @ 895000: uvm_test_top.env.master_agent.mon [ahb_master_monitor] Reset deasserted - master monitor active
# UVM_INFO ../src/slv/ahb_slave_monitor.sv(69) @ 895000: uvm_test_top.env.slave_agent.mon [ahb_slave_monitor] Reset deasserted - slave monitor active
# UVM_INFO ../src/mst/ahb_master_driver.sv(85) @ 895000: uvm_test_top.env.master_agent.drv [ahb_master_driver] Queueing [AHB_WRITE]: HADDR=0x0000a0c0, HBURST=AHB_BURST_INCR16, HSIZE=AHB_SIZE_32B, 16 beats
# UVM_INFO ../src/mst/ahb_master_driver.sv(127) @ 895000: uvm_test_top.env.master_agent.drv [ahb_master_driver] Driving [AHB_WRITE]: HADDR=0x0000a0c0, HBURST=AHB_BURST_INCR16, HSIZE=AHB_SIZE_32B, 16 beats               
# UVM_INFO ../src/mst/ahb_master_driver.sv(332) @ 915000: uvm_test_top.env.master_agent.drv [ahb_master_driver] Beat[0/16] addr=0x0000a0c0 trans=AHB_TRANS_NONSEQ resp=AHB_RESP_OKAY wdata=0x110d0b01
# UVM_INFO ../src/slv/ahb_slave_driver.sv(184) @ 915000: uvm_test_top.env.slave_agent.drv [ahb_slave_driver] Beat AHB_WRITE addr=0x0000a0c0 resp=AHB_RESP_OKAY waits=0 wdata=0x110d0b01
# UVM_INFO ../src/mst/ahb_master_monitor.sv(117) @ 915000: uvm_test_top.env.master_agent.mon [ahb_master_monitor] Beat[0] addr=0x0000a0c0 wdata=0x110d0b01 resp=AHB_RESP_OKAY
# UVM_INFO ../src/mst/ahb_master_driver.sv(332) @ 925000: uvm_test_top.env.master_agent.drv [ahb_master_driver] Beat[1/16] addr=0x0000a0c4 trans=AHB_TRANS_SEQ resp=AHB_RESP_OKAY wdata=0x5606792c
# UVM_INFO ../src/slv/ahb_slave_driver.sv(184) @ 925000: uvm_test_top.env.slave_agent.drv [ahb_slave_driver] Beat AHB_WRITE addr=0x0000a0c4 resp=AHB_RESP_OKAY waits=0 wdata=0x5606792c
# UVM_INFO ../src/mst/ahb_master_monitor.sv(117) @ 925000: uvm_test_top.env.master_agent.mon [ahb_master_monitor] Beat[1] addr=0x0000a0c4 wdata=0x5606792c resp=AHB_RESP_OKAY
# UVM_INFO ../src/mst/ahb_master_driver.sv(332) @ 935000: uvm_test_top.env.master_agent.drv [ahb_master_driver] Beat[2/16] addr=0x0000a0c8 trans=AHB_TRANS_SEQ resp=AHB_RESP_OKAY wdata=0xd04d43fb
# UVM_INFO ../src/slv/ahb_slave_driver.sv(184) @ 935000: uvm_test_top.env.slave_agent.drv [ahb_slave_driver] Beat AHB_WRITE addr=0x0000a0c8 resp=AHB_RESP_OKAY waits=0 wdata=0xd04d43fb
# UVM_INFO ../src/mst/ahb_master_monitor.sv(117) @ 935000: uvm_test_top.env.master_agent.mon [ahb_master_monitor] Beat[2] addr=0x0000a0c8 wdata=0xd04d43fb resp=AHB_RESP_OKAY
# UVM_INFO ../src/mst/ahb_master_driver.sv(332) @ 945000: uvm_test_top.env.master_agent.drv [ahb_master_driver] Beat[3/16] addr=0x0000a0cc trans=AHB_TRANS_SEQ resp=AHB_RESP_OKAY wdata=0xc957b188
# UVM_INFO ../src/slv/ahb_slave_driver.sv(184) @ 945000: uvm_test_top.env.slave_agent.drv [ahb_slave_driver] Beat AHB_WRITE addr=0x0000a0cc resp=AHB_RESP_OKAY waits=0 wdata=0xc957b188
# UVM_INFO ../src/mst/ahb_master_monitor.sv(117) @ 945000: uvm_test_top.env.master_agent.mon [ahb_master_monitor] Beat[3] addr=0x0000a0cc wdata=0xc957b188 resp=AHB_RESP_OKAY
# UVM_INFO ../src/mst/ahb_master_driver.sv(332) @ 955000: uvm_test_top.env.master_agent.drv [ahb_master_driver] Beat[4/16] addr=0x0000a0d0 trans=AHB_TRANS_SEQ resp=AHB_RESP_OKAY wdata=0xee583bcf
# UVM_INFO ../src/slv/ahb_slave_driver.sv(184) @ 955000: uvm_test_top.env.slave_agent.drv [ahb_slave_driver] Beat AHB_WRITE addr=0x0000a0d0 resp=AHB_RESP_OKAY waits=0 wdata=0xee583bcf
# UVM_INFO ../src/mst/ahb_master_monitor.sv(117) @ 955000: uvm_test_top.env.master_agent.mon [ahb_master_monitor] Beat[4] addr=0x0000a0d0 wdata=0xee583bcf resp=AHB_RESP_OKAY
# UVM_INFO ../src/mst/ahb_master_driver.sv(332) @ 965000: uvm_test_top.env.master_agent.drv [ahb_master_driver] Beat[5/16] addr=0x0000a0d4 trans=AHB_TRANS_SEQ resp=AHB_RESP_OKAY wdata=0x374e532d
# UVM_INFO ../src/slv/ahb_slave_driver.sv(184) @ 965000: uvm_test_top.env.slave_agent.drv [ahb_slave_driver] Beat AHB_WRITE addr=0x0000a0d4 resp=AHB_RESP_OKAY waits=0 wdata=0x374e532d
# UVM_INFO ../src/mst/ahb_master_monitor.sv(117) @ 965000: uvm_test_top.env.master_agent.mon [ahb_master_monitor] Beat[5] addr=0x0000a0d4 wdata=0x374e532d resp=AHB_RESP_OKAY
# UVM_INFO ../src/mst/ahb_master_driver.sv(332) @ 995000: uvm_test_top.env.master_agent.drv [ahb_master_driver] Beat[6/16] addr=0x0000a0d8 trans=AHB_TRANS_SEQ resp=AHB_RESP_OKAY wdata=0x3c4cd8d4
# UVM_INFO ../src/slv/ahb_slave_driver.sv(184) @ 995000: uvm_test_top.env.slave_agent.drv [ahb_slave_driver] Beat AHB_WRITE addr=0x0000a0d8 resp=AHB_RESP_OKAY waits=2 wdata=0x3c4cd8d4
# UVM_INFO ../src/mst/ahb_master_monitor.sv(117) @ 995000: uvm_test_top.env.master_agent.mon [ahb_master_monitor] Beat[6] addr=0x0000a0d8 wdata=0x3c4cd8d4 resp=AHB_RESP_OKAY
# UVM_INFO ../src/mst/ahb_master_driver.sv(332) @ 1005000: uvm_test_top.env.master_agent.drv [ahb_master_driver] Beat[7/16] addr=0x0000a0dc trans=AHB_TRANS_SEQ resp=AHB_RESP_OKAY wdata=0x9566f23d
# UVM_INFO ../src/slv/ahb_slave_driver.sv(184) @ 1005000: uvm_test_top.env.slave_agent.drv [ahb_slave_driver] Beat AHB_WRITE addr=0x0000a0dc resp=AHB_RESP_OKAY waits=0 wdata=0x9566f23d
# UVM_INFO ../src/mst/ahb_master_monitor.sv(117) @ 1005000: uvm_test_top.env.master_agent.mon [ahb_master_monitor] Beat[7] addr=0x0000a0dc wdata=0x9566f23d resp=AHB_RESP_OKAY
# UVM_INFO ../src/mst/ahb_master_driver.sv(332) @ 1035000: uvm_test_top.env.master_agent.drv [ahb_master_driver] Beat[8/16] addr=0x0000a0e0 trans=AHB_TRANS_SEQ resp=AHB_RESP_OKAY wdata=0xd27a4eef
# UVM_INFO ../src/slv/ahb_slave_driver.sv(184) @ 1035000: uvm_test_top.env.slave_agent.drv [ahb_slave_driver] Beat AHB_WRITE addr=0x0000a0e0 resp=AHB_RESP_OKAY waits=2 wdata=0xd27a4eef
# UVM_INFO ../src/mst/ahb_master_monitor.sv(117) @ 1035000: uvm_test_top.env.master_agent.mon [ahb_master_monitor] Beat[8] addr=0x0000a0e0 wdata=0xd27a4eef resp=AHB_RESP_OKAY
# UVM_INFO ../src/mst/ahb_master_driver.sv(332) @ 1065000: uvm_test_top.env.master_agent.drv [ahb_master_driver] Beat[9/16] addr=0x0000a0e4 trans=AHB_TRANS_SEQ resp=AHB_RESP_OKAY wdata=0x9fcbfc76
# UVM_INFO ../src/slv/ahb_slave_driver.sv(184) @ 1065000: uvm_test_top.env.slave_agent.drv [ahb_slave_driver] Beat AHB_WRITE addr=0x0000a0e4 resp=AHB_RESP_OKAY waits=2 wdata=0x9fcbfc76
# UVM_INFO ../src/mst/ahb_master_monitor.sv(117) @ 1065000: uvm_test_top.env.master_agent.mon [ahb_master_monitor] Beat[9] addr=0x0000a0e4 wdata=0x9fcbfc76 resp=AHB_RESP_OKAY
# UVM_INFO ../src/mst/ahb_master_driver.sv(332) @ 1075000: uvm_test_top.env.master_agent.drv [ahb_master_driver] Beat[10/16] addr=0x0000a0e8 trans=AHB_TRANS_SEQ resp=AHB_RESP_OKAY wdata=0xbf686063
# UVM_INFO ../src/slv/ahb_slave_driver.sv(184) @ 1075000: uvm_test_top.env.slave_agent.drv [ahb_slave_driver] Beat AHB_WRITE addr=0x0000a0e8 resp=AHB_RESP_OKAY waits=0 wdata=0xbf686063
# UVM_INFO ../src/mst/ahb_master_monitor.sv(117) @ 1075000: uvm_test_top.env.master_agent.mon [ahb_master_monitor] Beat[10] addr=0x0000a0e8 wdata=0xbf686063 resp=AHB_RESP_OKAY
# UVM_INFO ../src/mst/ahb_master_driver.sv(332) @ 1105000: uvm_test_top.env.master_agent.drv [ahb_master_driver] Beat[11/16] addr=0x0000a0ec trans=AHB_TRANS_SEQ resp=AHB_RESP_OKAY wdata=0x8a9fe5db
# UVM_INFO ../src/slv/ahb_slave_driver.sv(184) @ 1105000: uvm_test_top.env.slave_agent.drv [ahb_slave_driver] Beat AHB_WRITE addr=0x0000a0ec resp=AHB_RESP_OKAY waits=2 wdata=0x8a9fe5db
# UVM_INFO ../src/mst/ahb_master_monitor.sv(117) @ 1105000: uvm_test_top.env.master_agent.mon [ahb_master_monitor] Beat[11] addr=0x0000a0ec wdata=0x8a9fe5db resp=AHB_RESP_OKAY
# UVM_INFO ../src/mst/ahb_master_driver.sv(332) @ 1115000: uvm_test_top.env.master_agent.drv [ahb_master_driver] Beat[12/16] addr=0x0000a0f0 trans=AHB_TRANS_SEQ resp=AHB_RESP_OKAY wdata=0xbcc22d03
# UVM_INFO ../src/slv/ahb_slave_driver.sv(184) @ 1115000: uvm_test_top.env.slave_agent.drv [ahb_slave_driver] Beat AHB_WRITE addr=0x0000a0f0 resp=AHB_RESP_OKAY waits=0 wdata=0xbcc22d03
# UVM_INFO ../src/mst/ahb_master_monitor.sv(117) @ 1115000: uvm_test_top.env.master_agent.mon [ahb_master_monitor] Beat[12] addr=0x0000a0f0 wdata=0xbcc22d03 resp=AHB_RESP_OKAY
# UVM_INFO ../src/mst/ahb_master_driver.sv(332) @ 1135000: uvm_test_top.env.master_agent.drv [ahb_master_driver] Beat[13/16] addr=0x0000a0f4 trans=AHB_TRANS_SEQ resp=AHB_RESP_OKAY wdata=0x18ae0659
# UVM_INFO ../src/slv/ahb_slave_driver.sv(184) @ 1135000: uvm_test_top.env.slave_agent.drv [ahb_slave_driver] Beat AHB_WRITE addr=0x0000a0f4 resp=AHB_RESP_OKAY waits=1 wdata=0x18ae0659
# UVM_INFO ../src/mst/ahb_master_monitor.sv(117) @ 1135000: uvm_test_top.env.master_agent.mon [ahb_master_monitor] Beat[13] addr=0x0000a0f4 wdata=0x18ae0659 resp=AHB_RESP_OKAY
# UVM_INFO ../src/mst/ahb_master_driver.sv(332) @ 1155000: uvm_test_top.env.master_agent.drv [ahb_master_driver] Beat[14/16] addr=0x0000a0f8 trans=AHB_TRANS_SEQ resp=AHB_RESP_OKAY wdata=0x94a2e3d5
# UVM_INFO ../src/slv/ahb_slave_driver.sv(184) @ 1155000: uvm_test_top.env.slave_agent.drv [ahb_slave_driver] Beat AHB_WRITE addr=0x0000a0f8 resp=AHB_RESP_OKAY waits=1 wdata=0x94a2e3d5
# UVM_INFO ../src/mst/ahb_master_monitor.sv(117) @ 1155000: uvm_test_top.env.master_agent.mon [ahb_master_monitor] Beat[14] addr=0x0000a0f8 wdata=0x94a2e3d5 resp=AHB_RESP_OKAY
# UVM_INFO ../src/mst/ahb_master_driver.sv(332) @ 1165000: uvm_test_top.env.master_agent.drv [ahb_master_driver] Beat[15/16] addr=0x0000a0fc trans=AHB_TRANS_SEQ resp=AHB_RESP_OKAY wdata=0xab72b3e3
# UVM_INFO ../src/mst/ahb_master_driver.sv(376) @ 1165000: uvm_test_top.env.master_agent.drv [ahb_master_driver] Transaction complete: AHB_WRITE 0x0000a0c0, 16 beats, burst=AHB_BURST_INCR16
# UVM_INFO ../src/slv/ahb_slave_driver.sv(184) @ 1165000: uvm_test_top.env.slave_agent.drv [ahb_slave_driver] Beat AHB_WRITE addr=0x0000a0fc resp=AHB_RESP_OKAY waits=0 wdata=0xab72b3e3
# UVM_INFO ../src/mst/ahb_master_monitor.sv(117) @ 1165000: uvm_test_top.env.master_agent.mon [ahb_master_monitor] Beat[15] addr=0x0000a0fc wdata=0xab72b3e3 resp=AHB_RESP_OKAY
# UVM_INFO ../src/mst/ahb_master_monitor.sv(220) @ 1165000: uvm_test_top.env.master_agent.mon [ahb_master_monitor] Observed [AHB_WRITE]: HADDR=0x0000a0c0, HBURST=AHB_BURST_INCR16, HSIZE=AHB_SIZE_32B, 16 beats
# UVM_INFO ../src/env/ahb_coverage.sv(126) @ 1165000: uvm_test_top.env.master_cov [ahb_coverage] Sampled [AHB_WRITE]: burst=AHB_BURST_INCR16 size=AHB_SIZE_32B beats=16 error=0
# UVM_INFO ../src/slv/ahb_slave_monitor.sv(197) @ 1165000: uvm_test_top.env.slave_agent.mon [ahb_slave_monitor] Observed [AHB_WRITE]: HADDR=0x0000a0c0, HBURST=AHB_BURST_INCR16, HSIZE=AHB_SIZE_32B, 16 beats
# UVM_INFO ../src/env/ahb_scoreboard.sv(104) @ 1165000: uvm_test_top.env.scb [ahb_scoreboard] MATCH #3: [AHB_WRITE] HADDR=0x0000a0c0 AHB_BURST_INCR16 16 beats
# UVM_INFO ../src/env/ahb_coverage.sv(126) @ 1165000: uvm_test_top.env.slave_cov [ahb_coverage] Sampled [AHB_WRITE]: burst=AHB_BURST_INCR16 size=AHB_SIZE_32B beats=16 error=0
# UVM_INFO ../src/mst/ahb_master_driver.sv(85) @ 1165000: uvm_test_top.env.master_agent.drv [ahb_master_driver] Queueing [AHB_WRITE]: HADDR=0x0000a100, HBURST=AHB_BURST_INCR16, HSIZE=AHB_SIZE_32B, 16 beats
# UVM_INFO ../src/mst/ahb_master_driver.sv(127) @ 1165000: uvm_test_top.env.master_agent.drv [ahb_master_driver] Driving [AHB_WRITE]: HADDR=0x0000a100, HBURST=AHB_BURST_INCR16, HSIZE=AHB_SIZE_32B, 16 beats               
# UVM_INFO ../src/mst/ahb_master_driver.sv(332) @ 1205000: uvm_test_top.env.master_agent.drv [ahb_master_driver] Beat[0/16] addr=0x0000a100 trans=AHB_TRANS_NONSEQ resp=AHB_RESP_OKAY wdata=0x01124249
# UVM_INFO ../src/slv/ahb_slave_driver.sv(184) @ 1205000: uvm_test_top.env.slave_agent.drv [ahb_slave_driver] Beat AHB_WRITE addr=0x0000a100 resp=AHB_RESP_OKAY waits=1 wdata=0x01124249
# UVM_INFO ../src/mst/ahb_master_monitor.sv(117) @ 1205000: uvm_test_top.env.master_agent.mon [ahb_master_monitor] Beat[0] addr=0x0000a100 wdata=0x01124249 resp=AHB_RESP_OKAY
# UVM_INFO ../src/mst/ahb_master_driver.sv(332) @ 1225000: uvm_test_top.env.master_agent.drv [ahb_master_driver] Beat[1/16] addr=0x0000a104 trans=AHB_TRANS_SEQ resp=AHB_RESP_OKAY wdata=0xc48927e2
# UVM_INFO ../src/slv/ahb_slave_driver.sv(184) @ 1225000: uvm_test_top.env.slave_agent.drv [ahb_slave_driver] Beat AHB_WRITE addr=0x0000a104 resp=AHB_RESP_OKAY waits=1 wdata=0xc48927e2
# UVM_INFO ../src/mst/ahb_master_monitor.sv(117) @ 1225000: uvm_test_top.env.master_agent.mon [ahb_master_monitor] Beat[1] addr=0x0000a104 wdata=0xc48927e2 resp=AHB_RESP_OKAY
# UVM_INFO ../src/mst/ahb_master_driver.sv(332) @ 1235000: uvm_test_top.env.master_agent.drv [ahb_master_driver] Beat[2/16] addr=0x0000a108 trans=AHB_TRANS_SEQ resp=AHB_RESP_OKAY wdata=0x03e1a7cd
# UVM_INFO ../src/slv/ahb_slave_driver.sv(184) @ 1235000: uvm_test_top.env.slave_agent.drv [ahb_slave_driver] Beat AHB_WRITE addr=0x0000a108 resp=AHB_RESP_OKAY waits=0 wdata=0x03e1a7cd
# UVM_INFO ../src/mst/ahb_master_monitor.sv(117) @ 1235000: uvm_test_top.env.master_agent.mon [ahb_master_monitor] Beat[2] addr=0x0000a108 wdata=0x03e1a7cd resp=AHB_RESP_OKAY
# UVM_INFO ../src/mst/ahb_master_driver.sv(332) @ 1255000: uvm_test_top.env.master_agent.drv [ahb_master_driver] Beat[3/16] addr=0x0000a10c trans=AHB_TRANS_SEQ resp=AHB_RESP_OKAY wdata=0x0ee4fc86
# UVM_INFO ../src/slv/ahb_slave_driver.sv(184) @ 1255000: uvm_test_top.env.slave_agent.drv [ahb_slave_driver] Beat AHB_WRITE addr=0x0000a10c resp=AHB_RESP_OKAY waits=1 wdata=0x0ee4fc86
# UVM_INFO ../src/mst/ahb_master_monitor.sv(117) @ 1255000: uvm_test_top.env.master_agent.mon [ahb_master_monitor] Beat[3] addr=0x0000a10c wdata=0x0ee4fc86 resp=AHB_RESP_OKAY
# UVM_INFO ../src/mst/ahb_master_driver.sv(332) @ 1285000: uvm_test_top.env.master_agent.drv [ahb_master_driver] Beat[4/16] addr=0x0000a110 trans=AHB_TRANS_SEQ resp=AHB_RESP_OKAY wdata=0xce4b7d92
# UVM_INFO ../src/slv/ahb_slave_driver.sv(184) @ 1285000: uvm_test_top.env.slave_agent.drv [ahb_slave_driver] Beat AHB_WRITE addr=0x0000a110 resp=AHB_RESP_OKAY waits=2 wdata=0xce4b7d92
# UVM_INFO ../src/mst/ahb_master_monitor.sv(117) @ 1285000: uvm_test_top.env.master_agent.mon [ahb_master_monitor] Beat[4] addr=0x0000a110 wdata=0xce4b7d92 resp=AHB_RESP_OKAY
# UVM_INFO ../src/mst/ahb_master_driver.sv(332) @ 1315000: uvm_test_top.env.master_agent.drv [ahb_master_driver] Beat[5/16] addr=0x0000a114 trans=AHB_TRANS_SEQ resp=AHB_RESP_OKAY wdata=0x729c786b
# UVM_INFO ../src/slv/ahb_slave_driver.sv(184) @ 1315000: uvm_test_top.env.slave_agent.drv [ahb_slave_driver] Beat AHB_WRITE addr=0x0000a114 resp=AHB_RESP_OKAY waits=2 wdata=0x729c786b
# UVM_INFO ../src/mst/ahb_master_monitor.sv(117) @ 1315000: uvm_test_top.env.master_agent.mon [ahb_master_monitor] Beat[5] addr=0x0000a114 wdata=0x729c786b resp=AHB_RESP_OKAY
# UVM_INFO ../src/mst/ahb_master_driver.sv(332) @ 1325000: uvm_test_top.env.master_agent.drv [ahb_master_driver] Beat[6/16] addr=0x0000a118 trans=AHB_TRANS_SEQ resp=AHB_RESP_OKAY wdata=0x04c6cecf
# UVM_INFO ../src/slv/ahb_slave_driver.sv(184) @ 1325000: uvm_test_top.env.slave_agent.drv [ahb_slave_driver] Beat AHB_WRITE addr=0x0000a118 resp=AHB_RESP_OKAY waits=0 wdata=0x04c6cecf
# UVM_INFO ../src/mst/ahb_master_monitor.sv(117) @ 1325000: uvm_test_top.env.master_agent.mon [ahb_master_monitor] Beat[6] addr=0x0000a118 wdata=0x04c6cecf resp=AHB_RESP_OKAY
# UVM_INFO ../src/mst/ahb_master_driver.sv(332) @ 1345000: uvm_test_top.env.master_agent.drv [ahb_master_driver] Beat[7/16] addr=0x0000a11c trans=AHB_TRANS_SEQ resp=AHB_RESP_OKAY wdata=0xd2a5c91c
# UVM_INFO ../src/slv/ahb_slave_driver.sv(184) @ 1345000: uvm_test_top.env.slave_agent.drv [ahb_slave_driver] Beat AHB_WRITE addr=0x0000a11c resp=AHB_RESP_OKAY waits=1 wdata=0xd2a5c91c
# UVM_INFO ../src/mst/ahb_master_monitor.sv(117) @ 1345000: uvm_test_top.env.master_agent.mon [ahb_master_monitor] Beat[7] addr=0x0000a11c wdata=0xd2a5c91c resp=AHB_RESP_OKAY
# UVM_INFO ../src/mst/ahb_master_driver.sv(332) @ 1365000: uvm_test_top.env.master_agent.drv [ahb_master_driver] Beat[8/16] addr=0x0000a120 trans=AHB_TRANS_SEQ resp=AHB_RESP_OKAY wdata=0xa69eed5e
# UVM_INFO ../src/slv/ahb_slave_driver.sv(184) @ 1365000: uvm_test_top.env.slave_agent.drv [ahb_slave_driver] Beat AHB_WRITE addr=0x0000a120 resp=AHB_RESP_OKAY waits=1 wdata=0xa69eed5e
# UVM_INFO ../src/mst/ahb_master_monitor.sv(117) @ 1365000: uvm_test_top.env.master_agent.mon [ahb_master_monitor] Beat[8] addr=0x0000a120 wdata=0xa69eed5e resp=AHB_RESP_OKAY
# UVM_INFO ../src/mst/ahb_master_driver.sv(332) @ 1375000: uvm_test_top.env.master_agent.drv [ahb_master_driver] Beat[9/16] addr=0x0000a124 trans=AHB_TRANS_SEQ resp=AHB_RESP_OKAY wdata=0x20b6f483
# UVM_INFO ../src/slv/ahb_slave_driver.sv(184) @ 1375000: uvm_test_top.env.slave_agent.drv [ahb_slave_driver] Beat AHB_WRITE addr=0x0000a124 resp=AHB_RESP_OKAY waits=0 wdata=0x20b6f483
# UVM_INFO ../src/mst/ahb_master_monitor.sv(117) @ 1375000: uvm_test_top.env.master_agent.mon [ahb_master_monitor] Beat[9] addr=0x0000a124 wdata=0x20b6f483 resp=AHB_RESP_OKAY
# UVM_INFO ../src/mst/ahb_master_driver.sv(332) @ 1405000: uvm_test_top.env.master_agent.drv [ahb_master_driver] Beat[10/16] addr=0x0000a128 trans=AHB_TRANS_SEQ resp=AHB_RESP_OKAY wdata=0x86d811b5
# UVM_INFO ../src/slv/ahb_slave_driver.sv(184) @ 1405000: uvm_test_top.env.slave_agent.drv [ahb_slave_driver] Beat AHB_WRITE addr=0x0000a128 resp=AHB_RESP_OKAY waits=2 wdata=0x86d811b5
# UVM_INFO ../src/mst/ahb_master_monitor.sv(117) @ 1405000: uvm_test_top.env.master_agent.mon [ahb_master_monitor] Beat[10] addr=0x0000a128 wdata=0x86d811b5 resp=AHB_RESP_OKAY
# UVM_INFO ../src/mst/ahb_master_driver.sv(332) @ 1425000: uvm_test_top.env.master_agent.drv [ahb_master_driver] Beat[11/16] addr=0x0000a12c trans=AHB_TRANS_SEQ resp=AHB_RESP_OKAY wdata=0x3cd2f1f8
# UVM_INFO ../src/slv/ahb_slave_driver.sv(184) @ 1425000: uvm_test_top.env.slave_agent.drv [ahb_slave_driver] Beat AHB_WRITE addr=0x0000a12c resp=AHB_RESP_OKAY waits=1 wdata=0x3cd2f1f8
# UVM_INFO ../src/mst/ahb_master_monitor.sv(117) @ 1425000: uvm_test_top.env.master_agent.mon [ahb_master_monitor] Beat[11] addr=0x0000a12c wdata=0x3cd2f1f8 resp=AHB_RESP_OKAY
# UVM_INFO ../src/mst/ahb_master_driver.sv(332) @ 1445000: uvm_test_top.env.master_agent.drv [ahb_master_driver] Beat[12/16] addr=0x0000a130 trans=AHB_TRANS_SEQ resp=AHB_RESP_OKAY wdata=0xea1b5930
# UVM_INFO ../src/slv/ahb_slave_driver.sv(184) @ 1445000: uvm_test_top.env.slave_agent.drv [ahb_slave_driver] Beat AHB_WRITE addr=0x0000a130 resp=AHB_RESP_OKAY waits=1 wdata=0xea1b5930
# UVM_INFO ../src/mst/ahb_master_monitor.sv(117) @ 1445000: uvm_test_top.env.master_agent.mon [ahb_master_monitor] Beat[12] addr=0x0000a130 wdata=0xea1b5930 resp=AHB_RESP_OKAY
# UVM_INFO ../src/mst/ahb_master_driver.sv(332) @ 1455000: uvm_test_top.env.master_agent.drv [ahb_master_driver] Beat[13/16] addr=0x0000a134 trans=AHB_TRANS_SEQ resp=AHB_RESP_OKAY wdata=0x77f26f57
# UVM_INFO ../src/slv/ahb_slave_driver.sv(184) @ 1455000: uvm_test_top.env.slave_agent.drv [ahb_slave_driver] Beat AHB_WRITE addr=0x0000a134 resp=AHB_RESP_OKAY waits=0 wdata=0x77f26f57
# UVM_INFO ../src/mst/ahb_master_monitor.sv(117) @ 1455000: uvm_test_top.env.master_agent.mon [ahb_master_monitor] Beat[13] addr=0x0000a134 wdata=0x77f26f57 resp=AHB_RESP_OKAY
# UVM_INFO ../src/mst/ahb_master_driver.sv(332) @ 1475000: uvm_test_top.env.master_agent.drv [ahb_master_driver] Beat[14/16] addr=0x0000a138 trans=AHB_TRANS_SEQ resp=AHB_RESP_OKAY wdata=0x0a79fa6c
# UVM_INFO ../src/slv/ahb_slave_driver.sv(184) @ 1475000: uvm_test_top.env.slave_agent.drv [ahb_slave_driver] Beat AHB_WRITE addr=0x0000a138 resp=AHB_RESP_OKAY waits=1 wdata=0x0a79fa6c
# UVM_INFO ../src/mst/ahb_master_monitor.sv(117) @ 1475000: uvm_test_top.env.master_agent.mon [ahb_master_monitor] Beat[14] addr=0x0000a138 wdata=0x0a79fa6c resp=AHB_RESP_OKAY
# UVM_INFO ../src/mst/ahb_master_driver.sv(332) @ 1495000: uvm_test_top.env.master_agent.drv [ahb_master_driver] Beat[15/16] addr=0x0000a13c trans=AHB_TRANS_SEQ resp=AHB_RESP_OKAY wdata=0x8e3e185d
# UVM_INFO ../src/mst/ahb_master_driver.sv(376) @ 1495000: uvm_test_top.env.master_agent.drv [ahb_master_driver] Transaction complete: AHB_WRITE 0x0000a100, 16 beats, burst=AHB_BURST_INCR16
# UVM_INFO ../src/slv/ahb_slave_driver.sv(184) @ 1495000: uvm_test_top.env.slave_agent.drv [ahb_slave_driver] Beat AHB_WRITE addr=0x0000a13c resp=AHB_RESP_OKAY waits=1 wdata=0x8e3e185d
# UVM_INFO ../src/slv/ahb_slave_monitor.sv(197) @ 1495000: uvm_test_top.env.slave_agent.mon [ahb_slave_monitor] Observed [AHB_WRITE]: HADDR=0x0000a100, HBURST=AHB_BURST_INCR16, HSIZE=AHB_SIZE_32B, 16 beats
# UVM_INFO ../src/env/ahb_coverage.sv(126) @ 1495000: uvm_test_top.env.slave_cov [ahb_coverage] Sampled [AHB_WRITE]: burst=AHB_BURST_INCR16 size=AHB_SIZE_32B beats=16 error=0
# UVM_INFO ../src/mst/ahb_master_monitor.sv(117) @ 1495000: uvm_test_top.env.master_agent.mon [ahb_master_monitor] Beat[15] addr=0x0000a13c wdata=0x8e3e185d resp=AHB_RESP_OKAY
# UVM_INFO ../src/mst/ahb_master_monitor.sv(220) @ 1495000: uvm_test_top.env.master_agent.mon [ahb_master_monitor] Observed [AHB_WRITE]: HADDR=0x0000a100, HBURST=AHB_BURST_INCR16, HSIZE=AHB_SIZE_32B, 16 beats
# UVM_INFO ../src/env/ahb_coverage.sv(126) @ 1495000: uvm_test_top.env.master_cov [ahb_coverage] Sampled [AHB_WRITE]: burst=AHB_BURST_INCR16 size=AHB_SIZE_32B beats=16 error=0
# UVM_INFO ../src/env/ahb_scoreboard.sv(104) @ 1495000: uvm_test_top.env.scb [ahb_scoreboard] MATCH #4: [AHB_WRITE] HADDR=0x0000a100 AHB_BURST_INCR16 16 beats
# UVM_INFO ../src/mst/ahb_master_driver.sv(85) @ 1495000: uvm_test_top.env.master_agent.drv [ahb_master_driver] Queueing [AHB_WRITE]: HADDR=0x0000a140, HBURST=AHB_BURST_INCR16, HSIZE=AHB_SIZE_32B, 16 beats
# UVM_INFO ../src/mst/ahb_master_driver.sv(127) @ 1495000: uvm_test_top.env.master_agent.drv [ahb_master_driver] Driving [AHB_WRITE]: HADDR=0x0000a140, HBURST=AHB_BURST_INCR16, HSIZE=AHB_SIZE_32B, 16 beats               
# UVM_INFO ../src/mst/ahb_master_driver.sv(332) @ 1525000: uvm_test_top.env.master_agent.drv [ahb_master_driver] Beat[0/16] addr=0x0000a140 trans=AHB_TRANS_NONSEQ resp=AHB_RESP_OKAY wdata=0x68d7702e
# UVM_INFO ../src/slv/ahb_slave_driver.sv(184) @ 1525000: uvm_test_top.env.slave_agent.drv [ahb_slave_driver] Beat AHB_WRITE addr=0x0000a140 resp=AHB_RESP_OKAY waits=0 wdata=0x68d7702e
# UVM_INFO ../src/mst/ahb_master_monitor.sv(117) @ 1525000: uvm_test_top.env.master_agent.mon [ahb_master_monitor] Beat[0] addr=0x0000a140 wdata=0x68d7702e resp=AHB_RESP_OKAY
# UVM_INFO ../src/mst/ahb_master_driver.sv(332) @ 1545000: uvm_test_top.env.master_agent.drv [ahb_master_driver] Beat[1/16] addr=0x0000a144 trans=AHB_TRANS_SEQ resp=AHB_RESP_OKAY wdata=0x83700888
# UVM_INFO ../src/slv/ahb_slave_driver.sv(184) @ 1545000: uvm_test_top.env.slave_agent.drv [ahb_slave_driver] Beat AHB_WRITE addr=0x0000a144 resp=AHB_RESP_OKAY waits=1 wdata=0x83700888
# UVM_INFO ../src/mst/ahb_master_monitor.sv(117) @ 1545000: uvm_test_top.env.master_agent.mon [ahb_master_monitor] Beat[1] addr=0x0000a144 wdata=0x83700888 resp=AHB_RESP_OKAY
# UVM_INFO ../src/mst_seq/ahb_reset_seq.sv(85) @ 1552000: uvm_test_top.env.master_agent.sqr@@seq [ahb_reset_seq] Asserting reset 57 ns into burst 5
# UVM_INFO ../src/tb_top.sv(59) @ 1552000: reporter [TB_TOP] Mid-sim reset requested - asserting rst_n
# UVM_INFO ../src/slv/ahb_slave_monitor.sv(75) @ 1552000: uvm_test_top.env.slave_agent.mon [ahb_slave_monitor] Reset asserted - discarding partial transaction
# UVM_INFO ../src/slv/ahb_slave_monitor.sv(226) @ 1552000: uvm_test_top.env.slave_agent.mon [ahb_slave_monitor] Discarding partial burst at reset (3 beats accepted)
# UVM_INFO ../src/mst/ahb_master_monitor.sv(82) @ 1552000: uvm_test_top.env.master_agent.mon [ahb_master_monitor] Reset asserted - discarding partial transaction
# UVM_INFO ../src/mst/ahb_master_monitor.sv(249) @ 1552000: uvm_test_top.env.master_agent.mon [ahb_master_monitor] Discarding partial burst at reset (3 beats accepted)
# UVM_INFO ../src/mst/ahb_master_driver.sv(97) @ 1552000: uvm_test_top.env.master_agent.drv [ahb_master_driver] Reset asserted - aborting transaction
# UVM_INFO ../src/slv/ahb_slave_driver.sv(69) @ 1552000: uvm_test_top.env.slave_agent.drv [ahb_slave_driver] Reset asserted - slave driver idle
# UVM_INFO ../src/mst/ahb_master_driver.sv(183) @ 1555000: uvm_test_top.env.master_agent.drv [ahb_master_driver] Flushed pending transactions (reset)
# UVM_INFO ../src/mst_seq/ahb_base_seq.sv(51) @ 1555000: uvm_test_top.env.master_agent.sqr@@seq [ahb_reset_seq] Transaction aborted by reset: AHB_WRITE 0x0000a140
# UVM_INFO ../src/tb_top.sv(63) @ 1625000: reporter [TB_TOP] Mid-sim reset pulse complete - rst_n deasserted
# UVM_INFO ../src/slv/ahb_slave_driver.sv(63) @ 1625000: uvm_test_top.env.slave_agent.drv [ahb_slave_driver] Reset deasserted - slave driver active (    auto mode)
# UVM_INFO ../src/mst/ahb_master_driver.sv(72) @ 1625000: uvm_test_top.env.master_agent.drv [ahb_master_driver] Reset deasserted - master driver active
# UVM_INFO ../src/mst/ahb_master_monitor.sv(75) @ 1625000: uvm_test_top.env.master_agent.mon [ahb_master_monitor] Reset deasserted - master monitor active
# UVM_INFO ../src/slv/ahb_slave_monitor.sv(69) @ 1625000: uvm_test_top.env.slave_agent.mon [ahb_slave_monitor] Reset deasserted - slave monitor active
# UVM_INFO ../src/mst/ahb_master_driver.sv(85) @ 1625000: uvm_test_top.env.master_agent.drv [ahb_master_driver] Queueing [AHB_WRITE]: HADDR=0x0000a180, HBURST=AHB_BURST_INCR16, HSIZE=AHB_SIZE_32B, 16 beats
# UVM_INFO ../src/mst/ahb_master_driver.sv(127) @ 1625000: uvm_test_top.env.master_agent.drv [ahb_master_driver] Driving [AHB_WRITE]: HADDR=0x0000a180, HBURST=AHB_BURST_INCR16, HSIZE=AHB_SIZE_32B, 16 beats               
# UVM_INFO ../src/mst/ahb_master_driver.sv(332) @ 1665000: uvm_test_top.env.master_agent.drv [ahb_master_driver] Beat[0/16] addr=0x0000a180 trans=AHB_TRANS_NONSEQ resp=AHB_RESP_OKAY wdata=0x1daf65be
# UVM_INFO ../src/slv/ahb_slave_driver.sv(184) @ 1665000: uvm_test_top.env.slave_agent.drv [ahb_slave_driver] Beat AHB_WRITE addr=0x0000a180 resp=AHB_RESP_OKAY waits=2 wdata=0x1daf65be
# UVM_INFO ../src/mst/ahb_master_monitor.sv(117) @ 1665000: uvm_test_top.env.master_agent.mon [ahb_master_monitor] Beat[0] addr=0x0000a180 wdata=0x1daf65be resp=AHB_RESP_OKAY
# UVM_INFO ../src/mst/ahb_master_driver.sv(332) @ 1675000: uvm_test_top.env.master_agent.drv [ahb_master_driver] Beat[1/16] addr=0x0000a184 trans=AHB_TRANS_SEQ resp=AHB_RESP_OKAY wdata=0x71c5ce00
# UVM_INFO ../src/slv/ahb_slave_driver.sv(184) @ 1675000: uvm_test_top.env.slave_agent.drv [ahb_slave_driver] Beat AHB_WRITE addr=0x0000a184 resp=AHB_RESP_OKAY waits=0 wdata=0x71c5ce00
# UVM_INFO ../src/mst/ahb_master_monitor.sv(117) @ 1675000: uvm_test_top.env.master_agent.mon [ahb_master_monitor] Beat[1] addr=0x0000a184 wdata=0x71c5ce00 resp=AHB_RESP_OKAY
# UVM_INFO ../src/mst/ahb_master_driver.sv(332) @ 1695000: uvm_test_top.env.master_agent.drv [ahb_master_driver] Beat[2/16] addr=0x0000a188 trans=AHB_TRANS_SEQ resp=AHB_RESP_OKAY wdata=0x93018eb5
# UVM_INFO ../src/slv/ahb_slave_driver.sv(184) @ 1695000: uvm_test_top.env.slave_agent.drv [ahb_slave_driver] Beat AHB_WRITE addr=0x0000a188 resp=AHB_RESP_OKAY waits=1 wdata=0x93018eb5
# UVM_INFO ../src/mst/ahb_master_monitor.sv(117) @ 1695000: uvm_test_top.env.master_agent.mon [ahb_master_monitor] Beat[2] addr=0x0000a188 wdata=0x93018eb5 resp=AHB_RESP_OKAY
# UVM_INFO ../src/mst/ahb_master_driver.sv(332) @ 1715000: uvm_test_top.env.master_agent.drv [ahb_master_driver] Beat[3/16] addr=0x0000a18c trans=AHB_TRANS_SEQ resp=AHB_RESP_OKAY wdata=0xa8875da8
# UVM_INFO ../src/slv/ahb_slave_driver.sv(184) @ 1715000: uvm_test_top.env.slave_agent.drv [ahb_slave_driver] Beat AHB_WRITE addr=0x0000a18c resp=AHB_RESP_OKAY waits=1 wdata=0xa8875da8
# UVM_INFO ../src/mst/ahb_master_monitor.sv(117) @ 1715000: uvm_test_top.env.master_agent.mon [ahb_master_monitor] Beat[3] addr=0x0000a18c wdata=0xa8875da8 resp=AHB_RESP_OKAY
# UVM_INFO ../src/mst/ahb_master_driver.sv(332) @ 1745000: uvm_test_top.env.master_agent.drv [ahb_master_driver] Beat[4/16] addr=0x0000a190 trans=AHB_TRANS_SEQ resp=AHB_RESP_OKAY wdata=0x9be04bf6
# UVM_INFO ../src/slv/ahb_slave_driver.sv(184) @ 1745000: uvm_test_top.env.slave_agent.drv [ahb_slave_driver] Beat AHB_WRITE addr=0x0000a190 resp=AHB_RESP_OKAY waits=2 wdata=0x9be04bf6
# UVM_INFO ../src/mst/ahb_master_monitor.sv(117) @ 1745000: uvm_test_top.env.master_agent.mon [ahb_master_monitor] Beat[4] addr=0x0000a190 wdata=0x9be04bf6 resp=AHB_RESP_OKAY
# UVM_INFO ../src/mst/ahb_master_driver.sv(332) @ 1755000: uvm_test_top.env.master_agent.drv [ahb_master_driver] Beat[5/16] addr=0x0000a194 trans=AHB_TRANS_SEQ resp=AHB_RESP_OKAY wdata=0x9d3e6aac
# UVM_INFO ../src/slv/ahb_slave_driver.sv(184) @ 1755000: uvm_test_top.env.slave_agent.drv [ahb_slave_driver] Beat AHB_WRITE addr=0x0000a194 resp=AHB_RESP_OKAY waits=0 wdata=0x9d3e6aac
# UVM_INFO ../src/mst/ahb_master_monitor.sv(117) @ 1755000: uvm_test_top.env.master_agent.mon [ahb_master_monitor] Beat[5] addr=0x0000a194 wdata=0x9d3e6aac resp=AHB_RESP_OKAY
# UVM_INFO ../src/mst/ahb_master_driver.sv(332) @ 1785000: uvm_test_top.env.master_agent.drv [ahb_master_driver] Beat[6/16] addr=0x0000a198 trans=AHB_TRANS_SEQ resp=AHB_RESP_OKAY wdata=0x889e132c
# UVM_INFO ../src/slv/ahb_slave_driver.sv(184) @ 1785000: uvm_test_top.env.slave_agent.drv [ahb_slave_driver] Beat AHB_WRITE addr=0x0000a198 resp=AHB_RESP_OKAY waits=2 wdata=0x889e132c
# UVM_INFO ../src/mst/ahb_master_monitor.sv(117) @ 1785000: uvm_test_top.env.master_agent.mon [ahb_master_monitor] Beat[6] addr=0x0000a198 wdata=0x889e132c resp=AHB_RESP_OKAY
# UVM_INFO ../src/mst/ahb_master_driver.sv(332) @ 1815000: uvm_test_top.env.master_agent.drv [ahb_master_driver] Beat[7/16] addr=0x0000a19c trans=AHB_TRANS_SEQ resp=AHB_RESP_OKAY wdata=0xf7ae5c93
# UVM_INFO ../src/slv/ahb_slave_driver.sv(184) @ 1815000: uvm_test_top.env.slave_agent.drv [ahb_slave_driver] Beat AHB_WRITE addr=0x0000a19c resp=AHB_RESP_OKAY waits=2 wdata=0xf7ae5c93
# UVM_INFO ../src/mst/ahb_master_monitor.sv(117) @ 1815000: uvm_test_top.env.master_agent.mon [ahb_master_monitor] Beat[7] addr=0x0000a19c wdata=0xf7ae5c93 resp=AHB_RESP_OKAY
# UVM_INFO ../src/mst/ahb_master_driver.sv(332) @ 1845000: uvm_test_top.env.master_agent.drv [ahb_master_driver] Beat[8/16] addr=0x0000a1a0 trans=AHB_TRANS_SEQ resp=AHB_RESP_OKAY wdata=0x76f7c5d1
# UVM_INFO ../src/slv/ahb_slave_driver.sv(184) @ 1845000: uvm_test_top.env.slave_agent.drv [ahb_slave_driver] Beat AHB_WRITE addr=0x0000a1a0 resp=AHB_RESP_OKAY waits=2 wdata=0x76f7c5d1
# UVM_INFO ../src/mst/ahb_master_monitor.sv(117) @ 1845000: uvm_test_top.env.master_agent.mon [ahb_master_monitor] Beat[8] addr=0x0000a1a0 wdata=0x76f7c5d1 resp=AHB_RESP_OKAY
# UVM_INFO ../src/mst/ahb_master_driver.sv(332) @ 1875000: uvm_test_top.env.master_agent.drv [ahb_master_driver] Beat[9/16] addr=0x0000a1a4 trans=AHB_TRANS_SEQ resp=AHB_RESP_OKAY wdata=0xdcfac558
# UVM_INFO ../src/slv/ahb_slave_driver.sv(184) @ 1875000: uvm_test_top.env.slave_agent.drv [ahb_slave_driver] Beat AHB_WRITE addr=0x0000a1a4 resp=AHB_RESP_OKAY waits=2 wdata=0xdcfac558
# UVM_INFO ../src/mst/ahb_master_monitor.sv(117) @ 1875000: uvm_test_top.env.master_agent.mon [ahb_master_monitor] Beat[9] addr=0x0000a1a4 wdata=0xdcfac558 resp=AHB_RESP_OKAY
# UVM_INFO ../src/mst/ahb_master_driver.sv(332) @ 1905000: uvm_test_top.env.master_agent.drv [ahb_master_driver] Beat[10/16] addr=0x0000a1a8 trans=AHB_TRANS_SEQ resp=AHB_RESP_OKAY wdata=0x387deabc
# UVM_INFO ../src/slv/ahb_slave_driver.sv(184) @ 1905000: uvm_test_top.env.slave_agent.drv [ahb_slave_driver] Beat AHB_WRITE addr=0x0000a1a8 resp=AHB_RESP_OKAY waits=2 wdata=0x387deabc
# UVM_INFO ../src/mst/ahb_master_monitor.sv(117) @ 1905000: uvm_test_top.env.master_agent.mon [ahb_master_monitor] Beat[10] addr=0x0000a1a8 wdata=0x387deabc resp=AHB_RESP_OKAY
# UVM_INFO ../src/mst/ahb_master_driver.sv(332) @ 1935000: uvm_test_top.env.master_agent.drv [ahb_master_driver] Beat[11/16] addr=0x0000a1ac trans=AHB_TRANS_SEQ resp=AHB_RESP_OKAY wdata=0x12b8f0f4
# UVM_INFO ../src/slv/ahb_slave_driver.sv(184) @ 1935000: uvm_test_top.env.slave_agent.drv [ahb_slave_driver] Beat AHB_WRITE addr=0x0000a1ac resp=AHB_RESP_OKAY waits=2 wdata=0x12b8f0f4
# UVM_INFO ../src/mst/ahb_master_monitor.sv(117) @ 1935000: uvm_test_top.env.master_agent.mon [ahb_master_monitor] Beat[11] addr=0x0000a1ac wdata=0x12b8f0f4 resp=AHB_RESP_OKAY
# UVM_INFO ../src/mst/ahb_master_driver.sv(332) @ 1965000: uvm_test_top.env.master_agent.drv [ahb_master_driver] Beat[12/16] addr=0x0000a1b0 trans=AHB_TRANS_SEQ resp=AHB_RESP_OKAY wdata=0x225c7eea
# UVM_INFO ../src/slv/ahb_slave_driver.sv(184) @ 1965000: uvm_test_top.env.slave_agent.drv [ahb_slave_driver] Beat AHB_WRITE addr=0x0000a1b0 resp=AHB_RESP_OKAY waits=2 wdata=0x225c7eea
# UVM_INFO ../src/mst/ahb_master_monitor.sv(117) @ 1965000: uvm_test_top.env.master_agent.mon [ahb_master_monitor] Beat[12] addr=0x0000a1b0 wdata=0x225c7eea resp=AHB_RESP_OKAY
# UVM_INFO ../src/mst/ahb_master_driver.sv(332) @ 1995000: uvm_test_top.env.master_agent.drv [ahb_master_driver] Beat[13/16] addr=0x0000a1b4 trans=AHB_TRANS_SEQ resp=AHB_RESP_OKAY wdata=0xef8e6d52
# UVM_INFO ../src/slv/ahb_slave_driver.sv(184) @ 1995000: uvm_test_top.env.slave_agent.drv [ahb_slave_driver] Beat AHB_WRITE addr=0x0000a1b4 resp=AHB_RESP_OKAY waits=2 wdata=0xef8e6d52
# UVM_INFO ../src/mst/ahb_master_monitor.sv(117) @ 1995000: uvm_test_top.env.master_agent.mon [ahb_master_monitor] Beat[13] addr=0x0000a1b4 wdata=0xef8e6d52 resp=AHB_RESP_OKAY
# UVM_INFO ../src/mst/ahb_master_driver.sv(332) @ 2025000: uvm_test_top.env.master_agent.drv [ahb_master_driver] Beat[14/16] addr=0x0000a1b8 trans=AHB_TRANS_SEQ resp=AHB_RESP_OKAY wdata=0x35dafbc0
# UVM_INFO ../src/slv/ahb_slave_driver.sv(184) @ 2025000: uvm_test_top.env.slave_agent.drv [ahb_slave_driver] Beat AHB_WRITE addr=0x0000a1b8 resp=AHB_RESP_OKAY waits=2 wdata=0x35dafbc0
# UVM_INFO ../src/mst/ahb_master_monitor.sv(117) @ 2025000: uvm_test_top.env.master_agent.mon [ahb_master_monitor] Beat[14] addr=0x0000a1b8 wdata=0x35dafbc0 resp=AHB_RESP_OKAY
# UVM_INFO ../src/mst/ahb_master_driver.sv(332) @ 2035000: uvm_test_top.env.master_agent.drv [ahb_master_driver] Beat[15/16] addr=0x0000a1bc trans=AHB_TRANS_SEQ resp=AHB_RESP_OKAY wdata=0x4e0f1cb5
# UVM_INFO ../src/mst/ahb_master_driver.sv(376) @ 2035000: uvm_test_top.env.master_agent.drv [ahb_master_driver] Transaction complete: AHB_WRITE 0x0000a180, 16 beats, burst=AHB_BURST_INCR16
# UVM_INFO ../src/slv/ahb_slave_driver.sv(184) @ 2035000: uvm_test_top.env.slave_agent.drv [ahb_slave_driver] Beat AHB_WRITE addr=0x0000a1bc resp=AHB_RESP_OKAY waits=0 wdata=0x4e0f1cb5
# UVM_INFO ../src/mst/ahb_master_monitor.sv(117) @ 2035000: uvm_test_top.env.master_agent.mon [ahb_master_monitor] Beat[15] addr=0x0000a1bc wdata=0x4e0f1cb5 resp=AHB_RESP_OKAY
# UVM_INFO ../src/mst/ahb_master_monitor.sv(220) @ 2035000: uvm_test_top.env.master_agent.mon [ahb_master_monitor] Observed [AHB_WRITE]: HADDR=0x0000a180, HBURST=AHB_BURST_INCR16, HSIZE=AHB_SIZE_32B, 16 beats
# UVM_INFO ../src/env/ahb_coverage.sv(126) @ 2035000: uvm_test_top.env.master_cov [ahb_coverage] Sampled [AHB_WRITE]: burst=AHB_BURST_INCR16 size=AHB_SIZE_32B beats=16 error=0
# UVM_INFO ../src/slv/ahb_slave_monitor.sv(197) @ 2035000: uvm_test_top.env.slave_agent.mon [ahb_slave_monitor] Observed [AHB_WRITE]: HADDR=0x0000a180, HBURST=AHB_BURST_INCR16, HSIZE=AHB_SIZE_32B, 16 beats
# UVM_INFO ../src/env/ahb_scoreboard.sv(104) @ 2035000: uvm_test_top.env.scb [ahb_scoreboard] MATCH #5: [AHB_WRITE] HADDR=0x0000a180 AHB_BURST_INCR16 16 beats
# UVM_INFO ../src/env/ahb_coverage.sv(126) @ 2035000: uvm_test_top.env.slave_cov [ahb_coverage] Sampled [AHB_WRITE]: burst=AHB_BURST_INCR16 size=AHB_SIZE_32B beats=16 error=0
# UVM_INFO ../src/mst/ahb_master_driver.sv(85) @ 2035000: uvm_test_top.env.master_agent.drv [ahb_master_driver] Queueing [AHB_WRITE]: HADDR=0x0000a1c0, HBURST=AHB_BURST_INCR16, HSIZE=AHB_SIZE_32B, 16 beats
# UVM_INFO ../src/mst/ahb_master_driver.sv(127) @ 2035000: uvm_test_top.env.master_agent.drv [ahb_master_driver] Driving [AHB_WRITE]: HADDR=0x0000a1c0, HBURST=AHB_BURST_INCR16, HSIZE=AHB_SIZE_32B, 16 beats               
# UVM_INFO ../src/mst/ahb_master_driver.sv(332) @ 2085000: uvm_test_top.env.master_agent.drv [ahb_master_driver] Beat[0/16] addr=0x0000a1c0 trans=AHB_TRANS_NONSEQ resp=AHB_RESP_OKAY wdata=0x230f576b
# UVM_INFO ../src/slv/ahb_slave_driver.sv(184) @ 2085000: uvm_test_top.env.slave_agent.drv [ahb_slave_driver] Beat AHB_WRITE addr=0x0000a1c0 resp=AHB_RESP_OKAY waits=2 wdata=0x230f576b
# UVM_INFO ../src/mst/ahb_master_monitor.sv(117) @ 2085000: uvm_test_top.env.master_agent.mon [ahb_master_monitor] Beat[0] addr=0x0000a1c0 wdata=0x230f576b resp=AHB_RESP_OKAY
# UVM_INFO ../src/mst/ahb_master_driver.sv(332) @ 2115000: uvm_test_top.env.master_agent.drv [ahb_master_driver] Beat[1/16] addr=0x0000a1c4 trans=AHB_TRANS_SEQ resp=AHB_RESP_OKAY wdata=0x63871f2b
# UVM_INFO ../src/slv/ahb_slave_driver.sv(184) @ 2115000: uvm_test_top.env.slave_agent.drv [ahb_slave_driver] Beat AHB_WRITE addr=0x0000a1c4 resp=AHB_RESP_OKAY waits=2 wdata=0x63871f2b
# UVM_INFO ../src/mst/ahb_master_monitor.sv(117) @ 2115000: uvm_test_top.env.master_agent.mon [ahb_master_monitor] Beat[1] addr=0x0000a1c4 wdata=0x63871f2b resp=AHB_RESP_OKAY
# UVM_INFO ../src/mst/ahb_master_driver.sv(332) @ 2125000: uvm_test_top.env.master_agent.drv [ahb_master_driver] Beat[2/16] addr=0x0000a1c8 trans=AHB_TRANS_SEQ resp=AHB_RESP_OKAY wdata=0xe21d4f97
# UVM_INFO ../src/slv/ahb_slave_driver.sv(184) @ 2125000: uvm_test_top.env.slave_agent.drv [ahb_slave_driver] Beat AHB_WRITE addr=0x0000a1c8 resp=AHB_RESP_OKAY waits=0 wdata=0xe21d4f97
# UVM_INFO ../src/mst/ahb_master_monitor.sv(117) @ 2125000: uvm_test_top.env.master_agent.mon [ahb_master_monitor] Beat[2] addr=0x0000a1c8 wdata=0xe21d4f97 resp=AHB_RESP_OKAY
# UVM_INFO ../src/mst/ahb_master_driver.sv(332) @ 2155000: uvm_test_top.env.master_agent.drv [ahb_master_driver] Beat[3/16] addr=0x0000a1cc trans=AHB_TRANS_SEQ resp=AHB_RESP_OKAY wdata=0xadafde23
# UVM_INFO ../src/slv/ahb_slave_driver.sv(184) @ 2155000: uvm_test_top.env.slave_agent.drv [ahb_slave_driver] Beat AHB_WRITE addr=0x0000a1cc resp=AHB_RESP_OKAY waits=2 wdata=0xadafde23
# UVM_INFO ../src/mst/ahb_master_monitor.sv(117) @ 2155000: uvm_test_top.env.master_agent.mon [ahb_master_monitor] Beat[3] addr=0x0000a1cc wdata=0xadafde23 resp=AHB_RESP_OKAY
# UVM_INFO ../src/mst/ahb_master_driver.sv(332) @ 2175000: uvm_test_top.env.master_agent.drv [ahb_master_driver] Beat[4/16] addr=0x0000a1d0 trans=AHB_TRANS_SEQ resp=AHB_RESP_OKAY wdata=0x31ece2e1
# UVM_INFO ../src/slv/ahb_slave_driver.sv(184) @ 2175000: uvm_test_top.env.slave_agent.drv [ahb_slave_driver] Beat AHB_WRITE addr=0x0000a1d0 resp=AHB_RESP_OKAY waits=1 wdata=0x31ece2e1
# UVM_INFO ../src/mst/ahb_master_monitor.sv(117) @ 2175000: uvm_test_top.env.master_agent.mon [ahb_master_monitor] Beat[4] addr=0x0000a1d0 wdata=0x31ece2e1 resp=AHB_RESP_OKAY
# UVM_INFO ../src/mst/ahb_master_driver.sv(332) @ 2195000: uvm_test_top.env.master_agent.drv [ahb_master_driver] Beat[5/16] addr=0x0000a1d4 trans=AHB_TRANS_SEQ resp=AHB_RESP_OKAY wdata=0x8e6f0c00
# UVM_INFO ../src/slv/ahb_slave_driver.sv(184) @ 2195000: uvm_test_top.env.slave_agent.drv [ahb_slave_driver] Beat AHB_WRITE addr=0x0000a1d4 resp=AHB_RESP_OKAY waits=1 wdata=0x8e6f0c00
# UVM_INFO ../src/mst/ahb_master_monitor.sv(117) @ 2195000: uvm_test_top.env.master_agent.mon [ahb_master_monitor] Beat[5] addr=0x0000a1d4 wdata=0x8e6f0c00 resp=AHB_RESP_OKAY
# UVM_INFO ../src/mst/ahb_master_driver.sv(332) @ 2215000: uvm_test_top.env.master_agent.drv [ahb_master_driver] Beat[6/16] addr=0x0000a1d8 trans=AHB_TRANS_SEQ resp=AHB_RESP_OKAY wdata=0xf9441491
# UVM_INFO ../src/slv/ahb_slave_driver.sv(184) @ 2215000: uvm_test_top.env.slave_agent.drv [ahb_slave_driver] Beat AHB_WRITE addr=0x0000a1d8 resp=AHB_RESP_OKAY waits=1 wdata=0xf9441491
# UVM_INFO ../src/mst/ahb_master_monitor.sv(117) @ 2215000: uvm_test_top.env.master_agent.mon [ahb_master_monitor] Beat[6] addr=0x0000a1d8 wdata=0xf9441491 resp=AHB_RESP_OKAY
# UVM_INFO ../src/mst/ahb_master_driver.sv(332) @ 2245000: uvm_test_top.env.master_agent.drv [ahb_master_driver] Beat[7/16] addr=0x0000a1dc trans=AHB_TRANS_SEQ resp=AHB_RESP_OKAY wdata=0xcd261187
# UVM_INFO ../src/slv/ahb_slave_driver.sv(184) @ 2245000: uvm_test_top.env.slave_agent.drv [ahb_slave_driver] Beat AHB_WRITE addr=0x0000a1dc resp=AHB_RESP_OKAY waits=2 wdata=0xcd261187
# UVM_INFO ../src/mst/ahb_master_monitor.sv(117) @ 2245000: uvm_test_top.env.master_agent.mon [ahb_master_monitor] Beat[7] addr=0x0000a1dc wdata=0xcd261187 resp=AHB_RESP_OKAY
# UVM_INFO ../src/mst/ahb_master_driver.sv(332) @ 2275000: uvm_test_top.env.master_agent.drv [ahb_master_driver] Beat[8/16] addr=0x0000a1e0 trans=AHB_TRANS_SEQ resp=AHB_RESP_OKAY wdata=0x5ed5fb73
# UVM_INFO ../src/slv/ahb_slave_driver.sv(184) @ 2275000: uvm_test_top.env.slave_agent.drv [ahb_slave_driver] Beat AHB_WRITE addr=0x0000a1e0 resp=AHB_RESP_OKAY waits=2 wdata=0x5ed5fb73
# UVM_INFO ../src/mst/ahb_master_monitor.sv(117) @ 2275000: uvm_test_top.env.master_agent.mon [ahb_master_monitor] Beat[8] addr=0x0000a1e0 wdata=0x5ed5fb73 resp=AHB_RESP_OKAY
# UVM_INFO ../src/mst/ahb_master_driver.sv(332) @ 2305000: uvm_test_top.env.master_agent.drv [ahb_master_driver] Beat[9/16] addr=0x0000a1e4 trans=AHB_TRANS_SEQ resp=AHB_RESP_OKAY wdata=0x70a46cfa
# UVM_INFO ../src/slv/ahb_slave_driver.sv(184) @ 2305000: uvm_test_top.env.slave_agent.drv [ahb_slave_driver] Beat AHB_WRITE addr=0x0000a1e4 resp=AHB_RESP_OKAY waits=2 wdata=0x70a46cfa
# UVM_INFO ../src/mst/ahb_master_monitor.sv(117) @ 2305000: uvm_test_top.env.master_agent.mon [ahb_master_monitor] Beat[9] addr=0x0000a1e4 wdata=0x70a46cfa resp=AHB_RESP_OKAY
# UVM_INFO ../src/mst/ahb_master_driver.sv(332) @ 2325000: uvm_test_top.env.master_agent.drv [ahb_master_driver] Beat[10/16] addr=0x0000a1e8 trans=AHB_TRANS_SEQ resp=AHB_RESP_OKAY wdata=0x39400456
# UVM_INFO ../src/slv/ahb_slave_driver.sv(184) @ 2325000: uvm_test_top.env.slave_agent.drv [ahb_slave_driver] Beat AHB_WRITE addr=0x0000a1e8 resp=AHB_RESP_OKAY waits=1 wdata=0x39400456
# UVM_INFO ../src/mst/ahb_master_monitor.sv(117) @ 2325000: uvm_test_top.env.master_agent.mon [ahb_master_monitor] Beat[10] addr=0x0000a1e8 wdata=0x39400456 resp=AHB_RESP_OKAY
# UVM_INFO ../src/mst/ahb_master_driver.sv(332) @ 2335000: uvm_test_top.env.master_agent.drv [ahb_master_driver] Beat[11/16] addr=0x0000a1ec trans=AHB_TRANS_SEQ resp=AHB_RESP_OKAY wdata=0xd8085905
# UVM_INFO ../src/slv/ahb_slave_driver.sv(184) @ 2335000: uvm_test_top.env.slave_agent.drv [ahb_slave_driver] Beat AHB_WRITE addr=0x0000a1ec resp=AHB_RESP_OKAY waits=0 wdata=0xd8085905
# UVM_INFO ../src/mst/ahb_master_monitor.sv(117) @ 2335000: uvm_test_top.env.master_agent.mon [ahb_master_monitor] Beat[11] addr=0x0000a1ec wdata=0xd8085905 resp=AHB_RESP_OKAY
# UVM_INFO ../src/mst/ahb_master_driver.sv(332) @ 2365000: uvm_test_top.env.master_agent.drv [ahb_master_driver] Beat[12/16] addr=0x0000a1f0 trans=AHB_TRANS_SEQ resp=AHB_RESP_OKAY wdata=0xde4651aa
# UVM_INFO ../src/slv/ahb_slave_driver.sv(184) @ 2365000: uvm_test_top.env.slave_agent.drv [ahb_slave_driver] Beat AHB_WRITE addr=0x0000a1f0 resp=AHB_RESP_OKAY waits=2 wdata=0xde4651aa
# UVM_INFO ../src/mst/ahb_master_monitor.sv(117) @ 2365000: uvm_test_top.env.master_agent.mon [ahb_master_monitor] Beat[12] addr=0x0000a1f0 wdata=0xde4651aa resp=AHB_RESP_OKAY
# UVM_INFO ../src/mst/ahb_master_driver.sv(332) @ 2375000: uvm_test_top.env.master_agent.drv [ahb_master_driver] Beat[13/16] addr=0x0000a1f4 trans=AHB_TRANS_SEQ resp=AHB_RESP_OKAY wdata=0xf51aa6dc
# UVM_INFO ../src/slv/ahb_slave_driver.sv(184) @ 2375000: uvm_test_top.env.slave_agent.drv [ahb_slave_driver] Beat AHB_WRITE addr=0x0000a1f4 resp=AHB_RESP_OKAY waits=0 wdata=0xf51aa6dc
# UVM_INFO ../src/mst/ahb_master_monitor.sv(117) @ 2375000: uvm_test_top.env.master_agent.mon [ahb_master_monitor] Beat[13] addr=0x0000a1f4 wdata=0xf51aa6dc resp=AHB_RESP_OKAY
# UVM_INFO ../src/mst/ahb_master_driver.sv(332) @ 2385000: uvm_test_top.env.master_agent.drv [ahb_master_driver] Beat[14/16] addr=0x0000a1f8 trans=AHB_TRANS_SEQ resp=AHB_RESP_OKAY wdata=0xb18a02e8
# UVM_INFO ../src/slv/ahb_slave_driver.sv(184) @ 2385000: uvm_test_top.env.slave_agent.drv [ahb_slave_driver] Beat AHB_WRITE addr=0x0000a1f8 resp=AHB_RESP_OKAY waits=0 wdata=0xb18a02e8
# UVM_INFO ../src/mst/ahb_master_monitor.sv(117) @ 2385000: uvm_test_top.env.master_agent.mon [ahb_master_monitor] Beat[14] addr=0x0000a1f8 wdata=0xb18a02e8 resp=AHB_RESP_OKAY
# UVM_INFO ../src/mst/ahb_master_driver.sv(332) @ 2405000: uvm_test_top.env.master_agent.drv [ahb_master_driver] Beat[15/16] addr=0x0000a1fc trans=AHB_TRANS_SEQ resp=AHB_RESP_OKAY wdata=0x0eaffe69
# UVM_INFO ../src/mst/ahb_master_driver.sv(376) @ 2405000: uvm_test_top.env.master_agent.drv [ahb_master_driver] Transaction complete: AHB_WRITE 0x0000a1c0, 16 beats, burst=AHB_BURST_INCR16
# UVM_INFO ../src/slv/ahb_slave_driver.sv(184) @ 2405000: uvm_test_top.env.slave_agent.drv [ahb_slave_driver] Beat AHB_WRITE addr=0x0000a1fc resp=AHB_RESP_OKAY waits=1 wdata=0x0eaffe69
# UVM_INFO ../src/slv/ahb_slave_monitor.sv(197) @ 2405000: uvm_test_top.env.slave_agent.mon [ahb_slave_monitor] Observed [AHB_WRITE]: HADDR=0x0000a1c0, HBURST=AHB_BURST_INCR16, HSIZE=AHB_SIZE_32B, 16 beats
# UVM_INFO ../src/env/ahb_coverage.sv(126) @ 2405000: uvm_test_top.env.slave_cov [ahb_coverage] Sampled [AHB_WRITE]: burst=AHB_BURST_INCR16 size=AHB_SIZE_32B beats=16 error=0
# UVM_INFO ../src/mst/ahb_master_monitor.sv(117) @ 2405000: uvm_test_top.env.master_agent.mon [ahb_master_monitor] Beat[15] addr=0x0000a1fc wdata=0x0eaffe69 resp=AHB_RESP_OKAY
# UVM_INFO ../src/mst/ahb_master_monitor.sv(220) @ 2405000: uvm_test_top.env.master_agent.mon [ahb_master_monitor] Observed [AHB_WRITE]: HADDR=0x0000a1c0, HBURST=AHB_BURST_INCR16, HSIZE=AHB_SIZE_32B, 16 beats
# UVM_INFO ../src/env/ahb_coverage.sv(126) @ 2405000: uvm_test_top.env.master_cov [ahb_coverage] Sampled [AHB_WRITE]: burst=AHB_BURST_INCR16 size=AHB_SIZE_32B beats=16 error=0
# UVM_INFO ../src/env/ahb_scoreboard.sv(104) @ 2405000: uvm_test_top.env.scb [ahb_scoreboard] MATCH #6: [AHB_WRITE] HADDR=0x0000a1c0 AHB_BURST_INCR16 16 beats
# UVM_INFO ../src/mst/ahb_master_driver.sv(85) @ 2405000: uvm_test_top.env.master_agent.drv [ahb_master_driver] Queueing [AHB_WRITE]: HADDR=0x0000a200, HBURST=AHB_BURST_INCR16, HSIZE=AHB_SIZE_32B, 16 beats
# UVM_INFO ../src/mst/ahb_master_driver.sv(127) @ 2405000: uvm_test_top.env.master_agent.drv [ahb_master_driver] Driving [AHB_WRITE]: HADDR=0x0000a200, HBURST=AHB_BURST_INCR16, HSIZE=AHB_SIZE_32B, 16 beats               
# UVM_INFO ../src/mst/ahb_master_driver.sv(332) @ 2455000: uvm_test_top.env.master_agent.drv [ahb_master_driver] Beat[0/16] addr=0x0000a200 trans=AHB_TRANS_NONSEQ resp=AHB_RESP_OKAY wdata=0x8feb48ee
# UVM_INFO ../src/slv/ahb_slave_driver.sv(184) @ 2455000: uvm_test_top.env.slave_agent.drv [ahb_slave_driver] Beat AHB_WRITE addr=0x0000a200 resp=AHB_RESP_OKAY waits=2 wdata=0x8feb48ee
# UVM_INFO ../src/mst/ahb_master_monitor.sv(117) @ 2455000: uvm_test_top.env.master_agent.mon [ahb_master_monitor] Beat[0] addr=0x0000a200 wdata=0x8feb48ee resp=AHB_RESP_OKAY
# UVM_INFO ../src/mst/ahb_master_driver.sv(332) @ 2475000: uvm_test_top.env.master_agent.drv [ahb_master_driver] Beat[1/16] addr=0x0000a204 trans=AHB_TRANS_SEQ resp=AHB_RESP_OKAY wdata=0x8711436b
# UVM_INFO ../src/slv/ahb_slave_driver.sv(184) @ 2475000: uvm_test_top.env.slave_agent.drv [ahb_slave_driver] Beat AHB_WRITE addr=0x0000a204 resp=AHB_RESP_OKAY waits=1 wdata=0x8711436b
# UVM_INFO ../src/mst/ahb_master_monitor.sv(117) @ 2475000: uvm_test_top.env.master_agent.mon [ahb_master_monitor] Beat[1] addr=0x0000a204 wdata=0x8711436b resp=AHB_RESP_OKAY
# UVM_INFO ../src/mst/ahb_master_driver.sv(332) @ 2505000: uvm_test_top.env.master_agent.drv [ahb_master_driver] Beat[2/16] addr=0x0000a208 trans=AHB_TRANS_SEQ resp=AHB_RESP_OKAY wdata=0x7d290a52
# UVM_INFO ../src/slv/ahb_slave_driver.sv(184) @ 2505000: uvm_test_top.env.slave_agent.drv [ahb_slave_driver] Beat AHB_WRITE addr=0x0000a208 resp=AHB_RESP_OKAY waits=2 wdata=0x7d290a52
# UVM_INFO ../src/mst/ahb_master_monitor.sv(117) @ 2505000: uvm_test_top.env.master_agent.mon [ahb_master_monitor] Beat[2] addr=0x0000a208 wdata=0x7d290a52 resp=AHB_RESP_OKAY
# UVM_INFO ../src/mst/ahb_master_driver.sv(332) @ 2525000: uvm_test_top.env.master_agent.drv [ahb_master_driver] Beat[3/16] addr=0x0000a20c trans=AHB_TRANS_SEQ resp=AHB_RESP_OKAY wdata=0xd40bfd78
# UVM_INFO ../src/slv/ahb_slave_driver.sv(184) @ 2525000: uvm_test_top.env.slave_agent.drv [ahb_slave_driver] Beat AHB_WRITE addr=0x0000a20c resp=AHB_RESP_OKAY waits=1 wdata=0xd40bfd78
# UVM_INFO ../src/mst/ahb_master_monitor.sv(117) @ 2525000: uvm_test_top.env.master_agent.mon [ahb_master_monitor] Beat[3] addr=0x0000a20c wdata=0xd40bfd78 resp=AHB_RESP_OKAY
# UVM_INFO ../src/mst_seq/ahb_reset_seq.sv(85) @ 2555000: uvm_test_top.env.master_agent.sqr@@seq [ahb_reset_seq] Asserting reset 150 ns into burst 8
# UVM_INFO ../src/tb_top.sv(59) @ 2555000: reporter [TB_TOP] Mid-sim reset requested - asserting rst_n
# UVM_INFO ../src/slv/ahb_slave_monitor.sv(75) @ 2555000: uvm_test_top.env.slave_agent.mon [ahb_slave_monitor] Reset asserted - discarding partial transaction
# UVM_INFO ../src/slv/ahb_slave_monitor.sv(226) @ 2555000: uvm_test_top.env.slave_agent.mon [ahb_slave_monitor] Discarding partial burst at reset (5 beats accepted)
# UVM_INFO ../src/mst/ahb_master_monitor.sv(82) @ 2555000: uvm_test_top.env.master_agent.mon [ahb_master_monitor] Reset asserted - discarding partial transaction
# UVM_INFO ../src/mst/ahb_master_monitor.sv(249) @ 2555000: uvm_test_top.env.master_agent.mon [ahb_master_monitor] Discarding partial burst at reset (5 beats accepted)
# UVM_INFO ../src/mst/ahb_master_driver.sv(97) @ 2555000: uvm_test_top.env.master_agent.drv [ahb_master_driver] Reset asserted - aborting transaction
# UVM_INFO ../src/slv/ahb_slave_driver.sv(69) @ 2555000: uvm_test_top.env.slave_agent.drv [ahb_slave_driver] Reset asserted - slave driver idle
# UVM_INFO ../src/mst/ahb_master_driver.sv(183) @ 2555000: uvm_test_top.env.master_agent.drv [ahb_master_driver] Flushed pending transactions (reset)
# UVM_INFO ../src/mst_seq/ahb_base_seq.sv(51) @ 2555000: uvm_test_top.env.master_agent.sqr@@seq [ahb_reset_seq] Transaction aborted by reset: AHB_WRITE 0x0000a200
# UVM_INFO ../src/tb_top.sv(63) @ 2635000: reporter [TB_TOP] Mid-sim reset pulse complete - rst_n deasserted
# UVM_INFO ../src/slv/ahb_slave_driver.sv(63) @ 2635000: uvm_test_top.env.slave_agent.drv [ahb_slave_driver] Reset deasserted - slave driver active (    auto mode)
# UVM_INFO ../src/mst/ahb_master_driver.sv(72) @ 2635000: uvm_test_top.env.master_agent.drv [ahb_master_driver] Reset deasserted - master driver active
# UVM_INFO ../src/mst/ahb_master_monitor.sv(75) @ 2635000: uvm_test_top.env.master_agent.mon [ahb_master_monitor] Reset deasserted - master monitor active
# UVM_INFO ../src/slv/ahb_slave_monitor.sv(69) @ 2635000: uvm_test_top.env.slave_agent.mon [ahb_slave_monitor] Reset deasserted - slave monitor active
# UVM_INFO ../src/mst/ahb_master_driver.sv(85) @ 2635000: uvm_test_top.env.master_agent.drv [ahb_master_driver] Queueing [AHB_WRITE]: HADDR=0x0000a240, HBURST=AHB_BURST_INCR16, HSIZE=AHB_SIZE_32B, 16 beats
# UVM_INFO ../src/mst/ahb_master_driver.sv(127) @ 2635000: uvm_test_top.env.master_agent.drv [ahb_master_driver] Driving [AHB_WRITE]: HADDR=0x0000a240, HBURST=AHB_BURST_INCR16, HSIZE=AHB_SIZE_32B, 16 beats               
# UVM_INFO ../src/mst/ahb_master_driver.sv(332) @ 2675000: uvm_test_top.env.master_agent.drv [ahb_master_driver] Beat[0/16] addr=0x0000a240 trans=AHB_TRANS_NONSEQ resp=AHB_RESP_OKAY wdata=0x60fe547c
# UVM_INFO ../src/slv/ahb_slave_driver.sv(184) @ 2675000: uvm_test_top.env.slave_agent.drv [ahb_slave_driver] Beat AHB_WRITE addr=0x0000a240 resp=AHB_RESP_OKAY waits=2 wdata=0x60fe547c
# UVM_INFO ../src/mst/ahb_master_monitor.sv(117) @ 2675000: uvm_test_top.env.master_agent.mon [ahb_master_monitor] Beat[0] addr=0x0000a240 wdata=0x60fe547c resp=AHB_RESP_OKAY
# UVM_INFO ../src/mst/ahb_master_driver.sv(332) @ 2705000: uvm_test_top.env.master_agent.drv [ahb_master_driver] Beat[1/16] addr=0x0000a244 trans=AHB_TRANS_SEQ resp=AHB_RESP_OKAY wdata=0xe15ba7b4
# UVM_INFO ../src/slv/ahb_slave_driver.sv(184) @ 2705000: uvm_test_top.env.slave_agent.drv [ahb_slave_driver] Beat AHB_WRITE addr=0x0000a244 resp=AHB_RESP_OKAY waits=2 wdata=0xe15ba7b4
# UVM_INFO ../src/mst/ahb_master_monitor.sv(117) @ 2705000: uvm_test_top.env.master_agent.mon [ahb_master_monitor] Beat[1] addr=0x0000a244 wdata=0xe15ba7b4 resp=AHB_RESP_OKAY
# UVM_INFO ../src/mst/ahb_master_driver.sv(332) @ 2715000: uvm_test_top.env.master_agent.drv [ahb_master_driver] Beat[2/16] addr=0x0000a248 trans=AHB_TRANS_SEQ resp=AHB_RESP_OKAY wdata=0x3bbc1d7c
# UVM_INFO ../src/slv/ahb_slave_driver.sv(184) @ 2715000: uvm_test_top.env.slave_agent.drv [ahb_slave_driver] Beat AHB_WRITE addr=0x0000a248 resp=AHB_RESP_OKAY waits=0 wdata=0x3bbc1d7c
# UVM_INFO ../src/mst/ahb_master_monitor.sv(117) @ 2715000: uvm_test_top.env.master_agent.mon [ahb_master_monitor] Beat[2] addr=0x0000a248 wdata=0x3bbc1d7c resp=AHB_RESP_OKAY
# UVM_INFO ../src/mst/ahb_master_driver.sv(332) @ 2725000: uvm_test_top.env.master_agent.drv [ahb_master_driver] Beat[3/16] addr=0x0000a24c trans=AHB_TRANS_SEQ resp=AHB_RESP_OKAY wdata=0xfdecc0ed
# UVM_INFO ../src/slv/ahb_slave_driver.sv(184) @ 2725000: uvm_test_top.env.slave_agent.drv [ahb_slave_driver] Beat AHB_WRITE addr=0x0000a24c resp=AHB_RESP_OKAY waits=0 wdata=0xfdecc0ed
# UVM_INFO ../src/mst/ahb_master_monitor.sv(117) @ 2725000: uvm_test_top.env.master_agent.mon [ahb_master_monitor] Beat[3] addr=0x0000a24c wdata=0xfdecc0ed resp=AHB_RESP_OKAY
# UVM_INFO ../src/mst/ahb_master_driver.sv(332) @ 2755000: uvm_test_top.env.master_agent.drv [ahb_master_driver] Beat[4/16] addr=0x0000a250 trans=AHB_TRANS_SEQ resp=AHB_RESP_OKAY wdata=0xfdc67837
# UVM_INFO ../src/slv/ahb_slave_driver.sv(184) @ 2755000: uvm_test_top.env.slave_agent.drv [ahb_slave_driver] Beat AHB_WRITE addr=0x0000a250 resp=AHB_RESP_OKAY waits=2 wdata=0xfdc67837
# UVM_INFO ../src/mst/ahb_master_monitor.sv(117) @ 2755000: uvm_test_top.env.master_agent.mon [ahb_master_monitor] Beat[4] addr=0x0000a250 wdata=0xfdc67837 resp=AHB_RESP_OKAY
# UVM_INFO ../src/mst/ahb_master_driver.sv(332) @ 2785000: uvm_test_top.env.master_agent.drv [ahb_master_driver] Beat[5/16] addr=0x0000a254 trans=AHB_TRANS_SEQ resp=AHB_RESP_OKAY wdata=0x73ab2104
# UVM_INFO ../src/slv/ahb_slave_driver.sv(184) @ 2785000: uvm_test_top.env.slave_agent.drv [ahb_slave_driver] Beat AHB_WRITE addr=0x0000a254 resp=AHB_RESP_OKAY waits=2 wdata=0x73ab2104
# UVM_INFO ../src/mst/ahb_master_monitor.sv(117) @ 2785000: uvm_test_top.env.master_agent.mon [ahb_master_monitor] Beat[5] addr=0x0000a254 wdata=0x73ab2104 resp=AHB_RESP_OKAY
# UVM_INFO ../src/mst/ahb_master_driver.sv(332) @ 2795000: uvm_test_top.env.master_agent.drv [ahb_master_driver] Beat[6/16] addr=0x0000a258 trans=AHB_TRANS_SEQ resp=AHB_RESP_OKAY wdata=0xcbb6299c
# UVM_INFO ../src/slv/ahb_slave_driver.sv(184) @ 2795000: uvm_test_top.env.slave_agent.drv [ahb_slave_driver] Beat AHB_WRITE addr=0x0000a258 resp=AHB_RESP_OKAY waits=0 wdata=0xcbb6299c
# UVM_INFO ../src/mst/ahb_master_monitor.sv(117) @ 2795000: uvm_test_top.env.master_agent.mon [ahb_master_monitor] Beat[6] addr=0x0000a258 wdata=0xcbb6299c resp=AHB_RESP_OKAY
# UVM_INFO ../src/mst/ahb_master_driver.sv(332) @ 2825000: uvm_test_top.env.master_agent.drv [ahb_master_driver] Beat[7/16] addr=0x0000a25c trans=AHB_TRANS_SEQ resp=AHB_RESP_OKAY wdata=0x5d6f8bef
# UVM_INFO ../src/slv/ahb_slave_driver.sv(184) @ 2825000: uvm_test_top.env.slave_agent.drv [ahb_slave_driver] Beat AHB_WRITE addr=0x0000a25c resp=AHB_RESP_OKAY waits=2 wdata=0x5d6f8bef
# UVM_INFO ../src/mst/ahb_master_monitor.sv(117) @ 2825000: uvm_test_top.env.master_agent.mon [ahb_master_monitor] Beat[7] addr=0x0000a25c wdata=0x5d6f8bef resp=AHB_RESP_OKAY
# UVM_INFO ../src/mst/ahb_master_driver.sv(332) @ 2845000: uvm_test_top.env.master_agent.drv [ahb_master_driver] Beat[8/16] addr=0x0000a260 trans=AHB_TRANS_SEQ resp=AHB_RESP_OKAY wdata=0x9924e7f4
# UVM_INFO ../src/slv/ahb_slave_driver.sv(184) @ 2845000: uvm_test_top.env.slave_agent.drv [ahb_slave_driver] Beat AHB_WRITE addr=0x0000a260 resp=AHB_RESP_OKAY waits=1 wdata=0x9924e7f4
# UVM_INFO ../src/mst/ahb_master_monitor.sv(117) @ 2845000: uvm_test_top.env.master_agent.mon [ahb_master_monitor] Beat[8] addr=0x0000a260 wdata=0x9924e7f4 resp=AHB_RESP_OKAY
# UVM_INFO ../src/mst/ahb_master_driver.sv(332) @ 2865000: uvm_test_top.env.master_agent.drv [ahb_master_driver] Beat[9/16] addr=0x0000a264 trans=AHB_TRANS_SEQ resp=AHB_RESP_OKAY wdata=0x6268e890
# UVM_INFO ../src/slv/ahb_slave_driver.sv(184) @ 2865000: uvm_test_top.env.slave_agent.drv [ahb_slave_driver] Beat AHB_WRITE addr=0x0000a264 resp=AHB_RESP_OKAY waits=1 wdata=0x6268e890
# UVM_INFO ../src/mst/ahb_master_monitor.sv(117) @ 2865000: uvm_test_top.env.master_agent.mon [ahb_master_monitor] Beat[9] addr=0x0000a264 wdata=0x6268e890 resp=AHB_RESP_OKAY
# UVM_INFO ../src/mst/ahb_master_driver.sv(332) @ 2895000: uvm_test_top.env.master_agent.drv [ahb_master_driver] Beat[10/16] addr=0x0000a268 trans=AHB_TRANS_SEQ resp=AHB_RESP_OKAY wdata=0x156be9cf
# UVM_INFO ../src/slv/ahb_slave_driver.sv(184) @ 2895000: uvm_test_top.env.slave_agent.drv [ahb_slave_driver] Beat AHB_WRITE addr=0x0000a268 resp=AHB_RESP_OKAY waits=2 wdata=0x156be9cf
# UVM_INFO ../src/mst/ahb_master_monitor.sv(117) @ 2895000: uvm_test_top.env.master_agent.mon [ahb_master_monitor] Beat[10] addr=0x0000a268 wdata=0x156be9cf resp=AHB_RESP_OKAY
# UVM_INFO ../src/mst/ahb_master_driver.sv(332) @ 2925000: uvm_test_top.env.master_agent.drv [ahb_master_driver] Beat[11/16] addr=0x0000a26c trans=AHB_TRANS_SEQ resp=AHB_RESP_OKAY wdata=0x1887321a
# UVM_INFO ../src/slv/ahb_slave_driver.sv(184) @ 2925000: uvm_test_top.env.slave_agent.drv [ahb_slave_driver] Beat AHB_WRITE addr=0x0000a26c resp=AHB_RESP_OKAY waits=2 wdata=0x1887321a
# UVM_INFO ../src/mst/ahb_master_monitor.sv(117) @ 2925000: uvm_test_top.env.master_agent.mon [ahb_master_monitor] Beat[11] addr=0x0000a26c wdata=0x1887321a resp=AHB_RESP_OKAY
# UVM_INFO ../src/mst/ahb_master_driver.sv(332) @ 2955000: uvm_test_top.env.master_agent.drv [ahb_master_driver] Beat[12/16] addr=0x0000a270 trans=AHB_TRANS_SEQ resp=AHB_RESP_OKAY wdata=0x56c7451f
# UVM_INFO ../src/slv/ahb_slave_driver.sv(184) @ 2955000: uvm_test_top.env.slave_agent.drv [ahb_slave_driver] Beat AHB_WRITE addr=0x0000a270 resp=AHB_RESP_OKAY waits=2 wdata=0x56c7451f
# UVM_INFO ../src/mst/ahb_master_monitor.sv(117) @ 2955000: uvm_test_top.env.master_agent.mon [ahb_master_monitor] Beat[12] addr=0x0000a270 wdata=0x56c7451f resp=AHB_RESP_OKAY
# UVM_INFO ../src/mst/ahb_master_driver.sv(332) @ 2965000: uvm_test_top.env.master_agent.drv [ahb_master_driver] Beat[13/16] addr=0x0000a274 trans=AHB_TRANS_SEQ resp=AHB_RESP_OKAY wdata=0x937c6fb3
# UVM_INFO ../src/slv/ahb_slave_driver.sv(184) @ 2965000: uvm_test_top.env.slave_agent.drv [ahb_slave_driver] Beat AHB_WRITE addr=0x0000a274 resp=AHB_RESP_OKAY waits=0 wdata=0x937c6fb3
# UVM_INFO ../src/mst/ahb_master_monitor.sv(117) @ 2965000: uvm_test_top.env.master_agent.mon [ahb_master_monitor] Beat[13] addr=0x0000a274 wdata=0x937c6fb3 resp=AHB_RESP_OKAY
# UVM_INFO ../src/mst/ahb_master_driver.sv(332) @ 2975000: uvm_test_top.env.master_agent.drv [ahb_master_driver] Beat[14/16] addr=0x0000a278 trans=AHB_TRANS_SEQ resp=AHB_RESP_OKAY wdata=0xd779cf9e
# UVM_INFO ../src/slv/ahb_slave_driver.sv(184) @ 2975000: uvm_test_top.env.slave_agent.drv [ahb_slave_driver] Beat AHB_WRITE addr=0x0000a278 resp=AHB_RESP_OKAY waits=0 wdata=0xd779cf9e
# UVM_INFO ../src/mst/ahb_master_monitor.sv(117) @ 2975000: uvm_test_top.env.master_agent.mon [ahb_master_monitor] Beat[14] addr=0x0000a278 wdata=0xd779cf9e resp=AHB_RESP_OKAY
# UVM_INFO ../src/mst/ahb_master_driver.sv(332) @ 2995000: uvm_test_top.env.master_agent.drv [ahb_master_driver] Beat[15/16] addr=0x0000a27c trans=AHB_TRANS_SEQ resp=AHB_RESP_OKAY wdata=0xe417ae74
# UVM_INFO ../src/mst/ahb_master_driver.sv(376) @ 2995000: uvm_test_top.env.master_agent.drv [ahb_master_driver] Transaction complete: AHB_WRITE 0x0000a240, 16 beats, burst=AHB_BURST_INCR16
# UVM_INFO ../src/slv/ahb_slave_driver.sv(184) @ 2995000: uvm_test_top.env.slave_agent.drv [ahb_slave_driver] Beat AHB_WRITE addr=0x0000a27c resp=AHB_RESP_OKAY waits=1 wdata=0xe417ae74
# UVM_INFO ../src/slv/ahb_slave_monitor.sv(197) @ 2995000: uvm_test_top.env.slave_agent.mon [ahb_slave_monitor] Observed [AHB_WRITE]: HADDR=0x0000a240, HBURST=AHB_BURST_INCR16, HSIZE=AHB_SIZE_32B, 16 beats
# UVM_INFO ../src/env/ahb_coverage.sv(126) @ 2995000: uvm_test_top.env.slave_cov [ahb_coverage] Sampled [AHB_WRITE]: burst=AHB_BURST_INCR16 size=AHB_SIZE_32B beats=16 error=0
# UVM_INFO ../src/mst/ahb_master_monitor.sv(117) @ 2995000: uvm_test_top.env.master_agent.mon [ahb_master_monitor] Beat[15] addr=0x0000a27c wdata=0xe417ae74 resp=AHB_RESP_OKAY
# UVM_INFO ../src/mst/ahb_master_monitor.sv(220) @ 2995000: uvm_test_top.env.master_agent.mon [ahb_master_monitor] Observed [AHB_WRITE]: HADDR=0x0000a240, HBURST=AHB_BURST_INCR16, HSIZE=AHB_SIZE_32B, 16 beats
# UVM_INFO ../src/env/ahb_coverage.sv(126) @ 2995000: uvm_test_top.env.master_cov [ahb_coverage] Sampled [AHB_WRITE]: burst=AHB_BURST_INCR16 size=AHB_SIZE_32B beats=16 error=0
# UVM_INFO ../src/env/ahb_scoreboard.sv(104) @ 2995000: uvm_test_top.env.scb [ahb_scoreboard] MATCH #7: [AHB_WRITE] HADDR=0x0000a240 AHB_BURST_INCR16 16 beats
# UVM_INFO ../src/mst/ahb_master_driver.sv(85) @ 2995000: uvm_test_top.env.master_agent.drv [ahb_master_driver] Queueing [AHB_WRITE]: HADDR=0x0000a280, HBURST=AHB_BURST_INCR16, HSIZE=AHB_SIZE_32B, 16 beats
# UVM_INFO ../src/mst/ahb_master_driver.sv(127) @ 2995000: uvm_test_top.env.master_agent.drv [ahb_master_driver] Driving [AHB_WRITE]: HADDR=0x0000a280, HBURST=AHB_BURST_INCR16, HSIZE=AHB_SIZE_32B, 16 beats               
# UVM_INFO ../src/mst/ahb_master_driver.sv(332) @ 3025000: uvm_test_top.env.master_agent.drv [ahb_master_driver] Beat[0/16] addr=0x0000a280 trans=AHB_TRANS_NONSEQ resp=AHB_RESP_OKAY wdata=0x9e43665c
# UVM_INFO ../src/slv/ahb_slave_driver.sv(184) @ 3025000: uvm_test_top.env.slave_agent.drv [ahb_slave_driver] Beat AHB_WRITE addr=0x0000a280 resp=AHB_RESP_OKAY waits=0 wdata=0x9e43665c
# UVM_INFO ../src/mst/ahb_master_monitor.sv(117) @ 3025000: uvm_test_top.env.master_agent.mon [ahb_master_monitor] Beat[0] addr=0x0000a280 wdata=0x9e43665c resp=AHB_RESP_OKAY
# UVM_INFO ../src/mst/ahb_master_driver.sv(332) @ 3055000: uvm_test_top.env.master_agent.drv [ahb_master_driver] Beat[1/16] addr=0x0000a284 trans=AHB_TRANS_SEQ resp=AHB_RESP_OKAY wdata=0x4cd2b5d6
# UVM_INFO ../src/slv/ahb_slave_driver.sv(184) @ 3055000: uvm_test_top.env.slave_agent.drv [ahb_slave_driver] Beat AHB_WRITE addr=0x0000a284 resp=AHB_RESP_OKAY waits=2 wdata=0x4cd2b5d6
# UVM_INFO ../src/mst/ahb_master_monitor.sv(117) @ 3055000: uvm_test_top.env.master_agent.mon [ahb_master_monitor] Beat[1] addr=0x0000a284 wdata=0x4cd2b5d6 resp=AHB_RESP_OKAY
# UVM_INFO ../src/mst/ahb_master_driver.sv(332) @ 3075000: uvm_test_top.env.master_agent.drv [ahb_master_driver] Beat[2/16] addr=0x0000a288 trans=AHB_TRANS_SEQ resp=AHB_RESP_OKAY wdata=0xd95231f4
# UVM_INFO ../src/slv/ahb_slave_driver.sv(184) @ 3075000: uvm_test_top.env.slave_agent.drv [ahb_slave_driver] Beat AHB_WRITE addr=0x0000a288 resp=AHB_RESP_OKAY waits=1 wdata=0xd95231f4
# UVM_INFO ../src/mst/ahb_master_monitor.sv(117) @ 3075000: uvm_test_top.env.master_agent.mon [ahb_master_monitor] Beat[2] addr=0x0000a288 wdata=0xd95231f4 resp=AHB_RESP_OKAY
# UVM_INFO ../src/mst/ahb_master_driver.sv(332) @ 3085000: uvm_test_top.env.master_agent.drv [ahb_master_driver] Beat[3/16] addr=0x0000a28c trans=AHB_TRANS_SEQ resp=AHB_RESP_OKAY wdata=0x67105334
# UVM_INFO ../src/slv/ahb_slave_driver.sv(184) @ 3085000: uvm_test_top.env.slave_agent.drv [ahb_slave_driver] Beat AHB_WRITE addr=0x0000a28c resp=AHB_RESP_OKAY waits=0 wdata=0x67105334
# UVM_INFO ../src/mst/ahb_master_monitor.sv(117) @ 3085000: uvm_test_top.env.master_agent.mon [ahb_master_monitor] Beat[3] addr=0x0000a28c wdata=0x67105334 resp=AHB_RESP_OKAY
# UVM_INFO ../src/mst/ahb_master_driver.sv(332) @ 3115000: uvm_test_top.env.master_agent.drv [ahb_master_driver] Beat[4/16] addr=0x0000a290 trans=AHB_TRANS_SEQ resp=AHB_RESP_OKAY wdata=0x54d4adb1
# UVM_INFO ../src/slv/ahb_slave_driver.sv(184) @ 3115000: uvm_test_top.env.slave_agent.drv [ahb_slave_driver] Beat AHB_WRITE addr=0x0000a290 resp=AHB_RESP_OKAY waits=2 wdata=0x54d4adb1
# UVM_INFO ../src/mst/ahb_master_monitor.sv(117) @ 3115000: uvm_test_top.env.master_agent.mon [ahb_master_monitor] Beat[4] addr=0x0000a290 wdata=0x54d4adb1 resp=AHB_RESP_OKAY
# UVM_INFO ../src/mst/ahb_master_driver.sv(332) @ 3135000: uvm_test_top.env.master_agent.drv [ahb_master_driver] Beat[5/16] addr=0x0000a294 trans=AHB_TRANS_SEQ resp=AHB_RESP_OKAY wdata=0x7fe43a8c
# UVM_INFO ../src/slv/ahb_slave_driver.sv(184) @ 3135000: uvm_test_top.env.slave_agent.drv [ahb_slave_driver] Beat AHB_WRITE addr=0x0000a294 resp=AHB_RESP_OKAY waits=1 wdata=0x7fe43a8c
# UVM_INFO ../src/mst/ahb_master_monitor.sv(117) @ 3135000: uvm_test_top.env.master_agent.mon [ahb_master_monitor] Beat[5] addr=0x0000a294 wdata=0x7fe43a8c resp=AHB_RESP_OKAY
# UVM_INFO ../src/mst/ahb_master_driver.sv(332) @ 3165000: uvm_test_top.env.master_agent.drv [ahb_master_driver] Beat[6/16] addr=0x0000a298 trans=AHB_TRANS_SEQ resp=AHB_RESP_OKAY wdata=0x52279f23
# UVM_INFO ../src/slv/ahb_slave_driver.sv(184) @ 3165000: uvm_test_top.env.slave_agent.drv [ahb_slave_driver] Beat AHB_WRITE addr=0x0000a298 resp=AHB_RESP_OKAY waits=2 wdata=0x52279f23
# UVM_INFO ../src/mst/ahb_master_monitor.sv(117) @ 3165000: uvm_test_top.env.master_agent.mon [ahb_master_monitor] Beat[6] addr=0x0000a298 wdata=0x52279f23 resp=AHB_RESP_OKAY
# UVM_INFO ../src/mst/ahb_master_driver.sv(332) @ 3195000: uvm_test_top.env.master_agent.drv [ahb_master_driver] Beat[7/16] addr=0x0000a29c trans=AHB_TRANS_SEQ resp=AHB_RESP_OKAY wdata=0x30f41fbd
# UVM_INFO ../src/slv/ahb_slave_driver.sv(184) @ 3195000: uvm_test_top.env.slave_agent.drv [ahb_slave_driver] Beat AHB_WRITE addr=0x0000a29c resp=AHB_RESP_OKAY waits=2 wdata=0x30f41fbd
# UVM_INFO ../src/mst/ahb_master_monitor.sv(117) @ 3195000: uvm_test_top.env.master_agent.mon [ahb_master_monitor] Beat[7] addr=0x0000a29c wdata=0x30f41fbd resp=AHB_RESP_OKAY
